! Infineon Technologies  Discrete & RF Semiconductors
! BFR181W
! VCE =  11. V,  IC =  6.0 mA
! Common Emitter S-Parameters:                            Jan 2017
# GHz  S  MA  R  50
!  f         S11            S21            S12            S22
! GHz     MAG   ANG      MAG   ANG      MAG   ANG      MAG   ANG
 0.010  0.8474   -1.1  17.154  178.0  0.0013   85.3  0.9954   -1.1
 0.020  0.8296   -5.5  16.838  175.5  0.0030   86.5  0.9943   -1.9
 0.030  0.8228   -7.1  16.729  174.0  0.0048   82.6  0.9910   -3.1
 0.040  0.8166   -8.7  16.631  172.4  0.0067   80.9  0.9882   -4.3
 0.050  0.8111  -10.4  16.547  170.8  0.0085   79.9  0.9858   -5.5
 0.060  0.8071  -12.5  16.406  169.1  0.0102   79.4  0.9799   -6.5
 0.070  0.8042  -14.6  16.279  167.4  0.0118   79.0  0.9742   -7.5
 0.080  0.8024  -16.7  16.166  165.7  0.0135   78.7  0.9689   -8.6
 0.090  0.8018  -18.9  16.070  163.9  0.0151   78.5  0.9640   -9.6
 0.100  0.8022  -21.0  15.988  162.1  0.0168   78.3  0.9593  -10.7
 0.110  0.7920  -23.0  15.828  160.6  0.0181   77.1  0.9518  -11.6
 0.120  0.7828  -25.1  15.679  159.0  0.0194   76.0  0.9445  -12.5
 0.130  0.7746  -27.2  15.542  157.4  0.0207   75.1  0.9374  -13.5
 0.140  0.7675  -29.3  15.418  155.8  0.0221   74.2  0.9306  -14.4
 0.150  0.7615  -31.5  15.306  154.1  0.0234   73.5  0.9241  -15.4
 0.200  0.7204  -40.3  14.413  146.3  0.0289   70.3  0.8809  -19.3
 0.250  0.6731  -49.1  13.551  139.6  0.0352   65.8  0.8372  -22.5
 0.300  0.6251  -57.2  12.606  133.6  0.0390   64.1  0.7928  -25.1
 0.350  0.5817  -63.2  11.749  129.0  0.0431   62.2  0.7540  -26.8
 0.400  0.5457  -70.1  10.977  123.8  0.0472   60.7  0.7159  -28.7
 0.450  0.5089  -75.5  10.234  120.3  0.0503   59.5  0.6851  -29.7
 0.500  0.4773  -81.7   9.535  116.2  0.0535   58.4  0.6545  -30.8
 0.600  0.4242  -92.0   8.396  109.7  0.0591   57.3  0.6069  -32.0
 0.700  0.3815 -101.3   7.448  104.4  0.0633   58.0  0.5694  -32.7
 0.800  0.3479 -109.9   6.704   99.7  0.0688   57.9  0.5406  -33.2
 0.900  0.3209 -117.8   6.066   95.7  0.0738   58.0  0.5182  -33.6
 1.000  0.3015 -125.2   5.550   92.1  0.0782   59.0  0.4989  -33.9
 1.100  0.2856 -132.6   5.108   88.9  0.0828   59.7  0.4853  -34.3
 1.200  0.2712 -139.4   4.724   85.7  0.0879   59.8  0.4722  -34.7
 1.300  0.2607 -146.1   4.396   82.8  0.0927   60.5  0.4618  -35.3
 1.400  0.2554 -152.0   4.118   80.1  0.0984   61.0  0.4526  -36.0
 1.500  0.2526 -158.2   3.873   77.6  0.1039   61.3  0.4449  -36.8
 1.600  0.2493 -163.9   3.654   75.1  0.1090   61.7  0.4392  -37.6
 1.700  0.2451 -168.9   3.461   72.9  0.1143   62.1  0.4321  -38.7
 1.800  0.2455 -174.1   3.299   70.5  0.1205   62.1  0.4263  -39.8
 1.900  0.2475 -178.4   3.147   68.5  0.1260   62.5  0.4223  -40.9
 2.000  0.2492  176.9   3.004   66.2  0.1321   62.5  0.4187  -42.2
 2.100  0.2502  172.7   2.882   64.2  0.1379   62.6  0.4149  -43.6
 2.200  0.2526  168.5   2.764   62.0  0.1437   62.6  0.4113  -45.0
 2.300  0.2571  164.9   2.663   60.0  0.1501   62.5  0.4090  -46.5
 2.400  0.2626  161.4   2.566   57.9  0.1566   62.4  0.4069  -48.1
 2.500  0.2652  158.4   2.477   56.1  0.1629   62.2  0.4052  -49.6
 2.600  0.2685  155.4   2.390   54.2  0.1693   62.1  0.4037  -51.2
 2.700  0.2735  152.0   2.316   52.4  0.1757   61.8  0.4028  -52.8
 2.800  0.2795  148.7   2.244   50.5  0.1821   61.6  0.4023  -54.4
 2.900  0.2832  146.2   2.181   48.8  0.1887   61.3  0.4011  -55.9
 3.000  0.2875  143.7   2.121   46.9  0.1954   61.0  0.4002  -57.5
 3.100  0.2915  141.1   2.067   45.4  0.2025   60.6  0.3994  -59.1
 3.200  0.2962  138.6   2.014   43.8  0.2097   60.3  0.3989  -60.6
 3.300  0.3013  136.2   1.963   42.2  0.2168   60.0  0.3987  -62.2
 3.400  0.3070  133.8   1.914   40.4  0.2239   59.7  0.3988  -63.7
 3.500  0.3132  131.6   1.866   38.6  0.2311   59.4  0.3992  -65.3
 3.600  0.3177  129.6   1.827   37.2  0.2385   58.7  0.3968  -67.0
 3.700  0.3226  127.6   1.790   35.7  0.2459   58.1  0.3947  -68.7
 3.800  0.3278  125.7   1.753   34.1  0.2533   57.5  0.3929  -70.4
 3.900  0.3334  123.8   1.718   32.5  0.2607   56.9  0.3915  -72.1
 4.000  0.3394  122.0   1.685   30.8  0.2682   56.4  0.3905  -73.8
 4.100  0.3453  120.2   1.654   29.4  0.2760   55.6  0.3860  -75.8
 4.200  0.3515  118.5   1.624   27.9  0.2839   54.9  0.3821  -77.8
 4.300  0.3580  116.8   1.595   26.3  0.2918   54.2  0.3786  -79.9
 4.400  0.3648  115.2   1.567   24.8  0.2997   53.5  0.3756  -82.0
 4.500  0.3719  113.7   1.541   23.1  0.3077   52.9  0.3731  -84.1
 4.600  0.3791  112.2   1.513   21.8  0.3155   52.1  0.3691  -86.6
 4.700  0.3866  110.7   1.487   20.5  0.3234   51.3  0.3658  -89.1
 4.800  0.3943  109.3   1.460   19.2  0.3313   50.6  0.3632  -91.7
 4.900  0.4023  107.9   1.435   17.8  0.3393   49.9  0.3614  -94.4
 5.000  0.4105  106.6   1.411   16.3  0.3473   49.2  0.3603  -97.0
 5.100  0.4158  105.2   1.390   15.1  0.3554   48.3  0.3598  -99.8
 5.200  0.4213  103.9   1.370   13.8  0.3637   47.4  0.3601 -102.7
 5.300  0.4270  102.5   1.350   12.5  0.3720   46.6  0.3613 -105.5
 5.400  0.4330  101.2   1.331   11.2  0.3804   45.8  0.3634 -108.3
 5.500  0.4392  100.0   1.313    9.8  0.3888   45.1  0.3664 -111.1
 5.600  0.4428   98.8   1.294    8.7  0.3970   44.1  0.3677 -113.7
 5.700  0.4467   97.5   1.275    7.5  0.4053   43.1  0.3698 -116.3
 5.800  0.4507   96.3   1.257    6.4  0.4138   42.2  0.3727 -118.8
 5.900  0.4550   95.2   1.239    5.1  0.4223   41.3  0.3762 -121.3
 6.000  0.4594   94.0   1.222    3.9  0.4310   40.4  0.3805 -123.8
!
!  f       NFmin   Gammaopt  rn/50
! GHz       dB    MAG  ANG    -
 0.450      1.03  0.28   16   0.22
 0.900      1.07  0.26   30   0.22
 1.900      1.49  0.12   82   0.19
 2.400      1.65  0.10   95   0.23
!
! (c) 2017  Infineon Technologies AG, Munich