! Infineon Technologies  Discrete & RF Semiconductors
! BFR181W
! VCE =  3.0 V,  IC =  10 mA
! Common Emitter S-Parameters:                            Jan 2017
# GHz  S  MA  R  50
!  f         S11            S21            S12            S22
! GHz     MAG   ANG      MAG   ANG      MAG   ANG      MAG   ANG
 0.010  0.7262   -2.8  24.831  178.0  0.0013   87.0  0.9906   -1.5
 0.020  0.7112   -8.5  24.543  174.3  0.0029   99.7  0.9810   -3.0
 0.030  0.7012  -11.5  24.293  171.7  0.0049   89.8  0.9767   -4.7
 0.040  0.6932  -14.6  24.093  169.1  0.0069   85.6  0.9733   -6.4
 0.050  0.6872  -17.7  23.943  166.5  0.0090   83.4  0.9708   -8.1
 0.060  0.6767  -21.0  23.515  164.1  0.0105   80.7  0.9589   -9.5
 0.070  0.6685  -24.3  23.128  161.7  0.0119   78.7  0.9475  -10.8
 0.080  0.6626  -27.7  22.784  159.2  0.0134   77.2  0.9367  -12.3
 0.090  0.6591  -31.2  22.486  156.6  0.0149   75.9  0.9264  -13.7
 0.100  0.6581  -34.7  22.236  153.9  0.0164   74.9  0.9168  -15.2
 0.110  0.6427  -37.6  21.775  151.9  0.0175   73.4  0.9025  -16.2
 0.120  0.6290  -40.6  21.341  149.9  0.0186   72.1  0.8886  -17.3
 0.130  0.6171  -43.8  20.936  147.7  0.0197   71.0  0.8749  -18.4
 0.140  0.6071  -47.0  20.561  145.5  0.0208   69.9  0.8616  -19.5
 0.150  0.5992  -50.4  20.218  143.2  0.0219   69.0  0.8486  -20.7
 0.200  0.5460  -62.7  18.070  134.1  0.0265   65.6  0.7805  -24.4
 0.250  0.4952  -74.5  16.175  126.8  0.0315   63.4  0.7212  -26.9
 0.300  0.4541  -84.5  14.471  120.9  0.0341   62.0  0.6697  -28.3
 0.350  0.4201  -92.1  13.127  116.8  0.0371   61.4  0.6329  -28.9
 0.400  0.3948 -100.9  11.865  111.8  0.0402   60.9  0.5961  -29.6
 0.450  0.3713 -107.2  10.871  108.8  0.0428   60.6  0.5713  -29.7
 0.500  0.3529 -114.2   9.913  105.2  0.0455   60.4  0.5465  -29.9
 0.600  0.3282 -125.5   8.507   99.8  0.0511   62.1  0.5125  -29.7
 0.700  0.3097 -135.3   7.420   95.3  0.0560   62.9  0.4881  -29.5
 0.800  0.2978 -144.3   6.588   91.4  0.0622   63.9  0.4705  -29.6
 0.900  0.2877 -151.7   5.905   88.0  0.0676   64.8  0.4573  -29.7
 1.000  0.2856 -158.8   5.371   85.0  0.0731   65.5  0.4450  -29.9
 1.100  0.2839 -164.4   4.917   82.2  0.0792   66.2  0.4381  -30.3
 1.200  0.2822 -170.4   4.532   79.3  0.0849   66.5  0.4305  -30.8
 1.300  0.2805 -175.7   4.202   76.8  0.0908   66.8  0.4245  -31.7
 1.400  0.2833 -180.0   3.931   74.4  0.0974   67.2  0.4180  -32.6
 1.500  0.2876  175.9   3.686   72.1  0.1037   67.5  0.4135  -33.5
 1.600  0.2886  171.6   3.473   69.7  0.1099   67.7  0.4107  -34.6
 1.700  0.2909  167.8   3.286   67.6  0.1162   67.7  0.4056  -35.9
 1.800  0.2954  164.6   3.128   65.4  0.1232   67.6  0.4018  -37.2
 1.900  0.3005  161.6   2.981   63.5  0.1293   67.4  0.3990  -38.6
 2.000  0.3038  158.3   2.841   61.3  0.1360   67.2  0.3966  -40.1
 2.100  0.3073  155.3   2.724   59.4  0.1428   67.0  0.3936  -41.8
 2.200  0.3116  152.3   2.611   57.3  0.1497   66.9  0.3910  -43.5
 2.300  0.3179  149.7   2.514   55.4  0.1567   66.5  0.3894  -45.3
 2.400  0.3249  147.3   2.420   53.4  0.1637   66.2  0.3882  -47.1
 2.500  0.3280  145.1   2.335   51.7  0.1706   65.8  0.3872  -48.9
 2.600  0.3315  142.9   2.253   49.8  0.1775   65.5  0.3866  -50.7
 2.700  0.3373  140.5   2.182   48.1  0.1846   65.0  0.3862  -52.5
 2.800  0.3437  138.2   2.114   46.2  0.1917   64.6  0.3862  -54.4
 2.900  0.3483  136.1   2.053   44.5  0.1992   64.1  0.3851  -56.2
 3.000  0.3533  134.0   1.994   42.7  0.2067   63.6  0.3844  -58.0
 3.100  0.3575  131.9   1.943   41.2  0.2143   63.0  0.3838  -59.8
 3.200  0.3623  129.9   1.893   39.7  0.2220   62.4  0.3835  -61.5
 3.300  0.3674  127.9   1.844   38.1  0.2296   61.9  0.3836  -63.3
 3.400  0.3730  126.0   1.797   36.4  0.2373   61.4  0.3840  -65.0
 3.500  0.3790  124.1   1.752   34.6  0.2450   60.9  0.3848  -66.8
 3.600  0.3835  122.4   1.715   33.2  0.2529   60.1  0.3823  -68.7
 3.700  0.3884  120.7   1.679   31.8  0.2608   59.3  0.3802  -70.5
 3.800  0.3936  119.0   1.643   30.2  0.2687   58.6  0.3785  -72.5
 3.900  0.3991  117.5   1.610   28.6  0.2767   57.9  0.3772  -74.4
 4.000  0.4049  115.9   1.577   27.0  0.2847   57.3  0.3764  -76.3
 4.100  0.4103  114.3   1.547   25.6  0.2928   56.4  0.3719  -78.5
 4.200  0.4160  112.8   1.518   24.1  0.3010   55.5  0.3680  -80.7
 4.300  0.4220  111.3   1.490   22.6  0.3092   54.6  0.3647  -83.0
 4.400  0.4283  109.8   1.464   21.0  0.3175   53.9  0.3619  -85.3
 4.500  0.4348  108.4   1.438   19.4  0.3259   53.1  0.3598  -87.7
 4.600  0.4413  107.0   1.412   18.2  0.3341   52.2  0.3558  -90.4
 4.700  0.4480  105.6   1.387   16.9  0.3424   51.3  0.3527  -93.1
 4.800  0.4550  104.3   1.362   15.6  0.3507   50.5  0.3503  -95.9
 4.900  0.4623  103.0   1.338   14.2  0.3591   49.7  0.3488  -98.8
 5.000  0.4697  101.8   1.315   12.8  0.3676   48.9  0.3482 -101.6
 5.100  0.4746  100.5   1.295   11.6  0.3758   47.9  0.3480 -104.6
 5.200  0.4796   99.3   1.276   10.4  0.3841   46.9  0.3487 -107.6
 5.300  0.4849   98.1   1.257    9.2  0.3925   46.0  0.3505 -110.6
 5.400  0.4905   96.9   1.239    7.9  0.4010   45.1  0.3531 -113.6
 5.500  0.4962   95.7   1.222    6.6  0.4096   44.3  0.3567 -116.5
 5.600  0.4995   94.5   1.204    5.5  0.4177   43.2  0.3583 -119.2
 5.700  0.5031   93.4   1.185    4.5  0.4260   42.1  0.3607 -122.0
 5.800  0.5068   92.2   1.168    3.3  0.4344   41.1  0.3639 -124.6
 5.900  0.5108   91.1   1.151    2.2  0.4429   40.1  0.3679 -127.2
 6.000  0.5149   90.0   1.134    1.0  0.4516   39.1  0.3726 -129.8
!
!  f       NFmin   Gammaopt  rn/50
! GHz       dB    MAG  ANG    -
 0.450      1.24  0.15   16   0.21
 0.900      1.29  0.14   31   0.21
 1.900      1.71  0.03  142   0.20
 2.400      1.88  0.02 -166   0.24
!
! (c) 2017  Infineon Technologies AG, Munich