! Infineon Technologies  Discrete & RF Semiconductors
! BFR181W
! VCE =  9.0 V,  IC =  15 mA
! Common Emitter S-Parameters:                            Jan 2017
# GHz  S  MA  R  50
!  f         S11            S21            S12            S22
! GHz     MAG   ANG      MAG   ANG      MAG   ANG      MAG   ANG
 0.010  0.6873   -2.7  30.419  176.4  0.0012   79.7  0.9881   -1.5
 0.020  0.6727   -8.7  29.862  173.0  0.0029   94.9  0.9901   -3.3
 0.030  0.6628  -12.1  29.458  170.3  0.0044   87.3  0.9807   -5.1
 0.040  0.6552  -15.5  29.119  167.6  0.0059   83.7  0.9723   -6.9
 0.050  0.6500  -19.0  28.848  164.8  0.0075   81.5  0.9649   -8.7
 0.060  0.6373  -22.4  28.241  162.3  0.0088   79.6  0.9504  -10.1
 0.070  0.6268  -25.9  27.690  159.7  0.0101   78.1  0.9365  -11.6
 0.080  0.6188  -29.5  27.197  157.0  0.0114   77.0  0.9233  -13.1
 0.090  0.6133  -33.2  26.766  154.3  0.0128   76.1  0.9106  -14.6
 0.100  0.6103  -36.9  26.400  151.4  0.0141   75.4  0.8987  -16.2
 0.110  0.5939  -39.8  25.766  149.4  0.0152   73.8  0.8831  -17.2
 0.120  0.5790  -42.8  25.166  147.3  0.0162   72.5  0.8678  -18.2
 0.130  0.5659  -46.0  24.602  145.0  0.0173   71.3  0.8528  -19.3
 0.140  0.5546  -49.3  24.076  142.7  0.0184   70.2  0.8381  -20.4
 0.150  0.5453  -52.8  23.592  140.3  0.0195   69.3  0.8237  -21.6
 0.200  0.4891  -65.4  20.743  131.1  0.0234   67.0  0.7520  -24.9
 0.250  0.4407  -76.8  18.348  123.9  0.0268   63.7  0.6924  -26.9
 0.300  0.3983  -86.8  16.245  118.2  0.0302   64.0  0.6421  -28.0
 0.350  0.3664  -93.9  14.657  114.4  0.0332   64.0  0.6075  -28.2
 0.400  0.3411 -102.2  13.149  109.7  0.0362   64.0  0.5730  -28.5
 0.450  0.3202 -108.4  12.016  106.9  0.0390   64.5  0.5508  -28.4
 0.500  0.3035 -115.3  10.917  103.5  0.0418   64.9  0.5286  -28.3
 0.600  0.2763 -126.5   9.328   98.5  0.0473   65.9  0.4994  -27.9
 0.700  0.2593 -136.4   8.111   94.4  0.0525   67.2  0.4778  -27.5
 0.800  0.2495 -145.2   7.193   90.7  0.0596   67.7  0.4630  -27.5
 0.900  0.2415 -152.9   6.435   87.6  0.0651   68.3  0.4514  -27.6
 1.000  0.2385 -159.4   5.851   84.7  0.0713   69.1  0.4414  -27.8
 1.100  0.2375 -165.4   5.348   82.1  0.0774   69.6  0.4353  -28.1
 1.200  0.2372 -171.8   4.927   79.5  0.0835   69.6  0.4281  -28.6
 1.300  0.2362 -177.2   4.567   77.0  0.0896   70.0  0.4235  -29.5
 1.400  0.2373  178.4   4.271   74.8  0.0965   69.9  0.4179  -30.3
 1.500  0.2420  174.5   4.003   72.7  0.1024   69.8  0.4135  -31.2
 1.600  0.2445  170.2   3.770   70.5  0.1090   69.7  0.4113  -32.3
 1.700  0.2475  166.3   3.565   68.5  0.1154   69.8  0.4066  -33.6
 1.800  0.2503  162.9   3.391   66.4  0.1223   69.4  0.4025  -34.8
 1.900  0.2554  160.2   3.230   64.6  0.1288   69.2  0.4000  -36.2
 2.000  0.2591  157.0   3.078   62.6  0.1357   68.9  0.3980  -37.8
 2.100  0.2633  153.9   2.951   60.7  0.1423   68.5  0.3951  -39.3
 2.200  0.2682  150.9   2.827   58.7  0.1490   68.2  0.3925  -40.9
 2.300  0.2740  148.5   2.723   56.9  0.1561   67.8  0.3910  -42.6
 2.400  0.2803  146.2   2.621   55.0  0.1632   67.4  0.3898  -44.4
 2.500  0.2839  143.9   2.528   53.4  0.1700   66.9  0.3884  -46.2
 2.600  0.2879  141.7   2.438   51.6  0.1769   66.4  0.3873  -48.0
 2.700  0.2939  139.4   2.362   50.0  0.1839   65.9  0.3869  -49.7
 2.800  0.3003  137.2   2.288   48.2  0.1910   65.5  0.3869  -51.5
 2.900  0.3041  135.1   2.221   46.5  0.1982   64.9  0.3860  -53.2
 3.000  0.3082  133.1   2.157   44.7  0.2055   64.4  0.3854  -55.0
 3.100  0.3125  131.1   2.102   43.3  0.2129   63.7  0.3847  -56.7
 3.200  0.3173  129.1   2.048   41.8  0.2204   63.1  0.3844  -58.4
 3.300  0.3223  127.2   1.996   40.3  0.2278   62.5  0.3844  -60.0
 3.400  0.3278  125.4   1.945   38.6  0.2353   62.0  0.3847  -61.7
 3.500  0.3335  123.6   1.896   36.9  0.2428   61.5  0.3854  -63.4
 3.600  0.3382  121.9   1.856   35.5  0.2504   60.7  0.3828  -65.2
 3.700  0.3432  120.3   1.817   34.1  0.2580   59.9  0.3806  -66.9
 3.800  0.3485  118.7   1.779   32.6  0.2657   59.2  0.3788  -68.7
 3.900  0.3541  117.1   1.743   31.0  0.2734   58.5  0.3773  -70.6
 4.000  0.3599  115.6   1.708   29.4  0.2811   57.8  0.3762  -72.4
 4.100  0.3654  114.2   1.677   28.0  0.2889   56.9  0.3717  -74.5
 4.200  0.3712  112.7   1.646   26.6  0.2968   56.0  0.3677  -76.6
 4.300  0.3772  111.4   1.617   25.2  0.3048   55.1  0.3642  -78.7
 4.400  0.3834  110.1   1.588   23.7  0.3128   54.4  0.3612  -80.9
 4.500  0.3898  108.8   1.561   22.1  0.3209   53.6  0.3588  -83.1
 4.600  0.3967  107.5   1.533   20.8  0.3288   52.7  0.3546  -85.6
 4.700  0.4038  106.2   1.506   19.5  0.3367   51.8  0.3511  -88.3
 4.800  0.4110  105.0   1.480   18.2  0.3448   51.0  0.3483  -90.9
 4.900  0.4185  103.8   1.454   16.8  0.3528   50.2  0.3463  -93.6
 5.000  0.4261  102.7   1.430   15.3  0.3610   49.5  0.3450  -96.3
 5.100  0.4312  101.5   1.409   14.1  0.3689   48.5  0.3443  -99.2
 5.200  0.4364  100.3   1.388   12.9  0.3770   47.6  0.3445 -102.2
 5.300  0.4419   99.1   1.369   11.7  0.3851   46.7  0.3456 -105.1
 5.400  0.4475   97.9   1.349   10.4  0.3933   45.9  0.3476 -108.0
 5.500  0.4533   96.8   1.331    9.1  0.4016   45.1  0.3505 -110.9
 5.600  0.4569   95.7   1.311    8.0  0.4095   44.0  0.3518 -113.6
 5.700  0.4607   94.5   1.292    6.9  0.4176   43.0  0.3539 -116.2
 5.800  0.4647   93.4   1.274    5.7  0.4258   42.0  0.3568 -118.8
 5.900  0.4689   92.4   1.256    4.5  0.4341   41.0  0.3603 -121.4
 6.000  0.4732   91.3   1.238    3.3  0.4425   40.1  0.3646 -123.9
!
!  f       NFmin   Gammaopt  rn/50
! GHz       dB    MAG  ANG    -
 0.450      1.47  0.04   14   0.21
 0.900      1.52  0.04   31   0.21
 1.900      1.95  0.13 -139   0.22
 2.400      2.20  0.16 -109   0.28
!
! (c) 2017  Infineon Technologies AG, Munich