! Infineon Technologies  Discrete & RF Semiconductors
! BFR181W
! VCE =  1.0 V,  IC =  12 mA
! Common Emitter S-Parameters:                            Jan 2017
# GHz  S  MA  R  50
!  f         S11            S21            S12            S22
! GHz     MAG   ANG      MAG   ANG      MAG   ANG      MAG   ANG
 0.010  0.6571   -8.0  24.498  175.9  0.0022   82.6  0.9241   -2.7
 0.020  0.6414  -18.5  24.163  170.0  0.0051   84.4  0.9219   -5.4
 0.030  0.6225  -25.9  23.431  165.6  0.0076   76.5  0.9021   -7.9
 0.040  0.6144  -33.6  22.842  161.0  0.0101   72.6  0.8840  -10.4
 0.050  0.6176  -41.3  22.409  156.2  0.0127   70.2  0.8677  -13.1
 0.060  0.5942  -47.5  21.456  153.0  0.0143   67.6  0.8438  -14.6
 0.070  0.5783  -54.1  20.574  149.6  0.0159   65.5  0.8204  -16.1
 0.080  0.5706  -61.0  19.773  145.9  0.0175   63.8  0.7977  -17.7
 0.090  0.5712  -68.0  19.063  141.8  0.0192   62.4  0.7757  -19.5
 0.100  0.5803  -74.9  18.455  137.5  0.0208   61.2  0.7544  -21.3
 0.110  0.5658  -79.5  17.697  135.4  0.0219   59.6  0.7347  -21.9
 0.120  0.5551  -84.4  16.964  133.1  0.0230   58.2  0.7151  -22.6
 0.130  0.5486  -89.4  16.261  130.6  0.0241   56.9  0.6956  -23.3
 0.140  0.5464  -94.5  15.590  127.9  0.0252   55.7  0.6762  -24.1
 0.150  0.5485  -99.6  14.958  125.0  0.0263   54.6  0.6570  -24.9
 0.200  0.5284 -116.4  12.262  115.8  0.0298   51.8  0.5890  -25.7
 0.250  0.5175 -129.2  10.314  109.2  0.0328   51.5  0.5443  -25.6
 0.300  0.5111 -138.6   8.836  104.3  0.0355   51.3  0.5122  -25.1
 0.350  0.5031 -145.2   7.830  101.0  0.0379   52.6  0.4941  -24.6
 0.400  0.5020 -152.0   6.858   96.8  0.0404   53.7  0.4760  -24.1
 0.450  0.4986 -156.6   6.203   94.4  0.0427   54.9  0.4654  -23.9
 0.500  0.4984 -161.2   5.562   91.4  0.0451   56.0  0.4548  -23.7
 0.600  0.5000 -168.5   4.689   86.8  0.0501   58.7  0.4424  -23.6
 0.700  0.5007 -174.3   4.046   83.0  0.0550   60.8  0.4332  -23.9
 0.800  0.5023 -179.2   3.566   79.2  0.0612   62.9  0.4268  -24.6
 0.900  0.5038  176.5   3.180   76.0  0.0669   64.1  0.4218  -25.6
 1.000  0.5090  172.5   2.885   73.0  0.0730   65.8  0.4166  -26.8
 1.100  0.5127  169.0   2.636   70.1  0.0796   66.9  0.4136  -28.1
 1.200  0.5140  165.7   2.428   67.2  0.0853   67.5  0.4092  -29.4
 1.300  0.5156  162.3   2.250   64.4  0.0922   68.1  0.4063  -31.1
 1.400  0.5212  159.4   2.103   61.8  0.0993   68.9  0.4020  -32.8
 1.500  0.5259  156.8   1.971   59.4  0.1064   69.4  0.3994  -34.6
 1.600  0.5308  154.0   1.859   56.8  0.1134   69.5  0.3976  -36.5
 1.700  0.5341  151.4   1.759   54.4  0.1207   69.7  0.3937  -38.6
 1.800  0.5380  148.7   1.672   52.0  0.1279   69.6  0.3911  -40.7
 1.900  0.5439  146.6   1.593   49.9  0.1356   69.6  0.3887  -42.8
 2.000  0.5487  144.1   1.518   47.5  0.1433   69.5  0.3868  -45.2
 2.100  0.5523  141.6   1.454   45.4  0.1513   69.3  0.3846  -47.6
 2.200  0.5570  139.2   1.392   43.1  0.1593   69.1  0.3832  -50.1
 2.300  0.5621  137.1   1.340   41.1  0.1678   68.7  0.3818  -52.6
 2.400  0.5680  135.1   1.290   39.0  0.1763   68.4  0.3811  -55.1
 2.500  0.5704  133.0   1.243   37.2  0.1844   67.9  0.3804  -57.7
 2.600  0.5736  130.9   1.198   35.2  0.1925   67.4  0.3805  -60.3
 2.700  0.5786  128.9   1.159   33.5  0.2013   66.8  0.3806  -62.8
 2.800  0.5843  126.9   1.121   31.7  0.2101   66.3  0.3813  -65.2
 2.900  0.5879  124.9   1.087   30.0  0.2190   65.6  0.3806  -67.8
 3.000  0.5923  122.9   1.054   28.1  0.2279   65.0  0.3806  -70.4
 3.100  0.5950  120.9   1.025   26.8  0.2371   64.1  0.3793  -72.8
 3.200  0.5984  119.0   0.997   25.4  0.2463   63.3  0.3786  -75.2
 3.300  0.6025  117.1   0.970   23.9  0.2556   62.6  0.3786  -77.6
 3.400  0.6073  115.2   0.943   22.3  0.2649   61.9  0.3793  -80.0
 3.500  0.6127  113.3   0.917   20.7  0.2743   61.2  0.3806  -82.4
 3.600  0.6148  111.5   0.896   19.6  0.2837   60.1  0.3772  -84.9
 3.700  0.6174  109.7   0.875   18.4  0.2932   59.0  0.3746  -87.5
 3.800  0.6207  107.9   0.855   17.2  0.3028   58.1  0.3727  -90.1
 3.900  0.6246  106.1   0.835   15.9  0.3125   57.2  0.3716  -92.8
 4.000  0.6290  104.4   0.816   14.6  0.3222   56.3  0.3713  -95.4
 4.100  0.6309  102.7   0.800   13.7  0.3314   55.1  0.3662  -98.3
 4.200  0.6333  101.0   0.784   12.7  0.3408   53.9  0.3620 -101.4
 4.300  0.6363   99.4   0.768   11.7  0.3504   52.8  0.3589 -104.4
 4.400  0.6398   97.7   0.752   10.6  0.3600   51.7  0.3569 -107.6
 4.500  0.6438   96.1   0.737    9.5  0.3698   50.7  0.3559 -110.7
 4.600  0.6457   94.8   0.724    8.9  0.3785   49.5  0.3524 -114.1
 4.700  0.6479   93.4   0.711    8.3  0.3874   48.3  0.3502 -117.6
 4.800  0.6504   92.1   0.698    7.6  0.3964   47.2  0.3493 -121.0
 4.900  0.6534   90.8   0.685    6.9  0.4056   46.2  0.3496 -124.5
 5.000  0.6566   89.5   0.672    6.2  0.4149   45.2  0.3513 -128.0
 5.100  0.6575   88.1   0.664    5.7  0.4231   43.9  0.3523 -131.4
 5.200  0.6587   86.8   0.656    5.2  0.4314   42.7  0.3545 -134.7
 5.300  0.6603   85.5   0.648    4.7  0.4400   41.6  0.3579 -138.0
 5.400  0.6623   84.1   0.640    4.2  0.4487   40.5  0.3624 -141.2
 5.500  0.6646   82.8   0.632    3.7  0.4576   39.4  0.3680 -144.3
 5.600  0.6638   81.6   0.626    3.4  0.4650   38.1  0.3701 -147.1
 5.700  0.6633   80.4   0.620    3.1  0.4727   36.8  0.3730 -149.8
 5.800  0.6630   79.1   0.613    2.8  0.4806   35.6  0.3768 -152.5
 5.900  0.6631   77.9   0.607    2.4  0.4887   34.4  0.3813 -155.1
 6.000  0.6635   76.7   0.601    2.1  0.4970   33.3  0.3867 -157.7
!
!  f       NFmin   Gammaopt  rn/50
! GHz       dB    MAG  ANG    -
 0.450      1.34  0.10   16   0.21
 0.900      1.38  0.10   32   0.21
 1.900      1.82  0.07 -151   0.21
 2.400      2.01  0.08 -113   0.26
!
! (c) 2017  Infineon Technologies AG, Munich