! Infineon Technologies  Discrete & RF Semiconductors
! BFR181W
! VCE =  9.0 V,  IC =  18 mA
! Common Emitter S-Parameters:                            Jan 2017
# GHz  S  MA  R  50
!  f         S11            S21            S12            S22
! GHz     MAG   ANG      MAG   ANG      MAG   ANG      MAG   ANG
 0.010  0.6515   -3.0  32.838  176.1  0.0012   88.5  0.9850   -1.5
 0.020  0.6355   -9.7  32.088  172.5  0.0027   97.8  0.9792   -3.4
 0.030  0.6251  -13.5  31.647  169.6  0.0040   87.0  0.9707   -5.4
 0.040  0.6175  -17.5  31.292  166.6  0.0055   81.6  0.9634   -7.4
 0.050  0.6130  -21.5  31.024  163.5  0.0069   78.5  0.9573   -9.4
 0.060  0.5987  -25.2  30.271  160.8  0.0083   77.0  0.9413  -10.8
 0.070  0.5870  -29.1  29.586  158.1  0.0098   76.0  0.9259  -12.3
 0.080  0.5781  -33.1  28.974  155.2  0.0112   75.2  0.9111  -13.9
 0.090  0.5721  -37.2  28.440  152.1  0.0127   74.6  0.8971  -15.5
 0.100  0.5691  -41.4  27.988  149.0  0.0141   74.1  0.8837  -17.1
 0.110  0.5525  -44.5  27.225  146.9  0.0150   72.8  0.8666  -18.0
 0.120  0.5376  -47.7  26.500  144.8  0.0160   71.6  0.8497  -19.0
 0.130  0.5246  -51.1  25.815  142.5  0.0169   70.6  0.8330  -20.0
 0.140  0.5134  -54.7  25.173  140.0  0.0178   69.6  0.8167  -21.1
 0.150  0.5044  -58.4  24.579  137.5  0.0188   68.8  0.8006  -22.2
 0.200  0.4489  -71.8  21.306  128.3  0.0222   67.9  0.7273  -25.1
 0.250  0.4024  -84.1  18.641  121.2  0.0259   64.6  0.6681  -26.6
 0.300  0.3665  -94.3  16.381  115.7  0.0287   63.7  0.6210  -27.2
 0.350  0.3401 -101.7  14.716  112.1  0.0318   64.6  0.5894  -27.2
 0.400  0.3203 -110.2  13.125  107.5  0.0349   65.3  0.5578  -27.3
 0.450  0.3022 -116.6  11.967  104.8  0.0374   65.9  0.5382  -27.1
 0.500  0.2883 -123.7  10.840  101.6  0.0399   66.4  0.5187  -26.8
 0.600  0.2679 -134.0   9.229   96.8  0.0460   67.5  0.4930  -26.3
 0.700  0.2572 -144.0   8.010   92.9  0.0522   69.3  0.4752  -25.9
 0.800  0.2514 -152.4   7.090   89.4  0.0582   69.7  0.4624  -25.9
 0.900  0.2459 -159.7   6.339   86.3  0.0638   69.6  0.4523  -26.1
 1.000  0.2447 -166.1   5.756   83.6  0.0699   70.7  0.4435  -26.3
 1.100  0.2456 -171.6   5.262   81.0  0.0766   71.0  0.4391  -26.9
 1.200  0.2473 -176.9   4.845   78.5  0.0821   70.9  0.4329  -27.5
 1.300  0.2464  178.3   4.490   76.1  0.0887   71.1  0.4278  -28.3
 1.400  0.2484  174.1   4.196   73.9  0.0956   71.4  0.4233  -29.2
 1.500  0.2536  170.5   3.933   71.8  0.1016   71.0  0.4190  -30.2
 1.600  0.2563  166.3   3.705   69.6  0.1087   70.9  0.4170  -31.4
 1.700  0.2601  163.1   3.502   67.6  0.1147   71.0  0.4130  -32.8
 1.800  0.2627  159.6   3.330   65.5  0.1218   70.6  0.4093  -34.1
 1.900  0.2682  157.2   3.171   63.8  0.1281   70.5  0.4066  -35.5
 2.000  0.2719  154.3   3.022   61.7  0.1353   70.0  0.4045  -37.1
 2.100  0.2761  151.5   2.897   59.9  0.1421   69.6  0.4018  -38.7
 2.200  0.2810  148.7   2.776   58.0  0.1489   69.3  0.3995  -40.3
 2.300  0.2874  146.4   2.673   56.2  0.1559   68.9  0.3981  -42.1
 2.400  0.2942  144.2   2.573   54.2  0.1629   68.5  0.3970  -43.9
 2.500  0.2971  142.0   2.483   52.6  0.1698   67.9  0.3960  -45.7
 2.600  0.3004  139.9   2.395   50.8  0.1767   67.4  0.3953  -47.5
 2.700  0.3062  137.7   2.319   49.2  0.1838   66.9  0.3948  -49.3
 2.800  0.3125  135.5   2.246   47.4  0.1909   66.4  0.3946  -51.1
 2.900  0.3173  133.6   2.181   45.7  0.1983   65.8  0.3937  -52.9
 3.000  0.3224  131.8   2.118   44.0  0.2058   65.2  0.3932  -54.7
 3.100  0.3267  129.8   2.063   42.6  0.2133   64.5  0.3925  -56.4
 3.200  0.3315  127.9   2.010   41.1  0.2208   63.9  0.3922  -58.1
 3.300  0.3365  126.1   1.958   39.5  0.2283   63.3  0.3922  -59.8
 3.400  0.3420  124.2   1.908   37.8  0.2358   62.8  0.3925  -61.5
 3.500  0.3477  122.5   1.859   36.1  0.2434   62.3  0.3932  -63.2
 3.600  0.3521  120.8   1.820   34.7  0.2511   61.5  0.3906  -65.0
 3.700  0.3569  119.2   1.782   33.3  0.2589   60.7  0.3885  -66.8
 3.800  0.3619  117.6   1.744   31.8  0.2668   59.9  0.3867  -68.7
 3.900  0.3672  116.1   1.709   30.3  0.2747   59.3  0.3854  -70.5
 4.000  0.3727  114.6   1.674   28.7  0.2826   58.6  0.3844  -72.4
 4.100  0.3782  113.2   1.643   27.3  0.2906   57.6  0.3799  -74.5
 4.200  0.3839  111.8   1.613   25.9  0.2986   56.7  0.3759  -76.6
 4.300  0.3899  110.4   1.584   24.5  0.3067   55.8  0.3724  -78.8
 4.400  0.3960  109.1   1.557   23.0  0.3149   55.0  0.3695  -81.0
 4.500  0.4024  107.8   1.530   21.4  0.3231   54.2  0.3671  -83.2
 4.600  0.4091  106.5   1.502   20.2  0.3310   53.3  0.3628  -85.8
 4.700  0.4160  105.3   1.476   18.9  0.3390   52.4  0.3593  -88.4
 4.800  0.4231  104.1   1.450   17.5  0.3471   51.6  0.3565  -91.1
 4.900  0.4303  103.0   1.424   16.1  0.3553   50.8  0.3545  -93.8
 5.000  0.4377  101.9   1.400   14.7  0.3635   50.0  0.3534  -96.6
 5.100  0.4427  100.6   1.379   13.5  0.3715   49.0  0.3527  -99.5
 5.200  0.4478   99.4   1.359   12.3  0.3797   48.1  0.3529 -102.5
 5.300  0.4532   98.2   1.340   11.1  0.3879   47.2  0.3541 -105.4
 5.400  0.4588   97.0   1.321    9.8  0.3963   46.3  0.3562 -108.3
 5.500  0.4645   95.9   1.303    8.5  0.4047   45.5  0.3592 -111.2
 5.600  0.4682   94.8   1.284    7.4  0.4127   44.4  0.3604 -113.9
 5.700  0.4720   93.7   1.266    6.3  0.4209   43.3  0.3623 -116.6
 5.800  0.4760   92.7   1.247    5.2  0.4292   42.3  0.3651 -119.2
 5.900  0.4802   91.6   1.230    4.0  0.4376   41.3  0.3686 -121.8
 6.000  0.4845   90.6   1.213    2.8  0.4462   40.4  0.3728 -124.3
!
!  f       NFmin   Gammaopt  rn/50
! GHz       dB    MAG  ANG    -
!
! noise parameter not available yet for this operation point!
!
! (c) 2017  Infineon Technologies AG, Munich