! Infineon Technologies  Discrete & RF Semiconductors
! BFR181W
! VCE =  8.0 V,  IC =  6.0 mA
! Common Emitter S-Parameters:                            Jan 2017
# GHz  S  MA  R  50
!  f         S11            S21            S12            S22
! GHz     MAG   ANG      MAG   ANG      MAG   ANG      MAG   ANG
 0.010  0.8342   -1.3  17.510  178.3  0.0013   92.6  0.9974   -1.1
 0.020  0.8186   -5.6  17.239  175.6  0.0035  101.3  0.9912   -2.1
 0.030  0.8112   -7.4  17.130  174.0  0.0051   91.8  0.9891   -3.3
 0.040  0.8047   -9.2  17.036  172.3  0.0068   86.8  0.9874   -4.5
 0.050  0.7989  -11.0  16.956  170.6  0.0085   83.9  0.9861   -5.7
 0.060  0.7952  -13.2  16.813  168.9  0.0101   83.0  0.9802   -6.8
 0.070  0.7928  -15.4  16.686  167.1  0.0117   82.3  0.9747   -7.8
 0.080  0.7915  -17.6  16.575  165.3  0.0133   81.8  0.9695   -8.9
 0.090  0.7914  -19.9  16.481  163.4  0.0149   81.4  0.9647  -10.0
 0.100  0.7925  -22.1  16.404  161.6  0.0165   81.1  0.9602  -11.1
 0.110  0.7816  -24.2  16.222  160.0  0.0179   79.2  0.9521  -12.0
 0.120  0.7717  -26.3  16.052  158.4  0.0193   77.5  0.9443  -13.0
 0.130  0.7629  -28.4  15.896  156.8  0.0207   76.1  0.9368  -13.9
 0.140  0.7552  -30.6  15.753  155.1  0.0221   74.9  0.9295  -14.9
 0.150  0.7487  -32.9  15.623  153.4  0.0235   73.8  0.9225  -15.9
 0.200  0.7084  -41.9  14.666  145.5  0.0295   70.6  0.8779  -19.8
 0.250  0.6593  -51.0  13.749  138.6  0.0345   66.4  0.8319  -23.1
 0.300  0.6110  -59.2  12.757  132.7  0.0393   63.5  0.7857  -25.6
 0.350  0.5684  -65.6  11.866  128.1  0.0431   62.0  0.7468  -27.3
 0.400  0.5340  -72.9  11.062  122.9  0.0470   60.7  0.7086  -29.1
 0.450  0.4979  -78.4  10.295  119.3  0.0499   59.5  0.6774  -30.1
 0.500  0.4669  -84.6   9.575  115.2  0.0529   58.4  0.6464  -31.1
 0.600  0.4163  -94.9   8.415  108.8  0.0586   57.8  0.5989  -32.3
 0.700  0.3767 -104.3   7.456  103.5  0.0631   58.1  0.5623  -32.8
 0.800  0.3440 -113.6   6.699   98.9  0.0684   58.8  0.5344  -33.3
 0.900  0.3186 -121.3   6.052   94.8  0.0735   58.3  0.5118  -33.7
 1.000  0.3011 -129.2   5.539   91.3  0.0777   59.2  0.4940  -34.0
 1.100  0.2875 -136.5   5.093   88.1  0.0827   59.4  0.4807  -34.4
 1.200  0.2766 -143.6   4.711   84.9  0.0875   60.1  0.4682  -34.9
 1.300  0.2654 -149.9   4.380   82.1  0.0930   60.8  0.4581  -35.5
 1.400  0.2610 -155.5   4.105   79.4  0.0987   61.2  0.4491  -36.2
 1.500  0.2605 -161.3   3.858   76.9  0.1039   61.5  0.4411  -37.0
 1.600  0.2583 -167.1   3.640   74.4  0.1096   61.8  0.4362  -38.0
 1.700  0.2553 -171.9   3.448   72.2  0.1149   62.3  0.4295  -39.0
 1.800  0.2548 -176.7   3.284   69.8  0.1211   62.5  0.4240  -40.1
 1.900  0.2584  179.1   3.133   67.8  0.1269   62.8  0.4195  -41.4
 2.000  0.2608  174.5   2.991   65.5  0.1326   62.8  0.4161  -42.7
 2.100  0.2620  170.7   2.870   63.5  0.1389   62.8  0.4129  -44.1
 2.200  0.2643  166.9   2.753   61.3  0.1452   62.8  0.4099  -45.5
 2.300  0.2692  163.2   2.653   59.3  0.1514   62.7  0.4073  -47.1
 2.400  0.2752  159.7   2.556   57.2  0.1577   62.7  0.4051  -48.7
 2.500  0.2779  156.8   2.467   55.4  0.1643   62.5  0.4038  -50.3
 2.600  0.2813  153.9   2.381   53.4  0.1709   62.3  0.4028  -52.0
 2.700  0.2864  150.8   2.308   51.6  0.1773   62.0  0.4017  -53.6
 2.800  0.2924  147.8   2.237   49.7  0.1837   61.8  0.4009  -55.3
 2.900  0.2960  145.3   2.174   47.9  0.1905   61.4  0.3999  -56.9
 3.000  0.3002  142.8   2.113   46.0  0.1974   61.0  0.3993  -58.6
 3.100  0.3040  140.3   2.058   44.5  0.2046   60.5  0.3982  -60.2
 3.200  0.3085  137.8   2.005   42.9  0.2117   60.1  0.3974  -61.8
 3.300  0.3134  135.4   1.953   41.3  0.2189   59.7  0.3970  -63.5
 3.400  0.3189  133.1   1.903   39.5  0.2261   59.3  0.3968  -65.1
 3.500  0.3249  130.9   1.855   37.7  0.2333   59.0  0.3970  -66.7
 3.600  0.3295  128.9   1.816   36.3  0.2408   58.4  0.3945  -68.4
 3.700  0.3345  127.0   1.778   34.8  0.2483   57.8  0.3923  -70.1
 3.800  0.3398  125.1   1.742   33.3  0.2558   57.2  0.3904  -71.8
 3.900  0.3455  123.3   1.707   31.7  0.2634   56.7  0.3889  -73.6
 4.000  0.3515  121.6   1.673   30.0  0.2710   56.2  0.3878  -75.3
 4.100  0.3576  119.8   1.642   28.6  0.2791   55.4  0.3837  -77.3
 4.200  0.3640  118.1   1.613   27.1  0.2872   54.6  0.3801  -79.4
 4.300  0.3707  116.4   1.584   25.5  0.2954   53.9  0.3770  -81.5
 4.400  0.3778  114.8   1.557   23.9  0.3036   53.2  0.3744  -83.6
 4.500  0.3851  113.3   1.531   22.3  0.3119   52.6  0.3723  -85.8
 4.600  0.3920  111.8   1.504   21.0  0.3199   51.7  0.3683  -88.4
 4.700  0.3992  110.3   1.478   19.7  0.3280   50.9  0.3650  -91.0
 4.800  0.4066  108.9   1.452   18.3  0.3362   50.1  0.3625  -93.7
 4.900  0.4143  107.5   1.428   16.9  0.3444   49.4  0.3609  -96.4
 5.000  0.4222  106.2   1.404   15.4  0.3527   48.7  0.3600  -99.1
 5.100  0.4276  104.8   1.383   14.2  0.3609   47.8  0.3596 -102.0
 5.200  0.4332  103.4   1.363   12.9  0.3691   46.9  0.3601 -104.9
 5.300  0.4390  102.0   1.344   11.6  0.3775   46.0  0.3615 -107.8
 5.400  0.4452  100.7   1.325   10.2  0.3859   45.2  0.3639 -110.7
 5.500  0.4515   99.4   1.307    8.8  0.3944   44.4  0.3671 -113.5
 5.600  0.4548   98.2   1.288    7.7  0.4025   43.3  0.3688 -116.1
 5.700  0.4584   96.9   1.269    6.5  0.4107   42.3  0.3712 -118.7
 5.800  0.4621   95.7   1.251    5.4  0.4190   41.3  0.3745 -121.3
 5.900  0.4661   94.6   1.234    4.1  0.4274   40.3  0.3784 -123.8
 6.000  0.4702   93.4   1.217    2.9  0.4360   39.4  0.3831 -126.3
!
!  f       NFmin   Gammaopt  rn/50
! GHz       dB    MAG  ANG    -
 0.450      1.03  0.28   16   0.22
 0.900      1.07  0.26   30   0.22
 1.900      1.49  0.12   82   0.19
 2.400      1.65  0.10   95   0.23
!
! (c) 2017  Infineon Technologies AG, Munich