! Infineon Technologies  Discrete & RF Semiconductors
! BFR181W
! VCE =  6.0 V,  IC =  24 mA
! Common Emitter S-Parameters:                            Jan 2017
# GHz  S  MA  R  50
!  f         S11            S21            S12            S22
! GHz     MAG   ANG      MAG   ANG      MAG   ANG      MAG   ANG
 0.010  0.5438   -5.9  34.694  175.8  0.0013   85.9  0.9648   -1.7
 0.020  0.5329  -15.1  34.147  170.9  0.0031   94.7  0.9609   -4.0
 0.030  0.5184  -21.2  33.335  167.1  0.0045   86.6  0.9473   -6.1
 0.040  0.5102  -27.7  32.679  163.1  0.0060   82.4  0.9350   -8.3
 0.050  0.5085  -34.2  32.189  158.9  0.0075   79.9  0.9241  -10.5
 0.060  0.4914  -39.5  31.019  155.9  0.0086   76.8  0.9039  -11.8
 0.070  0.4787  -45.1  29.941  152.6  0.0096   74.5  0.8841  -13.2
 0.080  0.4709  -51.0  28.967  149.1  0.0107   72.5  0.8649  -14.6
 0.090  0.4682  -57.0  28.108  145.4  0.0118   71.0  0.8463  -16.1
 0.100  0.4706  -63.0  27.373  141.5  0.0129   69.7  0.8283  -17.7
 0.110  0.4566  -67.2  26.366  139.4  0.0138   68.3  0.8101  -18.3
 0.120  0.4452  -71.7  25.396  137.2  0.0147   67.1  0.7920  -19.0
 0.130  0.4366  -76.4  24.469  134.7  0.0156   66.1  0.7740  -19.6
 0.140  0.4311  -81.3  23.590  132.1  0.0165   65.1  0.7561  -20.4
 0.150  0.4288  -86.2  22.763  129.3  0.0174   64.3  0.7383  -21.1
 0.200  0.3994 -102.7  18.949  120.3  0.0196   64.1  0.6727  -22.2
 0.250  0.3791 -116.1  16.114  113.7  0.0231   62.5  0.6272  -22.3
 0.300  0.3688 -126.9  13.906  108.7  0.0247   64.0  0.5933  -22.0
 0.350  0.3586 -134.4  12.377  105.5  0.0277   65.3  0.5734  -21.6
 0.400  0.3548 -142.1  10.896  101.5  0.0308   66.3  0.5535  -21.2
 0.450  0.3487 -147.4   9.879   99.2  0.0332   67.4  0.5426  -21.0
 0.500  0.3458 -152.9   8.882   96.3  0.0357   68.4  0.5318  -20.8
 0.600  0.3442 -161.3   7.505   92.0  0.0411   69.5  0.5168  -20.7
 0.700  0.3445 -168.1   6.488   88.4  0.0467   71.5  0.5073  -20.8
 0.800  0.3463 -173.8   5.730   85.1  0.0527   72.6  0.4997  -21.4
 0.900  0.3473 -178.7   5.113   82.2  0.0586   73.7  0.4945  -22.1
 1.000  0.3494  176.9   4.640   79.6  0.0647   74.4  0.4888  -22.9
 1.100  0.3523  172.8   4.238   77.1  0.0707   74.8  0.4858  -23.9
 1.200  0.3558  169.2   3.900   74.6  0.0766   74.9  0.4820  -25.0
 1.300  0.3583  165.7   3.614   72.2  0.0830   75.3  0.4787  -26.2
 1.400  0.3623  162.7   3.377   69.9  0.0901   75.7  0.4744  -27.6
 1.500  0.3688  159.8   3.165   67.8  0.0963   75.5  0.4716  -29.0
 1.600  0.3723  157.0   2.984   65.6  0.1030   75.4  0.4706  -30.5
 1.700  0.3755  154.2   2.821   63.6  0.1098   75.4  0.4661  -32.1
 1.800  0.3795  151.6   2.682   61.5  0.1170   75.1  0.4630  -33.7
 1.900  0.3834  149.6   2.554   59.6  0.1238   75.2  0.4611  -35.4
 2.000  0.3896  147.2   2.433   57.5  0.1309   74.9  0.4594  -37.3
 2.100  0.3930  144.7   2.332   55.6  0.1383   74.5  0.4571  -39.1
 2.200  0.3971  142.3   2.234   53.6  0.1457   74.2  0.4552  -41.0
 2.300  0.4025  140.3   2.152   51.8  0.1532   73.8  0.4538  -43.0
 2.400  0.4083  138.3   2.072   49.8  0.1607   73.4  0.4530  -45.0
 2.500  0.4120  136.4   1.999   48.1  0.1680   72.9  0.4519  -47.0
 2.600  0.4161  134.5   1.927   46.3  0.1753   72.4  0.4514  -49.0
 2.700  0.4213  132.5   1.866   44.6  0.1833   71.8  0.4511  -51.0
 2.800  0.4269  130.6   1.806   42.8  0.1914   71.2  0.4514  -53.0
 2.900  0.4304  128.6   1.754   41.1  0.1995   70.6  0.4504  -55.0
 3.000  0.4344  126.7   1.703   39.4  0.2076   70.0  0.4499  -57.1
 3.100  0.4384  124.8   1.659   38.0  0.2161   69.2  0.4490  -59.0
 3.200  0.4429  123.0   1.616   36.5  0.2247   68.5  0.4487  -60.9
 3.300  0.4478  121.2   1.574   34.9  0.2333   67.9  0.4488  -62.8
 3.400  0.4532  119.5   1.533   33.2  0.2419   67.3  0.4494  -64.7
 3.500  0.4589  117.8   1.494   31.5  0.2505   66.7  0.4505  -66.6
 3.600  0.4626  116.2   1.462   30.2  0.2592   65.7  0.4475  -68.6
 3.700  0.4666  114.6   1.430   28.8  0.2679   64.8  0.4451  -70.7
 3.800  0.4710  113.0   1.399   27.4  0.2767   64.0  0.4433  -72.7
 3.900  0.4757  111.5   1.370   25.9  0.2856   63.2  0.4421  -74.8
 4.000  0.4808  110.0   1.341   24.3  0.2945   62.4  0.4414  -76.9
 4.100  0.4851  108.5   1.315   23.0  0.3035   61.3  0.4362  -79.2
 4.200  0.4896  107.0   1.290   21.6  0.3126   60.2  0.4318  -81.6
 4.300  0.4945  105.5   1.265   20.2  0.3218   59.2  0.4281  -84.0
 4.400  0.4998  104.1   1.242   18.7  0.3310   58.3  0.4251  -86.4
 4.500  0.5053  102.7   1.219   17.2  0.3404   57.4  0.4230  -88.9
 4.600  0.5103  101.4   1.197   16.1  0.3493   56.3  0.4182  -91.6
 4.700  0.5155  100.1   1.175   14.9  0.3584   55.2  0.4144  -94.4
 4.800  0.5209   98.8   1.154   13.7  0.3675   54.2  0.4116  -97.3
 4.900  0.5266   97.6   1.133   12.5  0.3768   53.2  0.4098 -100.1
 5.000  0.5326   96.4   1.113   11.2  0.3862   52.3  0.4090 -103.0
 5.100  0.5365   95.1   1.096   10.2  0.3950   51.2  0.4081 -106.0
 5.200  0.5407   93.9   1.080    9.1  0.4039   50.1  0.4083 -109.0
 5.300  0.5452   92.7   1.064    8.0  0.4130   49.0  0.4096 -112.0
 5.400  0.5499   91.5   1.049    6.9  0.4222   48.1  0.4120 -115.0
 5.500  0.5548   90.3   1.034    5.7  0.4315   47.1  0.4155 -117.9
 5.600  0.5566   89.1   1.018    4.8  0.4401   45.8  0.4163 -120.6
 5.700  0.5586   88.0   1.003    3.9  0.4489   44.6  0.4180 -123.3
 5.800  0.5608   86.9   0.988    3.0  0.4579   43.5  0.4206 -126.0
 5.900  0.5632   85.7   0.973    2.1  0.4671   42.4  0.4242 -128.6
 6.000  0.5659   84.6   0.959    1.1  0.4765   41.3  0.4286 -131.2
!
!  f       NFmin   Gammaopt  rn/50
! GHz       dB    MAG  ANG    -
!
! noise parameter not available yet for this operation point!
!
! (c) 2017  Infineon Technologies AG, Munich