! Infineon Technologies  Discrete & RF Semiconductors
! BFR181W
! VCE =  11. V,  IC =  13 mA
! Common Emitter S-Parameters:                            Jan 2017
# GHz  S  MA  R  50
!  f         S11            S21            S12            S22
! GHz     MAG   ANG      MAG   ANG      MAG   ANG      MAG   ANG
 0.010  0.7288   -2.1  28.013  176.3  0.0012   87.9  0.9875   -1.4
 0.020  0.7175   -7.9  27.556  173.2  0.0030   89.0  0.9891   -3.1
 0.030  0.7067  -10.7  27.186  170.9  0.0045   83.6  0.9811   -4.7
 0.040  0.6976  -13.6  26.862  168.5  0.0059   80.9  0.9739   -6.4
 0.050  0.6904  -16.6  26.584  166.1  0.0074   79.3  0.9675   -8.1
 0.060  0.6804  -19.7  26.116  163.8  0.0088   79.0  0.9551   -9.5
 0.070  0.6724  -22.9  25.693  161.3  0.0102   78.8  0.9433  -10.8
 0.080  0.6665  -26.1  25.318  158.8  0.0116   78.7  0.9321  -12.3
 0.090  0.6628  -29.4  24.993  156.2  0.0130   78.6  0.9214  -13.7
 0.100  0.6613  -32.7  24.720  153.6  0.0144   78.5  0.9114  -15.2
 0.110  0.6448  -35.4  24.195  151.6  0.0156   76.2  0.8974  -16.2
 0.120  0.6299  -38.2  23.698  149.6  0.0167   74.2  0.8836  -17.3
 0.130  0.6165  -41.2  23.234  147.5  0.0180   72.4  0.8701  -18.3
 0.140  0.6049  -44.3  22.802  145.3  0.0192   70.9  0.8570  -19.5
 0.150  0.5951  -47.5  22.405  143.0  0.0204   69.6  0.8442  -20.6
 0.200  0.5372  -59.0  19.986  134.0  0.0247   67.5  0.7766  -24.2
 0.250  0.4838  -69.9  17.877  126.7  0.0288   65.1  0.7173  -26.6
 0.300  0.4373  -79.3  15.956  120.9  0.0317   63.6  0.6665  -28.0
 0.350  0.4010  -86.1  14.463  116.9  0.0348   63.2  0.6302  -28.6
 0.400  0.3713  -94.1  13.057  112.0  0.0379   62.8  0.5939  -29.2
 0.450  0.3452 -100.0  11.966  109.1  0.0407   62.9  0.5692  -29.2
 0.500  0.3233 -106.8  10.913  105.6  0.0435   63.0  0.5446  -29.3
 0.600  0.2903 -117.8   9.358  100.3  0.0490   64.5  0.5112  -29.1
 0.700  0.2674 -127.9   8.160   96.0  0.0541   65.7  0.4873  -28.8
 0.800  0.2528 -136.7   7.249   92.2  0.0611   66.3  0.4703  -28.7
 0.900  0.2410 -144.7   6.495   88.9  0.0661   66.9  0.4565  -28.7
 1.000  0.2352 -152.2   5.910   86.0  0.0723   67.5  0.4452  -28.9
 1.100  0.2317 -159.0   5.405   83.3  0.0784   68.0  0.4379  -29.2
 1.200  0.2277 -165.5   4.983   80.6  0.0841   68.0  0.4303  -29.7
 1.300  0.2263 -170.8   4.622   78.1  0.0901   68.4  0.4243  -30.4
 1.400  0.2263 -176.0   4.320   75.8  0.0965   68.4  0.4185  -31.2
 1.500  0.2300  179.4   4.049   73.7  0.1029   68.6  0.4137  -32.0
 1.600  0.2324  174.6   3.816   71.4  0.1096   68.6  0.4110  -33.1
 1.700  0.2336  170.5   3.607   69.4  0.1160   68.5  0.4060  -34.3
 1.800  0.2360  166.8   3.432   67.3  0.1224   68.2  0.4020  -35.4
 1.900  0.2418  163.7   3.271   65.5  0.1289   68.1  0.3988  -36.7
 2.000  0.2457  159.9   3.118   63.4  0.1351   67.8  0.3965  -38.2
 2.100  0.2482  156.8   2.989   61.6  0.1419   67.5  0.3935  -39.7
 2.200  0.2515  153.7   2.863   59.6  0.1487   67.2  0.3907  -41.3
 2.300  0.2582  151.0   2.758   57.8  0.1557   66.8  0.3891  -43.0
 2.400  0.2655  148.4   2.655   55.9  0.1627   66.4  0.3878  -44.7
 2.500  0.2683  146.0   2.562   54.2  0.1693   66.0  0.3864  -46.4
 2.600  0.2716  143.6   2.471   52.4  0.1760   65.6  0.3854  -48.2
 2.700  0.2781  141.0   2.393   50.8  0.1830   65.0  0.3848  -49.9
 2.800  0.2852  138.6   2.318   49.0  0.1901   64.5  0.3846  -51.6
 2.900  0.2892  136.5   2.252   47.3  0.1970   64.0  0.3836  -53.3
 3.000  0.2936  134.5   2.188   45.6  0.2040   63.6  0.3830  -55.1
 3.100  0.2980  132.4   2.132   44.2  0.2113   63.0  0.3822  -56.7
 3.200  0.3027  130.4   2.077   42.6  0.2186   62.4  0.3818  -58.3
 3.300  0.3078  128.4   2.024   41.1  0.2260   61.8  0.3817  -60.0
 3.400  0.3133  126.5   1.972   39.4  0.2333   61.3  0.3818  -61.6
 3.500  0.3191  124.7   1.922   37.6  0.2407   60.8  0.3823  -63.2
 3.600  0.3237  123.0   1.882   36.2  0.2482   60.0  0.3799  -64.9
 3.700  0.3285  121.3   1.843   34.8  0.2557   59.3  0.3778  -66.7
 3.800  0.3337  119.7   1.805   33.3  0.2633   58.6  0.3760  -68.4
 3.900  0.3391  118.1   1.768   31.8  0.2709   57.9  0.3746  -70.2
 4.000  0.3447  116.6   1.733   30.2  0.2786   57.3  0.3736  -72.0
 4.100  0.3504  115.1   1.701   28.8  0.2863   56.4  0.3691  -74.0
 4.200  0.3564  113.6   1.671   27.4  0.2941   55.5  0.3650  -76.1
 4.300  0.3626  112.2   1.641   25.9  0.3019   54.7  0.3614  -78.2
 4.400  0.3690  110.8   1.612   24.4  0.3098   53.9  0.3584  -80.3
 4.500  0.3756  109.5   1.585   22.8  0.3177   53.2  0.3558  -82.5
 4.600  0.3825  108.2   1.557   21.6  0.3254   52.3  0.3516  -85.0
 4.700  0.3896  106.9   1.529   20.3  0.3332   51.5  0.3481  -87.6
 4.800  0.3968  105.6   1.503   18.9  0.3410   50.8  0.3452  -90.2
 4.900  0.4043  104.4   1.477   17.5  0.3489   50.0  0.3431  -92.8
 5.000  0.4119  103.3   1.452   16.1  0.3569   49.3  0.3418  -95.5
 5.100  0.4170  102.1   1.431   14.9  0.3647   48.4  0.3410  -98.4
 5.200  0.4223  100.9   1.410   13.7  0.3726   47.5  0.3411 -101.3
 5.300  0.4278   99.8   1.391   12.4  0.3806   46.6  0.3421 -104.3
 5.400  0.4334   98.7   1.371   11.1  0.3887   45.8  0.3440 -107.1
 5.500  0.4392   97.6   1.353    9.8  0.3969   45.0  0.3467 -110.0
 5.600  0.4431   96.4   1.333    8.7  0.4047   43.9  0.3480 -112.7
 5.700  0.4472   95.3   1.314    7.5  0.4127   42.9  0.3501 -115.3
 5.800  0.4514   94.2   1.295    6.4  0.4208   41.9  0.3529 -117.9
 5.900  0.4558   93.1   1.277    5.1  0.4291   40.9  0.3565 -120.5
 6.000  0.4604   92.0   1.259    3.9  0.4374   40.0  0.3607 -123.0
!
!  f       NFmin   Gammaopt  rn/50
! GHz       dB    MAG  ANG    -
 0.450      1.39  0.08   17   0.21
 0.900      1.43  0.08   31   0.21
 1.900      1.86  0.09 -144   0.21
 2.400      2.07  0.11 -109   0.26
!
! (c) 2017  Infineon Technologies AG, Munich