! Infineon Technologies  Discrete & RF Semiconductors
! BFR181W
! VCE =  4.0 V,  IC =  27 mA
! Common Emitter S-Parameters:                            Jan 2017
# GHz  S  MA  R  50
!  f         S11            S21            S12            S22
! GHz     MAG   ANG      MAG   ANG      MAG   ANG      MAG   ANG
 0.010  0.4524  -10.8  32.519  174.8  0.0018   83.4  0.9275   -2.1
 0.020  0.4469  -24.0  31.870  168.5  0.0032   88.2  0.9266   -4.7
 0.030  0.4326  -33.9  30.700  163.8  0.0048   79.3  0.9057   -6.8
 0.040  0.4317  -44.1  29.756  158.7  0.0064   74.8  0.8862   -9.1
 0.050  0.4443  -54.0  29.060  153.3  0.0080   72.2  0.8680  -11.4
 0.060  0.4300  -61.4  27.622  150.1  0.0090   68.8  0.8452  -12.5
 0.070  0.4234  -69.2  26.279  146.6  0.0100   66.1  0.8227  -13.6
 0.080  0.4247  -77.1  25.047  142.7  0.0111   63.9  0.8006  -14.7
 0.090  0.4340  -84.8  23.943  138.4  0.0121   62.0  0.7788  -16.0
 0.100  0.4508  -92.1  22.985  133.7  0.0132   60.5  0.7574  -17.3
 0.110  0.4454  -96.9  21.944  131.7  0.0139   60.6  0.7414  -17.6
 0.120  0.4432 -101.8  20.932  129.5  0.0146   60.7  0.7253  -17.9
 0.130  0.4443 -106.7  19.954  127.1  0.0153   60.8  0.7093  -18.2
 0.140  0.4485 -111.5  19.016  124.4  0.0160   60.9  0.6934  -18.6
 0.150  0.4559 -116.2  18.122  121.5  0.0167   61.0  0.6774  -18.9
 0.200  0.4577 -131.2  14.601  113.0  0.0190   59.2  0.6277  -18.7
 0.250  0.4608 -142.3  12.180  107.1  0.0216   59.6  0.5974  -18.2
 0.300  0.4626 -150.1  10.374  102.6  0.0233   60.8  0.5761  -17.6
 0.350  0.4613 -155.7   9.175   99.8  0.0258   63.5  0.5647  -17.4
 0.400  0.4645 -161.3   8.006   96.1  0.0284   65.8  0.5533  -17.1
 0.450  0.4636 -165.1   7.234   94.0  0.0306   67.4  0.5471  -17.1
 0.500  0.4646 -168.8   6.474   91.3  0.0329   68.7  0.5410  -17.2
 0.600  0.4701 -174.9   5.449   87.3  0.0389   70.4  0.5335  -17.6
 0.700  0.4723 -179.5   4.696   83.8  0.0437   72.6  0.5276  -18.3
 0.800  0.4762  175.8   4.139   80.5  0.0501   74.9  0.5236  -19.4
 0.900  0.4765  172.2   3.690   77.6  0.0556   75.2  0.5196  -20.7
 1.000  0.4818  168.9   3.347   74.9  0.0612   76.9  0.5155  -21.9
 1.100  0.4852  165.4   3.056   72.3  0.0680   77.6  0.5141  -23.3
 1.200  0.4876  162.4   2.810   69.7  0.0737   78.2  0.5109  -24.8
 1.300  0.4900  159.5   2.604   67.2  0.0802   78.0  0.5078  -26.4
 1.400  0.4943  156.9   2.435   64.8  0.0869   78.8  0.5045  -28.0
 1.500  0.4996  154.5   2.280   62.6  0.0936   78.9  0.5019  -29.7
 1.600  0.5050  151.7   2.149   60.2  0.1009   79.0  0.5008  -31.5
 1.700  0.5085  149.4   2.032   58.1  0.1078   79.1  0.4972  -33.5
 1.800  0.5118  146.9   1.933   55.8  0.1151   78.9  0.4944  -35.4
 1.900  0.5179  144.9   1.841   53.9  0.1227   79.0  0.4923  -37.3
 2.000  0.5207  142.5   1.753   51.7  0.1303   78.5  0.4909  -39.5
 2.100  0.5248  140.3   1.680   49.7  0.1383   78.1  0.4882  -41.6
 2.200  0.5296  138.1   1.609   47.6  0.1464   77.8  0.4862  -43.8
 2.300  0.5342  136.1   1.548   45.8  0.1546   77.4  0.4850  -46.0
 2.400  0.5395  134.1   1.489   43.8  0.1629   77.0  0.4845  -48.3
 2.500  0.5418  132.1   1.436   42.0  0.1712   76.4  0.4833  -50.6
 2.600  0.5448  130.2   1.384   40.1  0.1796   75.9  0.4828  -52.9
 2.700  0.5502  128.2   1.340   38.5  0.1885   75.2  0.4826  -55.1
 2.800  0.5562  126.3   1.297   36.7  0.1974   74.5  0.4831  -57.3
 2.900  0.5594  124.4   1.257   35.1  0.2064   73.7  0.4818  -59.6
 3.000  0.5631  122.6   1.219   33.3  0.2155   73.0  0.4812  -61.9
 3.100  0.5659  120.7   1.187   32.0  0.2251   72.1  0.4795  -64.0
 3.200  0.5693  118.8   1.156   30.6  0.2347   71.3  0.4786  -66.2
 3.300  0.5734  116.9   1.125   29.1  0.2443   70.5  0.4783  -68.4
 3.400  0.5780  115.0   1.095   27.5  0.2540   69.8  0.4786  -70.5
 3.500  0.5833  113.2   1.066   25.9  0.2637   69.2  0.4797  -72.7
 3.600  0.5857  111.5   1.042   24.7  0.2734   68.0  0.4760  -75.0
 3.700  0.5886  109.8   1.019   23.5  0.2832   66.9  0.4730  -77.3
 3.800  0.5920  108.2   0.997   22.2  0.2931   65.8  0.4708  -79.6
 3.900  0.5959  106.5   0.975   20.8  0.3031   64.8  0.4693  -81.9
 4.000  0.6003  104.9   0.953   19.4  0.3132   63.9  0.4687  -84.3
 4.100  0.6023  103.3   0.934   18.3  0.3230   62.6  0.4626  -86.9
 4.200  0.6049  101.6   0.916   17.3  0.3330   61.3  0.4575  -89.6
 4.300  0.6079  100.0   0.898   16.1  0.3432   60.2  0.4535  -92.3
 4.400  0.6114   98.4   0.880   14.9  0.3535   59.0  0.4504  -95.0
 4.500  0.6154   96.8   0.863   13.7  0.3639   58.0  0.4484  -97.8
 4.600  0.6180   95.5   0.848   12.9  0.3733   56.7  0.4431 -100.7
 4.700  0.6209   94.2   0.832   12.0  0.3829   55.5  0.4391 -103.8
 4.800  0.6242   93.0   0.817   11.2  0.3926   54.3  0.4363 -106.8
 4.900  0.6277   91.7   0.803   10.2  0.4025   53.2  0.4347 -109.9
 5.000  0.6315   90.5   0.788    9.3  0.4125   52.2  0.4344 -113.0
 5.100  0.6332   89.2   0.778    8.7  0.4216   50.9  0.4331 -116.1
 5.200  0.6352   87.9   0.768    8.0  0.4308   49.6  0.4332 -119.2
 5.300  0.6375   86.6   0.758    7.3  0.4403   48.4  0.4345 -122.4
 5.400  0.6401   85.3   0.749    6.6  0.4500   47.2  0.4371 -125.5
 5.500  0.6431   84.0   0.739    5.9  0.4598   46.1  0.4409 -128.5
 5.600  0.6428   82.8   0.730    5.4  0.4682   44.7  0.4413 -131.2
 5.700  0.6428   81.6   0.722    4.8  0.4768   43.4  0.4426 -134.0
 5.800  0.6430   80.5   0.714    4.3  0.4857   42.1  0.4450 -136.7
 5.900  0.6435   79.3   0.705    3.7  0.4949   40.9  0.4484 -139.4
 6.000  0.6443   78.1   0.697    3.1  0.5042   39.7  0.4527 -142.0
!
!  f       NFmin   Gammaopt  rn/50
! GHz       dB    MAG  ANG    -
!
! noise parameter not available yet for this operation point!
!
! (c) 2017  Infineon Technologies AG, Munich