! Infineon Technologies  Discrete & RF Semiconductors
! BFR181W
! VCE =  1.0 V,  IC =  17 mA
! Common Emitter S-Parameters:                            Jan 2017
# GHz  S  MA  R  50
!  f         S11            S21            S12            S22
! GHz     MAG   ANG      MAG   ANG      MAG   ANG      MAG   ANG
 0.010  0.5324  -14.4  26.384  173.6  0.0032   80.0  0.8653   -4.0
 0.020  0.5269  -30.6  25.784  165.8  0.0058   80.7  0.8547   -7.9
 0.030  0.5055  -42.6  24.393  160.3  0.0088   72.0  0.8227  -10.9
 0.040  0.5074  -55.0  23.257  154.1  0.0118   67.8  0.7932  -14.2
 0.050  0.5324  -66.8  22.415  147.4  0.0149   65.3  0.7664  -17.7
 0.060  0.5154  -74.8  21.051  144.2  0.0162   62.3  0.7366  -18.9
 0.070  0.5090  -83.2  19.762  140.6  0.0175   59.7  0.7071  -20.3
 0.080  0.5136  -91.6  18.564  136.4  0.0188   57.4  0.6781  -21.7
 0.090  0.5290  -99.7  17.475  131.8  0.0201   55.5  0.6495  -23.3
 0.100  0.5543 -107.2  16.517  126.5  0.0215   53.8  0.6215  -25.0
 0.110  0.5505 -111.7  15.664  124.6  0.0223   52.6  0.6030  -25.2
 0.120  0.5501 -116.2  14.829  122.5  0.0232   51.4  0.5845  -25.4
 0.130  0.5531 -120.7  14.017  120.2  0.0241   50.4  0.5660  -25.7
 0.140  0.5595 -125.1  13.231  117.6  0.0249   49.4  0.5476  -25.9
 0.150  0.5691 -129.4  12.476  114.6  0.0258   48.5  0.5291  -26.2
 0.200  0.5723 -142.6   9.851  106.6  0.0279   48.0  0.4772  -25.3
 0.250  0.5768 -151.8   8.101  100.9  0.0311   49.8  0.4474  -24.3
 0.300  0.5795 -158.4   6.845   96.6  0.0330   51.0  0.4271  -23.3
 0.350  0.5791 -163.0   6.032   93.8  0.0359   53.1  0.4162  -22.9
 0.400  0.5824 -167.6   5.238   90.1  0.0388   54.9  0.4054  -22.4
 0.450  0.5816 -170.9   4.725   87.9  0.0414   57.1  0.3992  -22.4
 0.500  0.5827 -174.2   4.220   85.1  0.0441   59.0  0.3930  -22.3
 0.600  0.5869 -179.2   3.542   80.7  0.0498   61.5  0.3857  -22.8
 0.700  0.5911  176.5   3.050   76.9  0.0557   64.1  0.3802  -23.7
 0.800  0.5925  172.6   2.683   73.1  0.0623   66.4  0.3759  -24.9
 0.900  0.5936  169.2   2.390   69.8  0.0692   67.1  0.3721  -26.5
 1.000  0.5987  166.2   2.168   66.6  0.0763   68.3  0.3676  -28.1
 1.100  0.6022  163.1   1.979   63.6  0.0832   69.6  0.3652  -29.8
 1.200  0.6059  160.2   1.822   60.5  0.0908   69.7  0.3616  -31.7
 1.300  0.6069  157.5   1.687   57.6  0.0979   70.5  0.3586  -33.9
 1.400  0.6126  154.9   1.577   54.8  0.1058   70.9  0.3543  -36.1
 1.500  0.6191  152.5   1.478   52.2  0.1135   71.1  0.3514  -38.3
 1.600  0.6237  150.0   1.392   49.5  0.1216   71.1  0.3498  -40.8
 1.700  0.6273  147.4   1.316   47.0  0.1294   71.1  0.3454  -43.4
 1.800  0.6323  145.1   1.251   44.5  0.1380   70.7  0.3421  -46.0
 1.900  0.6378  143.0   1.189   42.3  0.1462   70.6  0.3401  -48.7
 2.000  0.6414  140.5   1.132   39.8  0.1548   70.3  0.3385  -51.7
 2.100  0.6453  138.2   1.082   37.7  0.1637   69.8  0.3359  -54.7
 2.200  0.6502  135.9   1.034   35.4  0.1726   69.3  0.3342  -57.7
 2.300  0.6544  133.8   0.993   33.4  0.1819   68.7  0.3327  -60.7
 2.400  0.6594  131.8   0.954   31.2  0.1912   68.2  0.3321  -63.8
 2.500  0.6617  129.7   0.918   29.6  0.2004   67.5  0.3313  -66.9
 2.600  0.6648  127.7   0.882   27.8  0.2096   66.8  0.3315  -70.0
 2.700  0.6692  125.6   0.851   26.2  0.2189   66.0  0.3315  -73.0
 2.800  0.6744  123.5   0.821   24.5  0.2283   65.3  0.3324  -75.9
 2.900  0.6760  121.5   0.794   23.1  0.2382   64.4  0.3318  -78.8
 3.000  0.6784  119.5   0.767   21.5  0.2481   63.6  0.3320  -81.8
 3.100  0.6799  117.5   0.745   20.5  0.2577   62.5  0.3301  -84.6
 3.200  0.6823  115.5   0.724   19.4  0.2674   61.5  0.3289  -87.4
 3.300  0.6854  113.6   0.703   18.3  0.2771   60.6  0.3286  -90.2
 3.400  0.6894  111.6   0.682   17.1  0.2869   59.7  0.3290  -93.1
 3.500  0.6941  109.7   0.661   15.8  0.2968   58.9  0.3303  -95.9
 3.600  0.6948  107.9   0.646   15.2  0.3062   57.6  0.3264  -98.8
 3.700  0.6962  106.0   0.631   14.5  0.3158   56.4  0.3234 -101.8
 3.800  0.6983  104.2   0.616   13.9  0.3255   55.2  0.3213 -104.8
 3.900  0.7012  102.4   0.601   13.1  0.3353   54.1  0.3200 -107.8
 4.000  0.7047  100.6   0.586   12.4  0.3453   53.1  0.3197 -110.9
 4.100  0.7040   98.9   0.576   12.0  0.3541   51.7  0.3149 -114.3
 4.200  0.7038   97.2   0.566   11.6  0.3632   50.4  0.3112 -117.8
 4.300  0.7043   95.5   0.555   11.2  0.3724   49.1  0.3087 -121.3
 4.400  0.7055   93.8   0.545   10.8  0.3818   47.9  0.3074 -124.9
 4.500  0.7072   92.1   0.535   10.4  0.3913   46.8  0.3073 -128.5
 4.600  0.7071   90.8   0.529   10.4  0.3992   45.5  0.3050 -132.2
 4.700  0.7073   89.5   0.523   10.3  0.4073   44.3  0.3041 -135.9
 4.800  0.7079   88.1   0.516   10.3  0.4155   43.1  0.3044 -139.7
 4.900  0.7089   86.8   0.510   10.2  0.4239   42.0  0.3060 -143.4
 5.000  0.7103   85.5   0.504   10.2  0.4325   40.9  0.3089 -147.1
 5.100  0.7094   84.2   0.503   10.1  0.4396   39.6  0.3111 -150.4
 5.200  0.7088   82.9   0.502   10.0  0.4468   38.4  0.3144 -153.7
 5.300  0.7086   81.6   0.500   10.0  0.4543   37.2  0.3186 -156.9
 5.400  0.7088   80.3   0.499    9.9  0.4620   36.0  0.3239 -160.0
 5.500  0.7093   79.0   0.498    9.8  0.4698   34.9  0.3300 -163.0
 5.600  0.7065   77.8   0.498    9.7  0.4760   33.6  0.3325 -165.6
 5.700  0.7040   76.6   0.499    9.6  0.4823   32.4  0.3356 -168.1
 5.800  0.7018   75.4   0.499    9.5  0.4889   31.1  0.3394 -170.6
 5.900  0.6999   74.2   0.500    9.4  0.4958   30.0  0.3438 -173.0
 6.000  0.6983   73.0   0.500    9.3  0.5028   28.8  0.3488 -175.4
!
!  f       NFmin   Gammaopt  rn/50
! GHz       dB    MAG  ANG    -
!
! noise parameter not available yet for this operation point!
!
! (c) 2017  Infineon Technologies AG, Munich