! Infineon Technologies  Discrete & RF Semiconductors
! BFR181W
! VCE =  4.0 V,  IC =  26 mA
! Common Emitter S-Parameters:                            Jan 2017
# GHz  S  MA  R  50
!  f         S11            S21            S12            S22
! GHz     MAG   ANG      MAG   ANG      MAG   ANG      MAG   ANG
 0.010  0.4696  -10.1  32.675  174.9  0.0015   80.3  0.9324   -2.0
 0.020  0.4609  -22.7  32.224  168.9  0.0036   87.9  0.9215   -4.5
 0.030  0.4462  -31.9  31.048  164.2  0.0051   79.4  0.9047   -6.7
 0.040  0.4435  -41.4  30.091  159.3  0.0067   74.8  0.8894   -9.0
 0.050  0.4530  -50.8  29.376  154.0  0.0083   72.0  0.8755  -11.4
 0.060  0.4379  -58.0  27.972  150.8  0.0092   69.9  0.8532  -12.5
 0.070  0.4301  -65.5  26.663  147.3  0.0102   68.3  0.8312  -13.6
 0.080  0.4299  -73.2  25.463  143.5  0.0111   66.9  0.8095  -14.8
 0.090  0.4374  -80.8  24.390  139.3  0.0120   65.7  0.7882  -16.1
 0.100  0.4523  -88.0  23.459  134.7  0.0130   64.7  0.7673  -17.4
 0.110  0.4453  -92.9  22.421  132.7  0.0138   63.9  0.7507  -17.7
 0.120  0.4416  -97.9  21.412  130.5  0.0146   63.1  0.7341  -18.1
 0.130  0.4413 -102.9  20.439  128.1  0.0155   62.4  0.7176  -18.4
 0.140  0.4444 -107.9  19.505  125.4  0.0163   61.8  0.7011  -18.8
 0.150  0.4508 -112.8  18.618  122.5  0.0171   61.3  0.6846  -19.2
 0.200  0.4503 -128.3  15.053  113.9  0.0190   60.0  0.6326  -19.2
 0.250  0.4522 -139.5  12.575  107.8  0.0216   59.6  0.6004  -18.7
 0.300  0.4527 -147.8  10.736  103.4  0.0240   62.2  0.5779  -18.1
 0.350  0.4496 -153.5   9.500  100.5  0.0264   64.4  0.5654  -17.8
 0.400  0.4509 -159.2   8.295   96.7  0.0288   66.2  0.5529  -17.5
 0.450  0.4503 -163.4   7.501   94.5  0.0311   67.3  0.5465  -17.5
 0.500  0.4521 -167.6   6.720   91.8  0.0335   68.2  0.5401  -17.5
 0.600  0.4563 -173.6   5.651   87.8  0.0391   69.7  0.5314  -18.0
 0.700  0.4591 -178.5   4.876   84.3  0.0445   72.6  0.5256  -18.6
 0.800  0.4635  176.9   4.298   81.0  0.0506   74.4  0.5213  -19.6
 0.900  0.4641  173.1   3.831   78.1  0.0559   74.8  0.5175  -20.8
 1.000  0.4669  169.6   3.474   75.4  0.0618   76.6  0.5133  -22.0
 1.100  0.4705  166.1   3.171   72.9  0.0683   77.1  0.5114  -23.3
 1.200  0.4748  163.1   2.918   70.2  0.0741   77.3  0.5081  -24.8
 1.300  0.4767  160.2   2.703   67.7  0.0803   77.7  0.5051  -26.3
 1.400  0.4813  157.4   2.526   65.4  0.0875   78.4  0.5018  -27.9
 1.500  0.4863  155.1   2.366   63.2  0.0936   78.3  0.4991  -29.6
 1.600  0.4910  152.2   2.231   60.8  0.1005   78.7  0.4981  -31.4
 1.700  0.4946  150.0   2.109   58.7  0.1082   78.7  0.4942  -33.4
 1.800  0.4995  147.4   2.006   56.5  0.1150   78.3  0.4912  -35.2
 1.900  0.5038  145.5   1.909   54.6  0.1227   78.4  0.4894  -37.1
 2.000  0.5078  143.0   1.819   52.3  0.1303   78.1  0.4878  -39.3
 2.100  0.5115  140.8   1.743   50.4  0.1382   77.8  0.4853  -41.4
 2.200  0.5159  138.6   1.669   48.3  0.1462   77.5  0.4834  -43.5
 2.300  0.5204  136.5   1.607   46.4  0.1542   77.0  0.4820  -45.7
 2.400  0.5256  134.4   1.547   44.4  0.1623   76.5  0.4814  -47.9
 2.500  0.5282  132.5   1.491   42.7  0.1707   76.0  0.4805  -50.2
 2.600  0.5314  130.6   1.437   40.8  0.1792   75.5  0.4803  -52.5
 2.700  0.5367  128.7   1.391   39.1  0.1878   74.8  0.4798  -54.7
 2.800  0.5425  126.8   1.347   37.3  0.1965   74.2  0.4801  -56.9
 2.900  0.5459  124.8   1.306   35.7  0.2055   73.5  0.4791  -59.1
 3.000  0.5500  122.9   1.267   33.9  0.2146   72.8  0.4788  -61.3
 3.100  0.5531  121.0   1.233   32.6  0.2240   71.9  0.4772  -63.4
 3.200  0.5567  119.1   1.201   31.1  0.2335   71.0  0.4763  -65.6
 3.300  0.5610  117.3   1.169   29.6  0.2430   70.3  0.4760  -67.7
 3.400  0.5658  115.5   1.137   28.1  0.2525   69.6  0.4764  -69.9
 3.500  0.5712  113.7   1.107   26.4  0.2621   68.9  0.4775  -72.0
 3.600  0.5737  112.0   1.083   25.2  0.2717   67.7  0.4739  -74.3
 3.700  0.5766  110.3   1.059   24.0  0.2815   66.6  0.4710  -76.5
 3.800  0.5801  108.6   1.035   22.7  0.2914   65.6  0.4689  -78.8
 3.900  0.5841  106.9   1.012   21.3  0.3013   64.7  0.4675  -81.2
 4.000  0.5885  105.3   0.990   19.9  0.3113   63.8  0.4669  -83.5
 4.100  0.5909  103.7   0.971   18.8  0.3211   62.5  0.4609  -86.1
 4.200  0.5938  102.1   0.952   17.6  0.3310   61.3  0.4558  -88.7
 4.300  0.5971  100.6   0.934   16.4  0.3410   60.1  0.4518  -91.3
 4.400  0.6008   99.0   0.916   15.2  0.3512   59.0  0.4487  -94.1
 4.500  0.6050   97.5   0.899   13.9  0.3615   58.0  0.4466  -96.8
 4.600  0.6078   96.2   0.883   13.0  0.3708   56.7  0.4413  -99.7
 4.700  0.6109   94.9   0.866   12.2  0.3803   55.5  0.4373 -102.8
 4.800  0.6143   93.6   0.850   11.2  0.3900   54.3  0.4344 -105.8
 4.900  0.6180   92.3   0.835   10.3  0.3998   53.2  0.4328 -108.9
 5.000  0.6220   91.0   0.819    9.3  0.4098   52.2  0.4325 -112.0
 5.100  0.6238   89.7   0.808    8.6  0.4189   50.9  0.4314 -115.1
 5.200  0.6260   88.5   0.798    7.8  0.4281   49.6  0.4316 -118.2
 5.300  0.6284   87.2   0.787    7.1  0.4376   48.4  0.4330 -121.3
 5.400  0.6312   85.9   0.777    6.3  0.4473   47.3  0.4357 -124.4
 5.500  0.6342   84.7   0.767    5.5  0.4571   46.2  0.4396 -127.4
 5.600  0.6340   83.5   0.757    4.9  0.4654   44.8  0.4399 -130.1
 5.700  0.6342   82.3   0.748    4.4  0.4740   43.5  0.4413 -132.9
 5.800  0.6346   81.1   0.738    3.8  0.4828   42.2  0.4436 -135.6
 5.900  0.6352   79.9   0.728    3.2  0.4918   41.0  0.4469 -138.3
 6.000  0.6362   78.7   0.719    2.6  0.5011   39.8  0.4512 -140.9
!
!  f       NFmin   Gammaopt  rn/50
! GHz       dB    MAG  ANG    -
!
! noise parameter not available yet for this operation point!
!
! (c) 2017  Infineon Technologies AG, Munich