! Infineon Technologies  Discrete & RF Semiconductors
! BFR181W
! VCE =  7.0 V,  IC =  1.0 mA
! Common Emitter S-Parameters:                            Jan 2017
# GHz  S  MA  R  50
!  f         S11            S21            S12            S22
! GHz     MAG   ANG      MAG   ANG      MAG   ANG      MAG   ANG
 0.010  0.9834    0.1   3.602 -179.6  0.0016   79.9  1.0000   -0.4
 0.020  0.9576   -2.8   3.551  178.7  0.0033   98.7  0.9996   -0.7
 0.030  0.9544   -3.1   3.551  178.0  0.0053   92.8  0.9991   -1.1
 0.040  0.9512   -3.4   3.552  177.4  0.0074   90.2  0.9987   -1.6
 0.050  0.9481   -3.7   3.553  176.7  0.0094   88.7  0.9984   -2.0
 0.060  0.9511   -4.6   3.546  176.0  0.0112   88.0  0.9973   -2.4
 0.070  0.9543   -5.4   3.540  175.3  0.0129   87.5  0.9962   -2.8
 0.080  0.9577   -6.2   3.535  174.5  0.0147   87.1  0.9952   -3.3
 0.090  0.9614   -7.1   3.529  173.8  0.0164   86.8  0.9943   -3.7
 0.100  0.9652   -7.9   3.525  173.1  0.0182   86.6  0.9934   -4.1
 0.110  0.9622   -8.8   3.523  172.4  0.0200   85.2  0.9931   -4.5
 0.120  0.9594   -9.7   3.522  171.7  0.0219   84.0  0.9928   -4.9
 0.130  0.9569  -10.6   3.522  171.1  0.0237   83.0  0.9926   -5.4
 0.140  0.9546  -11.5   3.522  170.4  0.0255   82.1  0.9925   -5.8
 0.150  0.9525  -12.4   3.522  169.7  0.0274   81.4  0.9924   -6.2
 0.200  0.9525  -15.9   3.492  165.7  0.0359   79.9  0.9858   -8.2
 0.250  0.9398  -20.2   3.488  162.1  0.0447   76.9  0.9797  -10.2
 0.300  0.9257  -24.1   3.448  158.6  0.0528   74.2  0.9709  -12.1
 0.350  0.9143  -27.8   3.409  155.3  0.0605   71.5  0.9611  -14.0
 0.400  0.9067  -31.5   3.381  151.9  0.0683   69.5  0.9524  -15.9
 0.450  0.8886  -35.3   3.324  148.7  0.0755   66.9  0.9404  -17.6
 0.500  0.8745  -39.2   3.279  145.3  0.0828   64.8  0.9292  -19.4
 0.600  0.8448  -46.5   3.178  138.9  0.0954   60.6  0.9031  -22.6
 0.700  0.8074  -53.7   3.060  132.6  0.1061   56.6  0.8759  -25.6
 0.800  0.7741  -60.2   2.957  127.0  0.1160   53.0  0.8484  -28.4
 0.900  0.7399  -67.0   2.841  121.4  0.1230   49.6  0.8220  -30.8
 1.000  0.7051  -73.4   2.729  116.5  0.1297   46.8  0.7954  -33.1
 1.100  0.6740  -79.6   2.616  111.7  0.1341   44.4  0.7725  -35.1
 1.200  0.6432  -85.6   2.508  107.1  0.1382   41.7  0.7485  -37.1
 1.300  0.6139  -91.4   2.407  102.5  0.1415   39.8  0.7276  -39.0
 1.400  0.5900  -96.9   2.311   98.6  0.1439   38.3  0.7075  -40.9
 1.500  0.5661 -102.7   2.233   94.6  0.1456   37.0  0.6900  -42.4
 1.600  0.5437 -108.1   2.137   90.8  0.1467   35.9  0.6761  -44.1
 1.700  0.5254 -113.6   2.067   87.5  0.1472   35.1  0.6586  -45.7
 1.800  0.5085 -119.2   2.006   83.9  0.1474   34.3  0.6444  -47.2
 1.900  0.4966 -124.7   1.944   80.8  0.1477   34.1  0.6319  -48.7
 2.000  0.4793 -129.9   1.884   77.2  0.1484   33.9  0.6227  -50.2
 2.100  0.4669 -134.9   1.824   74.2  0.1481   34.0  0.6132  -51.7
 2.200  0.4582 -140.1   1.769   71.0  0.1479   34.2  0.6041  -53.2
 2.300  0.4499 -145.0   1.715   68.2  0.1477   34.7  0.5974  -54.8
 2.400  0.4450 -150.1   1.665   65.2  0.1475   35.3  0.5911  -56.5
 2.500  0.4385 -154.7   1.616   62.7  0.1475   36.3  0.5855  -58.0
 2.600  0.4349 -159.5   1.571   60.0  0.1476   37.2  0.5803  -59.6
 2.700  0.4299 -164.3   1.530   57.5  0.1483   38.4  0.5772  -61.1
 2.800  0.4279 -169.1   1.493   54.8  0.1491   39.5  0.5745  -62.7
 2.900  0.4251 -173.3   1.459   52.3  0.1510   40.9  0.5713  -64.1
 3.000  0.4247 -177.6   1.428   49.6  0.1530   42.2  0.5684  -65.6
 3.100  0.4216  178.5   1.393   47.7  0.1565   43.9  0.5664  -67.2
 3.200  0.4205  174.6   1.359   45.7  0.1601   45.4  0.5649  -68.7
 3.300  0.4214  170.6   1.327   43.7  0.1638   47.0  0.5638  -70.3
 3.400  0.4243  166.7   1.296   41.5  0.1676   48.4  0.5631  -71.9
 3.500  0.4291  162.9   1.268   39.2  0.1715   49.8  0.5629  -73.5
 3.600  0.4299  159.5   1.242   37.4  0.1779   50.9  0.5601  -75.3
 3.700  0.4323  156.1   1.218   35.6  0.1843   51.9  0.5578  -77.1
 3.800  0.4362  152.7   1.194   33.7  0.1909   52.8  0.5560  -78.9
 3.900  0.4415  149.4   1.172   31.7  0.1974   53.7  0.5549  -80.8
 4.000  0.4483  146.2   1.152   29.7  0.2040   54.5  0.5543  -82.6
 4.100  0.4513  143.1   1.130   28.1  0.2132   54.8  0.5495  -84.8
 4.200  0.4556  140.1   1.109   26.4  0.2223   55.1  0.5454  -87.0
 4.300  0.4611  137.2   1.088   24.7  0.2315   55.3  0.5423  -89.2
 4.400  0.4678  134.3   1.069   22.9  0.2406   55.6  0.5399  -91.5
 4.500  0.4756  131.5   1.051   21.1  0.2498   55.8  0.5384  -93.8
 4.600  0.4803  128.9   1.030   19.8  0.2604   55.5  0.5341  -96.3
 4.700  0.4860  126.4   1.010   18.4  0.2709   55.2  0.5309  -98.9
 4.800  0.4926  124.0   0.990   17.0  0.2815   54.9  0.5288 -101.5
 4.900  0.5001  121.6   0.971   15.5  0.2921   54.6  0.5278 -104.2
 5.000  0.5084  119.3   0.953   14.0  0.3027   54.4  0.5279 -106.8
 5.100  0.5123  117.2   0.938   12.9  0.3140   53.6  0.5272 -109.6
 5.200  0.5169  115.1   0.923   11.8  0.3254   52.9  0.5277 -112.4
 5.300  0.5222  113.0   0.908   10.7  0.3369   52.2  0.5295 -115.1
 5.400  0.5282  111.0   0.894    9.5  0.3484   51.5  0.5325 -117.9
 5.500  0.5348  109.0   0.880    8.3  0.3599   50.9  0.5367 -120.6
 5.600  0.5371  107.2   0.866    7.4  0.3710   49.7  0.5371 -123.2
 5.700  0.5399  105.3   0.853    6.5  0.3822   48.6  0.5387 -125.8
 5.800  0.5433  103.5   0.839    5.6  0.3935   47.6  0.5413 -128.4
 5.900  0.5472  101.8   0.826    4.7  0.4049   46.6  0.5450 -130.9
 6.000  0.5516  100.0   0.813    3.7  0.4165   45.7  0.5498 -133.4
!
!  f       NFmin   Gammaopt  rn/50
! GHz       dB    MAG  ANG    -
 0.450      0.87  0.69   18   0.51
 0.900      0.95  0.64   36   0.47
 1.900      1.56  0.44   83   0.32
 2.400      1.81  0.38   99   0.34
!
! (c) 2017  Infineon Technologies AG, Munich