! Infineon Technologies  Discrete & RF Semiconductors
! BFR181W
! VCE =  9.0 V,  IC =  10 mA
! Common Emitter S-Parameters:                            Jan 2017
# GHz  S  MA  R  50
!  f         S11            S21            S12            S22
! GHz     MAG   ANG      MAG   ANG      MAG   ANG      MAG   ANG
 0.010  0.7603   -2.0  24.427  177.2  0.0014   74.9  0.9927   -1.4
 0.020  0.7474   -7.1  24.095  174.2  0.0031   90.0  0.9962   -2.8
 0.030  0.7380   -9.6  23.818  172.0  0.0047   85.3  0.9890   -4.3
 0.040  0.7300  -12.1  23.576  169.8  0.0064   83.0  0.9824   -5.8
 0.050  0.7234  -14.7  23.369  167.6  0.0080   81.7  0.9765   -7.3
 0.060  0.7150  -17.5  23.031  165.5  0.0094   80.2  0.9660   -8.6
 0.070  0.7084  -20.4  22.726  163.2  0.0108   79.0  0.9560   -9.9
 0.080  0.7035  -23.3  22.456  161.0  0.0123   78.2  0.9466  -11.2
 0.090  0.7005  -26.2  22.222  158.7  0.0137   77.5  0.9376  -12.6
 0.100  0.6994  -29.2  22.025  156.3  0.0151   76.9  0.9292  -14.0
 0.110  0.6850  -31.7  21.638  154.4  0.0163   75.5  0.9172  -15.0
 0.120  0.6720  -34.3  21.274  152.5  0.0176   74.2  0.9055  -16.0
 0.130  0.6604  -37.0  20.936  150.5  0.0189   73.2  0.8941  -17.1
 0.140  0.6503  -39.7  20.623  148.4  0.0201   72.2  0.8831  -18.2
 0.150  0.6418  -42.6  20.339  146.3  0.0214   71.4  0.8723  -19.3
 0.200  0.5890  -53.5  18.441  137.5  0.0257   67.1  0.8094  -23.2
 0.250  0.5339  -63.9  16.730  130.3  0.0309   65.0  0.7533  -26.0
 0.300  0.4853  -73.0  15.108  124.3  0.0339   62.8  0.7020  -27.8
 0.350  0.4464  -79.7  13.791  120.1  0.0369   62.5  0.6631  -28.7
 0.400  0.4146  -87.5  12.563  115.1  0.0400   62.2  0.6244  -29.8
 0.450  0.3844  -93.3  11.557  111.9  0.0430   61.8  0.5974  -30.1
 0.500  0.3589 -100.1  10.592  108.2  0.0461   61.5  0.5704  -30.5
 0.600  0.3209 -110.6   9.139  102.6  0.0512   62.5  0.5317  -30.5
 0.700  0.2918 -120.7   7.994   98.0  0.0559   63.2  0.5038  -30.4
 0.800  0.2740 -129.8   7.121   94.0  0.0628   64.4  0.4839  -30.5
 0.900  0.2586 -138.1   6.394   90.5  0.0678   64.4  0.4682  -30.5
 1.000  0.2487 -145.8   5.823   87.4  0.0732   65.3  0.4547  -30.6
 1.100  0.2436 -152.5   5.332   84.6  0.0795   65.8  0.4455  -30.9
 1.200  0.2391 -159.3   4.920   81.8  0.0848   66.1  0.4364  -31.4
 1.300  0.2349 -165.4   4.563   79.2  0.0907   66.4  0.4297  -32.0
 1.400  0.2342 -170.4   4.270   76.8  0.0970   66.7  0.4226  -32.7
 1.500  0.2363 -175.4   4.006   74.5  0.1028   66.9  0.4177  -33.6
 1.600  0.2366  179.5   3.775   72.2  0.1093   66.8  0.4138  -34.6
 1.700  0.2376  175.0   3.571   70.2  0.1157   67.0  0.4084  -35.7
 1.800  0.2397  170.8   3.400   68.0  0.1219   66.8  0.4039  -36.8
 1.900  0.2444  167.6   3.239   66.1  0.1281   66.8  0.4008  -38.2
 2.000  0.2483  163.7   3.089   64.0  0.1347   66.5  0.3979  -39.6
 2.100  0.2511  160.3   2.962   62.1  0.1413   66.3  0.3951  -41.1
 2.200  0.2547  157.0   2.838   60.1  0.1480   66.1  0.3926  -42.6
 2.300  0.2606  154.1   2.733   58.3  0.1546   65.8  0.3905  -44.2
 2.400  0.2671  151.3   2.632   56.3  0.1613   65.5  0.3887  -45.9
 2.500  0.2706  148.7   2.540   54.6  0.1680   65.1  0.3874  -47.6
 2.600  0.2747  146.1   2.451   52.7  0.1748   64.7  0.3864  -49.3
 2.700  0.2801  143.6   2.374   51.0  0.1817   64.3  0.3859  -51.0
 2.800  0.2860  141.2   2.300   49.2  0.1886   63.9  0.3858  -52.7
 2.900  0.2908  138.8   2.234   47.5  0.1957   63.4  0.3848  -54.4
 3.000  0.2961  136.5   2.171   45.7  0.2029   63.0  0.3841  -56.1
 3.100  0.3001  134.3   2.115   44.3  0.2101   62.4  0.3833  -57.7
 3.200  0.3045  132.2   2.061   42.8  0.2174   61.9  0.3827  -59.3
 3.300  0.3093  130.1   2.009   41.2  0.2246   61.3  0.3825  -61.0
 3.400  0.3145  128.1   1.957   39.5  0.2319   60.9  0.3826  -62.6
 3.500  0.3201  126.2   1.908   37.8  0.2392   60.4  0.3830  -64.2
 3.600  0.3248  124.5   1.868   36.4  0.2467   59.6  0.3805  -65.9
 3.700  0.3299  122.8   1.829   34.9  0.2542   58.9  0.3784  -67.7
 3.800  0.3352  121.1   1.791   33.4  0.2618   58.2  0.3766  -69.4
 3.900  0.3408  119.5   1.754   31.8  0.2694   57.5  0.3752  -71.2
 4.000  0.3466  118.0   1.719   30.2  0.2770   56.9  0.3742  -73.0
 4.100  0.3525  116.4   1.687   28.8  0.2848   56.0  0.3697  -75.0
 4.200  0.3587  114.9   1.657   27.4  0.2926   55.2  0.3657  -77.1
 4.300  0.3652  113.4   1.627   25.9  0.3005   54.4  0.3622  -79.2
 4.400  0.3719  112.0   1.599   24.3  0.3085   53.7  0.3592  -81.4
 4.500  0.3788  110.6   1.572   22.7  0.3165   53.0  0.3567  -83.6
 4.600  0.3856  109.2   1.544   21.5  0.3243   52.1  0.3526  -86.1
 4.700  0.3926  107.8   1.517   20.2  0.3322   51.3  0.3492  -88.7
 4.800  0.3998  106.5   1.491   18.8  0.3401   50.6  0.3465  -91.3
 4.900  0.4072  105.2   1.466   17.4  0.3481   49.8  0.3445  -94.0
 5.000  0.4148  104.0   1.441   16.0  0.3561   49.1  0.3433  -96.7
 5.100  0.4201  102.8   1.420   14.8  0.3641   48.1  0.3427  -99.6
 5.200  0.4257  101.5   1.399   13.6  0.3721   47.2  0.3430 -102.5
 5.300  0.4314  100.4   1.379   12.3  0.3803   46.3  0.3442 -105.4
 5.400  0.4373   99.2   1.360   11.0  0.3885   45.5  0.3462 -108.3
 5.500  0.4434   98.1   1.341    9.6  0.3968   44.7  0.3491 -111.1
 5.600  0.4472   97.0   1.322    8.5  0.4046   43.7  0.3504 -113.8
 5.700  0.4511   95.8   1.303    7.4  0.4126   42.7  0.3525 -116.4
 5.800  0.4552   94.7   1.284    6.2  0.4206   41.7  0.3553 -119.0
 5.900  0.4595   93.7   1.266    5.0  0.4288   40.8  0.3589 -121.5
 6.000  0.4639   92.6   1.249    3.8  0.4371   39.9  0.3631 -124.0
!
!  f       NFmin   Gammaopt  rn/50
! GHz       dB    MAG  ANG    -
 0.450      1.24  0.15   16   0.21
 0.900      1.29  0.14   31   0.21
 1.900      1.71  0.03  142   0.20
 2.400      1.88  0.02 -166   0.24
!
! (c) 2017  Infineon Technologies AG, Munich