! Infineon Technologies  Discrete & RF Semiconductors
! BFR181W
! VCE =  5.0 V,  IC =  28 mA
! Common Emitter S-Parameters:                            Jan 2017
# GHz  S  MA  R  50
!  f         S11            S21            S12            S22
! GHz     MAG   ANG      MAG   ANG      MAG   ANG      MAG   ANG
 0.010  0.4658   -9.5  33.334  175.0  0.0015   90.7  0.9378   -1.9
 0.020  0.4577  -21.7  32.793  169.1  0.0033   88.7  0.9301   -4.3
 0.030  0.4433  -30.6  31.671  164.6  0.0049   79.8  0.9130   -6.5
 0.040  0.4401  -39.9  30.762  159.7  0.0065   75.3  0.8973   -8.7
 0.050  0.4484  -49.0  30.086  154.6  0.0081   72.6  0.8830  -11.0
 0.060  0.4331  -56.0  28.690  151.4  0.0091   70.7  0.8613  -12.1
 0.070  0.4247  -63.5  27.390  148.0  0.0101   69.2  0.8399  -13.3
 0.080  0.4237  -71.0  26.201  144.1  0.0111   67.9  0.8189  -14.5
 0.090  0.4301  -78.5  25.138  140.0  0.0121   66.9  0.7983  -15.8
 0.100  0.4435  -85.7  24.219  135.5  0.0131   66.0  0.7781  -17.1
 0.110  0.4362  -90.5  23.158  133.5  0.0138   64.6  0.7615  -17.4
 0.120  0.4320  -95.4  22.129  131.2  0.0145   63.3  0.7449  -17.8
 0.130  0.4311 -100.4  21.137  128.8  0.0152   62.1  0.7284  -18.1
 0.140  0.4334 -105.4  20.186  126.1  0.0159   61.1  0.7119  -18.5
 0.150  0.4390 -110.3  19.284  123.2  0.0166   60.1  0.6954  -18.9
 0.200  0.4338 -126.1  15.653  114.6  0.0182   60.4  0.6426  -19.0
 0.250  0.4349 -137.8  13.087  108.5  0.0214   61.7  0.6105  -18.6
 0.300  0.4349 -146.3  11.198  104.0  0.0238   62.4  0.5869  -18.0
 0.350  0.4330 -152.1   9.913  101.1  0.0262   64.6  0.5741  -17.7
 0.400  0.4355 -157.9   8.660   97.4  0.0287   66.4  0.5614  -17.4
 0.450  0.4344 -162.1   7.828   95.2  0.0310   67.6  0.5549  -17.4
 0.500  0.4356 -166.3   7.010   92.5  0.0334   68.6  0.5484  -17.5
 0.600  0.4390 -172.7   5.909   88.5  0.0384   70.7  0.5395  -17.8
 0.700  0.4419 -177.9   5.097   85.0  0.0433   73.2  0.5334  -18.5
 0.800  0.4437  177.6   4.492   81.8  0.0502   74.7  0.5287  -19.4
 0.900  0.4440  173.4   4.005   79.0  0.0551   75.9  0.5247  -20.6
 1.000  0.4499  169.9   3.634   76.3  0.0610   76.8  0.5201  -21.8
 1.100  0.4536  166.5   3.318   73.8  0.0677   77.4  0.5179  -23.1
 1.200  0.4556  163.3   3.055   71.2  0.0731   77.8  0.5151  -24.4
 1.300  0.4584  160.3   2.828   68.7  0.0788   78.4  0.5120  -26.1
 1.400  0.4630  157.7   2.645   66.4  0.0866   78.6  0.5089  -27.7
 1.500  0.4680  155.2   2.477   64.2  0.0935   78.8  0.5059  -29.2
 1.600  0.4719  152.6   2.336   62.0  0.1002   78.8  0.5048  -31.0
 1.700  0.4747  150.2   2.208   59.8  0.1075   78.7  0.5012  -33.0
 1.800  0.4813  147.6   2.100   57.6  0.1146   78.9  0.4977  -34.8
 1.900  0.4837  145.6   2.000   55.8  0.1218   78.6  0.4960  -36.6
 2.000  0.4888  143.3   1.906   53.6  0.1290   78.3  0.4944  -38.7
 2.100  0.4924  140.9   1.827   51.7  0.1368   77.9  0.4918  -40.8
 2.200  0.4969  138.6   1.750   49.6  0.1447   77.6  0.4898  -42.9
 2.300  0.5015  136.6   1.685   47.7  0.1528   77.2  0.4886  -45.0
 2.400  0.5067  134.6   1.622   45.7  0.1610   76.8  0.4881  -47.2
 2.500  0.5097  132.7   1.564   44.0  0.1693   76.3  0.4870  -49.4
 2.600  0.5132  130.8   1.507   42.1  0.1776   75.8  0.4867  -51.6
 2.700  0.5186  128.9   1.459   40.5  0.1860   75.1  0.4861  -53.7
 2.800  0.5245  127.1   1.413   38.7  0.1945   74.5  0.4862  -55.9
 2.900  0.5277  125.2   1.371   37.1  0.2034   73.8  0.4850  -58.1
 3.000  0.5315  123.3   1.331   35.3  0.2124   73.1  0.4845  -60.3
 3.100  0.5345  121.4   1.296   33.9  0.2217   72.2  0.4831  -62.4
 3.200  0.5381  119.5   1.262   32.5  0.2310   71.4  0.4823  -64.5
 3.300  0.5422  117.7   1.229   31.0  0.2404   70.6  0.4821  -66.6
 3.400  0.5469  115.9   1.196   29.4  0.2498   69.9  0.4826  -68.7
 3.500  0.5521  114.1   1.165   27.7  0.2593   69.3  0.4838  -70.8
 3.600  0.5547  112.4   1.140   26.5  0.2688   68.1  0.4801  -73.0
 3.700  0.5578  110.7   1.115   25.2  0.2784   67.0  0.4771  -75.2
 3.800  0.5613  109.1   1.091   23.9  0.2881   66.0  0.4749  -77.5
 3.900  0.5653  107.4   1.067   22.5  0.2979   65.1  0.4734  -79.7
 4.000  0.5698  105.8   1.044   21.0  0.3078   64.2  0.4726  -82.0
 4.100  0.5725  104.2   1.024   19.9  0.3175   62.9  0.4668  -84.5
 4.200  0.5756  102.7   1.004   18.7  0.3273   61.7  0.4619  -87.1
 4.300  0.5792  101.1   0.985   17.5  0.3373   60.6  0.4579  -89.7
 4.400  0.5831   99.6   0.966   16.2  0.3474   59.5  0.4549  -92.3
 4.500  0.5875   98.1   0.948   14.9  0.3576   58.5  0.4529  -95.0
 4.600  0.5906   96.8   0.931   14.0  0.3670   57.3  0.4476  -97.9
 4.700  0.5939   95.5   0.914   13.0  0.3766   56.1  0.4434 -100.8
 4.800  0.5976   94.2   0.898   12.0  0.3863   55.0  0.4404 -103.8
 4.900  0.6016   92.9   0.882   11.0  0.3962   53.9  0.4386 -106.8
 5.000  0.6058   91.7   0.866    9.9  0.4062   52.9  0.4380 -109.8
 5.100  0.6082   90.4   0.854    9.1  0.4152   51.6  0.4367 -112.9
 5.200  0.6110   89.2   0.843    8.3  0.4245   50.3  0.4366 -116.0
 5.300  0.6140   87.9   0.831    7.5  0.4339   49.1  0.4378 -119.0
 5.400  0.6173   86.7   0.820    6.7  0.4435   48.0  0.4403 -122.1
 5.500  0.6209   85.5   0.809    5.8  0.4533   46.9  0.4440 -125.1
 5.600  0.6210   84.3   0.799    5.2  0.4617   45.5  0.4443 -127.8
 5.700  0.6213   83.1   0.789    4.5  0.4704   44.2  0.4456 -130.5
 5.800  0.6219   81.8   0.779    3.9  0.4793   43.0  0.4479 -133.2
 5.900  0.6228   80.6   0.769    3.2  0.4885   41.8  0.4512 -135.9
 6.000  0.6240   79.4   0.759    2.5  0.4978   40.6  0.4554 -138.5
!
!  f       NFmin   Gammaopt  rn/50
! GHz       dB    MAG  ANG    -
!
! noise parameter not available yet for this operation point!
!
! (c) 2017  Infineon Technologies AG, Munich