! Infineon Technologies  Discrete & RF Semiconductors
! BFR181W
! VCE =  2.0 V,  IC =  21 mA
! Common Emitter S-Parameters:                            Jan 2017
# GHz  S  MA  R  50
!  f         S11            S21            S12            S22
! GHz     MAG   ANG      MAG   ANG      MAG   ANG      MAG   ANG
 0.010  0.4936  -11.9  29.715  174.6  0.0020   83.9  0.9087   -2.7
 0.020  0.4868  -26.2  29.238  167.7  0.0042   85.6  0.8935   -5.5
 0.030  0.4702  -36.5  27.984  162.7  0.0060   76.3  0.8734   -7.9
 0.040  0.4695  -47.2  26.962  157.3  0.0079   71.5  0.8549  -10.5
 0.050  0.4849  -57.5  26.198  151.5  0.0099   68.5  0.8382  -13.1
 0.060  0.4692  -65.2  24.806  148.3  0.0111   65.9  0.8131  -14.2
 0.070  0.4625  -73.3  23.502  144.7  0.0124   63.9  0.7883  -15.3
 0.080  0.4651  -81.4  22.301  140.7  0.0136   62.2  0.7638  -16.6
 0.090  0.4769  -89.3  21.220  136.3  0.0149   60.8  0.7398  -17.9
 0.100  0.4973  -96.7  20.279  131.4  0.0162   59.6  0.7161  -19.3
 0.110  0.4918 -101.5  19.314  129.4  0.0169   58.7  0.6993  -19.6
 0.120  0.4899 -106.3  18.374  127.2  0.0177   57.8  0.6824  -19.9
 0.130  0.4914 -111.2  17.463  124.8  0.0184   57.0  0.6656  -20.2
 0.140  0.4964 -115.9  16.587  122.2  0.0192   56.3  0.6489  -20.5
 0.150  0.5048 -120.6  15.751  119.2  0.0199   55.6  0.6321  -20.8
 0.200  0.5073 -135.0  12.613  110.8  0.0211   54.8  0.5818  -20.3
 0.250  0.5109 -145.5  10.466  104.9  0.0247   56.2  0.5523  -19.7
 0.300  0.5123 -152.8   8.887  100.5  0.0269   58.4  0.5315  -18.9
 0.350  0.5118 -158.0   7.850   97.7  0.0291   59.8  0.5203  -18.6
 0.400  0.5155 -163.2   6.838   94.0  0.0313   61.0  0.5091  -18.3
 0.450  0.5148 -166.9   6.174   91.8  0.0339   63.1  0.5033  -18.3
 0.500  0.5163 -170.6   5.521   89.1  0.0365   64.9  0.4975  -18.4
 0.600  0.5200 -176.2   4.640   85.0  0.0425   67.2  0.4896  -18.9
 0.700  0.5234  179.2   3.998   81.3  0.0469   69.6  0.4841  -19.6
 0.800  0.5258  175.0   3.521   77.9  0.0536   71.1  0.4799  -20.7
 0.900  0.5278  171.3   3.137   74.8  0.0592   72.8  0.4763  -22.0
 1.000  0.5328  168.0   2.843   71.9  0.0655   73.7  0.4717  -23.3
 1.100  0.5369  164.9   2.596   69.2  0.0719   74.8  0.4707  -24.8
 1.200  0.5394  161.7   2.389   66.3  0.0780   75.0  0.4672  -26.4
 1.300  0.5421  159.0   2.213   63.7  0.0850   75.3  0.4646  -28.2
 1.400  0.5456  156.4   2.067   61.2  0.0925   76.2  0.4608  -30.0
 1.500  0.5517  154.0   1.937   58.8  0.0994   76.2  0.4587  -31.8
 1.600  0.5574  151.4   1.824   56.2  0.1067   76.4  0.4568  -33.8
 1.700  0.5593  148.9   1.725   54.0  0.1138   76.5  0.4535  -35.9
 1.800  0.5649  146.4   1.640   51.6  0.1214   76.2  0.4505  -38.0
 1.900  0.5693  144.3   1.562   49.6  0.1295   76.3  0.4484  -40.1
 2.000  0.5723  142.1   1.487   47.2  0.1373   76.0  0.4470  -42.5
 2.100  0.5771  139.8   1.424   45.1  0.1455   75.6  0.4444  -44.8
 2.200  0.5828  137.6   1.363   42.9  0.1538   75.3  0.4425  -47.2
 2.300  0.5871  135.5   1.311   41.0  0.1623   74.7  0.4413  -49.7
 2.400  0.5922  133.5   1.261   38.9  0.1709   74.2  0.4409  -52.2
 2.500  0.5947  131.5   1.214   37.1  0.1796   73.7  0.4399  -54.6
 2.600  0.5978  129.6   1.169   35.2  0.1883   73.2  0.4397  -57.1
 2.700  0.6028  127.5   1.130   33.5  0.1975   72.5  0.4395  -59.6
 2.800  0.6086  125.5   1.093   31.7  0.2068   71.9  0.4402  -62.0
 2.900  0.6116  123.6   1.058   30.1  0.2161   71.1  0.4390  -64.4
 3.000  0.6153  121.7   1.024   28.4  0.2254   70.4  0.4386  -66.9
 3.100  0.6178  119.8   0.996   27.1  0.2351   69.4  0.4369  -69.2
 3.200  0.6210  117.8   0.969   25.8  0.2449   68.6  0.4359  -71.6
 3.300  0.6248  115.9   0.942   24.3  0.2547   67.8  0.4357  -74.0
 3.400  0.6294  114.0   0.916   22.8  0.2646   67.0  0.4362  -76.3
 3.500  0.6346  112.2   0.890   21.2  0.2745   66.3  0.4375  -78.7
 3.600  0.6366  110.4   0.870   20.2  0.2843   65.0  0.4335  -81.2
 3.700  0.6392  108.6   0.849   19.1  0.2942   63.9  0.4304  -83.7
 3.800  0.6425  106.8   0.830   17.9  0.3042   62.8  0.4281  -86.2
 3.900  0.6463  105.0   0.810   16.8  0.3143   61.8  0.4266  -88.7
 4.000  0.6508  103.3   0.791   15.5  0.3245   60.8  0.4260  -91.3
 4.100  0.6517  101.6   0.775   14.7  0.3343   59.4  0.4200  -94.1
 4.200  0.6532  100.0   0.759   13.8  0.3442   58.1  0.4150  -97.0
 4.300  0.6552   98.3   0.743   12.9  0.3543   56.9  0.4111 -100.0
 4.400  0.6578   96.6   0.727   11.9  0.3645   55.8  0.4083 -103.0
 4.500  0.6609   95.0   0.712   10.9  0.3749   54.7  0.4067 -106.1
 4.600  0.6624   93.6   0.700   10.4  0.3841   53.4  0.4019 -109.3
 4.700  0.6644   92.3   0.687    9.8  0.3934   52.1  0.3984 -112.6
 4.800  0.6666   91.0   0.675    9.2  0.4029   50.9  0.3963 -115.9
 4.900  0.6693   89.6   0.663    8.6  0.4126   49.8  0.3955 -119.3
 5.000  0.6723   88.3   0.651    8.0  0.4225   48.7  0.3960 -122.6
 5.100  0.6729   87.0   0.644    7.6  0.4311   47.4  0.3957 -125.9
 5.200  0.6739   85.7   0.636    7.2  0.4399   46.1  0.3967 -129.1
 5.300  0.6752   84.4   0.629    6.8  0.4489   44.9  0.3989 -132.4
 5.400  0.6768   83.2   0.622    6.3  0.4581   43.7  0.4025 -135.6
 5.500  0.6788   81.9   0.615    5.9  0.4675   42.6  0.4072 -138.7
 5.600  0.6774   80.7   0.610    5.7  0.4752   41.2  0.4080 -141.5
 5.700  0.6762   79.5   0.605    5.4  0.4833   39.9  0.4097 -144.2
 5.800  0.6754   78.2   0.600    5.2  0.4915   38.6  0.4123 -147.0
 5.900  0.6749   77.0   0.595    4.9  0.5001   37.3  0.4159 -149.7
 6.000  0.6747   75.8   0.590    4.7  0.5088   36.1  0.4204 -152.3
!
!  f       NFmin   Gammaopt  rn/50
! GHz       dB    MAG  ANG    -
!
! noise parameter not available yet for this operation point!
!
! (c) 2017  Infineon Technologies AG, Munich