! Infineon Technologies  Discrete & RF Semiconductors
! BFR181W
! VCE =  10. V,  IC =  11 mA
! Common Emitter S-Parameters:                            Jan 2017
# GHz  S  MA  R  50
!  f         S11            S21            S12            S22
! GHz     MAG   ANG      MAG   ANG      MAG   ANG      MAG   ANG
 0.010  0.7474   -1.9  25.816  176.8  0.0015   84.2  0.9915   -1.4
 0.020  0.7364   -7.6  25.476  173.8  0.0032   93.5  0.9828   -2.8
 0.030  0.7263  -10.2  25.153  171.6  0.0048   84.3  0.9791   -4.4
 0.040  0.7177  -12.8  24.869  169.3  0.0064   79.7  0.9762   -6.0
 0.050  0.7106  -15.5  24.625  167.0  0.0080   77.0  0.9741   -7.6
 0.060  0.7017  -18.4  24.239  164.8  0.0093   77.4  0.9631   -8.9
 0.070  0.6945  -21.3  23.891  162.5  0.0107   77.7  0.9526  -10.2
 0.080  0.6893  -24.3  23.582  160.1  0.0120   77.9  0.9426  -11.6
 0.090  0.6859  -27.3  23.315  157.7  0.0134   78.1  0.9332  -13.0
 0.100  0.6845  -30.4  23.090  155.2  0.0147   78.2  0.9243  -14.4
 0.110  0.6694  -33.0  22.655  153.3  0.0159   76.0  0.9113  -15.4
 0.120  0.6557  -35.7  22.244  151.4  0.0172   74.1  0.8986  -16.5
 0.130  0.6435  -38.5  21.861  149.3  0.0184   72.5  0.8861  -17.5
 0.140  0.6329  -41.4  21.506  147.3  0.0197   71.0  0.8741  -18.7
 0.150  0.6240  -44.4  21.180  145.1  0.0210   69.8  0.8623  -19.8
 0.200  0.5684  -55.7  19.090  136.1  0.0249   67.4  0.7982  -23.6
 0.250  0.5149  -66.2  17.238  128.9  0.0299   64.6  0.7404  -26.3
 0.300  0.4658  -75.2  15.495  123.0  0.0327   62.8  0.6884  -28.0
 0.350  0.4269  -82.0  14.103  118.8  0.0360   62.5  0.6506  -28.8
 0.400  0.3953  -90.1  12.801  113.8  0.0393   62.3  0.6129  -29.6
 0.450  0.3676  -95.9  11.756  110.7  0.0421   62.4  0.5865  -29.8
 0.500  0.3442 -102.6  10.750  107.1  0.0450   62.4  0.5602  -30.1
 0.600  0.3081 -113.7   9.255  101.7  0.0506   62.7  0.5235  -30.0
 0.700  0.2820 -123.3   8.086   97.2  0.0555   64.3  0.4969  -29.8
 0.800  0.2651 -132.6   7.193   93.2  0.0619   65.3  0.4779  -29.8
 0.900  0.2511 -140.7   6.453   89.8  0.0673   65.4  0.4631  -29.9
 1.000  0.2434 -148.3   5.872   86.7  0.0729   66.1  0.4503  -30.0
 1.100  0.2386 -154.9   5.379   84.0  0.0787   66.4  0.4425  -30.3
 1.200  0.2336 -161.8   4.957   81.2  0.0844   66.9  0.4342  -30.8
 1.300  0.2292 -167.5   4.599   78.7  0.0905   67.2  0.4274  -31.5
 1.400  0.2302 -172.8   4.302   76.3  0.0971   67.4  0.4212  -32.3
 1.500  0.2332 -177.6   4.035   74.1  0.1031   67.4  0.4155  -33.1
 1.600  0.2337  177.3   3.801   71.8  0.1094   67.4  0.4123  -34.0
 1.700  0.2348  172.9   3.595   69.8  0.1161   67.6  0.4077  -35.3
 1.800  0.2373  169.1   3.422   67.6  0.1219   67.2  0.4032  -36.4
 1.900  0.2418  165.9   3.261   65.7  0.1287   67.3  0.3999  -37.7
 2.000  0.2459  162.2   3.109   63.6  0.1349   66.8  0.3974  -39.3
 2.100  0.2492  158.9   2.980   61.7  0.1417   66.6  0.3945  -40.8
 2.200  0.2533  155.6   2.855   59.7  0.1486   66.4  0.3919  -42.3
 2.300  0.2590  152.7   2.750   57.9  0.1554   66.0  0.3901  -43.9
 2.400  0.2654  149.9   2.649   55.9  0.1623   65.7  0.3886  -45.6
 2.500  0.2687  147.4   2.556   54.2  0.1688   65.3  0.3873  -47.3
 2.600  0.2726  144.9   2.465   52.4  0.1753   64.9  0.3863  -49.1
 2.700  0.2788  142.3   2.387   50.7  0.1823   64.4  0.3856  -50.8
 2.800  0.2855  139.9   2.312   48.9  0.1893   63.9  0.3852  -52.5
 2.900  0.2892  137.7   2.246   47.2  0.1963   63.4  0.3843  -54.1
 3.000  0.2933  135.5   2.183   45.4  0.2033   62.9  0.3837  -55.8
 3.100  0.2975  133.3   2.127   44.0  0.2106   62.3  0.3828  -57.4
 3.200  0.3022  131.2   2.073   42.4  0.2179   61.7  0.3822  -59.1
 3.300  0.3073  129.2   2.020   40.8  0.2253   61.2  0.3820  -60.7
 3.400  0.3127  127.2   1.968   39.2  0.2326   60.7  0.3820  -62.4
 3.500  0.3185  125.3   1.919   37.4  0.2400   60.2  0.3824  -64.0
 3.600  0.3232  123.6   1.879   36.0  0.2475   59.4  0.3799  -65.7
 3.700  0.3282  121.9   1.839   34.6  0.2550   58.7  0.3778  -67.5
 3.800  0.3335  120.2   1.801   33.1  0.2625   58.0  0.3760  -69.2
 3.900  0.3391  118.6   1.764   31.5  0.2701   57.3  0.3746  -71.0
 4.000  0.3449  117.1   1.729   29.9  0.2777   56.7  0.3735  -72.8
 4.100  0.3510  115.5   1.697   28.5  0.2854   55.8  0.3691  -74.8
 4.200  0.3573  114.0   1.666   27.1  0.2932   55.0  0.3651  -76.9
 4.300  0.3639  112.5   1.637   25.6  0.3011   54.2  0.3617  -79.0
 4.400  0.3708  111.1   1.608   24.0  0.3090   53.4  0.3587  -81.2
 4.500  0.3778  109.7   1.581   22.4  0.3170   52.7  0.3563  -83.4
 4.600  0.3843  108.4   1.553   21.1  0.3248   51.8  0.3521  -85.9
 4.700  0.3911  107.0   1.526   19.8  0.3326   50.9  0.3486  -88.5
 4.800  0.3981  105.8   1.500   18.5  0.3405   50.1  0.3458  -91.2
 4.900  0.4052  104.6   1.474   17.1  0.3485   49.3  0.3438  -93.9
 5.000  0.4125  103.4   1.450   15.6  0.3565   48.6  0.3425  -96.6
 5.100  0.4179  102.1   1.429   14.4  0.3643   47.7  0.3417  -99.5
 5.200  0.4234  100.9   1.408   13.1  0.3721   46.8  0.3419 -102.5
 5.300  0.4292   99.7   1.388   11.9  0.3801   45.9  0.3429 -105.4
 5.400  0.4351   98.5   1.369   10.6  0.3881   45.1  0.3448 -108.3
 5.500  0.4412   97.4   1.351    9.2  0.3962   44.3  0.3476 -111.2
 5.600  0.4449   96.2   1.331    8.1  0.4041   43.2  0.3490 -113.8
 5.700  0.4487   95.1   1.311    7.0  0.4121   42.2  0.3512 -116.4
 5.800  0.4527   93.9   1.292    5.8  0.4203   41.2  0.3541 -119.0
 5.900  0.4569   92.8   1.274    4.6  0.4285   40.3  0.3577 -121.5
 6.000  0.4613   91.7   1.256    3.4  0.4369   39.4  0.3620 -124.0
!
!  f       NFmin   Gammaopt  rn/50
! GHz       dB    MAG  ANG    -
 0.450      1.29  0.12   17   0.21
 0.900      1.33  0.12   31   0.21
 1.900      1.76  0.04 -171   0.20
 2.400      1.95  0.05 -122   0.25
!
! (c) 2017  Infineon Technologies AG, Munich