! Infineon Technologies  Discrete & RF Semiconductors
! BFR181W
! VCE =  9.0 V,  IC =  7.0 mA
! Common Emitter S-Parameters:                            Jan 2017
# GHz  S  MA  R  50
!  f         S11            S21            S12            S22
! GHz     MAG   ANG      MAG   ANG      MAG   ANG      MAG   ANG
 0.010  0.8181   -1.5  19.280  177.9  0.0014   95.8  0.9961   -1.2
 0.020  0.7979   -6.0  18.884  175.2  0.0027   89.8  0.9980   -2.2
 0.030  0.7914   -7.9  18.774  173.5  0.0045   86.1  0.9927   -3.5
 0.040  0.7858   -9.9  18.681  171.7  0.0062   84.5  0.9878   -4.7
 0.050  0.7812  -11.9  18.607  169.9  0.0080   83.6  0.9835   -6.0
 0.060  0.7763  -14.2  18.416  168.0  0.0096   82.2  0.9765   -7.1
 0.070  0.7726  -16.6  18.245  166.2  0.0111   81.3  0.9699   -8.2
 0.080  0.7703  -18.9  18.094  164.2  0.0127   80.5  0.9637   -9.4
 0.090  0.7693  -21.3  17.963  162.3  0.0142   80.0  0.9578  -10.5
 0.100  0.7696  -23.7  17.854  160.3  0.0158   79.5  0.9524  -11.7
 0.110  0.7578  -25.9  17.633  158.6  0.0172   78.1  0.9433  -12.7
 0.120  0.7471  -28.1  17.427  156.9  0.0186   76.8  0.9344  -13.6
 0.130  0.7376  -30.4  17.238  155.2  0.0200   75.8  0.9258  -14.6
 0.140  0.7293  -32.7  17.064  153.4  0.0215   74.9  0.9175  -15.7
 0.150  0.7222  -35.1  16.907  151.6  0.0229   74.1  0.9095  -16.7
 0.200  0.6772  -44.7  15.746  143.5  0.0284   69.7  0.8598  -20.7
 0.250  0.6279  -53.9  14.636  136.5  0.0334   65.6  0.8111  -23.9
 0.300  0.5767  -62.3  13.479  130.4  0.0372   64.3  0.7627  -26.3
 0.350  0.5339  -68.7  12.466  125.9  0.0411   62.2  0.7234  -27.8
 0.400  0.4988  -76.1  11.542  120.7  0.0451   60.5  0.6846  -29.4
 0.450  0.4640  -81.6  10.706  117.3  0.0479   59.9  0.6543  -30.2
 0.500  0.4342  -88.0   9.915  113.3  0.0507   59.4  0.6241  -31.1
 0.600  0.3871  -98.5   8.663  107.1  0.0565   58.9  0.5793  -31.8
 0.700  0.3481 -108.1   7.643  102.0  0.0607   59.5  0.5442  -32.2
 0.800  0.3183 -116.7   6.852   97.5  0.0668   60.2  0.5180  -32.5
 0.900  0.2968 -125.0   6.176   93.7  0.0708   60.4  0.4981  -32.8
 1.000  0.2805 -132.7   5.643   90.3  0.0758   61.2  0.4809  -33.0
 1.100  0.2702 -139.8   5.182   87.2  0.0816   61.9  0.4693  -33.3
 1.200  0.2591 -147.1   4.788   84.2  0.0863   62.1  0.4575  -33.7
 1.300  0.2507 -153.4   4.452   81.3  0.0919   62.5  0.4484  -34.4
 1.400  0.2473 -159.3   4.166   78.8  0.0978   62.9  0.4399  -35.1
 1.500  0.2465 -164.8   3.914   76.4  0.1036   63.2  0.4328  -35.8
 1.600  0.2441 -170.6   3.691   73.9  0.1090   63.6  0.4285  -36.7
 1.700  0.2433 -175.2   3.494   71.8  0.1149   63.8  0.4220  -37.9
 1.800  0.2445  179.9   3.328   69.5  0.1212   63.8  0.4169  -38.9
 1.900  0.2484  176.1   3.174   67.5  0.1271   64.0  0.4128  -40.1
 2.000  0.2502  171.9   3.029   65.3  0.1328   63.9  0.4095  -41.4
 2.100  0.2521  167.9   2.906   63.3  0.1392   63.8  0.4062  -42.8
 2.200  0.2552  163.9   2.786   61.2  0.1456   63.8  0.4031  -44.3
 2.300  0.2600  160.4   2.683   59.3  0.1521   63.6  0.4010  -45.9
 2.400  0.2658  157.1   2.584   57.2  0.1587   63.5  0.3993  -47.6
 2.500  0.2692  154.4   2.494   55.4  0.1650   63.3  0.3976  -49.2
 2.600  0.2732  151.8   2.407   53.5  0.1714   63.2  0.3962  -50.8
 2.700  0.2780  148.7   2.332   51.8  0.1781   62.8  0.3955  -52.4
 2.800  0.2835  145.7   2.260   49.9  0.1848   62.5  0.3952  -54.1
 2.900  0.2879  143.3   2.196   48.2  0.1917   62.1  0.3940  -55.7
 3.000  0.2928  140.9   2.135   46.3  0.1987   61.7  0.3931  -57.3
 3.100  0.2968  138.5   2.080   44.8  0.2058   61.2  0.3923  -58.9
 3.200  0.3013  136.1   2.027   43.3  0.2129   60.8  0.3919  -60.5
 3.300  0.3063  133.8   1.976   41.6  0.2201   60.4  0.3917  -62.0
 3.400  0.3118  131.5   1.926   39.9  0.2272   60.0  0.3919  -63.6
 3.500  0.3178  129.4   1.878   38.1  0.2344   59.7  0.3923  -65.2
 3.600  0.3226  127.5   1.839   36.7  0.2419   59.0  0.3898  -66.9
 3.700  0.3278  125.6   1.800   35.2  0.2495   58.3  0.3876  -68.6
 3.800  0.3334  123.8   1.763   33.7  0.2571   57.7  0.3858  -70.4
 3.900  0.3392  122.0   1.727   32.1  0.2647   57.1  0.3843  -72.1
 4.000  0.3454  120.3   1.693   30.4  0.2723   56.6  0.3832  -73.9
 4.100  0.3512  118.6   1.662   29.0  0.2801   55.8  0.3788  -75.9
 4.200  0.3572  117.0   1.632   27.5  0.2880   55.0  0.3749  -77.9
 4.300  0.3635  115.5   1.603   26.0  0.2959   54.3  0.3715  -80.0
 4.400  0.3701  114.0   1.575   24.4  0.3038   53.6  0.3685  -82.1
 4.500  0.3769  112.5   1.549   22.8  0.3118   52.9  0.3661  -84.3
 4.600  0.3837  111.0   1.521   21.5  0.3196   52.1  0.3620  -86.8
 4.700  0.3907  109.5   1.494   20.2  0.3275   51.3  0.3587  -89.4
 4.800  0.3980  108.1   1.468   18.9  0.3354   50.5  0.3561  -92.0
 4.900  0.4056  106.8   1.442   17.5  0.3434   49.8  0.3542  -94.6
 5.000  0.4133  105.5   1.418   16.0  0.3515   49.1  0.3531  -97.3
 5.100  0.4188  104.2   1.397   14.8  0.3596   48.2  0.3526 -100.2
 5.200  0.4245  102.9   1.377   13.5  0.3678   47.3  0.3530 -103.1
 5.300  0.4305  101.7   1.358   12.3  0.3761   46.5  0.3543 -105.9
 5.400  0.4366  100.5   1.339   11.0  0.3844   45.7  0.3565 -108.8
 5.500  0.4429   99.3   1.321    9.6  0.3928   45.0  0.3595 -111.6
 5.600  0.4467   98.1   1.302    8.5  0.4009   43.9  0.3609 -114.2
 5.700  0.4506   96.8   1.283    7.3  0.4091   42.9  0.3630 -116.8
 5.800  0.4548   95.6   1.264    6.2  0.4174   41.9  0.3659 -119.4
 5.900  0.4591   94.5   1.246    4.9  0.4259   40.9  0.3695 -121.9
 6.000  0.4637   93.3   1.229    3.7  0.4345   40.0  0.3738 -124.4
!
!  f       NFmin   Gammaopt  rn/50
! GHz       dB    MAG  ANG    -
 0.450      1.08  0.24   17   0.22
 0.900      1.13  0.22   31   0.21
 1.900      1.55  0.09   86   0.19
 2.400      1.70  0.08   96   0.23
!
! (c) 2017  Infineon Technologies AG, Munich