! Infineon Technologies  Discrete & RF Semiconductors
! BFR181W
! VCE =  1.0 V,  IC =  28 mA
! Common Emitter S-Parameters:                            Jan 2017
# GHz  S  MA  R  50
!  f         S11            S21            S12            S22
! GHz     MAG   ANG      MAG   ANG      MAG   ANG      MAG   ANG
 0.010  0.2953  -35.5  26.270  170.1  0.0045   64.6  0.7642   -6.6
 0.020  0.3462  -65.0  25.015  159.3  0.0079   69.8  0.7322  -12.8
 0.030  0.3675  -84.0  22.794  152.8  0.0106   61.6  0.6851  -16.6
 0.040  0.4230  -99.4  20.925  145.1  0.0133   56.8  0.6414  -21.0
 0.050  0.5014 -110.7  19.507  136.0  0.0162   53.6  0.6020  -25.9
 0.060  0.5103 -117.9  17.985  133.1  0.0173   51.7  0.5703  -26.7
 0.070  0.5268 -124.7  16.516  129.7  0.0184   50.1  0.5387  -27.7
 0.080  0.5504 -131.1  15.116  125.7  0.0195   48.6  0.5072  -28.7
 0.090  0.5801 -136.8  13.805  120.9  0.0207   47.3  0.4760  -29.9
 0.100  0.6151 -142.0  12.613  115.1  0.0218   46.1  0.4450  -31.3
 0.110  0.6200 -144.8  11.869  113.5  0.0226   46.1  0.4303  -31.1
 0.120  0.6265 -147.6  11.135  111.7  0.0234   46.1  0.4155  -31.0
 0.130  0.6343 -150.3  10.414  109.7  0.0241   46.2  0.4008  -30.8
 0.140  0.6435 -152.9   9.707  107.4  0.0249   46.2  0.3861  -30.6
 0.150  0.6541 -155.5   9.019  104.7  0.0257   46.2  0.3714  -30.4
 0.200  0.6661 -163.4   6.927   97.8  0.0277   47.2  0.3362  -28.6
 0.250  0.6737 -168.8   5.614   92.9  0.0309   50.7  0.3176  -27.4
 0.300  0.6790 -172.8   4.711   89.0  0.0335   54.1  0.3046  -26.5
 0.350  0.6801 -175.7   4.137   86.3  0.0368   56.9  0.2981  -26.4
 0.400  0.6829 -178.6   3.575   82.7  0.0401   59.3  0.2916  -26.3
 0.450  0.6835  179.2   3.219   80.4  0.0437   61.1  0.2879  -26.9
 0.500  0.6852  177.0   2.870   77.6  0.0474   62.6  0.2843  -27.5
 0.600  0.6894  173.4   2.406   72.9  0.0547   65.1  0.2786  -29.3
 0.700  0.6918  170.3   2.068   68.7  0.0623   67.8  0.2740  -31.1
 0.800  0.6958  167.1   1.816   64.4  0.0709   69.6  0.2708  -33.7
 0.900  0.6964  164.2   1.619   60.6  0.0783   70.2  0.2671  -36.6
 1.000  0.7030  161.6   1.468   57.0  0.0875   71.0  0.2622  -39.5
 1.100  0.7083  159.0   1.337   53.5  0.0964   71.6  0.2593  -42.8
 1.200  0.7091  156.5   1.229   50.1  0.1049   71.8  0.2556  -46.0
 1.300  0.7122  153.9   1.136   46.9  0.1146   71.8  0.2520  -49.7
 1.400  0.7184  151.5   1.062   43.8  0.1245   71.9  0.2475  -53.5
 1.500  0.7237  149.3   0.989   40.9  0.1335   71.4  0.2440  -57.3
 1.600  0.7293  146.8   0.931   38.1  0.1435   71.2  0.2427  -61.3
 1.700  0.7324  144.4   0.876   35.5  0.1535   70.8  0.2388  -65.7
 1.800  0.7385  142.0   0.831   32.8  0.1638   70.0  0.2363  -70.0
 1.900  0.7419  139.9   0.787   30.9  0.1740   69.3  0.2350  -74.3
 2.000  0.7451  137.6   0.746   28.4  0.1843   68.6  0.2346  -78.9
 2.100  0.7478  135.1   0.710   26.6  0.1949   67.7  0.2329  -83.5
 2.200  0.7519  132.7   0.675   24.6  0.2056   66.8  0.2328  -88.1
 2.300  0.7549  130.6   0.646   23.0  0.2163   65.6  0.2333  -92.6
 2.400  0.7589  128.6   0.617   21.3  0.2271   64.6  0.2353  -97.0
 2.500  0.7596  126.4   0.590   20.2  0.2374   63.5  0.2363 -101.3
 2.600  0.7614  124.3   0.564   19.0  0.2477   62.4  0.2386 -105.5
 2.700  0.7637  122.3   0.543   18.2  0.2578   61.3  0.2401 -109.3
 2.800  0.7670  120.3   0.523   17.4  0.2679   60.2  0.2427 -113.1
 2.900  0.7664  118.2   0.505   16.9  0.2781   58.9  0.2438 -116.9
 3.000  0.7668  116.1   0.488   16.4  0.2884   57.6  0.2459 -120.6
 3.100  0.7657  114.1   0.477   16.4  0.2978   56.2  0.2447 -124.0
 3.200  0.7656  112.1   0.466   16.3  0.3073   54.9  0.2444 -127.3
 3.300  0.7663  110.1   0.454   16.3  0.3170   53.7  0.2449 -130.7
 3.400  0.7681  108.1   0.443   16.2  0.3268   52.5  0.2462 -134.1
 3.500  0.7707  106.1   0.432   16.2  0.3368   51.4  0.2484 -137.4
 3.600  0.7680  104.3   0.428   16.5  0.3450   49.9  0.2464 -140.9
 3.700  0.7661  102.5   0.424   16.7  0.3534   48.5  0.2454 -144.4
 3.800  0.7649  100.7   0.419   17.0  0.3620   47.2  0.2453 -147.9
 3.900  0.7645   98.8   0.415   17.3  0.3707   45.9  0.2461 -151.4
 4.000  0.7649   97.0   0.411   17.6  0.3797   44.7  0.2478 -154.9
 4.100  0.7616   95.4   0.411   17.7  0.3867   43.3  0.2467 -158.7
 4.200  0.7588   93.8   0.411   17.9  0.3940   41.9  0.2467 -162.6
 4.300  0.7567   92.2   0.412   18.0  0.4015   40.6  0.2478 -166.4
 4.400  0.7551   90.5   0.412   18.2  0.4092   39.3  0.2499 -170.2
 4.500  0.7542   88.9   0.412   18.3  0.4171   38.1  0.2532 -173.9
 4.600  0.7518   87.7   0.414   18.4  0.4228   36.9  0.2555 -177.2
 4.700  0.7498   86.4   0.417   18.4  0.4287   35.6  0.2587  179.5
 4.800  0.7481   85.2   0.419   18.5  0.4349   34.5  0.2627  176.4
 4.900  0.7468   83.9   0.422   18.5  0.4411   33.3  0.2674  173.3
 5.000  0.7458   82.7   0.424   18.6  0.4476   32.2  0.2729  170.4
 5.100  0.7432   81.5   0.429   18.3  0.4528   31.0  0.2779  168.2
 5.200  0.7410   80.3   0.434   18.0  0.4581   29.9  0.2832  166.0
 5.300  0.7390   79.1   0.439   17.7  0.4637   28.8  0.2890  164.0
 5.400  0.7374   77.8   0.444   17.4  0.4693   27.7  0.2951  162.0
 5.500  0.7362   76.6   0.449   17.1  0.4752   26.7  0.3015  160.1
 5.600  0.7324   75.5   0.454   16.6  0.4796   25.6  0.3045  158.6
 5.700  0.7289   74.5   0.458   16.2  0.4842   24.4  0.3078  157.0
 5.800  0.7256   73.4   0.463   15.8  0.4890   23.3  0.3112  155.6
 5.900  0.7226   72.3   0.467   15.3  0.4940   22.3  0.3149  154.1
 6.000  0.7199   71.2   0.472   14.9  0.4991   21.2  0.3187  152.7
!
!  f       NFmin   Gammaopt  rn/50
! GHz       dB    MAG  ANG    -
!
! noise parameter not available yet for this operation point!
!
! (c) 2017  Infineon Technologies AG, Munich