! Infineon Technologies  Discrete & RF Semiconductors
! BFR181W
! VCE =  4.0 V,  IC =  6.0 mA
! Common Emitter S-Parameters:                            Jan 2017
# GHz  S  MA  R  50
!  f         S11            S21            S12            S22
! GHz     MAG   ANG      MAG   ANG      MAG   ANG      MAG   ANG
 0.010  0.8249   -1.6  17.543  178.8  0.0016  100.7  0.9970   -1.2
 0.020  0.8108   -6.0  17.412  175.9  0.0034  100.1  0.9875   -2.2
 0.030  0.8021   -7.9  17.281  174.1  0.0050   90.4  0.9866   -3.4
 0.040  0.7943   -9.8  17.168  172.3  0.0067   85.4  0.9862   -4.7
 0.050  0.7873  -11.7  17.073  170.4  0.0084   82.5  0.9863   -5.9
 0.060  0.7826  -14.0  16.909  168.6  0.0101   81.0  0.9795   -7.0
 0.070  0.7791  -16.4  16.763  166.7  0.0119   79.9  0.9730   -8.1
 0.080  0.7771  -18.8  16.635  164.8  0.0136   79.1  0.9669   -9.3
 0.090  0.7764  -21.2  16.526  162.9  0.0154   78.5  0.9612  -10.4
 0.100  0.7770  -23.6  16.436  160.9  0.0171   78.0  0.9559  -11.6
 0.110  0.7658  -25.8  16.244  159.3  0.0186   76.9  0.9473  -12.5
 0.120  0.7557  -28.0  16.065  157.6  0.0200   75.9  0.9390  -13.5
 0.130  0.7468  -30.3  15.900  155.9  0.0215   75.1  0.9310  -14.5
 0.140  0.7391  -32.6  15.749  154.2  0.0230   74.3  0.9232  -15.5
 0.150  0.7327  -35.0  15.613  152.4  0.0245   73.7  0.9157  -16.5
 0.200  0.6902  -44.6  14.596  144.3  0.0298   69.1  0.8673  -20.5
 0.250  0.6427  -54.1  13.615  137.3  0.0358   65.5  0.8197  -23.8
 0.300  0.5948  -62.7  12.583  131.3  0.0397   62.7  0.7720  -26.3
 0.350  0.5526  -69.3  11.669  126.8  0.0435   61.0  0.7326  -27.9
 0.400  0.5188  -76.9  10.840  121.5  0.0474   59.5  0.6938  -29.7
 0.450  0.4845  -82.7  10.068  118.0  0.0505   58.6  0.6626  -30.6
 0.500  0.4558  -89.3   9.341  113.9  0.0537   57.8  0.6315  -31.6
 0.600  0.4076 -100.0   8.181  107.6  0.0590   57.2  0.5851  -32.5
 0.700  0.3705 -109.9   7.234  102.3  0.0629   57.2  0.5497  -33.0
 0.800  0.3432 -118.9   6.490   97.7  0.0686   58.3  0.5228  -33.4
 0.900  0.3224 -127.1   5.858   93.7  0.0735   58.0  0.5009  -33.7
 1.000  0.3074 -134.9   5.354   90.2  0.0780   59.1  0.4836  -34.1
 1.100  0.2946 -142.2   4.920   87.0  0.0837   59.4  0.4704  -34.5
 1.200  0.2863 -148.8   4.550   83.9  0.0883   60.0  0.4588  -34.9
 1.300  0.2763 -155.2   4.229   81.0  0.0933   60.6  0.4494  -35.5
 1.400  0.2752 -160.5   3.963   78.4  0.0993   61.1  0.4403  -36.3
 1.500  0.2752 -166.2   3.723   75.9  0.1048   61.6  0.4330  -37.1
 1.600  0.2732 -171.6   3.511   73.3  0.1103   62.0  0.4282  -38.0
 1.700  0.2728 -176.5   3.325   71.1  0.1159   62.4  0.4212  -39.2
 1.800  0.2731  179.2   3.168   68.7  0.1219   62.4  0.4162  -40.3
 1.900  0.2768  175.4   3.022   66.7  0.1275   62.6  0.4120  -41.5
 2.000  0.2802  170.9   2.884   64.4  0.1339   62.6  0.4085  -42.9
 2.100  0.2816  167.3   2.767   62.4  0.1401   62.6  0.4052  -44.4
 2.200  0.2841  163.7   2.653   60.2  0.1463   62.6  0.4022  -45.9
 2.300  0.2892  160.4   2.556   58.2  0.1526   62.6  0.3999  -47.5
 2.400  0.2952  157.2   2.463   56.1  0.1589   62.6  0.3980  -49.1
 2.500  0.2986  154.4   2.377   54.3  0.1654   62.4  0.3965  -50.8
 2.600  0.3027  151.6   2.293   52.3  0.1719   62.3  0.3954  -52.5
 2.700  0.3078  148.6   2.222   50.5  0.1783   62.0  0.3946  -54.1
 2.800  0.3137  145.8   2.153   48.6  0.1848   61.8  0.3941  -55.8
 2.900  0.3179  143.3   2.093   46.8  0.1921   61.4  0.3930  -57.4
 3.000  0.3228  140.8   2.036   44.9  0.1994   61.1  0.3922  -59.1
 3.100  0.3267  138.4   1.984   43.4  0.2066   60.6  0.3913  -60.7
 3.200  0.3312  136.1   1.932   41.8  0.2138   60.2  0.3907  -62.4
 3.300  0.3363  133.8   1.883   40.2  0.2211   59.8  0.3905  -64.0
 3.400  0.3418  131.6   1.835   38.4  0.2283   59.4  0.3905  -65.7
 3.500  0.3478  129.5   1.789   36.6  0.2356   59.1  0.3909  -67.3
 3.600  0.3526  127.5   1.751   35.2  0.2432   58.4  0.3884  -69.1
 3.700  0.3577  125.6   1.715   33.7  0.2509   57.8  0.3862  -70.8
 3.800  0.3633  123.7   1.680   32.1  0.2586   57.3  0.3845  -72.7
 3.900  0.3692  121.9   1.646   30.5  0.2664   56.7  0.3831  -74.5
 4.000  0.3755  120.2   1.613   28.8  0.2741   56.2  0.3821  -76.3
 4.100  0.3809  118.5   1.583   27.4  0.2821   55.4  0.3778  -78.4
 4.200  0.3867  116.8   1.554   25.9  0.2901   54.6  0.3740  -80.5
 4.300  0.3928  115.2   1.526   24.4  0.2982   53.8  0.3708  -82.7
 4.400  0.3991  113.6   1.499   22.8  0.3063   53.1  0.3681  -85.0
 4.500  0.4058  112.1   1.473   21.2  0.3145   52.4  0.3660  -87.2
 4.600  0.4125  110.6   1.447   19.9  0.3225   51.5  0.3621  -89.8
 4.700  0.4195  109.1   1.421   18.5  0.3306   50.7  0.3589  -92.4
 4.800  0.4267  107.6   1.396   17.1  0.3388   49.9  0.3565  -95.1
 4.900  0.4342  106.2   1.372   15.7  0.3470   49.2  0.3549  -97.9
 5.000  0.4420  104.9   1.349   14.2  0.3553   48.5  0.3541 -100.6
 5.100  0.4473  103.5   1.329   13.0  0.3635   47.6  0.3538 -103.6
 5.200  0.4529  102.2   1.309   11.8  0.3718   46.7  0.3545 -106.5
 5.300  0.4586  100.9   1.290   10.5  0.3802   45.8  0.3561 -109.4
 5.400  0.4647   99.6   1.272    9.2  0.3887   45.0  0.3587 -112.3
 5.500  0.4709   98.4   1.254    7.9  0.3972   44.2  0.3621 -115.2
 5.600  0.4740   97.2   1.236    6.8  0.4053   43.1  0.3637 -117.8
 5.700  0.4773   95.9   1.218    5.7  0.4135   42.1  0.3661 -120.4
 5.800  0.4809   94.7   1.200    4.5  0.4218   41.1  0.3693 -123.0
 5.900  0.4846   93.6   1.183    3.3  0.4303   40.1  0.3731 -125.5
 6.000  0.4886   92.4   1.167    2.1  0.4389   39.2  0.3777 -128.0
!
!  f       NFmin   Gammaopt  rn/50
! GHz       dB    MAG  ANG    -
 0.450      1.03  0.28   16   0.22
 0.900      1.07  0.26   30   0.22
 1.900      1.49  0.12   82   0.19
 2.400      1.65  0.10   95   0.23
!
! (c) 2017  Infineon Technologies AG, Munich