! Infineon Technologies  Discrete & RF Semiconductors
! BFR181W
! VCE =  11. V,  IC =  4.0 mA
! Common Emitter S-Parameters:                            Jan 2017
# GHz  S  MA  R  50
!  f         S11            S21            S12            S22
! GHz     MAG   ANG      MAG   ANG      MAG   ANG      MAG   ANG
 0.010  0.8960   -0.8  12.531  178.7  0.0014   80.8  0.9975   -0.8
 0.020  0.8833   -4.6  12.408  176.5  0.0034   99.3  0.9929   -1.5
 0.030  0.8752   -5.7  12.322  175.3  0.0050   91.4  0.9921   -2.4
 0.040  0.8675   -6.9  12.242  174.0  0.0066   87.4  0.9916   -3.4
 0.050  0.8601   -8.1  12.168  172.8  0.0083   85.0  0.9914   -4.3
 0.060  0.8591   -9.8  12.104  171.4  0.0101   84.0  0.9875   -5.1
 0.070  0.8590  -11.5  12.047  170.0  0.0119   83.3  0.9837   -6.0
 0.080  0.8596  -13.3  11.997  168.6  0.0138   82.7  0.9802   -6.8
 0.090  0.8610  -15.0  11.954  167.2  0.0156   82.3  0.9769   -7.6
 0.100  0.8631  -16.7  11.919  165.8  0.0174   82.0  0.9738   -8.5
 0.110  0.8552  -18.3  11.844  164.5  0.0188   80.3  0.9692   -9.3
 0.120  0.8479  -19.9  11.775  163.2  0.0202   78.9  0.9648  -10.1
 0.130  0.8414  -21.6  11.712  161.9  0.0216   77.6  0.9606  -10.9
 0.140  0.8356  -23.3  11.655  160.5  0.0231   76.5  0.9565  -11.7
 0.150  0.8305  -25.0  11.605  159.2  0.0245   75.5  0.9527  -12.5
 0.200  0.8054  -32.3  11.171  152.5  0.0312   72.9  0.9235  -16.0
 0.250  0.7674  -39.9  10.736  146.4  0.0380   69.3  0.8921  -19.2
 0.300  0.7276  -46.8  10.209  140.9  0.0439   65.3  0.8566  -22.0
 0.350  0.6881  -52.5   9.682  136.3  0.0484   63.1  0.8233  -24.1
 0.400  0.6562  -58.9   9.223  131.3  0.0529   61.2  0.7912  -26.3
 0.450  0.6193  -64.1   8.715  127.5  0.0564   59.6  0.7610  -27.8
 0.500  0.5880  -69.8   8.250  123.3  0.0599   58.2  0.7314  -29.5
 0.600  0.5289  -79.6   7.427  116.3  0.0665   55.8  0.6805  -31.5
 0.700  0.4768  -88.4   6.690  110.4  0.0713   54.6  0.6383  -33.0
 0.800  0.4347  -96.7   6.099  105.2  0.0761   54.4  0.6041  -34.1
 0.900  0.3999 -104.3   5.564  100.6  0.0805   53.4  0.5767  -35.0
 1.000  0.3716 -111.5   5.129   96.6  0.0846   53.8  0.5519  -35.7
 1.100  0.3490 -118.6   4.741   93.0  0.0894   54.1  0.5341  -36.3
 1.200  0.3276 -125.4   4.409   89.5  0.0927   54.1  0.5171  -37.0
 1.300  0.3090 -131.8   4.115   86.2  0.0969   54.4  0.5033  -37.7
 1.400  0.3001 -137.8   3.867   83.3  0.1018   55.5  0.4911  -38.5
 1.500  0.2928 -144.2   3.646   80.6  0.1059   55.9  0.4808  -39.2
 1.600  0.2836 -150.0   3.445   77.7  0.1098   56.2  0.4739  -40.1
 1.700  0.2776 -155.6   3.269   75.3  0.1149   56.7  0.4643  -41.2
 1.800  0.2726 -161.2   3.123   72.8  0.1198   57.0  0.4570  -42.2
 1.900  0.2738 -166.0   2.983   70.5  0.1246   57.5  0.4511  -43.3
 2.000  0.2712 -171.3   2.851   68.1  0.1300   58.0  0.4466  -44.6
 2.100  0.2696 -175.7   2.739   65.9  0.1352   58.3  0.4420  -45.9
 2.200  0.2697  179.8   2.631   63.6  0.1404   58.6  0.4376  -47.2
 2.300  0.2723  175.4   2.536   61.5  0.1459   58.8  0.4347  -48.7
 2.400  0.2765  171.2   2.444   59.2  0.1515   59.0  0.4320  -50.2
 2.500  0.2780  167.6   2.361   57.3  0.1573   59.2  0.4298  -51.7
 2.600  0.2805  164.1   2.280   55.2  0.1631   59.3  0.4279  -53.2
 2.700  0.2848  160.5   2.211   53.4  0.1689   59.3  0.4269  -54.7
 2.800  0.2901  157.1   2.144   51.4  0.1747   59.3  0.4261  -56.2
 2.900  0.2936  153.9   2.084   49.5  0.1811   59.2  0.4245  -57.7
 3.000  0.2979  150.8   2.027   47.4  0.1876   59.2  0.4232  -59.2
 3.100  0.3011  147.9   1.976   45.9  0.1945   59.0  0.4224  -60.7
 3.200  0.3050  145.1   1.926   44.3  0.2014   58.8  0.4219  -62.2
 3.300  0.3097  142.3   1.877   42.6  0.2082   58.7  0.4218  -63.8
 3.400  0.3150  139.7   1.831   40.8  0.2151   58.5  0.4219  -65.3
 3.500  0.3210  137.1   1.786   38.9  0.2220   58.4  0.4223  -66.8
 3.600  0.3254  134.8   1.749   37.4  0.2294   57.9  0.4199  -68.4
 3.700  0.3304  132.6   1.712   35.9  0.2368   57.4  0.4178  -70.1
 3.800  0.3358  130.4   1.677   34.2  0.2443   57.0  0.4161  -71.8
 3.900  0.3418  128.3   1.644   32.6  0.2517   56.6  0.4147  -73.5
 4.000  0.3481  126.3   1.612   30.8  0.2592   56.2  0.4137  -75.2
 4.100  0.3539  124.3   1.583   29.3  0.2672   55.5  0.4093  -77.2
 4.200  0.3602  122.3   1.554   27.8  0.2751   54.9  0.4054  -79.2
 4.300  0.3669  120.4   1.527   26.2  0.2832   54.3  0.4020  -81.3
 4.400  0.3740  118.6   1.501   24.6  0.2912   53.7  0.3992  -83.4
 4.500  0.3814  116.8   1.476   22.9  0.2993   53.2  0.3969  -85.5
 4.600  0.3881  115.1   1.449   21.6  0.3074   52.4  0.3929  -88.0
 4.700  0.3951  113.5   1.423   20.2  0.3156   51.7  0.3897  -90.5
 4.800  0.4025  111.9   1.398   18.8  0.3238   51.1  0.3873  -93.1
 4.900  0.4101  110.4   1.373   17.3  0.3321   50.4  0.3856  -95.7
 5.000  0.4180  108.9   1.350   15.8  0.3404   49.8  0.3848  -98.3
 5.100  0.4234  107.4   1.330   14.6  0.3488   48.9  0.3843 -101.1
 5.200  0.4290  105.9   1.310   13.4  0.3574   48.1  0.3848 -103.9
 5.300  0.4350  104.5   1.291   12.1  0.3659   47.4  0.3862 -106.7
 5.400  0.4412  103.1   1.273   10.8  0.3746   46.6  0.3885 -109.5
 5.500  0.4476  101.8   1.255    9.4  0.3833   45.9  0.3917 -112.2
 5.600  0.4516  100.5   1.236    8.3  0.3918   44.9  0.3931 -114.8
 5.700  0.4558   99.1   1.217    7.1  0.4004   43.9  0.3953 -117.3
 5.800  0.4602   97.8   1.199    6.0  0.4092   42.9  0.3983 -119.9
 5.900  0.4649   96.5   1.182    4.8  0.4180   42.0  0.4021 -122.4
 6.000  0.4698   95.3   1.165    3.5  0.4270   41.1  0.4066 -124.8
!
!  f       NFmin   Gammaopt  rn/50
! GHz       dB    MAG  ANG    -
 0.450      0.92  0.39   16   0.24
 0.900      0.97  0.36   31   0.24
 1.900      1.40  0.20   79   0.20
 2.400      1.56  0.17   94   0.22
!
! (c) 2017  Infineon Technologies AG, Munich