! Infineon Technologies  Discrete & RF Semiconductors
! BFR181W
! VCE =  9.0 V,  IC =  3.0 mA
! Common Emitter S-Parameters:                            Jan 2017
# GHz  S  MA  R  50
!  f         S11            S21            S12            S22
! GHz     MAG   ANG      MAG   ANG      MAG   ANG      MAG   ANG
 0.010  0.9196   -0.6   9.876  179.4  0.0015   86.0  0.9998   -0.7
 0.020  0.9081   -4.2   9.813  177.2  0.0036   91.9  0.9997   -1.3
 0.030  0.8997   -5.1   9.757  176.1  0.0052   87.3  0.9979   -2.1
 0.040  0.8915   -6.0   9.705  175.1  0.0067   84.8  0.9963   -2.8
 0.050  0.8835   -6.9   9.656  174.0  0.0083   83.3  0.9948   -3.6
 0.060  0.8838   -8.4   9.615  172.8  0.0101   83.2  0.9922   -4.3
 0.070  0.8847   -9.8   9.579  171.6  0.0120   83.2  0.9898   -5.1
 0.080  0.8862  -11.3   9.547  170.4  0.0138   83.1  0.9875   -5.8
 0.090  0.8882  -12.8   9.519  169.1  0.0157   83.1  0.9854   -6.6
 0.100  0.8908  -14.2   9.496  167.9  0.0175   83.1  0.9835   -7.3
 0.110  0.8848  -15.6   9.456  166.8  0.0190   81.8  0.9801   -8.0
 0.120  0.8794  -17.1   9.420  165.6  0.0206   80.7  0.9767   -8.7
 0.130  0.8746  -18.6   9.387  164.4  0.0222   79.8  0.9736   -9.4
 0.140  0.8703  -20.1   9.359  163.3  0.0237   79.0  0.9706  -10.1
 0.150  0.8667  -21.6   9.334  162.1  0.0253   78.3  0.9677  -10.8
 0.200  0.8475  -27.9   9.070  156.1  0.0330   74.7  0.9457  -14.0
 0.250  0.8189  -34.7   8.834  150.6  0.0401   70.9  0.9215  -17.0
 0.300  0.7832  -41.0   8.498  145.5  0.0463   67.4  0.8931  -19.6
 0.350  0.7501  -46.3   8.154  141.0  0.0518   64.8  0.8648  -21.9
 0.400  0.7240  -52.1   7.863  136.2  0.0573   62.7  0.8380  -24.3
 0.450  0.6885  -57.1   7.501  132.4  0.0616   60.6  0.8102  -26.0
 0.500  0.6589  -62.7   7.174  128.3  0.0659   58.7  0.7832  -27.8
 0.600  0.6030  -71.9   6.572  121.1  0.0729   55.4  0.7345  -30.4
 0.700  0.5492  -80.7   6.002  114.9  0.0784   53.8  0.6916  -32.4
 0.800  0.5043  -88.8   5.529  109.4  0.0837   52.2  0.6551  -34.1
 0.900  0.4655  -96.3   5.090  104.5  0.0876   50.6  0.6238  -35.4
 1.000  0.4335 -103.3   4.718  100.2  0.0916   50.5  0.5965  -36.4
 1.100  0.4067 -110.5   4.386   96.3  0.0953   50.4  0.5759  -37.3
 1.200  0.3821 -116.9   4.094   92.4  0.0987   50.1  0.5561  -38.2
 1.300  0.3607 -123.2   3.835   88.9  0.1019   50.2  0.5401  -39.2
 1.400  0.3449 -129.1   3.614   85.8  0.1057   50.9  0.5252  -40.1
 1.500  0.3338 -135.5   3.417   82.8  0.1092   51.2  0.5133  -40.9
 1.600  0.3226 -141.5   3.233   79.8  0.1130   51.5  0.5040  -41.9
 1.700  0.3132 -146.9   3.076   77.2  0.1168   52.4  0.4933  -43.0
 1.800  0.3075 -152.6   2.944   74.4  0.1210   52.7  0.4845  -44.0
 1.900  0.3041 -157.7   2.815   72.0  0.1246   53.4  0.4775  -45.1
 2.000  0.2996 -163.1   2.696   69.4  0.1291   53.8  0.4724  -46.4
 2.100  0.2963 -167.9   2.591   67.1  0.1336   54.4  0.4667  -47.7
 2.200  0.2950 -172.7   2.491   64.6  0.1382   55.0  0.4613  -49.0
 2.300  0.2961 -177.3   2.403   62.4  0.1432   55.5  0.4580  -50.5
 2.400  0.2991  178.2   2.318   60.0  0.1482   55.9  0.4550  -52.0
 2.500  0.2992  174.4   2.240   58.0  0.1531   56.3  0.4523  -53.4
 2.600  0.3006  170.7   2.165   55.8  0.1581   56.6  0.4499  -54.9
 2.700  0.3040  166.7   2.100   53.8  0.1637   56.9  0.4487  -56.4
 2.800  0.3088  162.8   2.037   51.7  0.1693   57.1  0.4479  -57.9
 2.900  0.3108  159.6   1.982   49.7  0.1753   57.2  0.4462  -59.3
 3.000  0.3138  156.4   1.929   47.6  0.1813   57.3  0.4447  -60.8
 3.100  0.3165  153.3   1.880   46.0  0.1880   57.4  0.4437  -62.3
 3.200  0.3201  150.2   1.833   44.3  0.1946   57.4  0.4430  -63.8
 3.300  0.3246  147.2   1.787   42.5  0.2013   57.5  0.4426  -65.4
 3.400  0.3299  144.3   1.743   40.7  0.2079   57.5  0.4426  -66.9
 3.500  0.3361  141.5   1.701   38.7  0.2146   57.6  0.4428  -68.4
 3.600  0.3403  139.0   1.666   37.2  0.2221   57.3  0.4404  -70.1
 3.700  0.3452  136.5   1.632   35.6  0.2295   56.9  0.4384  -71.8
 3.800  0.3506  134.1   1.599   33.9  0.2370   56.6  0.4368  -73.5
 3.900  0.3567  131.8   1.568   32.2  0.2445   56.4  0.4355  -75.2
 4.000  0.3633  129.6   1.538   30.4  0.2520   56.1  0.4347  -76.9
 4.100  0.3689  127.4   1.509   28.9  0.2601   55.5  0.4304  -78.9
 4.200  0.3749  125.3   1.482   27.3  0.2683   55.0  0.4266  -81.0
 4.300  0.3815  123.3   1.455   25.7  0.2764   54.4  0.4234  -83.0
 4.400  0.3885  121.3   1.430   24.0  0.2846   54.0  0.4208  -85.2
 4.500  0.3960  119.4   1.406   22.3  0.2928   53.5  0.4187  -87.3
 4.600  0.4027  117.5   1.380   21.0  0.3013   52.8  0.4148  -89.8
 4.700  0.4099  115.7   1.355   19.6  0.3098   52.2  0.4117  -92.3
 4.800  0.4175  113.9   1.330   18.1  0.3184   51.5  0.4094  -94.9
 4.900  0.4254  112.2   1.307   16.6  0.3270   51.0  0.4079  -97.5
 5.000  0.4337  110.6   1.284   15.1  0.3357   50.4  0.4073 -100.1
 5.100  0.4390  109.0   1.265   13.9  0.3446   49.5  0.4071 -102.9
 5.200  0.4447  107.4   1.246   12.6  0.3535   48.7  0.4078 -105.7
 5.300  0.4507  105.9   1.227   11.3  0.3625   47.9  0.4095 -108.5
 5.400  0.4570  104.4   1.210   10.0  0.3716   47.2  0.4121 -111.2
 5.500  0.4636  103.0   1.193    8.6  0.3807   46.5  0.4157 -113.9
 5.600  0.4672  101.6   1.175    7.5  0.3896   45.5  0.4170 -116.5
 5.700  0.4711  100.3   1.157    6.4  0.3986   44.4  0.4191 -119.1
 5.800  0.4752   98.9   1.139    5.3  0.4077   43.5  0.4220 -121.6
 5.900  0.4796   97.6   1.122    4.1  0.4170   42.6  0.4258 -124.1
 6.000  0.4842   96.3   1.106    2.9  0.4263   41.7  0.4304 -126.6
!
!  f       NFmin   Gammaopt  rn/50
! GHz       dB    MAG  ANG    -
 0.450      0.87  0.47   17   0.27
 0.900      0.93  0.42   32   0.26
 1.900      1.34  0.24   80   0.21
 2.400      1.55  0.21   94   0.23
!
! (c) 2017  Infineon Technologies AG, Munich