! Infineon Technologies  Discrete & RF Semiconductors
! BFR181W
! VCE =  12. V,  IC =  13 mA
! Common Emitter S-Parameters:                            Jan 2017
# GHz  S  MA  R  50
!  f         S11            S21            S12            S22
! GHz     MAG   ANG      MAG   ANG      MAG   ANG      MAG   ANG
 0.010  0.7392   -2.0  27.888  176.2  0.0012   78.8  0.9850   -1.4
 0.020  0.7292   -7.7  27.429  173.2  0.0028   86.1  0.9783   -2.9
 0.030  0.7182  -10.6  27.048  170.9  0.0043   82.0  0.9730   -4.6
 0.040  0.7091  -13.5  26.711  168.6  0.0059   80.0  0.9685   -6.2
 0.050  0.7019  -16.5  26.419  166.2  0.0074   78.9  0.9648   -7.9
 0.060  0.6916  -19.5  25.968  163.9  0.0089   77.9  0.9527   -9.3
 0.070  0.6832  -22.6  25.562  161.5  0.0103   77.2  0.9411  -10.6
 0.080  0.6769  -25.8  25.202  159.0  0.0118   76.7  0.9301  -12.1
 0.090  0.6727  -29.0  24.891  156.4  0.0132   76.3  0.9197  -13.5
 0.100  0.6707  -32.3  24.631  153.8  0.0147   76.0  0.9099  -15.0
 0.110  0.6545  -34.9  24.113  151.9  0.0158   74.1  0.8963  -16.0
 0.120  0.6397  -37.7  23.623  149.9  0.0169   72.4  0.8830  -17.1
 0.130  0.6265  -40.6  23.163  147.8  0.0180   70.9  0.8700  -18.1
 0.140  0.6149  -43.6  22.735  145.6  0.0191   69.6  0.8573  -19.3
 0.150  0.6051  -46.7  22.340  143.4  0.0202   68.4  0.8450  -20.4
 0.200  0.5474  -58.3  19.963  134.3  0.0246   66.6  0.7777  -24.0
 0.250  0.4922  -69.1  17.889  127.1  0.0292   63.6  0.7191  -26.4
 0.300  0.4455  -78.3  15.986  121.2  0.0321   64.1  0.6683  -27.8
 0.350  0.4079  -85.2  14.498  117.2  0.0347   63.3  0.6319  -28.4
 0.400  0.3772  -93.3  13.097  112.3  0.0373   62.6  0.5955  -29.1
 0.450  0.3512  -99.1  12.004  109.3  0.0407   62.7  0.5710  -29.1
 0.500  0.3294 -105.8  10.949  105.8  0.0441   62.7  0.5465  -29.2
 0.600  0.2953 -116.7   9.399  100.6  0.0494   64.0  0.5130  -29.0
 0.700  0.2699 -126.6   8.196   96.2  0.0545   65.3  0.4883  -28.7
 0.800  0.2554 -135.5   7.283   92.4  0.0613   66.2  0.4714  -28.6
 0.900  0.2423 -143.5   6.528   89.2  0.0667   66.4  0.4579  -28.8
 1.000  0.2363 -151.2   5.937   86.2  0.0724   67.3  0.4462  -28.9
 1.100  0.2342 -157.4   5.433   83.5  0.0783   67.7  0.4392  -29.2
 1.200  0.2298 -164.3   5.008   80.8  0.0843   67.7  0.4315  -29.7
 1.300  0.2262 -170.0   4.645   78.3  0.0908   68.2  0.4254  -30.3
 1.400  0.2276 -174.8   4.341   76.0  0.0971   68.2  0.4194  -31.1
 1.500  0.2303 -179.7   4.070   73.8  0.1033   68.3  0.4145  -32.0
 1.600  0.2327  175.7   3.835   71.6  0.1101   68.5  0.4120  -33.0
 1.700  0.2331  171.4   3.627   69.6  0.1164   68.4  0.4069  -34.3
 1.800  0.2363  168.0   3.451   67.5  0.1227   68.0  0.4024  -35.4
 1.900  0.2406  164.9   3.288   65.7  0.1292   67.9  0.3998  -36.7
 2.000  0.2450  161.0   3.133   63.6  0.1354   67.6  0.3976  -38.2
 2.100  0.2482  157.9   3.005   61.8  0.1422   67.3  0.3946  -39.7
 2.200  0.2521  154.8   2.880   59.8  0.1490   67.0  0.3919  -41.3
 2.300  0.2578  151.9   2.774   58.0  0.1559   66.6  0.3901  -43.0
 2.400  0.2641  149.2   2.671   56.0  0.1629   66.3  0.3887  -44.7
 2.500  0.2675  146.8   2.577   54.3  0.1696   65.8  0.3873  -46.4
 2.600  0.2714  144.4   2.485   52.5  0.1763   65.4  0.3863  -48.1
 2.700  0.2768  142.0   2.408   50.9  0.1831   64.9  0.3859  -49.8
 2.800  0.2826  139.7   2.332   49.2  0.1900   64.5  0.3859  -51.5
 2.900  0.2870  137.4   2.265   47.5  0.1973   63.9  0.3848  -53.2
 3.000  0.2918  135.2   2.200   45.7  0.2047   63.4  0.3840  -54.9
 3.100  0.2962  133.1   2.144   44.3  0.2119   62.8  0.3833  -56.5
 3.200  0.3009  131.0   2.089   42.8  0.2192   62.3  0.3828  -58.1
 3.300  0.3061  129.1   2.035   41.3  0.2265   61.7  0.3827  -59.8
 3.400  0.3116  127.1   1.983   39.6  0.2338   61.3  0.3829  -61.4
 3.500  0.3174  125.3   1.933   37.9  0.2411   60.8  0.3834  -63.0
 3.600  0.3218  123.6   1.893   36.5  0.2486   60.0  0.3809  -64.7
 3.700  0.3264  122.0   1.853   35.1  0.2561   59.2  0.3788  -66.5
 3.800  0.3313  120.4   1.815   33.6  0.2637   58.5  0.3770  -68.2
 3.900  0.3364  118.8   1.778   32.0  0.2713   57.8  0.3756  -70.0
 4.000  0.3418  117.3   1.743   30.4  0.2790   57.2  0.3745  -71.8
 4.100  0.3479  115.8   1.711   29.0  0.2867   56.3  0.3700  -73.8
 4.200  0.3542  114.3   1.680   27.6  0.2945   55.5  0.3660  -75.8
 4.300  0.3608  112.9   1.650   26.1  0.3024   54.7  0.3624  -77.9
 4.400  0.3675  111.5   1.622   24.6  0.3103   53.9  0.3594  -80.0
 4.500  0.3745  110.2   1.594   23.0  0.3183   53.2  0.3568  -82.2
 4.600  0.3813  108.9   1.566   21.8  0.3259   52.3  0.3526  -84.7
 4.700  0.3884  107.6   1.539   20.5  0.3336   51.5  0.3491  -87.3
 4.800  0.3956  106.4   1.512   19.1  0.3413   50.7  0.3463  -89.9
 4.900  0.4030  105.2   1.487   17.7  0.3491   49.9  0.3442  -92.5
 5.000  0.4105  104.1   1.462   16.3  0.3570   49.2  0.3429  -95.2
 5.100  0.4155  102.8   1.441   15.1  0.3649   48.3  0.3421  -98.1
 5.200  0.4207  101.6   1.420   13.8  0.3729   47.4  0.3423 -101.0
 5.300  0.4261  100.4   1.400   12.6  0.3810   46.5  0.3433 -104.0
 5.400  0.4317   99.2   1.381   11.3  0.3892   45.7  0.3452 -106.8
 5.500  0.4374   98.1   1.362    9.9  0.3974   44.9  0.3480 -109.7
 5.600  0.4411   97.0   1.342    8.8  0.4053   43.9  0.3493 -112.3
 5.700  0.4450   95.8   1.322    7.7  0.4132   42.9  0.3513 -114.9
 5.800  0.4491   94.7   1.303    6.5  0.4214   41.9  0.3540 -117.5
 5.900  0.4533   93.7   1.285    5.3  0.4296   41.0  0.3574 -120.0
 6.000  0.4577   92.6   1.267    4.1  0.4379   40.1  0.3615 -122.5
!
!  f       NFmin   Gammaopt  rn/50
! GHz       dB    MAG  ANG    -
 0.450      1.39  0.08   17   0.21
 0.900      1.43  0.08   31   0.21
 1.900      1.86  0.09 -144   0.21
 2.400      2.07  0.11 -109   0.26
!
! (c) 2017  Infineon Technologies AG, Munich