! Infineon Technologies  Discrete & RF Semiconductors
! BFR181W
! VCE =  7.0 V,  IC =  5.0 mA
! Common Emitter S-Parameters:                            Jan 2017
# GHz  S  MA  R  50
!  f         S11            S21            S12            S22
! GHz     MAG   ANG      MAG   ANG      MAG   ANG      MAG   ANG
 0.010  0.8608   -1.1  15.096  178.7  0.0012   89.3  0.9977   -1.0
 0.020  0.8417   -5.2  14.889  176.3  0.0031   87.8  0.9953   -1.8
 0.030  0.8349   -6.7  14.810  174.8  0.0049   85.3  0.9927   -2.9
 0.040  0.8287   -8.2  14.742  173.2  0.0067   84.2  0.9904   -3.9
 0.050  0.8231   -9.7  14.685  171.7  0.0085   83.5  0.9884   -5.0
 0.060  0.8208  -11.7  14.578  170.1  0.0101   82.7  0.9832   -6.0
 0.070  0.8194  -13.7  14.483  168.5  0.0117   82.1  0.9783   -7.0
 0.080  0.8191  -15.7  14.399  166.8  0.0134   81.6  0.9736   -8.0
 0.090  0.8197  -17.7  14.327  165.2  0.0150   81.3  0.9693   -9.0
 0.100  0.8214  -19.7  14.268  163.5  0.0166   81.0  0.9653  -10.0
 0.110  0.8118  -21.6  14.143  162.0  0.0181   79.4  0.9591  -10.9
 0.120  0.8032  -23.6  14.027  160.5  0.0197   78.0  0.9531  -11.7
 0.130  0.7955  -25.6  13.920  159.0  0.0212   76.8  0.9474  -12.6
 0.140  0.7888  -27.6  13.824  157.5  0.0227   75.8  0.9419  -13.5
 0.150  0.7831  -29.7  13.738  155.9  0.0243   74.9  0.9366  -14.4
 0.200  0.7495  -38.1  13.034  148.4  0.0306   72.0  0.8984  -18.3
 0.250  0.7039  -46.5  12.363  141.8  0.0364   67.8  0.8580  -21.6
 0.300  0.6573  -54.2  11.586  136.0  0.0412   64.4  0.8159  -24.2
 0.350  0.6165  -60.3  10.863  131.4  0.0453   62.1  0.7786  -26.1
 0.400  0.5836  -67.2  10.220  126.2  0.0495   60.2  0.7422  -28.2
 0.450  0.5461  -72.8   9.566  122.5  0.0528   58.8  0.7108  -29.4
 0.500  0.5145  -79.1   8.957  118.3  0.0562   57.6  0.6797  -30.7
 0.600  0.4581  -89.2   7.944  111.7  0.0621   56.4  0.6304  -32.3
 0.700  0.4141  -98.7   7.081  106.1  0.0664   55.6  0.5907  -33.2
 0.800  0.3788 -107.1   6.397  101.2  0.0718   56.2  0.5603  -34.0
 0.900  0.3511 -115.1   5.802   96.9  0.0758   55.8  0.5354  -34.5
 1.000  0.3283 -122.9   5.321   93.2  0.0804   57.0  0.5142  -35.0
 1.100  0.3128 -130.0   4.902   89.9  0.0852   57.2  0.4995  -35.3
 1.200  0.2954 -136.9   4.541   86.5  0.0896   57.2  0.4850  -35.9
 1.300  0.2841 -143.4   4.229   83.5  0.0945   58.1  0.4734  -36.6
 1.400  0.2773 -149.5   3.968   80.7  0.0998   58.7  0.4626  -37.3
 1.500  0.2752 -155.5   3.733   78.2  0.1040   59.2  0.4545  -38.1
 1.600  0.2693 -161.3   3.521   75.5  0.1096   59.6  0.4485  -38.9
 1.700  0.2663 -166.6   3.339   73.2  0.1146   60.1  0.4408  -40.1
 1.800  0.2650 -171.6   3.184   70.8  0.1205   60.3  0.4346  -41.0
 1.900  0.2665 -176.1   3.039   68.6  0.1256   60.8  0.4295  -42.2
 2.000  0.2678  179.2   2.903   66.3  0.1312   60.8  0.4261  -43.5
 2.100  0.2684  175.1   2.786   64.2  0.1370   61.0  0.4221  -44.9
 2.200  0.2704  171.0   2.674   61.9  0.1429   61.2  0.4183  -46.3
 2.300  0.2746  167.2   2.576   59.9  0.1491   61.3  0.4159  -47.8
 2.400  0.2800  163.6   2.482   57.8  0.1554   61.3  0.4138  -49.4
 2.500  0.2825  160.4   2.396   55.9  0.1614   61.2  0.4120  -51.0
 2.600  0.2859  157.3   2.313   53.9  0.1675   61.2  0.4106  -52.6
 2.700  0.2904  154.0   2.242   52.1  0.1739   61.0  0.4097  -54.2
 2.800  0.2958  150.9   2.173   50.1  0.1804   60.9  0.4092  -55.8
 2.900  0.3000  148.0   2.113   48.3  0.1872   60.6  0.4079  -57.3
 3.000  0.3050  145.2   2.055   46.4  0.1940   60.4  0.4069  -58.9
 3.100  0.3087  142.6   2.002   44.9  0.2010   60.1  0.4060  -60.5
 3.200  0.3131  140.1   1.951   43.3  0.2081   59.8  0.4055  -62.1
 3.300  0.3180  137.7   1.901   41.6  0.2152   59.5  0.4053  -63.6
 3.400  0.3235  135.3   1.853   39.8  0.2222   59.2  0.4053  -65.2
 3.500  0.3295  133.0   1.807   37.9  0.2293   59.0  0.4057  -66.8
 3.600  0.3341  130.9   1.769   36.4  0.2368   58.4  0.4033  -68.5
 3.700  0.3392  128.8   1.733   34.9  0.2444   57.8  0.4012  -70.2
 3.800  0.3446  126.8   1.697   33.4  0.2520   57.3  0.3995  -71.9
 3.900  0.3505  124.9   1.664   31.7  0.2596   56.8  0.3982  -73.7
 4.000  0.3568  123.0   1.631   30.0  0.2672   56.3  0.3972  -75.4
 4.100  0.3625  121.1   1.601   28.6  0.2752   55.5  0.3928  -77.4
 4.200  0.3686  119.3   1.572   27.1  0.2832   54.8  0.3889  -79.5
 4.300  0.3750  117.6   1.544   25.5  0.2912   54.1  0.3856  -81.7
 4.400  0.3817  115.9   1.517   24.0  0.2993   53.5  0.3828  -83.8
 4.500  0.3888  114.3   1.492   22.3  0.3074   52.9  0.3805  -86.0
 4.600  0.3957  112.7   1.465   21.0  0.3155   52.1  0.3766  -88.5
 4.700  0.4029  111.2   1.439   19.6  0.3236   51.4  0.3734  -91.1
 4.800  0.4104  109.7   1.413   18.3  0.3317   50.6  0.3710  -93.7
 4.900  0.4181  108.3   1.389   16.8  0.3399   50.0  0.3693  -96.3
 5.000  0.4261  106.9   1.365   15.3  0.3482   49.3  0.3685  -99.0
 5.100  0.4312  105.5   1.345   14.1  0.3565   48.4  0.3680 -101.9
 5.200  0.4366  104.1   1.325   12.9  0.3648   47.5  0.3685 -104.7
 5.300  0.4422  102.8   1.305   11.6  0.3732   46.7  0.3699 -107.6
 5.400  0.4480  101.5   1.287   10.3  0.3817   45.9  0.3722 -110.4
 5.500  0.4541  100.2   1.269    8.9  0.3903   45.2  0.3754 -113.2
 5.600  0.4580   98.9   1.250    7.8  0.3987   44.2  0.3769 -115.8
 5.700  0.4620   97.7   1.232    6.7  0.4072   43.2  0.3792 -118.4
 5.800  0.4664   96.4   1.214    5.5  0.4158   42.2  0.3822 -121.0
 5.900  0.4709   95.2   1.197    4.3  0.4246   41.3  0.3861 -123.5
 6.000  0.4756   94.0   1.180    3.1  0.4334   40.4  0.3906 -126.0
!
!  f       NFmin   Gammaopt  rn/50
! GHz       dB    MAG  ANG    -
 0.450      0.97  0.33   16   0.23
 0.900      1.03  0.30   30   0.23
 1.900      1.44  0.15   80   0.20
 2.400      1.59  0.13   94   0.22
!
! (c) 2017  Infineon Technologies AG, Munich