! Infineon Technologies  Discrete & RF Semiconductors
! BFR181W
! VCE =  1.0 V,  IC =  7.0 mA
! Common Emitter S-Parameters:                            Jan 2017
# GHz  S  MA  R  50
!  f         S11            S21            S12            S22
! GHz     MAG   ANG      MAG   ANG      MAG   ANG      MAG   ANG
 0.010  0.7869   -2.9  19.207  178.4  0.0018   80.3  0.9839   -1.6
 0.020  0.7715   -8.7  19.043  174.7  0.0042   88.8  0.9788   -2.9
 0.030  0.7607  -11.8  18.854  172.2  0.0063   84.2  0.9733   -4.6
 0.040  0.7522  -14.9  18.702  169.7  0.0085   82.0  0.9686   -6.2
 0.050  0.7459  -18.1  18.587  167.1  0.0106   80.6  0.9648   -7.9
 0.060  0.7353  -21.4  18.281  164.8  0.0125   78.0  0.9534   -9.3
 0.070  0.7273  -24.9  18.007  162.3  0.0144   76.1  0.9426  -10.6
 0.080  0.7220  -28.3  17.765  159.9  0.0163   74.7  0.9323  -12.1
 0.090  0.7193  -31.9  17.558  157.3  0.0182   73.5  0.9227  -13.5
 0.100  0.7194  -35.4  17.387  154.7  0.0201   72.6  0.9136  -15.0
 0.110  0.7039  -38.4  17.047  152.8  0.0216   71.3  0.9003  -16.0
 0.120  0.6904  -41.5  16.728  150.7  0.0231   70.2  0.8874  -17.1
 0.130  0.6790  -44.8  16.431  148.6  0.0246   69.2  0.8748  -18.2
 0.140  0.6698  -48.1  16.156  146.4  0.0261   68.3  0.8625  -19.3
 0.150  0.6630  -51.5  15.906  144.2  0.0276   67.5  0.8505  -20.5
 0.200  0.6124  -64.7  14.315  135.1  0.0329   62.4  0.7844  -24.5
 0.250  0.5652  -77.0  12.889  127.6  0.0381   58.3  0.7269  -27.2
 0.300  0.5242  -87.6  11.587  121.5  0.0415   56.4  0.6752  -28.9
 0.350  0.4896  -95.6  10.529  117.2  0.0448   55.5  0.6374  -29.7
 0.400  0.4660 -104.7   9.543  112.0  0.0481   54.7  0.5998  -30.7
 0.450  0.4429 -111.3   8.756  108.8  0.0507   54.6  0.5740  -31.0
 0.500  0.4262 -118.5   8.002  105.0  0.0533   54.5  0.5483  -31.3
 0.600  0.4030 -130.1   6.881   99.3  0.0585   54.8  0.5130  -31.3
 0.700  0.3857 -140.0   6.008   94.5  0.0627   56.5  0.4873  -31.3
 0.800  0.3748 -148.2   5.345   90.3  0.0683   57.3  0.4683  -31.5
 0.900  0.3672 -155.2   4.790   86.6  0.0726   58.0  0.4540  -31.8
 1.000  0.3648 -161.9   4.363   83.3  0.0784   59.4  0.4418  -32.2
 1.100  0.3641 -167.6   3.995   80.3  0.0838   60.4  0.4344  -32.7
 1.200  0.3624 -172.9   3.689   77.2  0.0891   61.0  0.4263  -33.4
 1.300  0.3625 -178.0   3.422   74.4  0.0948   61.8  0.4192  -34.4
 1.400  0.3641  177.9   3.201   71.8  0.1007   62.2  0.4132  -35.4
 1.500  0.3687  174.0   3.005   69.3  0.1068   62.9  0.4084  -36.5
 1.600  0.3695  169.9   2.833   66.8  0.1134   63.2  0.4052  -37.8
 1.700  0.3725  166.6   2.684   64.5  0.1193   63.6  0.4003  -39.3
 1.800  0.3787  163.1   2.553   62.1  0.1258   63.7  0.3957  -40.8
 1.900  0.3831  160.2   2.436   60.0  0.1317   64.0  0.3933  -42.3
 2.000  0.3871  157.0   2.320   57.5  0.1388   64.0  0.3909  -44.1
 2.100  0.3908  154.2   2.225   55.5  0.1457   64.0  0.3882  -45.9
 2.200  0.3954  151.4   2.133   53.3  0.1526   64.0  0.3860  -47.8
 2.300  0.4012  148.8   2.055   51.3  0.1597   63.8  0.3844  -49.8
 2.400  0.4078  146.3   1.979   49.1  0.1669   63.7  0.3833  -51.8
 2.500  0.4114  143.9   1.910   47.3  0.1740   63.4  0.3823  -53.8
 2.600  0.4157  141.6   1.844   45.3  0.1812   63.2  0.3818  -55.9
 2.700  0.4211  139.3   1.786   43.5  0.1886   62.9  0.3817  -57.9
 2.800  0.4271  137.0   1.730   41.5  0.1960   62.6  0.3820  -59.9
 2.900  0.4307  134.7   1.680   39.7  0.2038   62.1  0.3813  -61.9
 3.000  0.4350  132.5   1.631   37.7  0.2116   61.7  0.3810  -64.0
 3.100  0.4392  130.4   1.589   36.2  0.2196   61.1  0.3803  -65.9
 3.200  0.4439  128.4   1.548   34.6  0.2277   60.6  0.3801  -67.9
 3.300  0.4492  126.4   1.508   33.0  0.2358   60.2  0.3803  -69.8
 3.400  0.4550  124.4   1.470   31.2  0.2439   59.7  0.3809  -71.8
 3.500  0.4613  122.5   1.433   29.4  0.2520   59.3  0.3820  -73.7
 3.600  0.4655  120.7   1.402   28.0  0.2604   58.5  0.3793  -75.8
 3.700  0.4701  118.9   1.371   26.5  0.2688   57.7  0.3771  -78.0
 3.800  0.4751  117.1   1.341   25.0  0.2773   57.0  0.3754  -80.1
 3.900  0.4807  115.4   1.313   23.4  0.2858   56.3  0.3743  -82.3
 4.000  0.4866  113.7   1.285   21.7  0.2943   55.7  0.3737  -84.5
 4.100  0.4911  112.0   1.260   20.4  0.3029   54.7  0.3693  -87.0
 4.200  0.4961  110.3   1.236   18.9  0.3116   53.8  0.3656  -89.5
 4.300  0.5015  108.7   1.212   17.5  0.3204   52.9  0.3627  -92.1
 4.400  0.5072  107.1   1.190   16.0  0.3292   52.1  0.3605  -94.7
 4.500  0.5134  105.5   1.168   14.4  0.3381   51.3  0.3590  -97.3
 4.600  0.5188  104.1   1.146   13.2  0.3466   50.3  0.3554 -100.3
 4.700  0.5244  102.6   1.124   12.0  0.3551   49.4  0.3528 -103.4
 4.800  0.5304  101.3   1.103   10.8  0.3638   48.5  0.3512 -106.5
 4.900  0.5367   99.9   1.082    9.5  0.3725   47.6  0.3506 -109.6
 5.000  0.5433   98.6   1.062    8.1  0.3813   46.8  0.3511 -112.7
 5.100  0.5469   97.3   1.046    7.0  0.3897   45.7  0.3518 -115.9
 5.200  0.5509   95.9   1.030    6.0  0.3982   44.7  0.3535 -119.0
 5.300  0.5551   94.6   1.015    4.8  0.4069   43.7  0.3563 -122.2
 5.400  0.5596   93.4   1.000    3.7  0.4156   42.8  0.3602 -125.2
 5.500  0.5644   92.1   0.985    2.5  0.4245   41.9  0.3650 -128.2
 5.600  0.5665   90.8   0.970    1.6  0.4327   40.7  0.3672 -131.0
 5.700  0.5690   89.6   0.955    0.7  0.4410   39.6  0.3702 -133.7
 5.800  0.5716   88.3   0.941   -0.3  0.4495   38.5  0.3741 -136.4
 5.900  0.5746   87.1   0.927   -1.3  0.4582   37.5  0.3788 -139.0
 6.000  0.5778   85.9   0.913   -2.3  0.4670   36.5  0.3842 -141.6
!
!  f       NFmin   Gammaopt  rn/50
! GHz       dB    MAG  ANG    -
 0.450      1.08  0.24   17   0.22
 0.900      1.13  0.22   31   0.21
 1.900      1.55  0.09   86   0.19
 2.400      1.70  0.08   96   0.23
!
! (c) 2017  Infineon Technologies AG, Munich