! Infineon Technologies  Discrete & RF Semiconductors
! BFR181W
! VCE =  7.0 V,  IC =  22 mA
! Common Emitter S-Parameters:                            Jan 2017
# GHz  S  MA  R  50
!  f         S11            S21            S12            S22
! GHz     MAG   ANG      MAG   ANG      MAG   ANG      MAG   ANG
 0.010  0.5849   -4.6  34.765  176.0  0.0015   90.3  0.9754   -1.6
 0.020  0.5737  -12.5  34.252  171.7  0.0030   92.3  0.9692   -3.7
 0.030  0.5606  -17.4  33.568  168.2  0.0042   85.1  0.9584   -5.8
 0.040  0.5518  -22.6  33.013  164.6  0.0055   81.1  0.9489   -7.9
 0.050  0.5475  -27.8  32.593  160.9  0.0068   78.7  0.9408  -10.1
 0.060  0.5310  -32.3  31.591  158.0  0.0081   76.2  0.9220  -11.5
 0.070  0.5181  -37.1  30.675  154.9  0.0094   74.5  0.9037  -13.0
 0.080  0.5090  -42.1  29.852  151.7  0.0107   73.1  0.8861  -14.5
 0.090  0.5039  -47.3  29.130  148.3  0.0120   72.0  0.8691  -16.1
 0.100  0.5029  -52.5  28.517  144.7  0.0133   71.2  0.8528  -17.7
 0.110  0.4866  -56.2  27.574  142.6  0.0142   70.2  0.8346  -18.5
 0.120  0.4725  -60.2  26.670  140.4  0.0152   69.3  0.8165  -19.3
 0.130  0.4607  -64.4  25.809  138.0  0.0161   68.5  0.7987  -20.2
 0.140  0.4516  -68.8  24.995  135.5  0.0171   67.7  0.7810  -21.1
 0.150  0.4452  -73.3  24.233  132.8  0.0180   67.1  0.7635  -22.0
 0.200  0.4036  -88.6  20.519  123.6  0.0209   65.8  0.6921  -23.9
 0.250  0.3712 -102.0  17.644  116.8  0.0242   64.8  0.6399  -24.6
 0.300  0.3496 -113.0  15.329  111.6  0.0263   64.3  0.6001  -24.5
 0.350  0.3325 -120.9  13.684  108.2  0.0293   65.4  0.5750  -24.3
 0.400  0.3224 -129.5  12.100  103.9  0.0324   66.3  0.5499  -24.0
 0.450  0.3124 -135.5  10.999  101.4  0.0350   67.0  0.5351  -23.7
 0.500  0.3060 -141.9   9.923   98.4  0.0377   67.6  0.5204  -23.3
 0.600  0.2995 -151.1   8.411   94.0  0.0435   68.9  0.5022  -23.0
 0.700  0.2955 -159.4   7.276   90.3  0.0488   70.8  0.4886  -22.8
 0.800  0.2944 -166.1   6.431   86.9  0.0554   71.9  0.4802  -23.1
 0.900  0.2945 -172.0   5.744   84.0  0.0608   71.9  0.4723  -23.5
 1.000  0.2984 -177.0   5.212   81.3  0.0672   73.0  0.4662  -24.1
 1.100  0.3010  178.3   4.764   78.9  0.0736   73.5  0.4622  -24.9
 1.200  0.3021  174.1   4.384   76.3  0.0795   73.4  0.4574  -25.7
 1.300  0.3024  170.2   4.062   73.9  0.0854   73.4  0.4539  -26.8
 1.400  0.3068  166.7   3.794   71.7  0.0926   74.0  0.4496  -27.9
 1.500  0.3121  163.6   3.554   69.7  0.0987   73.6  0.4467  -29.1
 1.600  0.3161  160.3   3.351   67.5  0.1055   73.5  0.4451  -30.5
 1.700  0.3190  157.5   3.167   65.5  0.1121   73.6  0.4409  -32.0
 1.800  0.3236  154.5   3.011   63.4  0.1190   73.3  0.4370  -33.5
 1.900  0.3285  152.4   2.870   61.6  0.1261   73.0  0.4354  -35.0
 2.000  0.3324  149.9   2.734   59.5  0.1326   72.7  0.4335  -36.8
 2.100  0.3363  147.4   2.621   57.7  0.1399   72.3  0.4311  -38.5
 2.200  0.3408  144.9   2.511   55.7  0.1472   71.9  0.4291  -40.3
 2.300  0.3469  142.8   2.418   53.9  0.1545   71.4  0.4276  -42.2
 2.400  0.3534  140.7   2.328   51.9  0.1618   71.0  0.4266  -44.1
 2.500  0.3563  138.8   2.245   50.2  0.1687   70.6  0.4256  -46.0
 2.600  0.3595  136.9   2.165   48.4  0.1757   70.2  0.4250  -47.9
 2.700  0.3663  134.8   2.097   46.8  0.1833   69.6  0.4247  -49.8
 2.800  0.3735  132.8   2.031   45.0  0.1909   69.1  0.4248  -51.7
 2.900  0.3776  130.9   1.972   43.3  0.1988   68.4  0.4240  -53.6
 3.000  0.3820  129.1   1.914   41.5  0.2067   67.8  0.4237  -55.5
 3.100  0.3860  127.2   1.865   40.1  0.2147   67.1  0.4229  -57.3
 3.200  0.3904  125.4   1.817   38.6  0.2227   66.5  0.4226  -59.1
 3.300  0.3952  123.6   1.770   37.1  0.2307   65.9  0.4226  -60.9
 3.400  0.4004  121.8   1.725   35.4  0.2387   65.3  0.4231  -62.7
 3.500  0.4059  120.1   1.681   33.7  0.2468   64.8  0.4240  -64.5
 3.600  0.4101  118.5   1.645   32.3  0.2550   63.9  0.4214  -66.4
 3.700  0.4147  116.9   1.611   30.9  0.2632   63.0  0.4194  -68.4
 3.800  0.4196  115.3   1.577   29.4  0.2715   62.3  0.4178  -70.3
 3.900  0.4247  113.8   1.544   27.9  0.2799   61.5  0.4167  -72.3
 4.000  0.4302  112.3   1.513   26.3  0.2883   60.8  0.4161  -74.3
 4.100  0.4351  110.8   1.484   24.9  0.2968   59.8  0.4112  -76.5
 4.200  0.4404  109.4   1.456   23.5  0.3054   58.8  0.4070  -78.7
 4.300  0.4459  108.0   1.429   22.1  0.3142   57.8  0.4034  -81.0
 4.400  0.4516  106.6   1.402   20.6  0.3229   56.9  0.4004  -83.3
 4.500  0.4576  105.3   1.377   19.0  0.3318   56.1  0.3981  -85.7
 4.600  0.4634  104.0   1.352   17.8  0.3402   55.1  0.3936  -88.4
 4.700  0.4695  102.8   1.327   16.6  0.3488   54.2  0.3900  -91.1
 4.800  0.4758  101.6   1.304   15.3  0.3574   53.3  0.3873  -93.8
 4.900  0.4822  100.4   1.280   14.0  0.3661   52.4  0.3855  -96.6
 5.000  0.4889   99.3   1.258   12.6  0.3749   51.6  0.3846  -99.4
 5.100  0.4933   98.1   1.239   11.5  0.3834   50.5  0.3838 -102.4
 5.200  0.4980   96.8   1.220   10.3  0.3919   49.5  0.3841 -105.3
 5.300  0.5029   95.6   1.202    9.2  0.4007   48.5  0.3853 -108.3
 5.400  0.5080   94.5   1.185    8.0  0.4095   47.6  0.3876 -111.2
 5.500  0.5133   93.3   1.168    6.7  0.4184   46.7  0.3909 -114.1
 5.600  0.5160   92.1   1.150    5.7  0.4269   45.5  0.3919 -116.8
 5.700  0.5190   91.0   1.133    4.7  0.4356   44.4  0.3938 -119.5
 5.800  0.5221   89.8   1.116    3.6  0.4445   43.3  0.3965 -122.2
 5.900  0.5255   88.7   1.099    2.5  0.4535   42.3  0.4001 -124.8
 6.000  0.5290   87.6   1.083    1.4  0.4626   41.3  0.4045 -127.4
!
!  f       NFmin   Gammaopt  rn/50
! GHz       dB    MAG  ANG    -
!
! noise parameter not available yet for this operation point!
!
! (c) 2017  Infineon Technologies AG, Munich