! Infineon Technologies  Discrete & RF Semiconductors
! BFR181W
! VCE =  6.0 V,  IC =  25 mA
! Common Emitter S-Parameters:                            Jan 2017
# GHz  S  MA  R  50
!  f         S11            S21            S12            S22
! GHz     MAG   ANG      MAG   ANG      MAG   ANG      MAG   ANG
 0.010  0.5313   -6.6  34.617  175.6  0.0015   90.4  0.9611   -1.7
 0.020  0.5211  -16.1  34.155  170.6  0.0034   87.5  0.9592   -4.0
 0.030  0.5070  -22.6  33.277  166.6  0.0047   82.0  0.9442   -6.1
 0.040  0.4997  -29.3  32.565  162.5  0.0061   79.0  0.9306   -8.3
 0.050  0.4995  -36.2  32.030  158.2  0.0074   77.0  0.9184  -10.6
 0.060  0.4814  -41.8  30.811  155.1  0.0086   75.4  0.8977  -11.9
 0.070  0.4681  -47.7  29.687  151.9  0.0097   74.1  0.8774  -13.2
 0.080  0.4602  -53.9  28.668  148.3  0.0109   73.1  0.8577  -14.6
 0.090  0.4578  -60.3  27.767  144.5  0.0120   72.4  0.8384  -16.1
 0.100  0.4610  -66.6  26.995  140.5  0.0132   71.7  0.8198  -17.6
 0.110  0.4479  -71.0  25.963  138.4  0.0139   69.9  0.8019  -18.2
 0.120  0.4375  -75.6  24.967  136.2  0.0146   68.3  0.7840  -18.8
 0.130  0.4300  -80.4  24.013  133.8  0.0154   66.8  0.7663  -19.4
 0.140  0.4257  -85.3  23.106  131.1  0.0161   65.5  0.7486  -20.1
 0.150  0.4246  -90.3  22.251  128.3  0.0169   64.3  0.7311  -20.8
 0.200  0.4004 -106.8  18.442  119.3  0.0196   65.1  0.6682  -21.6
 0.250  0.3850 -120.5  15.632  112.8  0.0228   62.6  0.6246  -21.6
 0.300  0.3772 -130.5  13.463  107.9  0.0246   63.9  0.5931  -21.2
 0.350  0.3682 -137.7  11.973  104.8  0.0271   65.3  0.5748  -20.8
 0.400  0.3652 -145.2  10.528  100.8  0.0297   66.4  0.5565  -20.4
 0.450  0.3608 -150.4   9.539   98.5  0.0324   67.3  0.5460  -20.3
 0.500  0.3594 -155.7   8.569   95.7  0.0351   68.1  0.5356  -20.1
 0.600  0.3588 -163.6   7.239   91.4  0.0409   69.9  0.5221  -20.0
 0.700  0.3598 -170.1   6.253   87.9  0.0458   71.7  0.5135  -20.3
 0.800  0.3614 -175.6   5.522   84.6  0.0523   73.4  0.5072  -21.0
 0.900  0.3620  179.5   4.927   81.7  0.0579   73.8  0.5018  -21.8
 1.000  0.3662  175.5   4.469   79.1  0.0637   74.9  0.4962  -22.7
 1.100  0.3691  171.7   4.083   76.6  0.0702   75.6  0.4938  -23.6
 1.200  0.3721  168.1   3.760   74.1  0.0760   75.7  0.4900  -24.8
 1.300  0.3729  164.6   3.481   71.7  0.0821   75.9  0.4862  -26.1
 1.400  0.3780  161.5   3.256   69.4  0.0892   76.3  0.4827  -27.5
 1.500  0.3830  158.9   3.052   67.4  0.0953   76.1  0.4794  -28.9
 1.600  0.3865  156.0   2.873   65.1  0.1023   76.2  0.4782  -30.5
 1.700  0.3902  153.5   2.719   63.1  0.1092   76.3  0.4742  -32.2
 1.800  0.3953  150.7   2.585   61.0  0.1159   75.8  0.4714  -33.8
 1.900  0.4000  148.6   2.461   59.1  0.1230   75.8  0.4692  -35.5
 2.000  0.4031  146.2   2.347   57.0  0.1304   75.5  0.4678  -37.5
 2.100  0.4070  143.9   2.250   55.1  0.1377   75.1  0.4652  -39.3
 2.200  0.4116  141.6   2.155   53.1  0.1451   74.7  0.4631  -41.2
 2.300  0.4175  139.6   2.075   51.3  0.1526   74.3  0.4619  -43.2
 2.400  0.4238  137.7   1.998   49.3  0.1602   74.0  0.4613  -45.3
 2.500  0.4270  135.7   1.927   47.6  0.1678   73.5  0.4601  -47.3
 2.600  0.4308  133.7   1.858   45.7  0.1754   73.1  0.4595  -49.4
 2.700  0.4361  131.7   1.799   44.1  0.1834   72.5  0.4592  -51.4
 2.800  0.4419  129.8   1.742   42.3  0.1915   71.9  0.4595  -53.4
 2.900  0.4460  127.9   1.691   40.6  0.1998   71.3  0.4586  -55.4
 3.000  0.4505  126.1   1.642   38.8  0.2081   70.7  0.4582  -57.5
 3.100  0.4542  124.3   1.599   37.4  0.2167   69.9  0.4572  -59.4
 3.200  0.4584  122.4   1.558   35.9  0.2254   69.2  0.4566  -61.4
 3.300  0.4630  120.7   1.517   34.4  0.2341   68.5  0.4566  -63.3
 3.400  0.4681  118.9   1.478   32.7  0.2428   67.9  0.4572  -65.3
 3.500  0.4736  117.2   1.440   31.0  0.2516   67.3  0.4582  -67.2
 3.600  0.4772  115.5   1.409   29.7  0.2604   66.3  0.4551  -69.3
 3.700  0.4811  113.9   1.379   28.3  0.2694   65.3  0.4526  -71.3
 3.800  0.4855  112.3   1.349   26.9  0.2783   64.4  0.4507  -73.5
 3.900  0.4902  110.7   1.321   25.4  0.2874   63.6  0.4495  -75.6
 4.000  0.4953  109.1   1.293   23.8  0.2965   62.8  0.4488  -77.7
 4.100  0.4993  107.6   1.268   22.5  0.3056   61.7  0.4435  -80.0
 4.200  0.5036  106.1   1.244   21.2  0.3149   60.6  0.4389  -82.4
 4.300  0.5083  104.6   1.221   19.8  0.3242   59.6  0.4352  -84.8
 4.400  0.5134  103.1   1.199   18.3  0.3337   58.6  0.4322  -87.3
 4.500  0.5187  101.7   1.177   16.8  0.3432   57.7  0.4300  -89.8
 4.600  0.5235  100.4   1.155   15.7  0.3521   56.6  0.4252  -92.6
 4.700  0.5285   99.2   1.134   14.6  0.3612   55.5  0.4214  -95.4
 4.800  0.5338   98.0   1.113   13.5  0.3704   54.5  0.4186  -98.2
 4.900  0.5393   96.8   1.092   12.2  0.3797   53.5  0.4169 -101.1
 5.000  0.5450   95.6   1.072   11.0  0.3891   52.6  0.4162 -104.0
 5.100  0.5485   94.4   1.056   10.0  0.3981   51.4  0.4152 -107.0
 5.200  0.5522   93.1   1.041    9.0  0.4072   50.3  0.4153 -110.0
 5.300  0.5562   91.9   1.026    7.9  0.4165   49.3  0.4166 -113.0
 5.400  0.5604   90.8   1.011    6.8  0.4259   48.3  0.4190 -116.0
 5.500  0.5648   89.6   0.997    5.7  0.4354   47.3  0.4225 -118.9
 5.600  0.5664   88.4   0.982    4.9  0.4439   46.0  0.4232 -121.6
 5.700  0.5682   87.2   0.968    4.0  0.4527   44.8  0.4248 -124.3
 5.800  0.5704   86.0   0.954    3.1  0.4616   43.6  0.4273 -127.0
 5.900  0.5727   84.8   0.940    2.2  0.4708   42.5  0.4308 -129.6
 6.000  0.5753   83.6   0.926    1.2  0.4801   41.4  0.4351 -132.2
!
!  f       NFmin   Gammaopt  rn/50
! GHz       dB    MAG  ANG    -
!
! noise parameter not available yet for this operation point!
!
! (c) 2017  Infineon Technologies AG, Munich