! Infineon Technologies  Discrete & RF Semiconductors
! BFR181W
! VCE =  1.0 V,  IC =  16 mA
! Common Emitter S-Parameters:                            Jan 2017
# GHz  S  MA  R  50
!  f         S11            S21            S12            S22
! GHz     MAG   ANG      MAG   ANG      MAG   ANG      MAG   ANG
 0.010  0.5583  -13.0  26.139  174.0  0.0030   82.6  0.8764   -3.7
 0.020  0.5498  -27.9  25.464  166.6  0.0059   83.5  0.8586   -7.3
 0.030  0.5274  -39.1  24.247  161.2  0.0084   74.2  0.8317  -10.3
 0.040  0.5262  -50.7  23.265  155.3  0.0110   69.2  0.8071  -13.4
 0.050  0.5465  -62.0  22.548  149.0  0.0136   66.1  0.7852  -16.8
 0.060  0.5275  -69.7  21.241  145.8  0.0151   62.9  0.7560  -18.1
 0.070  0.5187  -77.8  20.009  142.1  0.0167   60.2  0.7272  -19.5
 0.080  0.5205  -86.1  18.869  138.0  0.0183   58.1  0.6989  -21.0
 0.090  0.5329  -94.1  17.838  133.4  0.0200   56.2  0.6711  -22.6
 0.100  0.5551 -101.6  16.935  128.3  0.0216   54.7  0.6439  -24.4
 0.110  0.5489 -106.2  16.086  126.4  0.0225   53.6  0.6252  -24.7
 0.120  0.5464 -110.9  15.258  124.2  0.0234   52.6  0.6064  -25.0
 0.130  0.5476 -115.7  14.454  121.8  0.0243   51.6  0.5877  -25.3
 0.140  0.5525 -120.3  13.677  119.2  0.0252   50.7  0.5691  -25.6
 0.150  0.5610 -124.9  12.934  116.2  0.0261   49.9  0.5504  -26.0
 0.200  0.5624 -138.7  10.252  107.9  0.0276   49.2  0.4958  -25.4
 0.250  0.5646 -148.8   8.459  102.1  0.0312   49.8  0.4634  -24.5
 0.300  0.5652 -155.6   7.160   97.8  0.0327   51.2  0.4411  -23.4
 0.350  0.5651 -160.5   6.315   94.9  0.0356   53.0  0.4294  -23.0
 0.400  0.5692 -165.4   5.490   91.2  0.0386   54.6  0.4177  -22.5
 0.450  0.5685 -169.0   4.953   88.9  0.0413   56.4  0.4111  -22.4
 0.500  0.5701 -172.6   4.426   86.1  0.0440   57.9  0.4046  -22.3
 0.600  0.5732 -178.0   3.716   81.8  0.0498   60.9  0.3966  -22.7
 0.700  0.5746  177.8   3.200   77.9  0.0554   63.5  0.3909  -23.4
 0.800  0.5785  173.6   2.819   74.2  0.0626   65.7  0.3866  -24.6
 0.900  0.5778  170.1   2.509   70.9  0.0686   66.7  0.3822  -26.1
 1.000  0.5836  167.0   2.277   67.8  0.0754   67.8  0.3775  -27.6
 1.100  0.5880  163.9   2.078   64.7  0.0819   69.3  0.3757  -29.2
 1.200  0.5903  160.9   1.913   61.7  0.0893   69.3  0.3719  -31.0
 1.300  0.5937  158.0   1.772   58.9  0.0964   70.2  0.3688  -33.1
 1.400  0.5978  155.4   1.656   56.1  0.1042   70.6  0.3648  -35.1
 1.500  0.6040  153.0   1.552   53.5  0.1117   70.9  0.3615  -37.3
 1.600  0.6091  150.4   1.462   50.8  0.1199   70.9  0.3602  -39.6
 1.700  0.6120  148.0   1.382   48.4  0.1274   71.0  0.3558  -42.1
 1.800  0.6175  145.4   1.315   45.8  0.1356   70.7  0.3530  -44.7
 1.900  0.6223  143.6   1.251   43.7  0.1441   70.6  0.3507  -47.3
 2.000  0.6250  141.0   1.190   41.2  0.1529   70.3  0.3495  -50.1
 2.100  0.6288  138.7   1.139   39.1  0.1615   69.8  0.3467  -52.9
 2.200  0.6337  136.4   1.089   36.8  0.1701   69.4  0.3447  -55.8
 2.300  0.6385  134.3   1.047   34.8  0.1791   68.9  0.3434  -58.7
 2.400  0.6442  132.2   1.007   32.7  0.1882   68.4  0.3431  -61.7
 2.500  0.6466  130.1   0.968   30.9  0.1972   67.7  0.3422  -64.6
 2.600  0.6498  128.1   0.930   29.0  0.2063   67.1  0.3422  -67.6
 2.700  0.6548  126.1   0.898   27.4  0.2155   66.4  0.3423  -70.5
 2.800  0.6606  124.2   0.866   25.7  0.2247   65.7  0.3432  -73.3
 2.900  0.6624  122.1   0.838   24.2  0.2341   64.8  0.3426  -76.2
 3.000  0.6650  120.1   0.811   22.6  0.2436   64.0  0.3429  -79.2
 3.100  0.6668  118.1   0.788   21.5  0.2532   62.9  0.3410  -81.9
 3.200  0.6694  116.1   0.765   20.3  0.2629   62.0  0.3399  -84.6
 3.300  0.6729  114.1   0.743   19.1  0.2727   61.0  0.3396  -87.3
 3.400  0.6771  112.1   0.721   17.8  0.2825   60.2  0.3400  -90.1
 3.500  0.6821  110.2   0.699   16.4  0.2924   59.4  0.3412  -92.8
 3.600  0.6829  108.4   0.683   15.7  0.3019   58.2  0.3374  -95.6
 3.700  0.6843  106.6   0.667   15.0  0.3114   57.0  0.3344  -98.5
 3.800  0.6865  104.8   0.651   14.2  0.3212   55.9  0.3323 -101.5
 3.900  0.6893  103.1   0.635   13.4  0.3310   54.9  0.3310 -104.4
 4.000  0.6927  101.3   0.619   12.5  0.3409   53.9  0.3307 -107.4
 4.100  0.6927   99.6   0.608   12.0  0.3499   52.5  0.3257 -110.7
 4.200  0.6933   97.8   0.597   11.5  0.3591   51.2  0.3217 -114.1
 4.300  0.6945   96.1   0.586   10.9  0.3685   50.0  0.3190 -117.6
 4.400  0.6963   94.4   0.575   10.4  0.3780   48.8  0.3174 -121.1
 4.500  0.6988   92.7   0.564    9.8  0.3877   47.7  0.3171 -124.7
 4.600  0.6987   91.4   0.556    9.7  0.3957   46.4  0.3145 -128.3
 4.700  0.6990   90.0   0.549    9.6  0.4039   45.2  0.3132 -132.0
 4.800  0.6996   88.7   0.541    9.5  0.4123   44.0  0.3132 -135.7
 4.900  0.7007   87.3   0.534    9.3  0.4209   42.9  0.3145 -139.4
 5.000  0.7021   86.0   0.526    9.2  0.4296   41.8  0.3171 -143.0
 5.100  0.7017   84.7   0.524    9.1  0.4369   40.5  0.3191 -146.4
 5.200  0.7017   83.4   0.521    8.9  0.4445   39.3  0.3221 -149.7
 5.300  0.7020   82.1   0.519    8.8  0.4522   38.1  0.3262 -153.0
 5.400  0.7027   80.8   0.516    8.6  0.4602   36.9  0.3314 -156.1
 5.500  0.7037   79.5   0.514    8.5  0.4683   35.8  0.3375 -159.2
 5.600  0.7011   78.3   0.513    8.4  0.4748   34.5  0.3398 -161.8
 5.700  0.6988   77.2   0.513    8.3  0.4815   33.3  0.3429 -164.4
 5.800  0.6968   76.0   0.512    8.2  0.4884   32.0  0.3466 -166.9
 5.900  0.6951   74.8   0.512    8.1  0.4955   30.9  0.3510 -169.4
 6.000  0.6937   73.6   0.511    8.0  0.5029   29.7  0.3560 -171.8
!
!  f       NFmin   Gammaopt  rn/50
! GHz       dB    MAG  ANG    -
!
! noise parameter not available yet for this operation point!
!
! (c) 2017  Infineon Technologies AG, Munich