! Infineon Technologies  Discrete & RF Semiconductors
! BFR181W
! VCE =  1.0 V,  IC =  13 mA
! Common Emitter S-Parameters:                            Jan 2017
# GHz  S  MA  R  50
!  f         S11            S21            S12            S22
! GHz     MAG   ANG      MAG   ANG      MAG   ANG      MAG   ANG
 0.010  0.6312   -9.2  25.027  175.4  0.0025   89.1  0.9118   -2.9
 0.020  0.6171  -20.7  24.512  169.2  0.0052   87.8  0.8961   -5.8
 0.030  0.5959  -29.0  23.688  164.5  0.0077   77.3  0.8774   -8.5
 0.040  0.5880  -37.7  23.036  159.5  0.0103   72.1  0.8606  -11.2
 0.050  0.5939  -46.5  22.570  154.2  0.0130   69.0  0.8459  -14.1
 0.060  0.5708  -53.2  21.510  151.0  0.0147   66.2  0.8198  -15.5
 0.070  0.5561  -60.4  20.524  147.5  0.0164   64.0  0.7942  -17.0
 0.080  0.5506  -67.9  19.624  143.6  0.0182   62.2  0.7692  -18.6
 0.090  0.5545  -75.3  18.822  139.4  0.0199   60.7  0.7448  -20.4
 0.100  0.5676  -82.6  18.131  134.8  0.0217   59.5  0.7212  -22.2
 0.110  0.5553  -87.3  17.331  132.7  0.0226   57.9  0.7019  -22.7
 0.120  0.5470  -92.2  16.556  130.5  0.0236   56.4  0.6827  -23.3
 0.130  0.5428  -97.2  15.809  128.0  0.0245   55.0  0.6636  -23.9
 0.140  0.5427 -102.3  15.094  125.3  0.0255   53.8  0.6446  -24.5
 0.150  0.5469 -107.3  14.417  122.3  0.0265   52.6  0.6256  -25.2
 0.200  0.5350 -123.3  11.692  113.4  0.0295   51.2  0.5611  -25.6
 0.250  0.5278 -135.5   9.769  107.0  0.0322   50.2  0.5209  -25.2
 0.300  0.5242 -144.2   8.327  102.3  0.0345   50.6  0.4919  -24.5
 0.350  0.5197 -150.3   7.369   99.2  0.0370   52.1  0.4760  -24.0
 0.400  0.5212 -156.4   6.439   95.1  0.0395   53.4  0.4601  -23.5
 0.450  0.5187 -160.8   5.819   92.7  0.0419   54.8  0.4510  -23.3
 0.500  0.5193 -165.2   5.211   89.8  0.0444   56.0  0.4419  -23.1
 0.600  0.5202 -171.7   4.386   85.3  0.0499   59.0  0.4302  -23.1
 0.700  0.5224 -176.9   3.781   81.5  0.0548   61.3  0.4224  -23.5
 0.800  0.5255  178.3   3.333   77.8  0.0614   64.1  0.4170  -24.4
 0.900  0.5257  174.1   2.971   74.5  0.0670   65.0  0.4121  -25.5
 1.000  0.5309  170.6   2.695   71.5  0.0738   66.6  0.4071  -26.7
 1.100  0.5355  167.2   2.461   68.6  0.0805   67.3  0.4045  -28.1
 1.200  0.5371  164.0   2.267   65.7  0.0863   68.3  0.4012  -29.6
 1.300  0.5380  160.8   2.101   62.9  0.0931   68.6  0.3975  -31.4
 1.400  0.5428  158.1   1.964   60.3  0.1004   69.3  0.3935  -33.2
 1.500  0.5491  155.5   1.841   57.8  0.1074   69.7  0.3907  -35.0
 1.600  0.5538  152.9   1.735   55.2  0.1147   69.9  0.3891  -37.1
 1.700  0.5579  150.2   1.641   52.8  0.1220   70.3  0.3851  -39.2
 1.800  0.5633  147.6   1.561   50.3  0.1297   70.0  0.3822  -41.5
 1.900  0.5663  145.4   1.486   48.2  0.1374   70.0  0.3805  -43.7
 2.000  0.5717  143.0   1.414   45.8  0.1455   69.8  0.3788  -46.2
 2.100  0.5753  140.7   1.355   43.7  0.1537   69.5  0.3763  -48.7
 2.200  0.5798  138.4   1.298   41.4  0.1620   69.3  0.3745  -51.3
 2.300  0.5844  136.2   1.250   39.4  0.1703   68.8  0.3733  -53.9
 2.400  0.5899  134.1   1.203   37.3  0.1787   68.4  0.3728  -56.6
 2.500  0.5930  132.0   1.159   35.5  0.1873   67.9  0.3721  -59.2
 2.600  0.5968  130.0   1.116   33.5  0.1960   67.5  0.3721  -61.8
 2.700  0.6017  128.0   1.079   31.8  0.2047   66.9  0.3722  -64.4
 2.800  0.6074  126.0   1.043   30.0  0.2135   66.3  0.3731  -67.0
 2.900  0.6101  124.0   1.010   28.4  0.2226   65.6  0.3724  -69.6
 3.000  0.6135  122.0   0.978   26.6  0.2317   64.9  0.3724  -72.3
 3.100  0.6161  120.0   0.951   25.3  0.2411   64.0  0.3709  -74.8
 3.200  0.6194  118.0   0.925   23.9  0.2506   63.1  0.3701  -77.3
 3.300  0.6234  116.1   0.899   22.5  0.2601   62.3  0.3700  -79.8
 3.400  0.6282  114.2   0.874   20.9  0.2697   61.6  0.3706  -82.3
 3.500  0.6336  112.3   0.849   19.3  0.2793   60.9  0.3719  -84.8
 3.600  0.6353  110.5   0.829   18.3  0.2887   59.7  0.3684  -87.4
 3.700  0.6376  108.7   0.810   17.2  0.2982   58.7  0.3657  -90.0
 3.800  0.6405  106.9   0.791   16.1  0.3078   57.6  0.3638  -92.7
 3.900  0.6441  105.1   0.772   14.9  0.3174   56.7  0.3627  -95.4
 4.000  0.6482  103.4   0.754   13.7  0.3272   55.8  0.3624  -98.1
 4.100  0.6497  101.7   0.739   12.9  0.3364   54.5  0.3572 -101.2
 4.200  0.6519  100.0   0.725   12.0  0.3458   53.3  0.3531 -104.3
 4.300  0.6546   98.3   0.710   11.2  0.3554   52.2  0.3500 -107.5
 4.400  0.6578   96.6   0.696   10.3  0.3650   51.1  0.3480 -110.7
 4.500  0.6616   95.0   0.682    9.3  0.3748   50.1  0.3472 -114.0
 4.600  0.6628   93.6   0.670    8.8  0.3834   48.9  0.3439 -117.5
 4.700  0.6645   92.3   0.659    8.3  0.3921   47.7  0.3418 -121.0
 4.800  0.6664   91.0   0.647    7.7  0.4010   46.5  0.3411 -124.5
 4.900  0.6688   89.6   0.635    7.2  0.4101   45.4  0.3416 -128.1
 5.000  0.6715   88.3   0.624    6.6  0.4193   44.4  0.3435 -131.6
 5.100  0.6720   87.0   0.618    6.3  0.4274   43.1  0.3446 -135.0
 5.200  0.6729   85.6   0.611    5.9  0.4356   41.9  0.3470 -138.3
 5.300  0.6741   84.3   0.605    5.5  0.4441   40.7  0.3505 -141.6
 5.400  0.6757   83.0   0.598    5.2  0.4527   39.6  0.3552 -144.9
 5.500  0.6776   81.7   0.592    4.8  0.4615   38.5  0.3609 -148.0
 5.600  0.6763   80.5   0.587    4.6  0.4687   37.2  0.3630 -150.8
 5.700  0.6753   79.3   0.582    4.4  0.4761   35.9  0.3659 -153.5
 5.800  0.6746   78.0   0.578    4.2  0.4837   34.7  0.3696 -156.1
 5.900  0.6743   76.8   0.573    3.9  0.4916   33.5  0.3741 -158.8
 6.000  0.6742   75.6   0.568    3.7  0.4996   32.4  0.3793 -161.3
!
!  f       NFmin   Gammaopt  rn/50
! GHz       dB    MAG  ANG    -
 0.450      1.39  0.08   17   0.21
 0.900      1.43  0.08   31   0.21
 1.900      1.86  0.09 -144   0.21
 2.400      2.07  0.11 -109   0.26
!
! (c) 2017  Infineon Technologies AG, Munich