! Infineon Technologies  Discrete & RF Semiconductors
! BFR181W
! VCE =  4.0 V,  IC =  28 mA
! Common Emitter S-Parameters:                            Jan 2017
# GHz  S  MA  R  50
!  f         S11            S21            S12            S22
! GHz     MAG   ANG      MAG   ANG      MAG   ANG      MAG   ANG
 0.010  0.4369  -11.5  32.345  174.6  0.0016   86.0  0.9228   -2.1
 0.020  0.4322  -25.6  31.765  168.2  0.0031   79.0  0.9201   -4.8
 0.030  0.4185  -36.0  30.514  163.3  0.0046   75.5  0.8993   -7.0
 0.040  0.4191  -46.7  29.502  158.1  0.0062   73.8  0.8798   -9.2
 0.050  0.4341  -57.0  28.754  152.5  0.0077   72.7  0.8617  -11.6
 0.060  0.4216  -64.7  27.284  149.3  0.0088   69.3  0.8385  -12.6
 0.070  0.4170  -72.7  25.907  145.8  0.0099   66.7  0.8156  -13.7
 0.080  0.4207  -80.7  24.640  141.9  0.0110   64.6  0.7929  -14.8
 0.090  0.4324  -88.5  23.501  137.5  0.0121   62.8  0.7706  -15.9
 0.100  0.4515  -95.7  22.508  132.8  0.0132   61.4  0.7486  -17.2
 0.110  0.4473 -100.5  21.468  130.8  0.0139   60.8  0.7331  -17.5
 0.120  0.4463 -105.4  20.456  128.7  0.0146   60.4  0.7177  -17.7
 0.130  0.4486 -110.2  19.476  126.3  0.0152   59.9  0.7023  -18.0
 0.140  0.4540 -115.0  18.534  123.6  0.0159   59.5  0.6869  -18.3
 0.150  0.4624 -119.6  17.636  120.7  0.0166   59.1  0.6715  -18.6
 0.200  0.4649 -134.1  14.167  112.2  0.0186   59.2  0.6235  -18.3
 0.250  0.4701 -144.7  11.796  106.4  0.0215   59.2  0.5947  -17.7
 0.300  0.4721 -152.4  10.037  102.0  0.0229   62.0  0.5746  -17.1
 0.350  0.4719 -157.7   8.872   99.2  0.0256   63.7  0.5640  -16.9
 0.400  0.4756 -162.9   7.736   95.5  0.0283   65.1  0.5534  -16.7
 0.450  0.4759 -166.7   6.990   93.4  0.0306   66.7  0.5478  -16.8
 0.500  0.4783 -170.4   6.255   90.8  0.0330   68.0  0.5422  -16.9
 0.600  0.4827 -176.0   5.261   86.7  0.0384   70.2  0.5346  -17.4
 0.700  0.4841  179.4   4.530   83.3  0.0436   73.4  0.5291  -18.2
 0.800  0.4880  175.0   3.995   80.0  0.0500   74.8  0.5252  -19.3
 0.900  0.4892  171.4   3.560   77.1  0.0549   75.8  0.5218  -20.5
 1.000  0.4931  168.1   3.229   74.4  0.0610   76.9  0.5178  -21.9
 1.100  0.4986  165.0   2.946   71.8  0.0670   77.8  0.5160  -23.3
 1.200  0.5000  161.7   2.712   69.1  0.0732   78.2  0.5127  -24.7
 1.300  0.5039  158.9   2.511   66.6  0.0798   78.9  0.5098  -26.4
 1.400  0.5073  156.3   2.347   64.3  0.0868   79.0  0.5068  -28.1
 1.500  0.5129  154.0   2.200   62.0  0.0933   79.4  0.5043  -29.8
 1.600  0.5164  151.4   2.073   59.7  0.1007   79.4  0.5030  -31.7
 1.700  0.5203  148.9   1.960   57.5  0.1081   79.7  0.4993  -33.7
 1.800  0.5250  146.6   1.864   55.3  0.1152   79.2  0.4962  -35.6
 1.900  0.5287  144.5   1.775   53.3  0.1227   79.2  0.4947  -37.6
 2.000  0.5334  142.1   1.691   51.1  0.1305   78.9  0.4926  -39.8
 2.100  0.5367  139.8   1.620   49.1  0.1384   78.6  0.4902  -41.9
 2.200  0.5409  137.5   1.552   47.0  0.1463   78.3  0.4884  -44.1
 2.300  0.5461  135.6   1.494   45.1  0.1549   77.8  0.4872  -46.4
 2.400  0.5520  133.7   1.437   43.1  0.1635   77.3  0.4867  -48.7
 2.500  0.5550  131.7   1.385   41.4  0.1720   76.7  0.4854  -51.0
 2.600  0.5587  129.8   1.335   39.5  0.1805   76.2  0.4849  -53.3
 2.700  0.5631  127.8   1.292   37.9  0.1894   75.5  0.4847  -55.6
 2.800  0.5682  125.9   1.251   36.1  0.1983   74.9  0.4852  -57.8
 2.900  0.5711  124.0   1.212   34.5  0.2074   74.1  0.4839  -60.1
 3.000  0.5746  122.1   1.175   32.7  0.2166   73.4  0.4833  -62.4
 3.100  0.5774  120.2   1.144   31.4  0.2262   72.4  0.4815  -64.6
 3.200  0.5809  118.3   1.114   30.0  0.2359   71.6  0.4805  -66.7
 3.300  0.5849  116.4   1.084   28.5  0.2457   70.7  0.4801  -68.9
 3.400  0.5896  114.6   1.055   26.9  0.2555   70.0  0.4805  -71.1
 3.500  0.5949  112.8   1.027   25.3  0.2653   69.3  0.4815  -73.3
 3.600  0.5972  111.1   1.004   24.2  0.2751   68.1  0.4777  -75.6
 3.700  0.6000  109.3   0.982   23.0  0.2850   67.0  0.4747  -77.9
 3.800  0.6034  107.6   0.960   21.7  0.2951   65.9  0.4725  -80.3
 3.900  0.6073  106.0   0.938   20.5  0.3052   64.9  0.4710  -82.6
 4.000  0.6117  104.3   0.917   19.1  0.3154   64.0  0.4704  -85.0
 4.100  0.6137  102.7   0.899   18.1  0.3253   62.7  0.4642  -87.6
 4.200  0.6161  101.1   0.882   17.0  0.3354   61.4  0.4590  -90.3
 4.300  0.6190   99.5   0.864   15.9  0.3456   60.2  0.4548  -93.0
 4.400  0.6224   97.9   0.848   14.7  0.3560   59.1  0.4517  -95.8
 4.500  0.6262   96.4   0.831   13.5  0.3665   58.0  0.4496  -98.6
 4.600  0.6283   95.1   0.816   12.8  0.3759   56.7  0.4442 -101.6
 4.700  0.6307   93.8   0.802   12.0  0.3854   55.5  0.4401 -104.6
 4.800  0.6334   92.5   0.787   11.2  0.3952   54.3  0.4372 -107.7
 4.900  0.6364   91.3   0.773   10.4  0.4051   53.2  0.4356 -110.9
 5.000  0.6397   90.0   0.759    9.5  0.4151   52.1  0.4353 -114.0
 5.100  0.6411   88.7   0.750    8.9  0.4241   50.8  0.4341 -117.1
 5.200  0.6429   87.4   0.741    8.2  0.4333   49.5  0.4341 -120.2
 5.300  0.6450   86.1   0.732    7.5  0.4427   48.2  0.4355 -123.4
 5.400  0.6474   84.8   0.723    6.8  0.4523   47.0  0.4381 -126.5
 5.500  0.6502   83.5   0.714    6.1  0.4621   45.9  0.4420 -129.5
 5.600  0.6496   82.3   0.706    5.7  0.4705   44.5  0.4422 -132.2
 5.700  0.6494   81.1   0.698    5.2  0.4792   43.2  0.4435 -135.0
 5.800  0.6494   79.9   0.690    4.8  0.4881   41.9  0.4457 -137.7
 5.900  0.6497   78.7   0.682    4.3  0.4972   40.7  0.4490 -140.4
 6.000  0.6503   77.5   0.674    3.8  0.5066   39.5  0.4532 -143.0
!
!  f       NFmin   Gammaopt  rn/50
! GHz       dB    MAG  ANG    -
!
! noise parameter not available yet for this operation point!
!
! (c) 2017  Infineon Technologies AG, Munich