! Infineon Technologies  Discrete & RF Semiconductors
! BFR181W
! VCE =  5.0 V,  IC =  19 mA
! Common Emitter S-Parameters:                            Jan 2017
# GHz  S  MA  R  50
!  f         S11            S21            S12            S22
! GHz     MAG   ANG      MAG   ANG      MAG   ANG      MAG   ANG
 0.010  0.5919   -4.8  33.569  176.4  0.0017   87.5  0.9771   -1.8
 0.020  0.5795  -12.6  33.107  171.9  0.0028   87.9  0.9670   -3.8
 0.030  0.5662  -17.6  32.458  168.5  0.0043   82.9  0.9575   -5.9
 0.040  0.5573  -22.7  31.931  164.9  0.0059   80.5  0.9493   -8.0
 0.050  0.5531  -28.0  31.532  161.2  0.0074   79.1  0.9425  -10.2
 0.060  0.5371  -32.5  30.575  158.3  0.0086   76.4  0.9235  -11.6
 0.070  0.5248  -37.3  29.700  155.2  0.0099   74.4  0.9051  -13.1
 0.080  0.5162  -42.3  28.916  152.0  0.0111   72.9  0.8873  -14.6
 0.090  0.5117  -47.4  28.230  148.6  0.0123   71.6  0.8701  -16.2
 0.100  0.5113  -52.6  27.649  145.0  0.0136   70.6  0.8537  -17.9
 0.110  0.4954  -56.3  26.745  142.9  0.0145   69.8  0.8356  -18.7
 0.120  0.4816  -60.2  25.880  140.7  0.0154   69.0  0.8177  -19.5
 0.130  0.4703  -64.4  25.057  138.3  0.0163   68.4  0.8000  -20.4
 0.140  0.4615  -68.7  24.280  135.7  0.0172   67.8  0.7825  -21.3
 0.150  0.4555  -73.2  23.555  133.0  0.0181   67.3  0.7652  -22.3
 0.200  0.4140  -89.2  19.965  123.8  0.0213   64.2  0.6929  -24.2
 0.250  0.3832 -102.6  17.187  117.0  0.0245   63.6  0.6400  -25.0
 0.300  0.3607 -113.4  14.951  111.7  0.0273   63.6  0.5985  -25.0
 0.350  0.3436 -121.3  13.358  108.3  0.0301   64.1  0.5733  -24.7
 0.400  0.3335 -129.8  11.826  103.9  0.0330   64.6  0.5482  -24.4
 0.450  0.3237 -135.8  10.742  101.4  0.0357   65.8  0.5329  -24.2
 0.500  0.3178 -142.2   9.683   98.4  0.0384   66.8  0.5176  -23.9
 0.600  0.3118 -151.9   8.210   93.9  0.0437   67.5  0.4981  -23.4
 0.700  0.3081 -159.6   7.107   90.1  0.0495   69.6  0.4846  -23.3
 0.800  0.3076 -166.3   6.280   86.7  0.0561   71.0  0.4759  -23.5
 0.900  0.3080 -172.0   5.608   83.7  0.0610   71.3  0.4680  -24.0
 1.000  0.3096 -177.2   5.090   81.0  0.0671   72.0  0.4614  -24.5
 1.100  0.3122  178.4   4.650   78.5  0.0735   72.5  0.4579  -25.3
 1.200  0.3146  173.9   4.280   75.9  0.0798   72.8  0.4534  -26.1
 1.300  0.3152  170.1   3.964   73.5  0.0861   72.9  0.4495  -27.3
 1.400  0.3198  166.5   3.704   71.2  0.0927   73.2  0.4450  -28.4
 1.500  0.3247  163.7   3.472   69.1  0.0993   73.2  0.4419  -29.6
 1.600  0.3278  160.6   3.270   66.9  0.1055   73.2  0.4405  -31.0
 1.700  0.3316  157.5   3.091   64.8  0.1123   73.3  0.4367  -32.5
 1.800  0.3355  154.7   2.941   62.7  0.1193   72.9  0.4332  -34.0
 1.900  0.3411  152.7   2.802   60.9  0.1260   72.7  0.4314  -35.6
 2.000  0.3455  149.9   2.668   58.8  0.1330   72.4  0.4299  -37.4
 2.100  0.3492  147.4   2.557   56.9  0.1402   72.0  0.4273  -39.2
 2.200  0.3535  145.0   2.448   54.9  0.1474   71.7  0.4252  -41.0
 2.300  0.3600  142.8   2.358   53.1  0.1547   71.3  0.4238  -42.9
 2.400  0.3671  140.6   2.270   51.1  0.1621   70.9  0.4229  -44.9
 2.500  0.3704  138.6   2.189   49.4  0.1693   70.4  0.4221  -46.8
 2.600  0.3741  136.7   2.111   47.6  0.1765   69.9  0.4217  -48.7
 2.700  0.3799  134.7   2.045   45.9  0.1840   69.4  0.4214  -50.6
 2.800  0.3861  132.8   1.980   44.1  0.1915   68.9  0.4216  -52.6
 2.900  0.3904  130.8   1.922   42.4  0.1993   68.2  0.4208  -54.5
 3.000  0.3952  128.9   1.865   40.6  0.2072   67.6  0.4204  -56.5
 3.100  0.3994  127.0   1.817   39.2  0.2153   66.9  0.4197  -58.3
 3.200  0.4040  125.1   1.770   37.7  0.2234   66.2  0.4193  -60.2
 3.300  0.4091  123.3   1.724   36.1  0.2315   65.6  0.4195  -62.0
 3.400  0.4146  121.5   1.680   34.4  0.2396   65.0  0.4200  -63.9
 3.500  0.4204  119.8   1.637   32.7  0.2478   64.5  0.4210  -65.7
 3.600  0.4247  118.2   1.602   31.3  0.2561   63.6  0.4183  -67.7
 3.700  0.4293  116.6   1.567   29.9  0.2645   62.7  0.4160  -69.6
 3.800  0.4342  115.0   1.534   28.4  0.2729   62.0  0.4143  -71.7
 3.900  0.4395  113.5   1.501   26.8  0.2814   61.2  0.4130  -73.7
 4.000  0.4450  112.0   1.470   25.2  0.2899   60.5  0.4123  -75.7
 4.100  0.4499  110.5   1.442   23.9  0.2986   59.4  0.4075  -78.0
 4.200  0.4550  109.0   1.415   22.5  0.3073   58.5  0.4034  -80.3
 4.300  0.4605  107.6   1.388   21.0  0.3162   57.5  0.3999  -82.6
 4.400  0.4662  106.2   1.363   19.5  0.3251   56.6  0.3971  -85.0
 4.500  0.4722  104.8   1.338   18.0  0.3341   55.8  0.3950  -87.4
 4.600  0.4779  103.5   1.313   16.8  0.3426   54.8  0.3907  -90.1
 4.700  0.4838  102.2   1.289   15.6  0.3512   53.8  0.3873  -92.9
 4.800  0.4899  101.0   1.266   14.3  0.3599   52.8  0.3848  -95.7
 4.900  0.4963   99.8   1.243   13.0  0.3687   52.0  0.3833  -98.5
 5.000  0.5029   98.6   1.221   11.6  0.3776   51.1  0.3827 -101.4
 5.100  0.5073   97.4   1.203   10.5  0.3862   50.0  0.3820 -104.4
 5.200  0.5120   96.2   1.185    9.3  0.3949   49.0  0.3824 -107.5
 5.300  0.5169   95.0   1.167    8.2  0.4037   48.0  0.3838 -110.5
 5.400  0.5220   93.8   1.150    7.0  0.4127   47.1  0.3863 -113.5
 5.500  0.5273   92.7   1.134    5.7  0.4217   46.2  0.3898 -116.4
 5.600  0.5297   91.5   1.117    4.7  0.4300   45.0  0.3910 -119.1
 5.700  0.5324   90.3   1.100    3.8  0.4386   43.9  0.3930 -121.8
 5.800  0.5353   89.1   1.083    2.7  0.4473   42.8  0.3959 -124.5
 5.900  0.5384   88.0   1.067    1.7  0.4561   41.7  0.3996 -127.1
 6.000  0.5417   86.8   1.051    0.6  0.4651   40.7  0.4042 -129.7
!
!  f       NFmin   Gammaopt  rn/50
! GHz       dB    MAG  ANG    -
!
! noise parameter not available yet for this operation point!
!
! (c) 2017  Infineon Technologies AG, Munich