! Infineon Technologies  Discrete & RF Semiconductors
! BFR181W
! VCE =  6.0 V,  IC =  18 mA
! Common Emitter S-Parameters:                            Jan 2017
# GHz  S  MA  R  50
!  f         S11            S21            S12            S22
! GHz     MAG   ANG      MAG   ANG      MAG   ANG      MAG   ANG
 0.010  0.6150   -4.0  33.400  176.5  0.0012   90.4  0.9829   -1.7
 0.020  0.6003  -11.1  32.872  172.4  0.0027   98.6  0.9749   -3.7
 0.030  0.5887  -15.5  32.324  169.2  0.0041   87.9  0.9658   -5.7
 0.040  0.5807  -20.0  31.882  165.8  0.0055   82.7  0.9580   -7.8
 0.050  0.5764  -24.6  31.552  162.4  0.0070   79.7  0.9514   -9.9
 0.060  0.5612  -28.7  30.689  159.6  0.0083   78.3  0.9341  -11.3
 0.070  0.5491  -33.0  29.901  156.7  0.0097   77.3  0.9175  -12.8
 0.080  0.5402  -37.5  29.195  153.7  0.0110   76.5  0.9015  -14.4
 0.090  0.5347  -42.1  28.576  150.4  0.0124   75.9  0.8861  -16.0
 0.100  0.5327  -46.8  28.051  147.1  0.0137   75.4  0.8715  -17.6
 0.110  0.5164  -50.2  27.218  145.0  0.0146   73.6  0.8535  -18.5
 0.120  0.5021  -53.8  26.424  142.8  0.0154   72.0  0.8356  -19.4
 0.130  0.4899  -57.6  25.673  140.4  0.0163   70.5  0.8180  -20.4
 0.140  0.4799  -61.6  24.967  137.9  0.0172   69.3  0.8007  -21.4
 0.150  0.4723  -65.7  24.311  135.3  0.0181   68.1  0.7836  -22.5
 0.200  0.4246  -80.2  20.845  126.1  0.0220   66.6  0.7098  -25.0
 0.250  0.3848  -93.3  18.088  119.0  0.0253   64.0  0.6527  -26.1
 0.300  0.3577 -104.2  15.805  113.7  0.0276   64.3  0.6083  -26.4
 0.350  0.3354 -112.0  14.155  110.2  0.0308   65.0  0.5791  -26.3
 0.400  0.3201 -120.7  12.573  105.7  0.0340   65.6  0.5500  -26.1
 0.450  0.3071 -127.1  11.443  103.1  0.0367   66.0  0.5325  -25.9
 0.500  0.2982 -133.9  10.341  100.0  0.0394   66.4  0.5151  -25.6
 0.600  0.2858 -144.2   8.784   95.3  0.0453   67.8  0.4923  -25.1
 0.700  0.2803 -152.4   7.614   91.4  0.0507   69.5  0.4768  -24.8
 0.800  0.2777 -160.5   6.736   88.0  0.0570   70.7  0.4656  -24.9
 0.900  0.2754 -166.8   6.018   84.9  0.0628   70.6  0.4568  -25.2
 1.000  0.2767 -172.3   5.464   82.2  0.0689   71.1  0.4491  -25.6
 1.100  0.2788 -177.4   4.992   79.7  0.0749   71.6  0.4453  -26.1
 1.200  0.2784  177.8   4.597   77.1  0.0813   72.0  0.4397  -26.9
 1.300  0.2797  173.3   4.258   74.7  0.0875   71.9  0.4356  -27.9
 1.400  0.2832  169.8   3.978   72.5  0.0943   72.2  0.4312  -28.9
 1.500  0.2892  166.7   3.728   70.3  0.1009   72.1  0.4269  -30.0
 1.600  0.2930  163.0   3.512   68.1  0.1076   71.8  0.4253  -31.3
 1.700  0.2939  159.8   3.319   66.2  0.1141   71.9  0.4213  -32.7
 1.800  0.2988  157.0   3.157   64.0  0.1206   71.3  0.4182  -34.1
 1.900  0.3047  154.6   3.006   62.2  0.1275   71.3  0.4159  -35.6
 2.000  0.3082  151.5   2.866   60.2  0.1346   71.0  0.4136  -37.3
 2.100  0.3126  149.0   2.747   58.3  0.1414   70.6  0.4113  -39.0
 2.200  0.3175  146.5   2.631   56.3  0.1483   70.2  0.4094  -40.8
 2.300  0.3232  144.3   2.534   54.5  0.1556   69.7  0.4079  -42.6
 2.400  0.3293  142.1   2.439   52.6  0.1629   69.3  0.4068  -44.4
 2.500  0.3336  140.1   2.352   50.9  0.1698   68.8  0.4059  -46.3
 2.600  0.3383  138.1   2.268   49.0  0.1768   68.4  0.4054  -48.2
 2.700  0.3440  136.0   2.197   47.4  0.1842   67.8  0.4051  -50.0
 2.800  0.3501  134.0   2.127   45.6  0.1916   67.3  0.4052  -51.9
 2.900  0.3543  132.1   2.066   43.9  0.1991   66.7  0.4044  -53.8
 3.000  0.3589  130.3   2.006   42.1  0.2067   66.1  0.4041  -55.7
 3.100  0.3632  128.3   1.954   40.7  0.2144   65.4  0.4032  -57.5
 3.200  0.3679  126.4   1.903   39.1  0.2222   64.7  0.4027  -59.3
 3.300  0.3730  124.5   1.854   37.6  0.2300   64.1  0.4026  -61.0
 3.400  0.3784  122.7   1.806   35.9  0.2378   63.5  0.4028  -62.8
 3.500  0.3843  120.9   1.760   34.1  0.2456   63.0  0.4035  -64.6
 3.600  0.3885  119.3   1.722   32.7  0.2536   62.1  0.4010  -66.5
 3.700  0.3929  117.7   1.686   31.3  0.2617   61.3  0.3989  -68.4
 3.800  0.3977  116.2   1.650   29.8  0.2698   60.5  0.3972  -70.3
 3.900  0.4027  114.7   1.616   28.3  0.2780   59.8  0.3960  -72.2
 4.000  0.4080  113.2   1.583   26.7  0.2862   59.1  0.3952  -74.1
 4.100  0.4133  111.7   1.553   25.3  0.2945   58.1  0.3906  -76.3
 4.200  0.4190  110.3   1.524   23.9  0.3029   57.2  0.3866  -78.5
 4.300  0.4248  108.9   1.496   22.4  0.3114   56.3  0.3832  -80.8
 4.400  0.4309  107.5   1.469   20.9  0.3199   55.5  0.3804  -83.1
 4.500  0.4373  106.2   1.443   19.3  0.3285   54.7  0.3782  -85.4
 4.600  0.4438  104.9   1.417   18.1  0.3366   53.7  0.3739  -88.1
 4.700  0.4505  103.6   1.392   16.8  0.3449   52.8  0.3705  -90.8
 4.800  0.4574  102.4   1.367   15.5  0.3532   51.9  0.3679  -93.6
 4.900  0.4645  101.2   1.343   14.1  0.3616   51.0  0.3661  -96.4
 5.000  0.4718  100.1   1.320   12.7  0.3701   50.2  0.3653  -99.2
 5.100  0.4765   98.8   1.300   11.6  0.3784   49.2  0.3646 -102.2
 5.200  0.4814   97.6   1.280   10.4  0.3868   48.2  0.3650 -105.2
 5.300  0.4865   96.4   1.261    9.1  0.3953   47.3  0.3663 -108.2
 5.400  0.4918   95.2   1.243    7.9  0.4040   46.4  0.3687 -111.2
 5.500  0.4974   94.0   1.225    6.6  0.4127   45.5  0.3720 -114.1
 5.600  0.5002   92.9   1.207    5.6  0.4208   44.3  0.3733 -116.8
 5.700  0.5033   91.7   1.189    4.5  0.4292   43.2  0.3755 -119.5
 5.800  0.5065   90.6   1.171    3.4  0.4376   42.1  0.3784 -122.1
 5.900  0.5099   89.5   1.155    2.3  0.4462   41.1  0.3821 -124.7
 6.000  0.5135   88.4   1.138    1.1  0.4550   40.1  0.3866 -127.2
!
!  f       NFmin   Gammaopt  rn/50
! GHz       dB    MAG  ANG    -
!
! noise parameter not available yet for this operation point!
!
! (c) 2017  Infineon Technologies AG, Munich