! Infineon Technologies  Discrete & RF Semiconductors
! BFR181W
! VCE =  4.0 V,  IC =  24 mA
! Common Emitter S-Parameters:                            Jan 2017
# GHz  S  MA  R  50
!  f         S11            S21            S12            S22
! GHz     MAG   ANG      MAG   ANG      MAG   ANG      MAG   ANG
 0.010  0.5007   -8.7  32.920  175.3  0.0016   83.7  0.9431   -2.0
 0.020  0.4911  -20.0  32.261  169.6  0.0025   90.6  0.9422   -4.4
 0.030  0.4762  -28.1  31.283  165.2  0.0043   80.9  0.9237   -6.6
 0.040  0.4714  -36.6  30.503  160.5  0.0061   76.9  0.9066   -8.8
 0.050  0.4769  -45.0  29.937  155.6  0.0079   74.8  0.8909  -11.2
 0.060  0.4598  -51.6  28.619  152.5  0.0090   72.3  0.8690  -12.4
 0.070  0.4493  -58.6  27.395  149.0  0.0101   70.4  0.8475  -13.6
 0.080  0.4458  -65.9  26.278  145.3  0.0112   68.9  0.8264  -14.8
 0.090  0.4494  -73.1  25.282  141.3  0.0124   67.6  0.8057  -16.2
 0.100  0.4600  -80.1  24.422  136.9  0.0135   66.6  0.7855  -17.6
 0.110  0.4504  -84.9  23.389  134.8  0.0142   65.2  0.7683  -18.0
 0.120  0.4441  -89.8  22.389  132.6  0.0148   63.9  0.7512  -18.5
 0.130  0.4411  -94.8  21.427  130.1  0.0155   62.7  0.7341  -18.9
 0.140  0.4416  -99.9  20.508  127.4  0.0162   61.7  0.7171  -19.4
 0.150  0.4455 -104.9  19.639  124.5  0.0169   60.7  0.7001  -19.9
 0.200  0.4347 -121.0  16.016  115.7  0.0191   61.2  0.6431  -20.2
 0.250  0.4322 -133.2  13.440  109.6  0.0221   60.1  0.6070  -19.9
 0.300  0.4299 -142.5  11.517  104.9  0.0244   61.4  0.5814  -19.3
 0.350  0.4258 -148.6  10.205  101.9  0.0269   63.6  0.5669  -19.0
 0.400  0.4266 -154.8   8.929   98.0  0.0294   65.4  0.5524  -18.6
 0.450  0.4251 -159.2   8.076   95.8  0.0320   66.3  0.5444  -18.6
 0.500  0.4261 -163.7   7.238   93.1  0.0346   67.0  0.5365  -18.5
 0.600  0.4260 -170.7   6.098   88.9  0.0397   69.7  0.5265  -18.7
 0.700  0.4316 -175.8   5.266   85.4  0.0448   72.3  0.5197  -19.2
 0.800  0.4337  179.1   4.642   82.1  0.0512   73.1  0.5145  -20.1
 0.900  0.4345  175.0   4.137   79.2  0.0566   74.4  0.5108  -21.2
 1.000  0.4393  171.5   3.753   76.5  0.0621   75.6  0.5059  -22.2
 1.100  0.4431  168.0   3.425   73.9  0.0686   75.8  0.5033  -23.5
 1.200  0.4455  164.7   3.152   71.3  0.0744   76.2  0.5004  -24.8
 1.300  0.4485  161.5   2.920   68.8  0.0812   76.9  0.4976  -26.3
 1.400  0.4521  158.7   2.730   66.5  0.0879   77.2  0.4941  -27.9
 1.500  0.4577  156.2   2.557   64.4  0.0945   77.2  0.4913  -29.5
 1.600  0.4625  153.5   2.410   62.0  0.1015   77.5  0.4901  -31.2
 1.700  0.4646  151.1   2.278   59.9  0.1086   77.6  0.4867  -33.1
 1.800  0.4692  148.4   2.167   57.7  0.1160   77.4  0.4835  -34.9
 1.900  0.4740  146.5   2.063   55.8  0.1227   77.5  0.4819  -36.7
 2.000  0.4775  144.0   1.966   53.6  0.1303   77.1  0.4802  -38.8
 2.100  0.4819  141.7   1.884   51.7  0.1380   76.7  0.4776  -40.8
 2.200  0.4871  139.4   1.804   49.6  0.1457   76.4  0.4757  -42.9
 2.300  0.4924  137.4   1.736   47.7  0.1538   76.0  0.4745  -45.1
 2.400  0.4983  135.5   1.671   45.7  0.1619   75.6  0.4740  -47.3
 2.500  0.5013  133.5   1.612   44.0  0.1699   75.1  0.4731  -49.4
 2.600  0.5049  131.6   1.554   42.1  0.1779   74.6  0.4728  -51.6
 2.700  0.5096  129.6   1.504   40.4  0.1866   74.0  0.4725  -53.8
 2.800  0.5148  127.7   1.456   38.6  0.1953   73.4  0.4729  -56.0
 2.900  0.5187  125.8   1.413   37.0  0.2040   72.7  0.4718  -58.2
 3.000  0.5231  124.0   1.371   35.2  0.2128   72.1  0.4714  -60.4
 3.100  0.5262  122.1   1.335   33.8  0.2219   71.2  0.4701  -62.5
 3.200  0.5299  120.2   1.299   32.4  0.2311   70.4  0.4694  -64.6
 3.300  0.5341  118.4   1.265   30.8  0.2403   69.6  0.4694  -66.6
 3.400  0.5389  116.6   1.231   29.2  0.2496   68.9  0.4699  -68.7
 3.500  0.5442  114.8   1.199   27.5  0.2589   68.3  0.4711  -70.8
 3.600  0.5472  113.1   1.173   26.3  0.2683   67.2  0.4676  -73.0
 3.700  0.5508  111.4   1.147   25.0  0.2778   66.1  0.4649  -75.2
 3.800  0.5548  109.7   1.121   23.6  0.2875   65.2  0.4628  -77.5
 3.900  0.5592  108.1   1.097   22.2  0.2971   64.3  0.4614  -79.7
 4.000  0.5641  106.5   1.073   20.7  0.3069   63.4  0.4608  -82.0
 4.100  0.5669  104.9   1.052   19.5  0.3165   62.1  0.4551  -84.5
 4.200  0.5701  103.3   1.032   18.3  0.3263   61.0  0.4502  -87.1
 4.300  0.5737  101.8   1.012   17.1  0.3362   59.8  0.4463  -89.7
 4.400  0.5777  100.2   0.992   15.8  0.3463   58.8  0.4433  -92.3
 4.500  0.5822   98.7   0.973   14.4  0.3564   57.8  0.4413  -95.0
 4.600  0.5857   97.4   0.955   13.5  0.3656   56.6  0.4361  -97.9
 4.700  0.5896   96.1   0.938   12.5  0.3751   55.4  0.4321 -100.9
 4.800  0.5937   94.9   0.921   11.5  0.3846   54.3  0.4293 -103.9
 4.900  0.5981   93.6   0.904   10.5  0.3943   53.3  0.4276 -106.9
 5.000  0.6028   92.4   0.887    9.4  0.4041   52.3  0.4272 -110.0
 5.100  0.6050   91.1   0.875    8.6  0.4130   51.0  0.4262 -113.1
 5.200  0.6075   89.8   0.862    7.7  0.4222   49.8  0.4264 -116.2
 5.300  0.6103   88.6   0.850    6.8  0.4315   48.7  0.4278 -119.3
 5.400  0.6134   87.3   0.839    5.9  0.4410   47.6  0.4305 -122.3
 5.500  0.6168   86.1   0.827    5.0  0.4506   46.5  0.4344 -125.3
 5.600  0.6170   84.9   0.816    4.4  0.4591   45.1  0.4349 -128.0
 5.700  0.6175   83.7   0.805    3.7  0.4679   43.8  0.4364 -130.8
 5.800  0.6183   82.5   0.795    3.0  0.4770   42.5  0.4389 -133.5
 5.900  0.6193   81.3   0.784    2.3  0.4862   41.3  0.4423 -136.2
 6.000  0.6206   80.1   0.774    1.6  0.4957   40.1  0.4467 -138.8
!
!  f       NFmin   Gammaopt  rn/50
! GHz       dB    MAG  ANG    -
!
! noise parameter not available yet for this operation point!
!
! (c) 2017  Infineon Technologies AG, Munich