! Infineon Technologies  Discrete & RF Semiconductors
! BFR181W
! VCE =  3.0 V,  IC =  8.0 mA
! Common Emitter S-Parameters:                            Jan 2017
# GHz  S  MA  R  50
!  f         S11            S21            S12            S22
! GHz     MAG   ANG      MAG   ANG      MAG   ANG      MAG   ANG
 0.010  0.7704   -2.2  21.505  178.4  0.0015   89.6  0.9942   -1.4
 0.020  0.7596   -7.4  21.398  175.1  0.0032  101.8  0.9842   -2.7
 0.030  0.7495   -9.9  21.186  172.9  0.0049   89.5  0.9815   -4.2
 0.040  0.7409  -12.4  21.007  170.6  0.0067   83.6  0.9794   -5.6
 0.050  0.7337  -15.0  20.862  168.3  0.0086   80.3  0.9779   -7.1
 0.060  0.7260  -17.8  20.579  166.2  0.0102   79.0  0.9685   -8.4
 0.070  0.7200  -20.6  20.326  164.0  0.0118   78.0  0.9595   -9.7
 0.080  0.7158  -23.5  20.103  161.7  0.0134   77.3  0.9511  -11.0
 0.090  0.7134  -26.4  19.912  159.4  0.0150   76.8  0.9431  -12.3
 0.100  0.7129  -29.3  19.753  157.1  0.0166   76.3  0.9357  -13.7
 0.110  0.6991  -31.9  19.421  155.3  0.0179   75.0  0.9238  -14.7
 0.120  0.6869  -34.6  19.110  153.4  0.0191   73.8  0.9122  -15.8
 0.130  0.6761  -37.3  18.821  151.4  0.0204   72.8  0.9009  -16.9
 0.140  0.6670  -40.2  18.555  149.4  0.0217   71.9  0.8899  -18.0
 0.150  0.6596  -43.1  18.312  147.3  0.0230   71.1  0.8793  -19.1
 0.200  0.6111  -54.4  16.699  138.5  0.0284   66.9  0.8189  -23.1
 0.250  0.5589  -65.3  15.219  131.2  0.0331   63.5  0.7631  -26.0
 0.300  0.5105  -74.6  13.791  125.2  0.0368   61.1  0.7119  -28.0
 0.350  0.4718  -81.7  12.621  120.9  0.0401   60.3  0.6722  -29.1
 0.400  0.4417  -90.0  11.537  115.7  0.0434   59.6  0.6328  -30.3
 0.450  0.4133  -96.1  10.621  112.4  0.0462   59.3  0.6048  -30.8
 0.500  0.3904 -103.1   9.746  108.6  0.0491   59.1  0.5769  -31.3
 0.600  0.3541 -114.3   8.423  102.8  0.0539   59.2  0.5368  -31.5
 0.700  0.3282 -124.7   7.381   98.0  0.0593   60.5  0.5073  -31.5
 0.800  0.3110 -133.8   6.582   93.8  0.0646   61.7  0.4854  -31.6
 0.900  0.2961 -141.6   5.913   90.2  0.0695   61.4  0.4693  -31.9
 1.000  0.2886 -149.0   5.389   87.0  0.0753   62.7  0.4546  -32.0
 1.100  0.2827 -155.9   4.938   84.0  0.0809   63.4  0.4454  -32.3
 1.200  0.2788 -162.3   4.556   81.1  0.0868   63.7  0.4363  -32.8
 1.300  0.2752 -167.7   4.229   78.4  0.0923   64.2  0.4290  -33.5
 1.400  0.2750 -172.7   3.957   75.9  0.0984   64.7  0.4214  -34.3
 1.500  0.2790 -177.7   3.714   73.6  0.1046   64.8  0.4157  -35.2
 1.600  0.2808  177.8   3.500   71.1  0.1105   65.2  0.4123  -36.2
 1.700  0.2820  173.8   3.312   69.0  0.1168   65.4  0.4067  -37.5
 1.800  0.2845  169.9   3.153   66.7  0.1231   65.3  0.4022  -38.7
 1.900  0.2890  166.7   3.006   64.8  0.1293   65.5  0.3988  -40.0
 2.000  0.2927  163.0   2.866   62.5  0.1358   65.3  0.3963  -41.5
 2.100  0.2954  159.7   2.749   60.6  0.1423   65.2  0.3931  -43.1
 2.200  0.2990  156.5   2.635   58.5  0.1489   65.1  0.3903  -44.7
 2.300  0.3050  153.6   2.538   56.6  0.1558   64.8  0.3885  -46.4
 2.400  0.3118  150.8   2.445   54.5  0.1628   64.5  0.3871  -48.2
 2.500  0.3152  148.4   2.359   52.7  0.1694   64.2  0.3858  -49.9
 2.600  0.3191  146.0   2.276   50.8  0.1761   64.0  0.3849  -51.7
 2.700  0.3246  143.4   2.205   49.1  0.1830   63.7  0.3845  -53.4
 2.800  0.3308  140.9   2.136   47.2  0.1899   63.4  0.3845  -55.2
 2.900  0.3351  138.6   2.075   45.5  0.1973   62.9  0.3834  -56.9
 3.000  0.3400  136.4   2.017   43.6  0.2048   62.4  0.3827  -58.7
 3.100  0.3443  134.2   1.965   42.1  0.2123   61.9  0.3819  -60.4
 3.200  0.3491  132.1   1.915   40.6  0.2198   61.3  0.3815  -62.1
 3.300  0.3543  130.0   1.866   38.9  0.2273   60.9  0.3815  -63.8
 3.400  0.3600  128.0   1.819   37.2  0.2348   60.4  0.3817  -65.5
 3.500  0.3661  126.1   1.773   35.4  0.2423   60.0  0.3823  -67.2
 3.600  0.3705  124.3   1.735   34.0  0.2500   59.2  0.3798  -69.0
 3.700  0.3752  122.5   1.699   32.5  0.2578   58.5  0.3777  -70.9
 3.800  0.3804  120.7   1.663   31.0  0.2656   57.8  0.3760  -72.8
 3.900  0.3858  119.0   1.629   29.4  0.2734   57.2  0.3748  -74.7
 4.000  0.3916  117.4   1.596   27.7  0.2813   56.6  0.3739  -76.6
 4.100  0.3971  115.8   1.566   26.3  0.2894   55.7  0.3695  -78.7
 4.200  0.4030  114.2   1.537   24.9  0.2976   54.8  0.3656  -80.9
 4.300  0.4091  112.6   1.509   23.4  0.3058   54.0  0.3623  -83.1
 4.400  0.4156  111.1   1.483   21.8  0.3141   53.2  0.3595  -85.4
 4.500  0.4223  109.7   1.457   20.2  0.3225   52.5  0.3573  -87.7
 4.600  0.4291  108.3   1.431   18.9  0.3305   51.6  0.3534  -90.4
 4.700  0.4362  106.9   1.405   17.6  0.3385   50.8  0.3503  -93.1
 4.800  0.4435  105.6   1.381   16.2  0.3467   50.0  0.3480  -95.9
 4.900  0.4510  104.3   1.357   14.8  0.3549   49.2  0.3465  -98.7
 5.000  0.4588  103.1   1.334   13.3  0.3631   48.5  0.3459 -101.5
 5.100  0.4637  101.8   1.314   12.2  0.3713   47.5  0.3456 -104.5
 5.200  0.4689  100.5   1.295   11.0  0.3797   46.6  0.3463 -107.5
 5.300  0.4742   99.3   1.276    9.7  0.3881   45.7  0.3479 -110.5
 5.400  0.4798   98.1   1.258    8.5  0.3966   44.8  0.3505 -113.5
 5.500  0.4856   96.9   1.240    7.2  0.4052   44.0  0.3540 -116.4
 5.600  0.4888   95.7   1.221    6.1  0.4132   42.9  0.3557 -119.1
 5.700  0.4921   94.4   1.203    5.0  0.4213   41.9  0.3582 -121.8
 5.800  0.4958   93.2   1.186    3.9  0.4296   40.9  0.3615 -124.4
 5.900  0.4996   92.1   1.169    2.7  0.4380   39.9  0.3655 -127.0
 6.000  0.5036   90.9   1.152    1.5  0.4465   39.0  0.3702 -129.5
!
!  f       NFmin   Gammaopt  rn/50
! GHz       dB    MAG  ANG    -
 0.450      1.14  0.20   16   0.21
 0.900      1.18  0.19   31   0.21
 1.900      1.60  0.07   92   0.20
 2.400      1.76  0.06  100   0.23
!
! (c) 2017  Infineon Technologies AG, Munich