! Infineon Technologies  Discrete & RF Semiconductors
! BFR181W
! VCE =  10. V,  IC =  6.0 mA
! Common Emitter S-Parameters:                            Jan 2017
# GHz  S  MA  R  50
!  f         S11            S21            S12            S22
! GHz     MAG   ANG      MAG   ANG      MAG   ANG      MAG   ANG
 0.010  0.8433   -1.2  17.263  178.1  0.0014   81.1  0.9967   -1.1
 0.020  0.8299   -5.7  17.071  175.5  0.0028   92.1  0.9864   -2.0
 0.030  0.8214   -7.3  16.926  173.9  0.0046   88.2  0.9860   -3.2
 0.040  0.8136   -8.9  16.794  172.3  0.0063   86.5  0.9860   -4.3
 0.050  0.8065  -10.6  16.676  170.7  0.0081   85.5  0.9864   -5.5
 0.060  0.8028  -12.8  16.531  169.0  0.0097   83.2  0.9804   -6.5
 0.070  0.8002  -14.9  16.401  167.3  0.0112   81.5  0.9747   -7.6
 0.080  0.7988  -17.1  16.287  165.5  0.0128   80.3  0.9693   -8.6
 0.090  0.7986  -19.3  16.188  163.7  0.0144   79.3  0.9643   -9.7
 0.100  0.7995  -21.5  16.105  161.9  0.0160   78.5  0.9596  -10.8
 0.110  0.7886  -23.5  15.938  160.4  0.0175   77.3  0.9520  -11.7
 0.120  0.7787  -25.6  15.782  158.8  0.0191   76.4  0.9447  -12.6
 0.130  0.7698  -27.7  15.639  157.2  0.0206   75.5  0.9376  -13.6
 0.140  0.7619  -29.8  15.508  155.6  0.0222   74.8  0.9308  -14.5
 0.150  0.7552  -32.0  15.390  153.9  0.0237   74.2  0.9242  -15.5
 0.200  0.7157  -40.9  14.486  146.1  0.0289   71.6  0.8804  -19.4
 0.250  0.6686  -49.8  13.609  139.2  0.0349   66.8  0.8365  -22.7
 0.300  0.6208  -57.6  12.649  133.3  0.0392   63.8  0.7910  -25.2
 0.350  0.5773  -63.8  11.781  128.7  0.0430   62.2  0.7521  -26.9
 0.400  0.5417  -71.0  11.000  123.5  0.0468   60.9  0.7140  -28.8
 0.450  0.5049  -76.4  10.249  120.0  0.0499   59.6  0.6833  -29.8
 0.500  0.4732  -82.6   9.542  115.9  0.0531   58.5  0.6528  -30.9
 0.600  0.4213  -92.8   8.397  109.4  0.0587   57.5  0.6048  -32.1
 0.700  0.3784 -102.3   7.449  104.1  0.0630   57.5  0.5680  -32.7
 0.800  0.3454 -111.0   6.699   99.4  0.0687   58.0  0.5397  -33.2
 0.900  0.3199 -118.9   6.058   95.3  0.0734   58.3  0.5166  -33.6
 1.000  0.2981 -126.6   5.544   91.8  0.0782   58.9  0.4975  -34.0
 1.100  0.2853 -134.0   5.098   88.6  0.0830   59.6  0.4843  -34.3
 1.200  0.2725 -140.6   4.717   85.4  0.0878   60.0  0.4714  -34.8
 1.300  0.2612 -147.6   4.388   82.5  0.0929   60.6  0.4612  -35.4
 1.400  0.2553 -153.0   4.112   79.8  0.0987   61.0  0.4517  -36.1
 1.500  0.2532 -159.1   3.867   77.3  0.1036   61.4  0.4441  -36.9
 1.600  0.2500 -164.9   3.646   74.8  0.1091   61.8  0.4389  -37.7
 1.700  0.2484 -170.3   3.455   72.5  0.1143   62.2  0.4318  -38.8
 1.800  0.2478 -175.3   3.291   70.2  0.1206   62.2  0.4267  -39.9
 1.900  0.2505 -179.8   3.141   68.1  0.1258   62.5  0.4217  -41.1
 2.000  0.2525  175.9   2.998   65.8  0.1322   62.5  0.4181  -42.4
 2.100  0.2531  171.9   2.877   63.8  0.1383   62.5  0.4145  -43.8
 2.200  0.2550  167.9   2.759   61.6  0.1443   62.5  0.4111  -45.2
 2.300  0.2598  164.2   2.659   59.7  0.1504   62.4  0.4089  -46.7
 2.400  0.2656  160.6   2.562   57.6  0.1565   62.3  0.4069  -48.3
 2.500  0.2683  157.6   2.473   55.8  0.1628   62.1  0.4051  -49.9
 2.600  0.2718  154.6   2.386   53.8  0.1691   62.0  0.4037  -51.5
 2.700  0.2770  151.4   2.312   52.0  0.1756   61.8  0.4029  -53.1
 2.800  0.2830  148.3   2.240   50.1  0.1822   61.7  0.4025  -54.7
 2.900  0.2871  145.7   2.177   48.3  0.1890   61.3  0.4013  -56.3
 3.000  0.2917  143.1   2.116   46.4  0.1959   60.9  0.4004  -57.9
 3.100  0.2957  140.5   2.062   44.9  0.2030   60.5  0.3995  -59.5
 3.200  0.3002  138.0   2.009   43.3  0.2100   60.1  0.3988  -61.1
 3.300  0.3054  135.5   1.958   41.7  0.2171   59.7  0.3985  -62.6
 3.400  0.3110  133.2   1.909   39.9  0.2242   59.3  0.3984  -64.2
 3.500  0.3172  130.9   1.861   38.1  0.2313   59.0  0.3987  -65.8
 3.600  0.3217  128.9   1.822   36.7  0.2388   58.4  0.3963  -67.5
 3.700  0.3265  126.9   1.785   35.2  0.2463   57.8  0.3942  -69.2
 3.800  0.3318  125.0   1.748   33.6  0.2539   57.2  0.3925  -70.9
 3.900  0.3374  123.2   1.714   32.0  0.2615   56.7  0.3911  -72.7
 4.000  0.3433  121.4   1.680   30.3  0.2691   56.2  0.3901  -74.4
 4.100  0.3495  119.6   1.649   28.9  0.2770   55.4  0.3857  -76.4
 4.200  0.3561  117.9   1.619   27.4  0.2849   54.6  0.3818  -78.4
 4.300  0.3629  116.2   1.590   25.8  0.2928   53.9  0.3783  -80.5
 4.400  0.3701  114.6   1.562   24.3  0.3009   53.2  0.3754  -82.6
 4.500  0.3775  113.1   1.536   22.6  0.3089   52.6  0.3730  -84.8
 4.600  0.3842  111.6   1.509   21.3  0.3167   51.8  0.3690  -87.3
 4.700  0.3911  110.1   1.482   19.9  0.3246   51.0  0.3657  -89.9
 4.800  0.3983  108.7   1.457   18.5  0.3325   50.2  0.3632  -92.5
 4.900  0.4057  107.3   1.432   17.1  0.3405   49.5  0.3614  -95.1
 5.000  0.4133  106.0   1.408   15.6  0.3485   48.8  0.3604  -97.8
 5.100  0.4185  104.6   1.387   14.4  0.3565   47.9  0.3598 -100.7
 5.200  0.4240  103.3   1.367   13.1  0.3647   47.0  0.3602 -103.6
 5.300  0.4297  102.0   1.347   11.8  0.3729   46.2  0.3615 -106.4
 5.400  0.4356  100.7   1.328   10.5  0.3811   45.4  0.3636 -109.3
 5.500  0.4417   99.5   1.310    9.1  0.3895   44.6  0.3667 -112.1
 5.600  0.4451   98.2   1.291    8.0  0.3976   43.6  0.3681 -114.7
 5.700  0.4488   97.0   1.272    6.8  0.4059   42.6  0.3703 -117.3
 5.800  0.4527   95.8   1.253    5.7  0.4142   41.6  0.3732 -119.8
 5.900  0.4567   94.6   1.235    4.4  0.4227   40.7  0.3769 -122.3
 6.000  0.4610   93.4   1.218    3.2  0.4313   39.8  0.3812 -124.7
!
!  f       NFmin   Gammaopt  rn/50
! GHz       dB    MAG  ANG    -
 0.450      1.03  0.28   16   0.22
 0.900      1.07  0.26   30   0.22
 1.900      1.49  0.12   82   0.19
 2.400      1.65  0.10   95   0.23
!
! (c) 2017  Infineon Technologies AG, Munich