! Infineon Technologies  Discrete & RF Semiconductors
! BFR181W
! VCE =  3.0 V,  IC =  24 mA
! Common Emitter S-Parameters:                            Jan 2017
# GHz  S  MA  R  50
!  f         S11            S21            S12            S22
! GHz     MAG   ANG      MAG   ANG      MAG   ANG      MAG   ANG
 0.010  0.4729  -11.1  31.520  174.8  0.0020   76.0  0.9226   -2.3
 0.020  0.4663  -24.4  30.996  168.4  0.0033   83.1  0.9093   -4.8
 0.030  0.4511  -34.2  29.793  163.6  0.0050   75.8  0.8915   -7.1
 0.040  0.4498  -44.4  28.817  158.4  0.0068   72.3  0.8753   -9.5
 0.050  0.4625  -54.3  28.092  152.9  0.0086   70.2  0.8606  -12.0
 0.060  0.4474  -61.8  26.688  149.7  0.0098   67.7  0.8370  -13.0
 0.070  0.4404  -69.7  25.377  146.1  0.0109   65.6  0.8137  -14.2
 0.080  0.4419  -77.6  24.173  142.2  0.0121   64.0  0.7907  -15.3
 0.090  0.4518  -85.4  23.095  137.9  0.0133   62.7  0.7681  -16.6
 0.100  0.4696  -92.7  22.159  133.2  0.0145   61.6  0.7458  -17.9
 0.110  0.4639  -97.5  21.138  131.2  0.0151   60.8  0.7296  -18.2
 0.120  0.4615 -102.4  20.145  129.0  0.0157   60.0  0.7134  -18.5
 0.130  0.4625 -107.3  19.184  126.6  0.0162   59.3  0.6972  -18.9
 0.140  0.4669 -112.2  18.261  123.9  0.0168   58.6  0.6811  -19.2
 0.150  0.4745 -116.9  17.382  121.0  0.0174   58.0  0.6650  -19.6
 0.200  0.4753 -132.0  13.985  112.4  0.0197   58.3  0.6148  -19.3
 0.250  0.4780 -142.8  11.653  106.5  0.0224   57.9  0.5840  -18.8
 0.300  0.4796 -150.5   9.920  102.1  0.0243   61.1  0.5619  -18.1
 0.350  0.4783 -156.0   8.770   99.2  0.0269   62.6  0.5506  -17.9
 0.400  0.4813 -161.4   7.649   95.5  0.0296   63.9  0.5394  -17.6
 0.450  0.4805 -165.2   6.911   93.3  0.0320   65.5  0.5330  -17.6
 0.500  0.4819 -169.0   6.185   90.6  0.0344   66.8  0.5266  -17.7
 0.600  0.4850 -175.0   5.203   86.6  0.0401   69.5  0.5192  -18.1
 0.700  0.4888 -179.8   4.485   83.0  0.0447   71.5  0.5134  -18.8
 0.800  0.4914  175.8   3.948   79.7  0.0514   73.5  0.5090  -19.9
 0.900  0.4935  172.1   3.521   76.7  0.0565   74.3  0.5048  -21.1
 1.000  0.4974  168.7   3.194   73.9  0.0630   75.7  0.5015  -22.4
 1.100  0.5018  165.4   2.915   71.3  0.0688   76.0  0.4989  -23.7
 1.200  0.5052  162.5   2.683   68.6  0.0748   76.9  0.4963  -25.2
 1.300  0.5079  159.5   2.483   66.1  0.0816   76.9  0.4933  -26.9
 1.400  0.5120  156.9   2.321   63.6  0.0882   77.8  0.4901  -28.6
 1.500  0.5164  154.4   2.175   61.4  0.0954   77.9  0.4877  -30.3
 1.600  0.5217  151.8   2.049   59.0  0.1025   78.1  0.4862  -32.2
 1.700  0.5245  149.5   1.938   56.8  0.1099   78.3  0.4829  -34.2
 1.800  0.5306  146.9   1.842   54.5  0.1171   78.0  0.4797  -36.2
 1.900  0.5339  144.9   1.752   52.6  0.1247   77.9  0.4779  -38.2
 2.000  0.5381  142.6   1.671   50.2  0.1325   77.7  0.4765  -40.4
 2.100  0.5418  140.3   1.601   48.2  0.1405   77.4  0.4741  -42.6
 2.200  0.5464  138.1   1.533   46.1  0.1485   77.1  0.4723  -44.8
 2.300  0.5513  136.1   1.475   44.2  0.1569   76.6  0.4708  -47.1
 2.400  0.5569  134.1   1.419   42.2  0.1653   76.1  0.4701  -49.4
 2.500  0.5599  132.1   1.367   40.4  0.1738   75.5  0.4691  -51.7
 2.600  0.5636  130.1   1.317   38.5  0.1823   75.0  0.4689  -54.1
 2.700  0.5686  128.1   1.274   36.8  0.1911   74.4  0.4687  -56.4
 2.800  0.5743  126.2   1.233   35.0  0.2000   73.8  0.4692  -58.7
 2.900  0.5771  124.3   1.196   33.4  0.2093   73.0  0.4682  -61.0
 3.000  0.5805  122.4   1.160   31.6  0.2186   72.3  0.4680  -63.4
 3.100  0.5833  120.5   1.129   30.3  0.2282   71.3  0.4664  -65.6
 3.200  0.5867  118.6   1.098   28.9  0.2378   70.5  0.4654  -67.8
 3.300  0.5907  116.7   1.068   27.4  0.2475   69.6  0.4652  -70.0
 3.400  0.5953  114.9   1.038   25.8  0.2572   68.9  0.4656  -72.2
 3.500  0.6006  113.1   1.010   24.2  0.2670   68.2  0.4667  -74.4
 3.600  0.6030  111.3   0.988   23.1  0.2768   67.0  0.4629  -76.7
 3.700  0.6059  109.6   0.965   21.9  0.2867   65.9  0.4598  -79.1
 3.800  0.6093  107.9   0.944   20.6  0.2967   64.8  0.4576  -81.5
 3.900  0.6134  106.2   0.923   19.4  0.3068   63.8  0.4562  -84.0
 4.000  0.6179  104.5   0.902   18.0  0.3170   62.9  0.4556  -86.4
 4.100  0.6196  102.9   0.884   17.0  0.3268   61.6  0.4496  -89.0
 4.200  0.6218  101.2   0.867   16.0  0.3367   60.3  0.4445  -91.8
 4.300  0.6246   99.6   0.849   14.9  0.3468   59.2  0.4405  -94.5
 4.400  0.6278   98.0   0.833   13.8  0.3570   58.0  0.4375  -97.4
 4.500  0.6315   96.4   0.816   12.6  0.3674   57.0  0.4356 -100.2
 4.600  0.6338   95.1   0.801   11.9  0.3767   55.7  0.4304 -103.2
 4.700  0.6364   93.7   0.786   11.1  0.3863   54.5  0.4264 -106.4
 4.800  0.6394   92.4   0.772   10.3  0.3959   53.3  0.4238 -109.5
 4.900  0.6427   91.1   0.757    9.5  0.4058   52.2  0.4224 -112.7
 5.000  0.6464   89.8   0.743    8.6  0.4158   51.1  0.4223 -115.9
 5.100  0.6478   88.5   0.734    8.0  0.4247   49.8  0.4214 -119.0
 5.200  0.6496   87.2   0.724    7.4  0.4338   48.5  0.4218 -122.2
 5.300  0.6517   85.9   0.715    6.7  0.4432   47.3  0.4234 -125.3
 5.400  0.6542   84.7   0.706    6.1  0.4527   46.1  0.4264 -128.4
 5.500  0.6569   83.4   0.697    5.4  0.4624   45.0  0.4305 -131.5
 5.600  0.6564   82.2   0.690    5.0  0.4706   43.6  0.4310 -134.3
 5.700  0.6562   81.0   0.682    4.6  0.4791   42.3  0.4325 -137.1
 5.800  0.6563   79.9   0.675    4.2  0.4878   41.0  0.4350 -139.8
 5.900  0.6567   78.7   0.667    3.7  0.4968   39.7  0.4385 -142.5
 6.000  0.6573   77.5   0.660    3.3  0.5060   38.5  0.4430 -145.2
!
!  f       NFmin   Gammaopt  rn/50
! GHz       dB    MAG  ANG    -
!
! noise parameter not available yet for this operation point!
!
! (c) 2017  Infineon Technologies AG, Munich