! Infineon Technologies  Discrete & RF Semiconductors
! BFR181W
! VCE =  12. V,  IC =  7.0 mA
! Common Emitter S-Parameters:                            Jan 2017
# GHz  S  MA  R  50
!  f         S11            S21            S12            S22
! GHz     MAG   ANG      MAG   ANG      MAG   ANG      MAG   ANG
 0.010  0.8308   -1.4  19.104  177.5  0.0014   87.4  0.9929   -1.1
 0.020  0.8191   -5.8  18.848  175.1  0.0027   87.5  0.9841   -2.1
 0.030  0.8099   -7.7  18.668  173.4  0.0044   84.3  0.9829   -3.4
 0.040  0.8015   -9.6  18.504  171.7  0.0061   82.9  0.9821   -4.6
 0.050  0.7941  -11.5  18.357  170.0  0.0078   82.1  0.9818   -5.9
 0.060  0.7891  -13.7  18.174  168.2  0.0094   80.8  0.9751   -7.0
 0.070  0.7852  -16.0  18.009  166.4  0.0111   80.0  0.9687   -8.1
 0.080  0.7827  -18.3  17.863  164.5  0.0127   79.3  0.9627   -9.2
 0.090  0.7814  -20.6  17.735  162.6  0.0144   78.8  0.9571  -10.4
 0.100  0.7813  -22.9  17.628  160.7  0.0160   78.4  0.9518  -11.5
 0.110  0.7701  -25.0  17.421  159.1  0.0174   76.9  0.9431  -12.4
 0.120  0.7600  -27.2  17.228  157.4  0.0188   75.6  0.9347  -13.4
 0.130  0.7510  -29.4  17.051  155.6  0.0202   74.5  0.9265  -14.3
 0.140  0.7432  -31.7  16.889  153.9  0.0216   73.5  0.9186  -15.3
 0.150  0.7366  -34.0  16.744  152.1  0.0230   72.7  0.9109  -16.3
 0.200  0.6934  -43.3  15.636  144.1  0.0281   69.7  0.8629  -20.3
 0.250  0.6429  -52.5  14.570  137.2  0.0333   66.0  0.8155  -23.5
 0.300  0.5916  -60.6  13.456  131.1  0.0377   63.2  0.7679  -25.9
 0.350  0.5479  -66.9  12.465  126.7  0.0413   62.0  0.7287  -27.5
 0.400  0.5119  -74.2  11.562  121.5  0.0450   61.0  0.6902  -29.2
 0.450  0.4767  -79.6  10.734  118.0  0.0481   60.0  0.6599  -30.0
 0.500  0.4465  -85.9   9.952  114.0  0.0513   59.2  0.6298  -30.9
 0.600  0.3953  -96.3   8.712  107.8  0.0568   58.7  0.5842  -31.7
 0.700  0.3547 -105.5   7.695  102.6  0.0608   59.1  0.5490  -32.1
 0.800  0.3250 -114.2   6.903   98.1  0.0667   59.9  0.5233  -32.5
 0.900  0.3007 -122.0   6.230   94.2  0.0715   59.9  0.5022  -32.7
 1.000  0.2838 -129.9   5.693   90.8  0.0768   61.0  0.4839  -33.0
 1.100  0.2704 -137.1   5.231   87.7  0.0819   61.4  0.4722  -33.3
 1.200  0.2590 -144.2   4.835   84.7  0.0871   61.8  0.4609  -33.8
 1.300  0.2483 -150.6   4.491   81.9  0.0922   62.2  0.4516  -34.3
 1.400  0.2449 -156.4   4.208   79.3  0.0984   62.8  0.4428  -35.0
 1.500  0.2440 -162.2   3.953   76.9  0.1038   62.9  0.4356  -35.7
 1.600  0.2408 -167.8   3.729   74.4  0.1095   63.2  0.4309  -36.7
 1.700  0.2398 -173.0   3.530   72.2  0.1154   63.6  0.4242  -37.7
 1.800  0.2400 -178.0   3.364   70.0  0.1212   63.5  0.4192  -38.8
 1.900  0.2438  178.3   3.207   68.0  0.1269   63.7  0.4150  -39.9
 2.000  0.2450  173.5   3.059   65.7  0.1330   63.6  0.4117  -41.3
 2.100  0.2465  169.6   2.936   63.8  0.1392   63.7  0.4082  -42.7
 2.200  0.2492  165.8   2.816   61.7  0.1455   63.7  0.4049  -44.1
 2.300  0.2544  162.3   2.712   59.8  0.1519   63.5  0.4026  -45.7
 2.400  0.2605  159.0   2.612   57.7  0.1583   63.3  0.4006  -47.3
 2.500  0.2631  156.1   2.521   55.9  0.1648   63.1  0.3991  -48.9
 2.600  0.2663  153.3   2.433   54.0  0.1713   62.9  0.3980  -50.5
 2.700  0.2714  150.1   2.357   52.3  0.1778   62.6  0.3972  -52.1
 2.800  0.2773  147.1   2.284   50.4  0.1843   62.3  0.3967  -53.7
 2.900  0.2815  144.6   2.219   48.7  0.1912   61.9  0.3956  -55.3
 3.000  0.2862  142.2   2.157   46.8  0.1981   61.5  0.3948  -56.9
 3.100  0.2901  139.7   2.102   45.3  0.2053   61.0  0.3941  -58.4
 3.200  0.2946  137.3   2.049   43.8  0.2124   60.6  0.3937  -60.0
 3.300  0.2995  135.0   1.997   42.2  0.2196   60.2  0.3935  -61.5
 3.400  0.3049  132.8   1.946   40.5  0.2268   59.8  0.3937  -63.1
 3.500  0.3108  130.6   1.898   38.7  0.2340   59.5  0.3941  -64.6
 3.600  0.3153  128.6   1.858   37.3  0.2414   58.8  0.3916  -66.3
 3.700  0.3202  126.7   1.820   35.8  0.2488   58.2  0.3894  -68.0
 3.800  0.3255  124.8   1.782   34.3  0.2562   57.6  0.3875  -69.7
 3.900  0.3311  123.0   1.747   32.7  0.2636   57.0  0.3860  -71.5
 4.000  0.3370  121.3   1.712   31.0  0.2711   56.5  0.3849  -73.2
 4.100  0.3427  119.6   1.681   29.6  0.2789   55.7  0.3804  -75.2
 4.200  0.3486  117.9   1.650   28.1  0.2867   54.9  0.3764  -77.2
 4.300  0.3549  116.3   1.621   26.6  0.2946   54.2  0.3729  -79.3
 4.400  0.3614  114.8   1.593   25.0  0.3025   53.5  0.3698  -81.4
 4.500  0.3682  113.3   1.566   23.4  0.3105   52.9  0.3673  -83.5
 4.600  0.3754  111.8   1.538   22.1  0.3183   52.1  0.3632  -86.0
 4.700  0.3828  110.4   1.511   20.8  0.3261   51.3  0.3599  -88.5
 4.800  0.3905  109.0   1.485   19.4  0.3340   50.6  0.3572  -91.1
 4.900  0.3984  107.7   1.460   18.0  0.3420   49.9  0.3553  -93.7
 5.000  0.4065  106.4   1.436   16.5  0.3500   49.2  0.3541  -96.3
 5.100  0.4117  105.0   1.415   15.3  0.3581   48.3  0.3535  -99.2
 5.200  0.4171  103.7   1.394   14.0  0.3662   47.4  0.3538 -102.0
 5.300  0.4227  102.4   1.375   12.8  0.3745   46.6  0.3550 -104.9
 5.400  0.4286  101.1   1.355   11.5  0.3828   45.8  0.3570 -107.7
 5.500  0.4346   99.9   1.337   10.1  0.3912   45.0  0.3599 -110.5
 5.600  0.4388   98.7   1.318    9.0  0.3991   44.0  0.3612 -113.1
 5.700  0.4431   97.6   1.299    7.8  0.4072   43.0  0.3632 -115.7
 5.800  0.4477   96.4   1.280    6.7  0.4153   42.0  0.3660 -118.2
 5.900  0.4524   95.3   1.262    5.4  0.4236   41.1  0.3694 -120.7
 6.000  0.4573   94.2   1.245    4.2  0.4320   40.2  0.3736 -123.2
!
!  f       NFmin   Gammaopt  rn/50
! GHz       dB    MAG  ANG    -
 0.450      1.08  0.24   17   0.22
 0.900      1.13  0.22   31   0.21
 1.900      1.55  0.09   86   0.19
 2.400      1.70  0.08   96   0.23
!
! (c) 2017  Infineon Technologies AG, Munich