! Infineon Technologies  Discrete & RF Semiconductors
! BFR181W
! VCE =  5.0 V,  IC =  13 mA
! Common Emitter S-Parameters:                            Jan 2017
# GHz  S  MA  R  50
!  f         S11            S21            S12            S22
! GHz     MAG   ANG      MAG   ANG      MAG   ANG      MAG   ANG
 0.010  0.6832   -3.0  28.818  177.2  0.0016   93.0  0.9892   -1.6
 0.020  0.6723   -9.2  28.561  173.5  0.0032   92.5  0.9862   -3.2
 0.030  0.6608  -12.6  28.150  170.8  0.0047   84.8  0.9783   -5.0
 0.040  0.6517  -16.0  27.805  168.0  0.0062   80.8  0.9714   -6.9
 0.050  0.6450  -19.6  27.528  165.1  0.0078   78.4  0.9655   -8.8
 0.060  0.6327  -23.0  26.954  162.6  0.0092   77.5  0.9516  -10.2
 0.070  0.6228  -26.6  26.434  159.9  0.0105   76.9  0.9382  -11.7
 0.080  0.6153  -30.3  25.972  157.2  0.0119   76.4  0.9255  -13.2
 0.090  0.6104  -34.0  25.570  154.4  0.0132   76.0  0.9135  -14.7
 0.100  0.6082  -37.8  25.233  151.5  0.0146   75.7  0.9021  -16.3
 0.110  0.5922  -40.8  24.630  149.5  0.0157   74.1  0.8862  -17.3
 0.120  0.5779  -44.0  24.059  147.4  0.0168   72.6  0.8705  -18.3
 0.130  0.5655  -47.3  23.523  145.1  0.0179   71.4  0.8551  -19.4
 0.140  0.5551  -50.7  23.024  142.8  0.0191   70.3  0.8401  -20.5
 0.150  0.5467  -54.3  22.564  140.4  0.0202   69.3  0.8253  -21.6
 0.200  0.4927  -67.2  19.869  131.2  0.0239   67.3  0.7541  -25.0
 0.250  0.4453  -79.2  17.574  124.0  0.0279   64.1  0.6942  -27.1
 0.300  0.4060  -89.6  15.571  118.3  0.0308   62.5  0.6439  -28.1
 0.350  0.3756  -97.1  14.048  114.4  0.0339   63.0  0.6091  -28.4
 0.400  0.3527 -105.8  12.606  109.6  0.0371   63.4  0.5744  -28.7
 0.450  0.3318 -112.0  11.523  106.7  0.0399   63.8  0.5516  -28.7
 0.500  0.3153 -119.0  10.474  103.3  0.0428   64.2  0.5289  -28.6
 0.600  0.2932 -129.9   8.951   98.3  0.0484   64.7  0.4993  -28.3
 0.700  0.2806 -139.7   7.785   94.1  0.0534   66.6  0.4786  -27.9
 0.800  0.2716 -148.4   6.902   90.4  0.0601   67.1  0.4629  -27.8
 0.900  0.2634 -156.1   6.177   87.2  0.0658   67.6  0.4518  -28.0
 1.000  0.2625 -162.2   5.614   84.3  0.0710   68.4  0.4412  -28.2
 1.100  0.2610 -168.1   5.135   81.6  0.0774   68.7  0.4350  -28.6
 1.200  0.2622 -174.1   4.729   79.0  0.0834   69.0  0.4288  -29.2
 1.300  0.2608 -178.8   4.385   76.5  0.0898   69.4  0.4233  -30.0
 1.400  0.2637  176.9   4.100   74.2  0.0967   69.3  0.4177  -30.9
 1.500  0.2688  173.1   3.842   72.0  0.1029   69.5  0.4132  -31.8
 1.600  0.2712  168.9   3.621   69.7  0.1090   69.6  0.4109  -32.9
 1.700  0.2731  165.6   3.423   67.7  0.1152   69.5  0.4062  -34.3
 1.800  0.2765  162.2   3.257   65.6  0.1221   69.1  0.4024  -35.6
 1.900  0.2824  159.3   3.103   63.7  0.1288   69.0  0.3998  -37.0
 2.000  0.2855  155.9   2.957   61.6  0.1359   68.8  0.3974  -38.6
 2.100  0.2892  153.1   2.835   59.8  0.1424   68.4  0.3947  -40.2
 2.200  0.2936  150.4   2.716   57.8  0.1489   68.1  0.3923  -41.8
 2.300  0.3000  148.0   2.615   56.0  0.1562   67.7  0.3908  -43.6
 2.400  0.3069  145.8   2.517   54.0  0.1635   67.3  0.3897  -45.4
 2.500  0.3099  143.5   2.428   52.3  0.1704   66.9  0.3887  -47.2
 2.600  0.3133  141.3   2.341   50.5  0.1774   66.5  0.3880  -49.0
 2.700  0.3195  139.0   2.268   48.8  0.1846   66.0  0.3878  -50.8
 2.800  0.3262  136.8   2.198   47.0  0.1918   65.5  0.3880  -52.6
 2.900  0.3306  134.7   2.135   45.3  0.1990   64.9  0.3868  -54.4
 3.000  0.3354  132.7   2.073   43.5  0.2063   64.4  0.3861  -56.3
 3.100  0.3397  130.7   2.020   42.1  0.2139   63.8  0.3854  -58.0
 3.200  0.3444  128.7   1.968   40.5  0.2215   63.2  0.3850  -59.7
 3.300  0.3495  126.8   1.917   39.0  0.2291   62.6  0.3849  -61.5
 3.400  0.3550  124.9   1.868   37.3  0.2367   62.1  0.3852  -63.2
 3.500  0.3608  123.1   1.821   35.5  0.2444   61.6  0.3859  -64.9
 3.600  0.3655  121.5   1.783   34.1  0.2522   60.8  0.3834  -66.7
 3.700  0.3705  119.8   1.745   32.7  0.2600   60.0  0.3812  -68.6
 3.800  0.3758  118.3   1.709   31.2  0.2679   59.2  0.3795  -70.4
 3.900  0.3813  116.8   1.674   29.6  0.2758   58.6  0.3781  -72.3
 4.000  0.3871  115.3   1.640   28.0  0.2838   57.9  0.3772  -74.2
 4.100  0.3924  113.8   1.609   26.6  0.2918   56.9  0.3727  -76.3
 4.200  0.3981  112.3   1.580   25.2  0.2998   56.0  0.3688  -78.5
 4.300  0.4040  110.8   1.551   23.7  0.3080   55.2  0.3654  -80.7
 4.400  0.4101  109.4   1.523   22.2  0.3161   54.4  0.3626  -83.0
 4.500  0.4165  108.0   1.497   20.6  0.3244   53.6  0.3603  -85.3
 4.600  0.4235  106.7   1.470   19.4  0.3325   52.7  0.3561  -87.9
 4.700  0.4308  105.4   1.444   18.1  0.3406   51.8  0.3528  -90.6
 4.800  0.4382  104.2   1.418   16.7  0.3488   51.0  0.3502  -93.3
 4.900  0.4459  103.0   1.394   15.3  0.3571   50.2  0.3484  -96.1
 5.000  0.4537  101.9   1.370   13.9  0.3655   49.4  0.3474  -98.9
 5.100  0.4586  100.6   1.349   12.7  0.3735   48.4  0.3470 -101.9
 5.200  0.4636   99.4   1.329   11.5  0.3817   47.5  0.3475 -104.9
 5.300  0.4689   98.2   1.310   10.3  0.3899   46.6  0.3489 -107.9
 5.400  0.4744   97.0   1.291    9.0  0.3983   45.7  0.3514 -110.9
 5.500  0.4801   95.9   1.273    7.7  0.4067   44.9  0.3547 -113.8
 5.600  0.4831   94.7   1.254    6.6  0.4147   43.8  0.3561 -116.5
 5.700  0.4864   93.6   1.236    5.5  0.4229   42.7  0.3582 -119.2
 5.800  0.4898   92.5   1.218    4.4  0.4313   41.7  0.3611 -121.8
 5.900  0.4934   91.4   1.200    3.2  0.4397   40.7  0.3648 -124.4
 6.000  0.4972   90.3   1.183    2.0  0.4483   39.8  0.3692 -126.9
!
!  f       NFmin   Gammaopt  rn/50
! GHz       dB    MAG  ANG    -
 0.450      1.39  0.08   17   0.21
 0.900      1.43  0.08   31   0.21
 1.900      1.86  0.09 -144   0.21
 2.400      2.07  0.11 -109   0.26
!
! (c) 2017  Infineon Technologies AG, Munich