! Infineon Technologies  Discrete & RF Semiconductors
! BFR181W
! VCE =  3.0 V,  IC =  2.0 mA
! Common Emitter S-Parameters:                            Jan 2017
# GHz  S  MA  R  50
!  f         S11            S21            S12            S22
! GHz     MAG   ANG      MAG   ANG      MAG   ANG      MAG   ANG
 0.010  0.9455   -0.4   6.944 -179.9  0.0015   78.9  1.0000   -0.6
 0.020  0.9215   -3.5   6.856  178.2  0.0033   93.0  1.0000   -1.1
 0.030  0.9169   -4.3   6.847  177.2  0.0054   89.7  1.0000   -1.8
 0.040  0.9125   -5.0   6.841  176.2  0.0075   88.3  0.9994   -2.4
 0.050  0.9082   -5.8   6.836  175.2  0.0096   87.5  0.9963   -3.1
 0.060  0.9105   -7.0   6.819  174.2  0.0115   85.7  0.9944   -3.7
 0.070  0.9132   -8.3   6.804  173.1  0.0134   84.4  0.9926   -4.3
 0.080  0.9164   -9.5   6.791  172.1  0.0153   83.4  0.9910   -5.0
 0.090  0.9199  -10.7   6.780  171.0  0.0172   82.6  0.9894   -5.6
 0.100  0.9239  -11.9   6.772  170.0  0.0191   82.0  0.9880   -6.2
 0.110  0.9186  -13.2   6.752  169.0  0.0208   81.3  0.9861   -6.8
 0.120  0.9138  -14.5   6.734  168.1  0.0225   80.8  0.9843   -7.4
 0.130  0.9095  -15.8   6.717  167.1  0.0242   80.3  0.9826   -8.0
 0.140  0.9056  -17.2   6.703  166.1  0.0259   79.9  0.9811   -8.6
 0.150  0.9023  -18.5   6.691  165.1  0.0276   79.5  0.9796   -9.2
 0.200  0.8910  -23.8   6.564  159.7  0.0363   76.9  0.9639  -12.0
 0.250  0.8707  -29.7   6.463  154.9  0.0447   72.7  0.9477  -14.8
 0.300  0.8441  -35.4   6.290  150.2  0.0521   69.1  0.9266  -17.4
 0.350  0.8180  -40.4   6.110  146.1  0.0588   66.3  0.9047  -19.6
 0.400  0.7984  -45.6   5.963  141.7  0.0657   64.0  0.8842  -22.0
 0.450  0.7687  -50.4   5.753  137.9  0.0713   61.4  0.8611  -23.9
 0.500  0.7447  -55.5   5.570  133.9  0.0770   59.2  0.8389  -25.9
 0.600  0.6951  -64.6   5.209  126.7  0.0861   54.9  0.7945  -29.1
 0.700  0.6435  -73.2   4.839  120.2  0.0927   52.3  0.7531  -31.7
 0.800  0.5987  -81.1   4.525  114.3  0.0990   49.8  0.7157  -34.0
 0.900  0.5592  -88.6   4.219  109.0  0.1036   47.6  0.6832  -35.8
 1.000  0.5234  -95.8   3.949  104.3  0.1077   46.2  0.6532  -37.4
 1.100  0.4936 -102.6   3.700  100.0  0.1109   45.2  0.6291  -38.7
 1.200  0.4664 -109.1   3.479   95.8  0.1137   44.3  0.6064  -40.0
 1.300  0.4415 -115.4   3.277   91.9  0.1165   43.8  0.5867  -41.3
 1.400  0.4246 -121.4   3.102   88.4  0.1193   43.5  0.5692  -42.5
 1.500  0.4101 -127.8   2.949   85.1  0.1217   43.7  0.5543  -43.6
 1.600  0.3939 -133.7   2.795   81.7  0.1242   43.8  0.5433  -44.8
 1.700  0.3827 -139.1   2.672   78.9  0.1263   44.3  0.5300  -46.1
 1.800  0.3739 -144.7   2.565   75.9  0.1291   44.6  0.5186  -47.2
 1.900  0.3692 -149.9   2.460   73.2  0.1314   45.2  0.5097  -48.5
 2.000  0.3618 -155.6   2.362   70.3  0.1347   45.8  0.5030  -49.8
 2.100  0.3563 -160.3   2.275   67.7  0.1377   46.5  0.4964  -51.2
 2.200  0.3532 -165.1   2.192   65.0  0.1408   47.1  0.4900  -52.6
 2.300  0.3520 -169.8   2.116   62.6  0.1443   47.9  0.4855  -54.1
 2.400  0.3532 -174.6   2.045   60.0  0.1479   48.7  0.4814  -55.7
 2.500  0.3529 -178.7   1.977   57.8  0.1517   49.5  0.4779  -57.2
 2.600  0.3544  177.3   1.913   55.4  0.1556   50.2  0.4748  -58.7
 2.700  0.3552  173.2   1.858   53.3  0.1600   50.9  0.4731  -60.2
 2.800  0.3578  169.2   1.805   51.0  0.1645   51.6  0.4718  -61.7
 2.900  0.3596  165.7   1.758   48.9  0.1697   52.1  0.4697  -63.2
 3.000  0.3628  162.2   1.714   46.6  0.1750   52.5  0.4679  -64.7
 3.100  0.3645  158.9   1.670   44.9  0.1812   53.0  0.4667  -66.3
 3.200  0.3675  155.6   1.628   43.1  0.1874   53.4  0.4659  -67.8
 3.300  0.3716  152.4   1.588   41.2  0.1936   53.8  0.4654  -69.4
 3.400  0.3769  149.2   1.550   39.2  0.1998   54.2  0.4652  -70.9
 3.500  0.3833  146.2   1.513   37.1  0.2060   54.6  0.4654  -72.5
 3.600  0.3867  143.5   1.481   35.5  0.2133   54.6  0.4630  -74.3
 3.700  0.3910  140.8   1.451   33.8  0.2207   54.6  0.4610  -76.1
 3.800  0.3961  138.1   1.422   32.1  0.2280   54.5  0.4595  -77.9
 3.900  0.4021  135.6   1.394   30.3  0.2354   54.5  0.4584  -79.7
 4.000  0.4088  133.1   1.368   28.4  0.2427   54.5  0.4578  -81.5
 4.100  0.4137  130.6   1.342   26.9  0.2513   54.1  0.4534  -83.6
 4.200  0.4194  128.3   1.317   25.3  0.2599   53.7  0.4497  -85.8
 4.300  0.4258  125.9   1.293   23.6  0.2685   53.4  0.4466  -88.0
 4.400  0.4328  123.7   1.270   21.9  0.2772   53.0  0.4441  -90.2
 4.500  0.4405  121.5   1.248   20.1  0.2858   52.7  0.4424  -92.5
 4.600  0.4467  119.5   1.225   18.8  0.2949   52.1  0.4386  -95.1
 4.700  0.4534  117.6   1.202   17.4  0.3040   51.5  0.4357  -97.7
 4.800  0.4606  115.7   1.180   16.0  0.3131   51.0  0.4338 -100.4
 4.900  0.4683  113.9   1.158   14.5  0.3223   50.5  0.4328 -103.0
 5.000  0.4764  112.1   1.138   13.0  0.3315   50.0  0.4327 -105.7
 5.100  0.4811  110.3   1.120   11.8  0.3410   49.2  0.4327 -108.6
 5.200  0.4863  108.6   1.103   10.6  0.3505   48.4  0.4338 -111.4
 5.300  0.4919  106.9   1.086    9.3  0.3601   47.6  0.4359 -114.2
 5.400  0.4979  105.2   1.070    8.0  0.3698   46.9  0.4392 -117.0
 5.500  0.5043  103.6   1.054    6.6  0.3795   46.2  0.4434 -119.8
 5.600  0.5076  102.1   1.037    5.6  0.3890   45.1  0.4448 -122.4
 5.700  0.5113  100.6   1.021    4.6  0.3985   44.1  0.4472 -125.0
 5.800  0.5153   99.1   1.004    3.5  0.4083   43.1  0.4504 -127.5
 5.900  0.5196   97.6   0.988    2.4  0.4181   42.2  0.4545 -130.0
 6.000  0.5243   96.2   0.973    1.3  0.4280   41.3  0.4595 -132.5
!
!  f       NFmin   Gammaopt  rn/50
! GHz       dB    MAG  ANG    -
 0.450      0.84  0.56   18   0.32
 0.900      0.90  0.51   33   0.30
 1.900      1.35  0.31   81   0.23
 2.400      1.58  0.27   95   0.25
!
! (c) 2017  Infineon Technologies AG, Munich