! Infineon Technologies  Discrete & RF Semiconductors
! BFR181W
! VCE =  6.0 V,  IC =  17 mA
! Common Emitter S-Parameters:                            Jan 2017
# GHz  S  MA  R  50
!  f         S11            S21            S12            S22
! GHz     MAG   ANG      MAG   ANG      MAG   ANG      MAG   ANG
 0.010  0.6285   -3.8  32.712  176.6  0.0015   94.0  0.9849   -1.7
 0.020  0.6166  -10.6  32.195  172.6  0.0022   93.4  0.9747   -3.6
 0.030  0.6051  -14.7  31.690  169.5  0.0040   83.7  0.9671   -5.6
 0.040  0.5967  -18.9  31.282  166.3  0.0058   80.0  0.9606   -7.6
 0.050  0.5917  -23.2  30.974  163.0  0.0077   78.1  0.9553   -9.6
 0.060  0.5770  -27.1  30.179  160.3  0.0090   76.7  0.9383  -11.1
 0.070  0.5651  -31.3  29.456  157.4  0.0102   75.6  0.9220  -12.6
 0.080  0.5563  -35.6  28.810  154.4  0.0115   74.8  0.9063  -14.1
 0.090  0.5507  -39.9  28.248  151.3  0.0127   74.1  0.8913  -15.7
 0.100  0.5484  -44.4  27.773  148.0  0.0140   73.6  0.8770  -17.4
 0.110  0.5317  -47.7  26.973  145.9  0.0149   72.1  0.8596  -18.3
 0.120  0.5169  -51.2  26.211  143.7  0.0159   70.9  0.8425  -19.3
 0.130  0.5042  -55.0  25.488  141.4  0.0168   69.7  0.8257  -20.3
 0.140  0.4936  -58.9  24.810  139.0  0.0177   68.7  0.8090  -21.3
 0.150  0.4855  -62.9  24.180  136.4  0.0187   67.8  0.7927  -22.4
 0.200  0.4360  -77.1  20.841  127.1  0.0222   66.2  0.7185  -25.1
 0.250  0.3943  -89.9  18.170  120.0  0.0260   64.5  0.6602  -26.5
 0.300  0.3631 -100.7  15.915  114.6  0.0282   64.8  0.6138  -27.0
 0.350  0.3380 -108.5  14.275  111.0  0.0314   64.8  0.5837  -26.9
 0.400  0.3201 -117.3  12.705  106.5  0.0347   64.8  0.5536  -26.8
 0.450  0.3069 -123.6  11.571  103.9  0.0372   65.6  0.5349  -26.6
 0.500  0.2976 -130.3  10.467  100.7  0.0398   66.3  0.5163  -26.3
 0.600  0.2832 -141.0   8.904   95.9  0.0461   66.9  0.4918  -25.8
 0.700  0.2766 -149.8   7.724   92.0  0.0512   69.5  0.4755  -25.5
 0.800  0.2724 -157.7   6.832   88.5  0.0578   69.8  0.4631  -25.5
 0.900  0.2681 -164.4   6.106   85.4  0.0634   70.2  0.4536  -25.8
 1.000  0.2682 -170.4   5.546   82.7  0.0694   71.0  0.4458  -26.1
 1.100  0.2698 -175.5   5.066   80.2  0.0758   71.1  0.4408  -26.7
 1.200  0.2712  179.3   4.666   77.5  0.0823   71.2  0.4353  -27.3
 1.300  0.2716  174.9   4.324   75.1  0.0882   71.6  0.4313  -28.3
 1.400  0.2750  171.3   4.041   72.9  0.0950   71.6  0.4266  -29.2
 1.500  0.2806  168.2   3.786   70.8  0.1011   71.5  0.4232  -30.3
 1.600  0.2832  164.3   3.566   68.6  0.1076   71.4  0.4202  -31.5
 1.700  0.2859  160.7   3.370   66.6  0.1146   71.4  0.4166  -33.0
 1.800  0.2905  157.8   3.206   64.4  0.1214   70.8  0.4134  -34.3
 1.900  0.2943  155.6   3.053   62.6  0.1277   70.7  0.4110  -35.8
 2.000  0.3000  152.7   2.910   60.6  0.1348   70.4  0.4086  -37.4
 2.100  0.3039  150.1   2.789   58.7  0.1417   70.0  0.4063  -39.1
 2.200  0.3084  147.5   2.672   56.7  0.1487   69.7  0.4043  -40.9
 2.300  0.3144  145.2   2.573   54.9  0.1558   69.2  0.4028  -42.7
 2.400  0.3209  142.9   2.477   53.0  0.1629   68.7  0.4017  -44.5
 2.500  0.3245  140.9   2.389   51.3  0.1701   68.2  0.4006  -46.3
 2.600  0.3285  138.9   2.303   49.5  0.1773   67.8  0.4000  -48.2
 2.700  0.3345  136.7   2.231   47.8  0.1844   67.3  0.3995  -50.0
 2.800  0.3410  134.5   2.161   46.0  0.1916   66.8  0.3995  -51.9
 2.900  0.3452  132.5   2.099   44.3  0.1990   66.2  0.3987  -53.7
 3.000  0.3498  130.6   2.038   42.5  0.2065   65.6  0.3984  -55.6
 3.100  0.3539  128.7   1.985   41.1  0.2142   64.9  0.3976  -57.4
 3.200  0.3584  126.8   1.934   39.6  0.2219   64.3  0.3972  -59.2
 3.300  0.3633  124.9   1.884   38.0  0.2296   63.7  0.3971  -60.9
 3.400  0.3686  123.1   1.835   36.3  0.2374   63.1  0.3975  -62.7
 3.500  0.3742  121.4   1.788   34.6  0.2452   62.6  0.3982  -64.5
 3.600  0.3787  119.8   1.750   33.2  0.2531   61.7  0.3956  -66.3
 3.700  0.3835  118.2   1.713   31.8  0.2611   60.9  0.3934  -68.2
 3.800  0.3885  116.6   1.676   30.3  0.2691   60.1  0.3916  -70.1
 3.900  0.3939  115.1   1.642   28.7  0.2772   59.4  0.3902  -72.0
 4.000  0.3995  113.6   1.608   27.1  0.2853   58.7  0.3893  -73.9
 4.100  0.4050  112.1   1.578   25.7  0.2935   57.7  0.3848  -76.1
 4.200  0.4109  110.7   1.549   24.3  0.3018   56.8  0.3808  -78.3
 4.300  0.4169  109.3   1.520   22.8  0.3102   55.9  0.3775  -80.5
 4.400  0.4232  108.0   1.493   21.3  0.3186   55.1  0.3747  -82.8
 4.500  0.4297  106.7   1.467   19.7  0.3271   54.3  0.3725  -85.1
 4.600  0.4360  105.4   1.441   18.5  0.3352   53.3  0.3682  -87.8
 4.700  0.4425  104.2   1.415   17.2  0.3434   52.4  0.3648  -90.5
 4.800  0.4493  103.0   1.390   15.9  0.3516   51.5  0.3622  -93.3
 4.900  0.4562  101.8   1.365   14.5  0.3600   50.7  0.3605  -96.1
 5.000  0.4633  100.7   1.342   13.1  0.3684   49.9  0.3596  -98.9
 5.100  0.4681   99.4   1.322   11.9  0.3766   48.9  0.3590 -101.9
 5.200  0.4731   98.2   1.303   10.7  0.3849   47.9  0.3593 -104.9
 5.300  0.4784   97.0   1.284    9.5  0.3933   47.0  0.3607 -107.9
 5.400  0.4838   95.8   1.266    8.2  0.4018   46.1  0.3630 -110.8
 5.500  0.4895   94.6   1.248    6.9  0.4104   45.2  0.3662 -113.7
 5.600  0.4930   93.4   1.229    5.8  0.4186   44.1  0.3676 -116.4
 5.700  0.4967   92.3   1.211    4.8  0.4270   43.0  0.3698 -119.1
 5.800  0.5006   91.2   1.193    3.6  0.4355   42.0  0.3728 -121.7
 5.900  0.5046   90.1   1.176    2.5  0.4441   41.0  0.3766 -124.3
 6.000  0.5089   89.0   1.159    1.3  0.4529   40.0  0.3811 -126.8
!
!  f       NFmin   Gammaopt  rn/50
! GHz       dB    MAG  ANG    -
!
! noise parameter not available yet for this operation point!
!
! (c) 2017  Infineon Technologies AG, Munich