! Infineon Technologies  Discrete & RF Semiconductors
! BFR181W
! VCE =  12. V,  IC =  10 mA
! Common Emitter S-Parameters:                            Jan 2017
# GHz  S  MA  R  50
!  f         S11            S21            S12            S22
! GHz     MAG   ANG      MAG   ANG      MAG   ANG      MAG   ANG
 0.010  0.7773   -1.7  24.082  176.7  0.0015   66.3  0.9882   -1.3
 0.020  0.7617   -6.8  23.559  174.0  0.0029   81.0  0.9817   -2.5
 0.030  0.7531   -9.2  23.332  172.0  0.0046   78.2  0.9780   -4.0
 0.040  0.7458  -11.6  23.133  170.0  0.0063   76.9  0.9750   -5.6
 0.050  0.7399  -14.1  22.964  167.9  0.0080   76.2  0.9727   -7.1
 0.060  0.7321  -16.8  22.642  165.8  0.0095   75.7  0.9629   -8.3
 0.070  0.7259  -19.6  22.351  163.6  0.0109   75.2  0.9536   -9.6
 0.080  0.7215  -22.3  22.094  161.4  0.0124   74.9  0.9448  -10.9
 0.090  0.7188  -25.2  21.870  159.1  0.0138   74.7  0.9365  -12.2
 0.100  0.7178  -28.0  21.682  156.8  0.0153   74.5  0.9286  -13.5
 0.110  0.7036  -30.4  21.322  155.0  0.0166   73.6  0.9172  -14.5
 0.120  0.6908  -33.0  20.984  153.1  0.0179   72.9  0.9060  -15.5
 0.130  0.6794  -35.6  20.669  151.2  0.0192   72.3  0.8952  -16.6
 0.140  0.6694  -38.3  20.379  149.2  0.0205   71.7  0.8847  -17.7
 0.150  0.6610  -41.1  20.114  147.1  0.0218   71.2  0.8745  -18.8
 0.200  0.6074  -51.7  18.317  138.4  0.0262   67.7  0.8144  -22.7
 0.250  0.5526  -61.7  16.685  131.2  0.0309   64.4  0.7590  -25.5
 0.300  0.5027  -70.5  15.103  125.2  0.0343   63.0  0.7082  -27.5
 0.350  0.4622  -77.0  13.805  121.0  0.0375   62.5  0.6695  -28.5
 0.400  0.4287  -84.6  12.598  115.9  0.0407   62.0  0.6310  -29.6
 0.450  0.3968  -90.3  11.604  112.7  0.0436   62.0  0.6033  -30.0
 0.500  0.3695  -97.0  10.652  109.0  0.0466   62.0  0.5756  -30.4
 0.600  0.3294 -107.6   9.206  103.3  0.0520   61.3  0.5374  -30.5
 0.700  0.2989 -117.4   8.066   98.7  0.0571   62.6  0.5085  -30.4
 0.800  0.2780 -126.4   7.190   94.6  0.0629   64.0  0.4879  -30.5
 0.900  0.2601 -134.6   6.457   91.0  0.0685   63.9  0.4715  -30.6
 1.000  0.2499 -142.1   5.884   88.0  0.0743   64.7  0.4576  -30.7
 1.100  0.2409 -149.0   5.391   85.1  0.0798   65.3  0.4482  -31.0
 1.200  0.2359 -156.1   4.973   82.3  0.0855   65.5  0.4394  -31.4
 1.300  0.2299 -162.2   4.614   79.7  0.0911   66.2  0.4322  -32.0
 1.400  0.2302 -167.5   4.316   77.3  0.0977   66.4  0.4253  -32.7
 1.500  0.2315 -172.9   4.050   75.0  0.1033   66.6  0.4201  -33.5
 1.600  0.2319 -178.2   3.818   72.7  0.1096   66.5  0.4159  -34.5
 1.700  0.2321  177.5   3.611   70.6  0.1158   66.6  0.4102  -35.6
 1.800  0.2341  173.0   3.437   68.5  0.1223   66.4  0.4061  -36.8
 1.900  0.2373  169.4   3.275   66.6  0.1289   66.4  0.4027  -38.0
 2.000  0.2399  165.7   3.124   64.5  0.1352   66.3  0.4000  -39.4
 2.100  0.2431  162.3   2.995   62.6  0.1417   66.0  0.3968  -40.9
 2.200  0.2471  159.0   2.870   60.6  0.1482   65.7  0.3939  -42.4
 2.300  0.2528  155.8   2.765   58.8  0.1548   65.4  0.3920  -44.0
 2.400  0.2593  152.7   2.663   56.8  0.1614   65.1  0.3904  -45.7
 2.500  0.2624  150.1   2.570   55.1  0.1681   64.7  0.3889  -47.3
 2.600  0.2660  147.6   2.479   53.2  0.1748   64.4  0.3878  -49.0
 2.700  0.2715  144.9   2.401   51.5  0.1816   63.9  0.3874  -50.6
 2.800  0.2776  142.3   2.326   49.7  0.1885   63.5  0.3873  -52.3
 2.900  0.2817  140.1   2.260   48.0  0.1954   63.1  0.3860  -53.9
 3.000  0.2863  137.9   2.195   46.3  0.2024   62.7  0.3850  -55.6
 3.100  0.2905  135.6   2.139   44.9  0.2096   62.1  0.3843  -57.2
 3.200  0.2951  133.4   2.085   43.3  0.2169   61.6  0.3839  -58.8
 3.300  0.3001  131.3   2.032   41.7  0.2242   61.0  0.3837  -60.4
 3.400  0.3056  129.2   1.980   40.1  0.2315   60.6  0.3839  -62.0
 3.500  0.3114  127.2   1.931   38.3  0.2388   60.1  0.3844  -63.6
 3.600  0.3161  125.4   1.891   36.9  0.2462   59.3  0.3819  -65.3
 3.700  0.3212  123.6   1.851   35.5  0.2537   58.6  0.3798  -67.0
 3.800  0.3265  121.9   1.813   34.0  0.2611   57.9  0.3780  -68.8
 3.900  0.3321  120.3   1.776   32.4  0.2687   57.3  0.3766  -70.5
 4.000  0.3380  118.7   1.741   30.8  0.2762   56.7  0.3755  -72.3
 4.100  0.3436  117.1   1.709   29.4  0.2839   55.9  0.3710  -74.3
 4.200  0.3494  115.6   1.678   28.0  0.2917   55.1  0.3670  -76.3
 4.300  0.3554  114.2   1.648   26.5  0.2995   54.3  0.3635  -78.4
 4.400  0.3617  112.8   1.619   24.9  0.3074   53.6  0.3604  -80.5
 4.500  0.3682  111.4   1.592   23.3  0.3153   52.9  0.3578  -82.6
 4.600  0.3753  110.0   1.564   22.0  0.3230   52.0  0.3537  -85.1
 4.700  0.3825  108.7   1.536   20.7  0.3307   51.2  0.3502  -87.6
 4.800  0.3900  107.4   1.510   19.4  0.3385   50.5  0.3474  -90.2
 4.900  0.3977  106.2   1.484   18.0  0.3464   49.7  0.3454  -92.8
 5.000  0.4055  105.0   1.459   16.5  0.3543   49.0  0.3441  -95.5
 5.100  0.4108  103.7   1.438   15.3  0.3622   48.1  0.3434  -98.4
 5.200  0.4164  102.4   1.418   14.1  0.3703   47.2  0.3436 -101.3
 5.300  0.4222  101.1   1.398   12.8  0.3784   46.4  0.3446 -104.2
 5.400  0.4281   99.9   1.379   11.5  0.3865   45.6  0.3465 -107.1
 5.500  0.4343   98.7   1.361   10.2  0.3948   44.8  0.3493 -109.9
 5.600  0.4378   97.6   1.341    9.1  0.4026   43.8  0.3505 -112.5
 5.700  0.4415   96.5   1.321    7.9  0.4106   42.8  0.3525 -115.1
 5.800  0.4454   95.4   1.302    6.8  0.4187   41.8  0.3552 -117.7
 5.900  0.4494   94.3   1.284    5.5  0.4269   40.9  0.3586 -120.2
 6.000  0.4536   93.3   1.266    4.3  0.4352   40.0  0.3627 -122.7
!
!  f       NFmin   Gammaopt  rn/50
! GHz       dB    MAG  ANG    -
 0.450      1.24  0.15   16   0.21
 0.900      1.29  0.14   31   0.21
 1.900      1.71  0.03  142   0.20
 2.400      1.88  0.02 -166   0.24
!
! (c) 2017  Infineon Technologies AG, Munich