! Infineon Technologies  Discrete & RF Semiconductors
! BFR181W
! VCE =  5.0 V,  IC =  18 mA
! Common Emitter S-Parameters:                            Jan 2017
# GHz  S  MA  R  50
!  f         S11            S21            S12            S22
! GHz     MAG   ANG      MAG   ANG      MAG   ANG      MAG   ANG
 0.010  0.6059   -4.4  33.088  176.5  0.0014   84.8  0.9794   -1.7
 0.020  0.5904  -11.8  32.451  172.2  0.0032  100.5  0.9699   -3.7
 0.030  0.5789  -16.4  31.912  168.8  0.0045   89.3  0.9610   -5.8
 0.040  0.5714  -21.2  31.488  165.4  0.0058   83.1  0.9533   -7.9
 0.050  0.5679  -26.1  31.182  161.8  0.0072   79.3  0.9470  -10.0
 0.060  0.5519  -30.4  30.287  159.0  0.0084   77.0  0.9286  -11.4
 0.070  0.5391  -35.0  29.471  156.0  0.0097   75.2  0.9108  -12.9
 0.080  0.5300  -39.7  28.738  152.8  0.0110   73.9  0.8937  -14.4
 0.090  0.5245  -44.6  28.097  149.5  0.0122   72.9  0.8772  -16.0
 0.100  0.5229  -49.5  27.553  146.1  0.0135   72.0  0.8614  -17.7
 0.110  0.5066  -53.1  26.695  144.0  0.0145   70.9  0.8436  -18.6
 0.120  0.4925  -57.0  25.875  141.8  0.0154   69.9  0.8260  -19.5
 0.130  0.4808  -61.1  25.097  139.4  0.0164   69.1  0.8086  -20.4
 0.140  0.4716  -65.3  24.365  136.9  0.0173   68.3  0.7914  -21.4
 0.150  0.4651  -69.7  23.683  134.2  0.0183   67.6  0.7745  -22.4
 0.200  0.4212  -84.8  20.207  125.0  0.0217   65.8  0.7016  -24.6
 0.250  0.3870  -98.0  17.466  118.1  0.0255   63.6  0.6460  -25.6
 0.300  0.3621 -109.1  15.223  112.7  0.0278   63.5  0.6037  -25.8
 0.350  0.3423 -117.0  13.624  109.2  0.0307   64.2  0.5762  -25.6
 0.400  0.3296 -125.6  12.089  104.8  0.0336   64.8  0.5488  -25.3
 0.450  0.3190 -131.8  10.989  102.3  0.0362   65.7  0.5324  -25.0
 0.500  0.3124 -138.3   9.916   99.2  0.0389   66.5  0.5161  -24.7
 0.600  0.3027 -148.5   8.413   94.5  0.0447   67.8  0.4952  -24.2
 0.700  0.2985 -156.7   7.289   90.7  0.0504   69.5  0.4808  -24.1
 0.800  0.2962 -164.0   6.443   87.3  0.0564   70.7  0.4708  -24.2
 0.900  0.2952 -169.8   5.756   84.2  0.0615   70.8  0.4623  -24.6
 1.000  0.2973 -175.1   5.224   81.5  0.0680   71.9  0.4557  -25.2
 1.100  0.2994 -179.8   4.772   79.0  0.0745   72.3  0.4516  -25.8
 1.200  0.3006  175.7   4.395   76.4  0.0809   72.1  0.4462  -26.6
 1.300  0.3028  171.5   4.071   74.0  0.0866   72.5  0.4421  -27.6
 1.400  0.3047  168.4   3.804   71.7  0.0937   72.5  0.4378  -28.7
 1.500  0.3124  165.0   3.564   69.6  0.0997   72.6  0.4346  -29.9
 1.600  0.3150  161.6   3.359   67.4  0.1066   72.6  0.4329  -31.2
 1.700  0.3179  158.5   3.173   65.4  0.1128   72.4  0.4291  -32.7
 1.800  0.3230  155.6   3.019   63.3  0.1200   72.1  0.4261  -34.1
 1.900  0.3273  153.5   2.875   61.4  0.1266   72.0  0.4238  -35.7
 2.000  0.3321  150.8   2.739   59.3  0.1339   71.7  0.4220  -37.4
 2.100  0.3360  148.2   2.625   57.4  0.1407   71.3  0.4195  -39.2
 2.200  0.3406  145.7   2.515   55.4  0.1476   71.0  0.4174  -41.0
 2.300  0.3468  143.5   2.422   53.6  0.1550   70.5  0.4160  -42.8
 2.400  0.3535  141.4   2.332   51.7  0.1624   70.1  0.4151  -44.7
 2.500  0.3567  139.4   2.249   50.0  0.1696   69.6  0.4141  -46.6
 2.600  0.3603  137.5   2.169   48.1  0.1769   69.2  0.4135  -48.6
 2.700  0.3664  135.4   2.100   46.5  0.1842   68.7  0.4133  -50.5
 2.800  0.3729  133.3   2.033   44.7  0.1916   68.2  0.4135  -52.4
 2.900  0.3773  131.4   1.974   43.0  0.1994   67.6  0.4127  -54.3
 3.000  0.3821  129.6   1.917   41.2  0.2072   67.0  0.4124  -56.2
 3.100  0.3861  127.7   1.867   39.8  0.2151   66.3  0.4117  -58.0
 3.200  0.3905  125.8   1.819   38.2  0.2231   65.6  0.4114  -59.8
 3.300  0.3954  124.0   1.772   36.7  0.2311   65.0  0.4115  -61.7
 3.400  0.4006  122.2   1.726   35.0  0.2391   64.4  0.4120  -63.5
 3.500  0.4062  120.5   1.682   33.2  0.2471   63.9  0.4130  -65.3
 3.600  0.4105  118.8   1.646   31.8  0.2553   63.0  0.4103  -67.2
 3.700  0.4151  117.2   1.611   30.4  0.2636   62.1  0.4081  -69.2
 3.800  0.4201  115.6   1.577   29.0  0.2720   61.4  0.4064  -71.2
 3.900  0.4253  114.1   1.544   27.4  0.2804   60.6  0.4052  -73.2
 4.000  0.4309  112.6   1.512   25.8  0.2888   59.9  0.4045  -75.2
 4.100  0.4361  111.1   1.483   24.4  0.2973   58.9  0.3998  -77.4
 4.200  0.4416  109.7   1.455   23.0  0.3058   57.9  0.3957  -79.7
 4.300  0.4473  108.2   1.428   21.6  0.3145   57.1  0.3923  -82.0
 4.400  0.4533  106.8   1.402   20.1  0.3232   56.2  0.3895  -84.4
 4.500  0.4596  105.5   1.377   18.5  0.3320   55.4  0.3874  -86.8
 4.600  0.4657  104.2   1.352   17.3  0.3404   54.4  0.3831  -89.5
 4.700  0.4720  103.0   1.327   16.0  0.3489   53.4  0.3797  -92.2
 4.800  0.4786  101.7   1.303   14.7  0.3575   52.5  0.3771  -95.0
 4.900  0.4853  100.6   1.280   13.4  0.3661   51.6  0.3755  -97.9
 5.000  0.4923   99.4   1.257   12.0  0.3749   50.8  0.3748 -100.7
 5.100  0.4969   98.2   1.238   10.9  0.3834   49.7  0.3742 -103.7
 5.200  0.5016   96.9   1.219    9.7  0.3921   48.7  0.3746 -106.7
 5.300  0.5066   95.7   1.201    8.5  0.4008   47.7  0.3761 -109.7
 5.400  0.5119   94.6   1.184    7.3  0.4097   46.8  0.3786 -112.7
 5.500  0.5173   93.4   1.167    6.0  0.4187   45.9  0.3821 -115.6
 5.600  0.5201   92.2   1.149    5.0  0.4270   44.7  0.3833 -118.3
 5.700  0.5232   91.0   1.132    4.0  0.4354   43.6  0.3854 -121.0
 5.800  0.5264   89.9   1.115    2.9  0.4440   42.5  0.3884 -123.7
 5.900  0.5299   88.7   1.099    1.8  0.4528   41.5  0.3921 -126.3
 6.000  0.5336   87.6   1.083    0.7  0.4617   40.5  0.3967 -128.9
!
!  f       NFmin   Gammaopt  rn/50
! GHz       dB    MAG  ANG    -
!
! noise parameter not available yet for this operation point!
!
! (c) 2017  Infineon Technologies AG, Munich