! Infineon Technologies  Discrete & RF Semiconductors
! BFR181W
! VCE =  3.0 V,  IC =  1.0 mA
! Common Emitter S-Parameters:                            Jan 2017
# GHz  S  MA  R  50
!  f         S11            S21            S12            S22
! GHz     MAG   ANG      MAG   ANG      MAG   ANG      MAG   ANG
 0.010  0.9825    0.1   3.629 -179.5  0.0014   85.3  1.0000   -0.5
 0.020  0.9690   -3.0   3.628  178.7  0.0035   96.9  0.9931   -0.6
 0.030  0.9608   -3.3   3.612  178.0  0.0055   90.0  0.9948   -1.1
 0.040  0.9526   -3.5   3.596  177.4  0.0075   86.8  0.9966   -1.6
 0.050  0.9445   -3.8   3.581  176.7  0.0096   85.0  0.9985   -2.1
 0.060  0.9479   -4.7   3.575  175.9  0.0116   84.9  0.9975   -2.5
 0.070  0.9515   -5.6   3.570  175.2  0.0137   84.8  0.9965   -3.0
 0.080  0.9553   -6.5   3.565  174.4  0.0157   84.8  0.9956   -3.4
 0.090  0.9593   -7.3   3.561  173.7  0.0178   84.7  0.9948   -3.9
 0.100  0.9636   -8.2   3.558  172.9  0.0198   84.7  0.9940   -4.3
 0.110  0.9605   -9.1   3.555  172.2  0.0216   83.9  0.9935   -4.7
 0.120  0.9577  -10.1   3.553  171.5  0.0234   83.2  0.9931   -5.1
 0.130  0.9551  -11.0   3.551  170.7  0.0253   82.6  0.9928   -5.6
 0.140  0.9528  -12.0   3.550  170.0  0.0271   82.1  0.9925   -6.0
 0.150  0.9508  -12.9   3.549  169.3  0.0289   81.6  0.9922   -6.4
 0.200  0.9491  -16.6   3.516  165.2  0.0376   79.5  0.9852   -8.5
 0.250  0.9384  -21.0   3.510  161.6  0.0472   76.9  0.9779  -10.6
 0.300  0.9227  -25.1   3.464  157.9  0.0557   74.2  0.9683  -12.6
 0.350  0.9103  -28.9   3.423  154.5  0.0640   71.2  0.9575  -14.6
 0.400  0.9021  -32.8   3.394  151.0  0.0725   68.9  0.9479  -16.6
 0.450  0.8836  -36.6   3.333  147.7  0.0798   66.3  0.9353  -18.4
 0.500  0.8693  -40.6   3.284  144.3  0.0873   64.2  0.9237  -20.2
 0.600  0.8388  -48.2   3.176  137.7  0.1004   59.5  0.8965  -23.5
 0.700  0.8004  -55.5   3.050  131.4  0.1106   55.6  0.8677  -26.5
 0.800  0.7654  -62.4   2.944  125.6  0.1205   52.0  0.8388  -29.4
 0.900  0.7293  -69.4   2.822  119.9  0.1282   48.3  0.8119  -31.9
 1.000  0.6952  -75.9   2.705  114.9  0.1346   45.6  0.7841  -34.2
 1.100  0.6640  -82.3   2.589  110.1  0.1392   43.1  0.7602  -36.2
 1.200  0.6318  -88.2   2.476  105.4  0.1432   40.6  0.7360  -38.3
 1.300  0.6043  -94.2   2.373  100.9  0.1463   38.8  0.7145  -40.2
 1.400  0.5809  -99.8   2.276   96.9  0.1487   37.1  0.6936  -42.0
 1.500  0.5589 -105.9   2.196   93.0  0.1505   35.8  0.6760  -43.6
 1.600  0.5358 -111.4   2.100   89.1  0.1516   34.5  0.6622  -45.2
 1.700  0.5208 -116.7   2.032   85.8  0.1516   33.7  0.6444  -47.0
 1.800  0.5038 -122.3   1.970   82.2  0.1527   33.3  0.6302  -48.4
 1.900  0.4927 -127.9   1.907   79.1  0.1521   32.7  0.6182  -50.0
 2.000  0.4779 -133.4   1.846   75.5  0.1521   32.8  0.6083  -51.5
 2.100  0.4656 -138.4   1.787   72.5  0.1522   32.9  0.5991  -53.0
 2.200  0.4569 -143.6   1.734   69.3  0.1523   32.9  0.5903  -54.6
 2.300  0.4500 -148.5   1.680   66.5  0.1518   33.4  0.5834  -56.3
 2.400  0.4465 -153.6   1.630   63.5  0.1514   34.0  0.5770  -58.0
 2.500  0.4412 -158.1   1.582   61.0  0.1517   35.0  0.5716  -59.5
 2.600  0.4386 -162.7   1.537   58.3  0.1520   35.9  0.5667  -61.1
 2.700  0.4345 -167.4   1.497   55.8  0.1526   37.0  0.5635  -62.7
 2.800  0.4333 -172.2   1.460   53.2  0.1533   38.1  0.5608  -64.3
 2.900  0.4309 -176.3   1.426   50.7  0.1553   39.4  0.5576  -65.8
 3.000  0.4308  179.5   1.395   48.0  0.1573   40.6  0.5547  -67.3
 3.100  0.4286  175.6   1.361   46.1  0.1606   42.2  0.5529  -68.9
 3.200  0.4285  171.7   1.328   44.1  0.1641   43.8  0.5515  -70.5
 3.300  0.4302  167.9   1.297   42.0  0.1677   45.3  0.5505  -72.1
 3.400  0.4340  164.0   1.267   39.8  0.1714   46.7  0.5500  -73.8
 3.500  0.4396  160.3   1.240   37.5  0.1752   48.1  0.5499  -75.4
 3.600  0.4407  157.0   1.215   35.8  0.1816   49.2  0.5471  -77.2
 3.700  0.4433  153.7   1.190   34.0  0.1881   50.2  0.5449  -79.1
 3.800  0.4474  150.5   1.167   32.1  0.1946   51.1  0.5432  -80.9
 3.900  0.4528  147.3   1.145   30.1  0.2012   52.0  0.5421  -82.8
 4.000  0.4596  144.2   1.125   28.1  0.2078   52.8  0.5416  -84.7
 4.100  0.4630  141.2   1.103   26.5  0.2169   53.1  0.5368  -86.9
 4.200  0.4677  138.2   1.083   24.9  0.2260   53.4  0.5328  -89.2
 4.300  0.4736  135.3   1.063   23.2  0.2351   53.6  0.5297  -91.5
 4.400  0.4807  132.4   1.044   21.5  0.2443   53.9  0.5274  -93.8
 4.500  0.4889  129.7   1.026   19.7  0.2534   54.1  0.5260  -96.1
 4.600  0.4934  127.3   1.006   18.4  0.2639   53.8  0.5218  -98.7
 4.700  0.4988  124.8   0.986   17.1  0.2743   53.5  0.5187 -101.4
 4.800  0.5051  122.5   0.967   15.7  0.2848   53.2  0.5168 -104.1
 4.900  0.5121  120.2   0.949   14.2  0.2953   52.9  0.5160 -106.8
 5.000  0.5200  118.0   0.931   12.7  0.3058   52.7  0.5163 -109.5
 5.100  0.5240  115.9   0.916   11.7  0.3171   51.9  0.5158 -112.3
 5.200  0.5287  113.8   0.901   10.6  0.3284   51.2  0.5165 -115.2
 5.300  0.5341  111.8   0.887    9.4  0.3398   50.5  0.5185 -118.0
 5.400  0.5401  109.8   0.873    8.3  0.3512   49.9  0.5217 -120.8
 5.500  0.5468  107.8   0.859    7.1  0.3627   49.3  0.5261 -123.5
 5.600  0.5490  106.0   0.845    6.3  0.3737   48.1  0.5267 -126.1
 5.700  0.5517  104.1   0.832    5.5  0.3848   47.0  0.5285 -128.7
 5.800  0.5549  102.3   0.819    4.6  0.3960   45.9  0.5313 -131.3
 5.900  0.5588  100.6   0.806    3.7  0.4074   44.9  0.5352 -133.9
 6.000  0.5631   98.8   0.793    2.8  0.4189   44.0  0.5401 -136.4
!
!  f       NFmin   Gammaopt  rn/50
! GHz       dB    MAG  ANG    -
 0.450      0.87  0.69   18   0.51
 0.900      0.95  0.64   36   0.47
 1.900      1.56  0.44   83   0.32
 2.400      1.81  0.38   99   0.34
!
! (c) 2017  Infineon Technologies AG, Munich