! Infineon Technologies  Discrete & RF Semiconductors
! BFR181W
! VCE =  4.0 V,  IC =  20 mA
! Common Emitter S-Parameters:                            Jan 2017
# GHz  S  MA  R  50
!  f         S11            S21            S12            S22
! GHz     MAG   ANG      MAG   ANG      MAG   ANG      MAG   ANG
 0.010  0.5580   -6.2  33.293  176.1  0.0012   81.1  0.9643   -1.9
 0.020  0.5445  -15.4  32.666  171.0  0.0027   93.2  0.9528   -4.1
 0.030  0.5303  -21.6  31.929  167.1  0.0044   84.8  0.9410   -6.3
 0.040  0.5224  -28.0  31.347  163.0  0.0061   81.1  0.9306   -8.5
 0.050  0.5213  -34.5  30.930  158.8  0.0079   79.0  0.9216  -10.7
 0.060  0.5036  -39.9  29.804  155.8  0.0090   76.1  0.9009  -12.0
 0.070  0.4907  -45.7  28.768  152.5  0.0102   73.9  0.8807  -13.4
 0.080  0.4830  -51.7  27.831  149.0  0.0113   72.1  0.8610  -14.9
 0.090  0.4807  -57.8  27.004  145.3  0.0125   70.6  0.8420  -16.4
 0.100  0.4839  -63.9  26.297  141.4  0.0137   69.4  0.8235  -18.0
 0.110  0.4696  -68.2  25.324  139.3  0.0145   67.8  0.8056  -18.6
 0.120  0.4581  -72.7  24.388  137.1  0.0154   66.3  0.7878  -19.3
 0.130  0.4495  -77.4  23.492  134.6  0.0162   65.0  0.7700  -20.0
 0.140  0.4441  -82.3  22.642  132.0  0.0170   63.8  0.7525  -20.7
 0.150  0.4420  -87.2  21.843  129.2  0.0179   62.7  0.7350  -21.5
 0.200  0.4165 -103.7  18.196  120.0  0.0207   62.2  0.6682  -22.6
 0.250  0.3966 -117.5  15.460  113.4  0.0234   61.9  0.6223  -22.8
 0.300  0.3858 -128.1  13.338  108.4  0.0260   62.8  0.5879  -22.5
 0.350  0.3765 -135.3  11.870  105.2  0.0287   63.9  0.5677  -22.1
 0.400  0.3734 -142.8  10.450  101.1  0.0314   64.9  0.5476  -21.6
 0.450  0.3678 -148.1   9.471   98.7  0.0338   65.5  0.5362  -21.4
 0.500  0.3654 -153.6   8.513   95.8  0.0362   66.1  0.5249  -21.2
 0.600  0.3642 -161.9   7.193   91.5  0.0420   68.2  0.5104  -21.1
 0.700  0.3634 -168.3   6.217   87.8  0.0472   70.7  0.5005  -21.3
 0.800  0.3669 -174.3   5.487   84.4  0.0535   71.8  0.4933  -21.8
 0.900  0.3663 -179.1   4.894   81.5  0.0589   72.4  0.4875  -22.5
 1.000  0.3703  176.6   4.439   78.8  0.0651   73.4  0.4826  -23.3
 1.100  0.3739  172.6   4.055   76.2  0.0714   74.4  0.4797  -24.4
 1.200  0.3778  168.8   3.731   73.6  0.0767   74.0  0.4757  -25.5
 1.300  0.3776  165.5   3.456   71.2  0.0833   74.4  0.4727  -26.7
 1.400  0.3822  162.4   3.230   68.9  0.0906   74.8  0.4689  -28.1
 1.500  0.3890  159.6   3.025   66.7  0.0969   74.8  0.4657  -29.5
 1.600  0.3917  156.6   2.850   64.4  0.1031   75.1  0.4645  -31.0
 1.700  0.3945  154.1   2.694   62.4  0.1102   74.9  0.4606  -32.8
 1.800  0.3998  151.3   2.562   60.2  0.1173   74.8  0.4580  -34.4
 1.900  0.4055  149.2   2.441   58.3  0.1243   74.7  0.4558  -36.2
 2.000  0.4100  146.8   2.324   56.2  0.1313   74.3  0.4545  -38.1
 2.100  0.4140  144.4   2.228   54.2  0.1386   73.9  0.4522  -40.0
 2.200  0.4187  142.0   2.134   52.1  0.1459   73.6  0.4503  -41.9
 2.300  0.4240  139.9   2.055   50.3  0.1536   73.2  0.4490  -43.9
 2.400  0.4298  137.8   1.978   48.3  0.1613   72.8  0.4482  -46.0
 2.500  0.4332  135.9   1.908   46.6  0.1688   72.3  0.4474  -48.1
 2.600  0.4371  134.1   1.839   44.7  0.1764   71.9  0.4473  -50.2
 2.700  0.4432  132.0   1.781   43.0  0.1843   71.4  0.4471  -52.3
 2.800  0.4499  129.9   1.724   41.2  0.1923   70.9  0.4474  -54.3
 2.900  0.4533  128.0   1.672   39.5  0.2008   70.2  0.4465  -56.3
 3.000  0.4571  126.2   1.622   37.6  0.2093   69.5  0.4462  -58.4
 3.100  0.4609  124.3   1.580   36.2  0.2178   68.7  0.4450  -60.4
 3.200  0.4651  122.5   1.539   34.7  0.2264   68.0  0.4444  -62.4
 3.300  0.4698  120.6   1.498   33.1  0.2350   67.4  0.4443  -64.4
 3.400  0.4750  118.8   1.460   31.5  0.2436   66.8  0.4447  -66.4
 3.500  0.4807  117.1   1.422   29.7  0.2523   66.2  0.4457  -68.4
 3.600  0.4845  115.4   1.391   28.4  0.2611   65.2  0.4426  -70.5
 3.700  0.4887  113.8   1.360   27.0  0.2700   64.2  0.4401  -72.6
 3.800  0.4933  112.2   1.330   25.6  0.2790   63.3  0.4382  -74.7
 3.900  0.4983  110.6   1.301   24.1  0.2880   62.5  0.4369  -76.8
 4.000  0.5036  109.1   1.273   22.5  0.2971   61.7  0.4362  -79.0
 4.100  0.5076  107.5   1.249   21.2  0.3063   60.6  0.4312  -81.4
 4.200  0.5119  105.9   1.225   19.9  0.3156   59.5  0.4270  -83.8
 4.300  0.5166  104.4   1.202   18.5  0.3251   58.5  0.4236  -86.3
 4.400  0.5217  102.9   1.180   17.1  0.3346   57.5  0.4210  -88.8
 4.500  0.5272  101.4   1.158   15.6  0.3442   56.6  0.4192  -91.3
 4.600  0.5321  100.1   1.136   14.5  0.3532   55.5  0.4145  -94.2
 4.700  0.5373   98.8   1.115   13.4  0.3622   54.4  0.4109  -97.1
 4.800  0.5428   97.6   1.094   12.2  0.3715   53.4  0.4083 -100.0
 4.900  0.5485   96.4   1.074   11.0  0.3808   52.4  0.4069 -103.0
 5.000  0.5544   95.2   1.054    9.7  0.3902   51.5  0.4065 -106.0
 5.100  0.5577   93.9   1.038    8.7  0.3990   50.3  0.4057 -109.1
 5.200  0.5613   92.6   1.023    7.7  0.4079   49.2  0.4061 -112.1
 5.300  0.5652   91.4   1.007    6.6  0.4170   48.1  0.4077 -115.2
 5.400  0.5693   90.1   0.992    5.5  0.4262   47.0  0.4104 -118.2
 5.500  0.5737   88.9   0.978    4.4  0.4356   46.0  0.4142 -121.2
 5.600  0.5748   87.7   0.964    3.6  0.4439   44.7  0.4151 -123.9
 5.700  0.5762   86.5   0.950    2.7  0.4524   43.5  0.4170 -126.7
 5.800  0.5778   85.3   0.936    1.8  0.4611   42.3  0.4197 -129.4
 5.900  0.5796   84.2   0.922    0.9  0.4700   41.1  0.4234 -132.0
 6.000  0.5817   83.0   0.909    0.0  0.4791   40.0  0.4280 -134.6
!
!  f       NFmin   Gammaopt  rn/50
! GHz       dB    MAG  ANG    -
!
! noise parameter not available yet for this operation point!
!
! (c) 2017  Infineon Technologies AG, Munich