! Infineon Technologies  Discrete & RF Semiconductors
! BFR181W
! VCE =  4.0 V,  IC =  1.0 mA
! Common Emitter S-Parameters:                            Jan 2017
# GHz  S  MA  R  50
!  f         S11            S21            S12            S22
! GHz     MAG   ANG      MAG   ANG      MAG   ANG      MAG   ANG
 0.010  0.9817    0.1   3.626 -179.5  0.0015   95.0  1.0000   -0.4
 0.020  0.9598   -2.8   3.592  178.7  0.0039   85.3  1.0000   -0.6
 0.030  0.9547   -3.1   3.588  178.0  0.0058   87.4  1.0000   -1.1
 0.040  0.9496   -3.5   3.584  177.4  0.0076   88.5  1.0000   -1.6
 0.050  0.9445   -3.8   3.580  176.7  0.0095   89.2  0.9992   -2.1
 0.060  0.9476   -4.7   3.574  176.0  0.0114   87.7  0.9987   -2.5
 0.070  0.9510   -5.5   3.568  175.2  0.0133   86.7  0.9983   -2.9
 0.080  0.9545   -6.4   3.563  174.5  0.0152   85.9  0.9980   -3.4
 0.090  0.9583   -7.3   3.558  173.7  0.0171   85.3  0.9977   -3.8
 0.100  0.9623   -8.1   3.554  173.0  0.0190   84.8  0.9974   -4.2
 0.110  0.9596   -9.0   3.552  172.3  0.0209   84.1  0.9964   -4.6
 0.120  0.9572   -9.9   3.550  171.6  0.0227   83.6  0.9954   -5.0
 0.130  0.9551  -10.8   3.549  170.8  0.0246   83.1  0.9944   -5.5
 0.140  0.9532  -11.8   3.549  170.1  0.0264   82.7  0.9935   -5.9
 0.150  0.9515  -12.7   3.549  169.4  0.0283   82.3  0.9927   -6.3
 0.200  0.9497  -16.4   3.519  165.4  0.0369   79.3  0.9868   -8.4
 0.250  0.9384  -20.8   3.512  161.7  0.0464   76.6  0.9805  -10.4
 0.300  0.9225  -24.9   3.469  158.1  0.0544   73.9  0.9703  -12.4
 0.350  0.9117  -28.6   3.428  154.7  0.0625   70.9  0.9600  -14.3
 0.400  0.9049  -32.4   3.399  151.3  0.0708   68.6  0.9509  -16.3
 0.450  0.8858  -36.2   3.338  148.0  0.0781   66.4  0.9383  -18.1
 0.500  0.8708  -40.2   3.289  144.6  0.0854   64.5  0.9267  -19.9
 0.600  0.8402  -47.7   3.185  138.0  0.0981   59.7  0.8992  -23.1
 0.700  0.8019  -55.1   3.063  131.8  0.1085   55.8  0.8715  -26.1
 0.800  0.7679  -61.9   2.957  126.0  0.1186   52.3  0.8427  -29.0
 0.900  0.7326  -68.7   2.835  120.4  0.1263   48.8  0.8159  -31.5
 1.000  0.6986  -75.0   2.717  115.5  0.1325   45.8  0.7891  -33.8
 1.100  0.6664  -81.4   2.604  110.6  0.1373   43.5  0.7655  -35.8
 1.200  0.6360  -87.4   2.493  106.0  0.1415   41.1  0.7412  -37.9
 1.300  0.6080  -93.3   2.389  101.4  0.1442   39.2  0.7197  -39.7
 1.400  0.5843  -99.0   2.292   97.5  0.1471   37.4  0.6997  -41.6
 1.500  0.5621 -105.0   2.213   93.5  0.1485   36.2  0.6819  -43.1
 1.600  0.5393 -110.3   2.116   89.6  0.1497   35.0  0.6678  -44.7
 1.700  0.5230 -116.0   2.047   86.3  0.1500   34.2  0.6500  -46.5
 1.800  0.5055 -121.4   1.985   82.7  0.1508   33.5  0.6359  -47.9
 1.900  0.4946 -127.0   1.923   79.6  0.1499   33.4  0.6237  -49.4
 2.000  0.4770 -132.5   1.863   76.0  0.1508   33.1  0.6138  -50.9
 2.100  0.4657 -137.4   1.804   73.0  0.1505   33.2  0.6047  -52.4
 2.200  0.4581 -142.6   1.750   69.9  0.1502   33.3  0.5961  -54.0
 2.300  0.4503 -147.5   1.695   67.0  0.1499   33.8  0.5892  -55.7
 2.400  0.4459 -152.6   1.645   64.0  0.1496   34.4  0.5829  -57.4
 2.500  0.4406 -157.2   1.596   61.5  0.1498   35.5  0.5776  -58.9
 2.600  0.4382 -161.8   1.550   58.9  0.1501   36.5  0.5727  -60.5
 2.700  0.4337 -166.5   1.509   56.4  0.1507   37.7  0.5695  -62.0
 2.800  0.4321 -171.3   1.472   53.7  0.1514   38.8  0.5667  -63.6
 2.900  0.4295 -175.5   1.439   51.2  0.1535   40.2  0.5635  -65.1
 3.000  0.4293 -179.7   1.408   48.5  0.1557   41.5  0.5606  -66.6
 3.100  0.4269  176.4   1.373   46.6  0.1591   43.1  0.5586  -68.2
 3.200  0.4265  172.6   1.340   44.6  0.1626   44.6  0.5569  -69.8
 3.300  0.4281  168.7   1.309   42.6  0.1662   46.1  0.5558  -71.4
 3.400  0.4316  164.9   1.279   40.4  0.1699   47.5  0.5551  -73.1
 3.500  0.4370  161.1   1.251   38.1  0.1737   48.8  0.5548  -74.7
 3.600  0.4380  157.7   1.225   36.4  0.1802   49.9  0.5520  -76.5
 3.700  0.4405  154.4   1.200   34.6  0.1867   50.9  0.5497  -78.3
 3.800  0.4445  151.1   1.177   32.7  0.1933   51.8  0.5480  -80.2
 3.900  0.4499  147.8   1.155   30.7  0.1999   52.7  0.5469  -82.0
 4.000  0.4567  144.7   1.134   28.7  0.2066   53.5  0.5463  -83.9
 4.100  0.4600  141.7   1.112   27.1  0.2158   53.8  0.5416  -86.1
 4.200  0.4644  138.8   1.092   25.4  0.2249   54.1  0.5376  -88.3
 4.300  0.4701  135.9   1.072   23.7  0.2341   54.3  0.5345  -90.5
 4.400  0.4770  133.1   1.053   21.9  0.2432   54.6  0.5322  -92.8
 4.500  0.4849  130.4   1.035   20.1  0.2524   54.8  0.5308  -95.1
 4.600  0.4895  127.9   1.015   18.8  0.2630   54.5  0.5266  -97.7
 4.700  0.4950  125.4   0.995   17.5  0.2736   54.2  0.5235 -100.4
 4.800  0.5014  123.0   0.976   16.1  0.2842   53.9  0.5215 -103.0
 4.900  0.5088  120.6   0.957   14.6  0.2949   53.6  0.5207 -105.7
 5.000  0.5169  118.3   0.939   13.1  0.3055   53.4  0.5210 -108.4
 5.100  0.5210  116.2   0.924   12.0  0.3168   52.6  0.5204 -111.2
 5.200  0.5258  114.1   0.909   10.9  0.3281   51.8  0.5210 -114.0
 5.300  0.5313  112.1   0.895    9.8  0.3395   51.1  0.5229 -116.8
 5.400  0.5375  110.1   0.881    8.6  0.3510   50.4  0.5260 -119.6
 5.500  0.5443  108.1   0.867    7.4  0.3625   49.8  0.5303 -122.3
 5.600  0.5463  106.2   0.854    6.6  0.3734   48.6  0.5309 -124.9
 5.700  0.5488  104.4   0.840    5.8  0.3844   47.5  0.5327 -127.5
 5.800  0.5519  102.6   0.827    5.0  0.3956   46.5  0.5356 -130.1
 5.900  0.5555  100.8   0.815    4.1  0.4069   45.5  0.5395 -132.7
 6.000  0.5597   99.0   0.802    3.2  0.4183   44.6  0.5445 -135.2
!
!  f       NFmin   Gammaopt  rn/50
! GHz       dB    MAG  ANG    -
 0.450      0.87  0.69   18   0.51
 0.900      0.95  0.64   36   0.47
 1.900      1.56  0.44   83   0.32
 2.400      1.81  0.38   99   0.34
!
! (c) 2017  Infineon Technologies AG, Munich