! Infineon Technologies  Discrete & RF Semiconductors
! BFR181W
! VCE =  7.0 V,  IC =  11 mA
! Common Emitter S-Parameters:                            Jan 2017
# GHz  S  MA  R  50
!  f         S11            S21            S12            S22
! GHz     MAG   ANG      MAG   ANG      MAG   ANG      MAG   ANG
 0.010  0.7319   -2.4  26.074  177.3  0.0015   87.0  0.9919   -1.5
 0.020  0.7201   -7.8  25.821  174.0  0.0025   93.3  0.9885   -2.9
 0.030  0.7099  -10.5  25.496  171.6  0.0044   86.0  0.9824   -4.5
 0.040  0.7014  -13.3  25.217  169.2  0.0063   83.1  0.9772   -6.1
 0.050  0.6946  -16.2  24.984  166.7  0.0082   81.6  0.9727   -7.8
 0.060  0.6846  -19.3  24.572  164.4  0.0095   79.3  0.9611   -9.1
 0.070  0.6765  -22.4  24.199  162.1  0.0109   77.5  0.9501  -10.5
 0.080  0.6705  -25.6  23.869  159.6  0.0123   76.2  0.9396  -11.9
 0.090  0.6667  -28.8  23.583  157.1  0.0136   75.1  0.9297  -13.3
 0.100  0.6650  -32.1  23.343  154.6  0.0150   74.2  0.9204  -14.8
 0.110  0.6501  -34.8  22.878  152.7  0.0162   73.3  0.9070  -15.8
 0.120  0.6366  -37.5  22.439  150.7  0.0174   72.5  0.8938  -16.9
 0.130  0.6248  -40.4  22.029  148.6  0.0187   71.8  0.8810  -17.9
 0.140  0.6145  -43.4  21.649  146.4  0.0199   71.1  0.8685  -19.1
 0.150  0.6060  -46.5  21.301  144.2  0.0211   70.6  0.8563  -20.2
 0.200  0.5513  -58.3  19.116  135.2  0.0252   67.3  0.7903  -24.0
 0.250  0.4991  -69.0  17.179  128.0  0.0296   64.8  0.7316  -26.6
 0.300  0.4527  -78.7  15.409  122.1  0.0326   62.7  0.6801  -28.1
 0.350  0.4158  -85.5  13.998  118.0  0.0357   62.3  0.6423  -28.9
 0.400  0.3857  -93.4  12.674  113.0  0.0388   62.0  0.6047  -29.7
 0.450  0.3597  -99.6  11.629  110.0  0.0418   62.1  0.5787  -29.8
 0.500  0.3386 -106.7  10.622  106.4  0.0448   62.1  0.5527  -30.0
 0.600  0.3066 -117.9   9.130  101.0  0.0501   62.9  0.5173  -29.9
 0.700  0.2826 -127.6   7.965   96.5  0.0554   64.3  0.4923  -29.6
 0.800  0.2681 -136.9   7.085   92.6  0.0613   65.2  0.4736  -29.6
 0.900  0.2566 -145.0   6.351   89.2  0.0668   65.7  0.4595  -29.7
 1.000  0.2497 -151.9   5.782   86.2  0.0726   66.6  0.4470  -29.9
 1.100  0.2460 -158.6   5.292   83.5  0.0784   67.1  0.4393  -30.1
 1.200  0.2445 -165.0   4.878   80.7  0.0845   67.4  0.4314  -30.6
 1.300  0.2393 -170.7   4.523   78.2  0.0902   67.5  0.4252  -31.3
 1.400  0.2422 -175.7   4.231   75.8  0.0972   67.8  0.4185  -32.1
 1.500  0.2459  179.8   3.968   73.7  0.1034   67.9  0.4136  -33.0
 1.600  0.2467  175.2   3.739   71.3  0.1097   67.8  0.4107  -33.9
 1.700  0.2472  171.0   3.535   69.3  0.1159   68.1  0.4058  -35.2
 1.800  0.2517  167.2   3.365   67.2  0.1224   67.7  0.4015  -36.4
 1.900  0.2563  164.2   3.205   65.3  0.1287   67.6  0.3981  -37.7
 2.000  0.2597  160.6   3.057   63.2  0.1353   67.4  0.3960  -39.2
 2.100  0.2632  157.6   2.931   61.3  0.1420   67.1  0.3930  -40.7
 2.200  0.2673  154.7   2.808   59.3  0.1488   66.8  0.3902  -42.3
 2.300  0.2735  151.8   2.705   57.5  0.1555   66.5  0.3885  -44.0
 2.400  0.2804  149.0   2.605   55.5  0.1622   66.2  0.3871  -45.7
 2.500  0.2837  146.6   2.513   53.8  0.1691   65.8  0.3858  -47.5
 2.600  0.2875  144.2   2.423   52.0  0.1760   65.4  0.3848  -49.3
 2.700  0.2932  141.7   2.348   50.3  0.1829   64.9  0.3843  -51.0
 2.800  0.2995  139.3   2.275   48.5  0.1899   64.5  0.3841  -52.7
 2.900  0.3039  137.0   2.209   46.8  0.1970   64.0  0.3831  -54.4
 3.000  0.3087  134.8   2.145   45.0  0.2042   63.5  0.3825  -56.1
 3.100  0.3130  132.7   2.090   43.6  0.2116   62.9  0.3817  -57.8
 3.200  0.3177  130.7   2.037   42.0  0.2190   62.3  0.3813  -59.4
 3.300  0.3228  128.8   1.985   40.4  0.2265   61.7  0.3812  -61.1
 3.400  0.3282  126.9   1.935   38.8  0.2339   61.2  0.3814  -62.7
 3.500  0.3340  125.1   1.886   37.0  0.2414   60.7  0.3819  -64.4
 3.600  0.3386  123.4   1.846   35.6  0.2490   59.9  0.3794  -66.2
 3.700  0.3435  121.7   1.807   34.2  0.2566   59.2  0.3772  -67.9
 3.800  0.3487  120.1   1.769   32.7  0.2643   58.5  0.3754  -69.8
 3.900  0.3541  118.5   1.733   31.1  0.2720   57.8  0.3740  -71.6
 4.000  0.3598  117.0   1.698   29.5  0.2798   57.2  0.3730  -73.4
 4.100  0.3654  115.4   1.667   28.1  0.2876   56.3  0.3685  -75.5
 4.200  0.3712  113.9   1.637   26.7  0.2955   55.4  0.3644  -77.6
 4.300  0.3773  112.5   1.608   25.2  0.3035   54.6  0.3609  -79.7
 4.400  0.3836  111.1   1.580   23.6  0.3115   53.8  0.3579  -81.9
 4.500  0.3901  109.7   1.553   22.0  0.3196   53.1  0.3554  -84.1
 4.600  0.3973  108.3   1.525   20.8  0.3274   52.2  0.3514  -86.7
 4.700  0.4047  107.0   1.498   19.5  0.3353   51.4  0.3480  -89.3
 4.800  0.4123  105.8   1.472   18.1  0.3433   50.6  0.3455  -92.0
 4.900  0.4200  104.6   1.447   16.7  0.3513   49.8  0.3436  -94.7
 5.000  0.4280  103.4   1.422   15.3  0.3594   49.1  0.3426  -97.4
 5.100  0.4328  102.1   1.401   14.1  0.3674   48.2  0.3420 -100.3
 5.200  0.4378  100.9   1.380   12.9  0.3754   47.3  0.3423 -103.3
 5.300  0.4430   99.7   1.361   11.6  0.3836   46.4  0.3436 -106.2
 5.400  0.4484   98.5   1.341   10.3  0.3918   45.6  0.3457 -109.1
 5.500  0.4540   97.3   1.323    9.0  0.4001   44.8  0.3487 -112.0
 5.600  0.4578   96.2   1.304    7.9  0.4081   43.7  0.3500 -114.7
 5.700  0.4617   95.0   1.285    6.8  0.4162   42.7  0.3521 -117.4
 5.800  0.4658   93.9   1.266    5.6  0.4244   41.7  0.3549 -120.0
 5.900  0.4701   92.9   1.248    4.4  0.4327   40.7  0.3585 -122.6
 6.000  0.4746   91.8   1.231    3.2  0.4412   39.8  0.3628 -125.1
!
!  f       NFmin   Gammaopt  rn/50
! GHz       dB    MAG  ANG    -
 0.450      1.29  0.12   17   0.21
 0.900      1.33  0.12   31   0.21
 1.900      1.76  0.04 -171   0.20
 2.400      1.95  0.05 -122   0.25
!
! (c) 2017  Infineon Technologies AG, Munich