! Infineon Technologies  Discrete & RF Semiconductors
! BFR181W
! VCE =  7.0 V,  IC =  19 mA
! Common Emitter S-Parameters:                            Jan 2017
# GHz  S  MA  R  50
!  f         S11            S21            S12            S22
! GHz     MAG   ANG      MAG   ANG      MAG   ANG      MAG   ANG
 0.010  0.6171   -3.8  33.767  176.3  0.0012   78.2  0.9827   -1.7
 0.020  0.6062  -10.8  33.315  172.3  0.0027   81.4  0.9736   -3.6
 0.030  0.5935  -15.1  32.727  169.1  0.0042   79.5  0.9650   -5.6
 0.040  0.5844  -19.6  32.244  165.8  0.0058   78.6  0.9577   -7.7
 0.050  0.5789  -24.2  31.872  162.4  0.0073   78.1  0.9516   -9.8
 0.060  0.5636  -28.2  31.010  159.6  0.0085   76.4  0.9342  -11.2
 0.070  0.5512  -32.4  30.225  156.7  0.0097   75.1  0.9174  -12.7
 0.080  0.5419  -36.8  29.523  153.6  0.0110   74.1  0.9013  -14.3
 0.090  0.5358  -41.3  28.909  150.4  0.0122   73.3  0.8858  -15.9
 0.100  0.5332  -45.9  28.389  147.1  0.0134   72.6  0.8710  -17.5
 0.110  0.5167  -49.3  27.541  145.0  0.0144   71.3  0.8532  -18.4
 0.120  0.5021  -52.9  26.732  142.8  0.0155   70.1  0.8355  -19.3
 0.130  0.4895  -56.6  25.965  140.5  0.0165   69.2  0.8181  -20.3
 0.140  0.4792  -60.6  25.243  138.0  0.0176   68.3  0.8010  -21.3
 0.150  0.4713  -64.7  24.571  135.4  0.0186   67.5  0.7841  -22.4
 0.200  0.4229  -79.1  21.062  126.1  0.0217   66.6  0.7104  -24.9
 0.250  0.3836  -92.2  18.297  119.2  0.0248   64.9  0.6534  -26.1
 0.300  0.3545 -103.1  15.988  113.8  0.0277   64.4  0.6082  -26.4
 0.350  0.3306 -110.7  14.323  110.3  0.0306   65.5  0.5791  -26.3
 0.400  0.3134 -119.3  12.727  105.8  0.0335   66.5  0.5500  -26.1
 0.450  0.3007 -125.6  11.584  103.2  0.0362   66.9  0.5325  -25.9
 0.500  0.2918 -132.3  10.469  100.1  0.0389   67.3  0.5150  -25.6
 0.600  0.2794 -142.8   8.898   95.5  0.0448   67.8  0.4924  -25.0
 0.700  0.2722 -151.8   7.710   91.6  0.0501   69.6  0.4767  -24.7
 0.800  0.2699 -159.4   6.820   88.2  0.0573   70.8  0.4652  -24.8
 0.900  0.2648 -165.9   6.092   85.2  0.0625   71.0  0.4567  -25.1
 1.000  0.2679 -171.4   5.531   82.5  0.0683   71.9  0.4492  -25.5
 1.100  0.2692 -176.9   5.053   80.0  0.0751   71.6  0.4444  -26.1
 1.200  0.2688  178.2   4.652   77.4  0.0811   71.9  0.4392  -26.8
 1.300  0.2706  174.2   4.311   75.0  0.0873   72.0  0.4350  -27.8
 1.400  0.2745  170.3   4.028   72.8  0.0942   72.2  0.4299  -28.7
 1.500  0.2803  166.9   3.775   70.7  0.1009   72.2  0.4269  -29.9
 1.600  0.2836  163.3   3.555   68.5  0.1075   72.1  0.4254  -31.1
 1.700  0.2866  160.2   3.361   66.5  0.1135   72.0  0.4208  -32.5
 1.800  0.2910  157.2   3.197   64.5  0.1205   71.6  0.4174  -33.9
 1.900  0.2952  154.8   3.046   62.7  0.1273   71.2  0.4155  -35.4
 2.000  0.2993  152.1   2.901   60.6  0.1340   71.1  0.4133  -37.1
 2.100  0.3031  149.5   2.781   58.8  0.1410   70.7  0.4106  -38.7
 2.200  0.3076  146.9   2.664   56.8  0.1481   70.4  0.4082  -40.4
 2.300  0.3138  144.7   2.565   55.0  0.1552   69.9  0.4069  -42.2
 2.400  0.3205  142.5   2.469   53.1  0.1623   69.4  0.4061  -44.1
 2.500  0.3244  140.4   2.382   51.4  0.1695   68.9  0.4051  -45.9
 2.600  0.3287  138.4   2.297   49.6  0.1767   68.5  0.4045  -47.8
 2.700  0.3344  136.3   2.225   48.0  0.1840   67.9  0.4040  -49.6
 2.800  0.3406  134.3   2.155   46.2  0.1914   67.4  0.4039  -51.5
 2.900  0.3452  132.4   2.092   44.5  0.1988   66.8  0.4032  -53.3
 3.000  0.3502  130.5   2.031   42.7  0.2062   66.2  0.4029  -55.2
 3.100  0.3543  128.6   1.979   41.3  0.2140   65.5  0.4021  -57.0
 3.200  0.3589  126.7   1.928   39.8  0.2218   64.9  0.4018  -58.7
 3.300  0.3638  124.8   1.878   38.2  0.2296   64.3  0.4018  -60.5
 3.400  0.3691  123.0   1.830   36.5  0.2374   63.7  0.4021  -62.2
 3.500  0.3747  121.3   1.783   34.8  0.2453   63.2  0.4029  -64.0
 3.600  0.3792  119.7   1.745   33.4  0.2532   62.3  0.4003  -65.9
 3.700  0.3839  118.1   1.708   32.0  0.2611   61.5  0.3982  -67.7
 3.800  0.3889  116.6   1.673   30.5  0.2691   60.8  0.3965  -69.7
 3.900  0.3942  115.1   1.638   29.0  0.2771   60.1  0.3952  -71.6
 4.000  0.3998  113.7   1.605   27.4  0.2852   59.4  0.3944  -73.5
 4.100  0.4052  112.2   1.575   26.0  0.2934   58.4  0.3899  -75.6
 4.200  0.4109  110.8   1.546   24.6  0.3017   57.5  0.3859  -77.8
 4.300  0.4169  109.4   1.517   23.2  0.3101   56.6  0.3825  -80.0
 4.400  0.4231  108.0   1.490   21.7  0.3185   55.7  0.3796  -82.3
 4.500  0.4295  106.7   1.464   20.1  0.3270   54.9  0.3774  -84.6
 4.600  0.4359  105.4   1.438   18.9  0.3351   53.9  0.3730  -87.2
 4.700  0.4424  104.2   1.412   17.6  0.3433   53.0  0.3695  -90.0
 4.800  0.4492  103.0   1.387   16.3  0.3515   52.1  0.3668  -92.7
 4.900  0.4562  101.8   1.362   14.9  0.3599   51.3  0.3650  -95.5
 5.000  0.4633  100.7   1.339   13.5  0.3683   50.5  0.3640  -98.3
 5.100  0.4682   99.4   1.319   12.4  0.3766   49.5  0.3633 -101.3
 5.200  0.4734   98.2   1.299   11.2  0.3849   48.5  0.3636 -104.2
 5.300  0.4788   97.0   1.280    9.9  0.3934   47.6  0.3648 -107.2
 5.400  0.4843   95.8   1.262    8.7  0.4020   46.7  0.3670 -110.1
 5.500  0.4901   94.7   1.244    7.4  0.4107   45.8  0.3702 -113.0
 5.600  0.4930   93.6   1.225    6.3  0.4189   44.7  0.3715 -115.7
 5.700  0.4962   92.5   1.207    5.3  0.4273   43.6  0.3737 -118.4
 5.800  0.4995   91.4   1.189    4.1  0.4358   42.5  0.3766 -121.0
 5.900  0.5030   90.3   1.172    3.0  0.4444   41.5  0.3803 -123.6
 6.000  0.5067   89.2   1.155    1.8  0.4532   40.5  0.3848 -126.1
!
!  f       NFmin   Gammaopt  rn/50
! GHz       dB    MAG  ANG    -
!
! noise parameter not available yet for this operation point!
!
! (c) 2017  Infineon Technologies AG, Munich