! Infineon Technologies  Discrete & RF Semiconductors
! BFR181W
! VCE =  5.0 V,  IC =  1.0 mA
! Common Emitter S-Parameters:                            Jan 2017
# GHz  S  MA  R  50
!  f         S11            S21            S12            S22
! GHz     MAG   ANG      MAG   ANG      MAG   ANG      MAG   ANG
 0.010  0.9830    0.0   3.614 -179.5  0.0016   90.6  1.0000   -0.5
 0.020  0.9695   -2.9   3.615  178.7  0.0036   98.8  1.0000   -0.7
 0.030  0.9616   -3.2   3.598  178.0  0.0055   92.9  1.0000   -1.1
 0.040  0.9537   -3.5   3.582  177.4  0.0075   90.1  1.0000   -1.6
 0.050  0.9459   -3.8   3.566  176.7  0.0095   88.4  0.9983   -2.0
 0.060  0.9492   -4.7   3.560  176.0  0.0114   87.2  0.9974   -2.4
 0.070  0.9527   -5.5   3.555  175.2  0.0133   86.3  0.9965   -2.8
 0.080  0.9564   -6.3   3.550  174.5  0.0151   85.6  0.9957   -3.3
 0.090  0.9603   -7.2   3.546  173.7  0.0170   85.1  0.9949   -3.7
 0.100  0.9644   -8.0   3.542  173.0  0.0189   84.7  0.9942   -4.1
 0.110  0.9611   -8.9   3.539  172.3  0.0207   84.1  0.9935   -4.5
 0.120  0.9581   -9.8   3.537  171.6  0.0225   83.6  0.9929   -5.0
 0.130  0.9553  -10.7   3.535  170.9  0.0243   83.2  0.9923   -5.4
 0.140  0.9528  -11.7   3.534  170.2  0.0261   82.8  0.9918   -5.9
 0.150  0.9505  -12.6   3.533  169.5  0.0279   82.5  0.9914   -6.3
 0.200  0.9491  -16.2   3.505  165.4  0.0363   80.1  0.9859   -8.3
 0.250  0.9389  -20.5   3.501  161.9  0.0458   76.9  0.9793  -10.3
 0.300  0.9232  -24.5   3.457  158.3  0.0540   74.3  0.9701  -12.3
 0.350  0.9129  -28.3   3.417  154.9  0.0619   71.5  0.9602  -14.2
 0.400  0.9067  -32.1   3.389  151.5  0.0700   69.4  0.9513  -16.1
 0.450  0.8871  -35.9   3.330  148.3  0.0770   66.7  0.9386  -17.9
 0.500  0.8715  -39.8   3.281  145.0  0.0841   64.4  0.9268  -19.7
 0.600  0.8420  -47.2   3.179  138.4  0.0969   60.2  0.9007  -22.9
 0.700  0.8054  -54.5   3.059  132.1  0.1075   56.1  0.8729  -25.9
 0.800  0.7693  -61.2   2.955  126.4  0.1174   52.7  0.8447  -28.7
 0.900  0.7349  -67.9   2.835  120.8  0.1248   49.0  0.8184  -31.2
 1.000  0.6992  -74.3   2.721  115.8  0.1313   46.4  0.7916  -33.5
 1.100  0.6700  -80.7   2.607  111.0  0.1360   44.0  0.7677  -35.6
 1.200  0.6388  -86.7   2.495  106.4  0.1399   41.4  0.7441  -37.6
 1.300  0.6097  -92.5   2.394  101.8  0.1429   39.3  0.7224  -39.4
 1.400  0.5855  -98.1   2.298   97.9  0.1456   37.9  0.7026  -41.3
 1.500  0.5624 -104.0   2.220   93.9  0.1474   36.5  0.6851  -42.8
 1.600  0.5404 -109.3   2.121   90.1  0.1485   35.4  0.6712  -44.4
 1.700  0.5229 -114.9   2.053   86.8  0.1483   34.5  0.6534  -46.2
 1.800  0.5049 -120.5   1.993   83.2  0.1488   34.0  0.6392  -47.6
 1.900  0.4939 -126.0   1.930   80.1  0.1487   33.6  0.6269  -49.1
 2.000  0.4774 -131.4   1.868   76.5  0.1496   33.6  0.6172  -50.6
 2.100  0.4649 -136.4   1.809   73.5  0.1491   33.6  0.6080  -52.1
 2.200  0.4560 -141.6   1.756   70.3  0.1486   33.7  0.5993  -53.7
 2.300  0.4482 -146.5   1.702   67.5  0.1486   34.2  0.5925  -55.3
 2.400  0.4439 -151.6   1.652   64.5  0.1486   34.7  0.5862  -57.0
 2.500  0.4385 -156.1   1.603   62.0  0.1488   35.8  0.5807  -58.5
 2.600  0.4359 -160.7   1.557   59.3  0.1490   36.8  0.5756  -60.1
 2.700  0.4306 -165.5   1.517   56.8  0.1496   38.0  0.5725  -61.7
 2.800  0.4284 -170.4   1.480   54.2  0.1503   39.1  0.5698  -63.3
 2.900  0.4260 -174.6   1.447   51.7  0.1524   40.4  0.5666  -64.7
 3.000  0.4259 -178.9   1.416   49.0  0.1546   41.7  0.5638  -66.2
 3.100  0.4235  177.2   1.381   47.1  0.1580   43.3  0.5618  -67.8
 3.200  0.4230  173.3   1.347   45.1  0.1615   44.9  0.5603  -69.4
 3.300  0.4245  169.4   1.315   43.0  0.1651   46.4  0.5592  -71.0
 3.400  0.4280  165.6   1.285   40.8  0.1689   47.8  0.5586  -72.6
 3.500  0.4333  161.8   1.257   38.5  0.1727   49.2  0.5584  -74.2
 3.600  0.4343  158.4   1.231   36.8  0.1791   50.3  0.5556  -76.0
 3.700  0.4368  155.0   1.206   35.0  0.1856   51.3  0.5534  -77.8
 3.800  0.4407  151.7   1.183   33.1  0.1922   52.2  0.5517  -79.6
 3.900  0.4462  148.5   1.161   31.1  0.1988   53.1  0.5506  -81.5
 4.000  0.4530  145.3   1.140   29.1  0.2054   53.9  0.5501  -83.3
 4.100  0.4560  142.3   1.118   27.5  0.2145   54.2  0.5453  -85.5
 4.200  0.4603  139.3   1.097   25.8  0.2237   54.5  0.5412  -87.7
 4.300  0.4658  136.3   1.077   24.1  0.2328   54.7  0.5380  -90.0
 4.400  0.4725  133.5   1.058   22.3  0.2420   55.0  0.5357  -92.3
 4.500  0.4803  130.7   1.040   20.5  0.2511   55.2  0.5342  -94.6
 4.600  0.4852  128.2   1.020   19.2  0.2617   54.9  0.5299  -97.2
 4.700  0.4910  125.7   1.000   17.8  0.2723   54.6  0.5266  -99.8
 4.800  0.4976  123.3   0.981   16.4  0.2829   54.3  0.5245 -102.5
 4.900  0.5052  121.0   0.962   14.9  0.2936   54.0  0.5235 -105.1
 5.000  0.5135  118.7   0.944   13.4  0.3042   53.8  0.5237 -107.8
 5.100  0.5170  116.6   0.929   12.4  0.3155   53.0  0.5231 -110.6
 5.200  0.5212  114.5   0.914   11.3  0.3269   52.3  0.5238 -113.4
 5.300  0.5261  112.4   0.899   10.1  0.3383   51.6  0.5257 -116.1
 5.400  0.5316  110.4   0.885    9.0  0.3498   50.9  0.5288 -118.9
 5.500  0.5378  108.4   0.871    7.8  0.3613   50.3  0.5331 -121.6
 5.600  0.5405  106.6   0.857    7.0  0.3723   49.1  0.5336 -124.2
 5.700  0.5438  104.7   0.844    6.1  0.3835   48.0  0.5352 -126.8
 5.800  0.5476  102.9   0.831    5.2  0.3948   47.0  0.5379 -129.4
 5.900  0.5520  101.1   0.818    4.3  0.4063   46.0  0.5417 -132.0
 6.000  0.5569   99.4   0.805    3.4  0.4178   45.1  0.5465 -134.5
!
!  f       NFmin   Gammaopt  rn/50
! GHz       dB    MAG  ANG    -
 0.450      0.87  0.69   18   0.51
 0.900      0.95  0.64   36   0.47
 1.900      1.56  0.44   83   0.32
 2.400      1.81  0.38   99   0.34
!
! (c) 2017  Infineon Technologies AG, Munich