! Infineon Technologies  Discrete & RF Semiconductors
! BFR181W
! VCE =  2.0 V,  IC =  30 mA
! Common Emitter S-Parameters:                            Jan 2017
# GHz  S  MA  R  50
!  f         S11            S21            S12            S22
! GHz     MAG   ANG      MAG   ANG      MAG   ANG      MAG   ANG
 0.010  0.3201  -23.4  29.156  172.5  0.0022   72.9  0.8523   -3.5
 0.020  0.3385  -46.4  28.141  163.9  0.0045   73.2  0.8376   -7.3
 0.030  0.3433  -63.4  26.377  157.9  0.0063   67.2  0.8063   -9.9
 0.040  0.3760  -78.6  24.936  151.2  0.0082   63.9  0.7768  -12.8
 0.050  0.4303  -90.7  23.877  143.8  0.0101   61.8  0.7493  -15.8
 0.060  0.4332  -99.1  22.273  140.7  0.0112   59.9  0.7225  -16.6
 0.070  0.4451 -107.2  20.745  137.1  0.0123   58.4  0.6959  -17.4
 0.080  0.4654 -114.8  19.312  133.0  0.0134   57.1  0.6694  -18.2
 0.090  0.4931 -121.6  17.994  128.2  0.0145   56.0  0.6431  -19.2
 0.100  0.5269 -127.6  16.821  122.7  0.0156   55.1  0.6170  -20.2
 0.110  0.5310 -131.3  15.902  121.0  0.0162   54.8  0.6032  -20.1
 0.120  0.5373 -134.9  15.000  119.0  0.0168   54.5  0.5894  -20.1
 0.130  0.5456 -138.4  14.117  116.8  0.0174   54.3  0.5757  -20.0
 0.140  0.5559 -141.7  13.258  114.3  0.0180   54.0  0.5619  -20.0
 0.150  0.5680 -145.0  12.427  111.5  0.0186   53.8  0.5481  -19.9
 0.200  0.5845 -154.9   9.705  103.9  0.0203   53.0  0.5116  -18.7
 0.250  0.5957 -162.0   7.942   98.8  0.0233   56.4  0.4922  -17.9
 0.300  0.6008 -167.0   6.694   94.8  0.0249   58.4  0.4792  -17.3
 0.350  0.6025 -170.7   5.890   92.2  0.0279   61.3  0.4727  -17.3
 0.400  0.6066 -174.3   5.102   88.7  0.0310   63.7  0.4662  -17.2
 0.450  0.6081 -176.9   4.600   86.6  0.0334   65.3  0.4623  -17.5
 0.500  0.6109 -179.4   4.105   84.0  0.0359   66.7  0.4585  -17.8
 0.600  0.6135  176.5   3.440   79.8  0.0423   69.5  0.4535  -18.7
 0.700  0.6187  173.0   2.960   76.1  0.0482   71.8  0.4497  -19.9
 0.800  0.6206  169.4   2.605   72.4  0.0551   73.8  0.4460  -21.5
 0.900  0.6215  166.4   2.319   69.2  0.0613   75.0  0.4427  -23.3
 1.000  0.6274  163.6   2.103   66.0  0.0685   75.7  0.4390  -25.0
 1.100  0.6313  160.9   1.920   63.0  0.0754   76.8  0.4371  -26.9
 1.200  0.6345  158.2   1.765   60.0  0.0821   77.1  0.4340  -28.8
 1.300  0.6377  155.6   1.634   57.1  0.0893   77.3  0.4309  -31.1
 1.400  0.6425  153.2   1.525   54.4  0.0975   78.0  0.4266  -33.2
 1.500  0.6487  151.0   1.427   51.8  0.1055   77.9  0.4237  -35.5
 1.600  0.6528  148.6   1.344   49.1  0.1132   78.0  0.4218  -37.9
 1.700  0.6574  146.1   1.269   46.6  0.1215   77.6  0.4177  -40.5
 1.800  0.6625  143.8   1.205   44.1  0.1303   77.3  0.4143  -43.0
 1.900  0.6658  141.7   1.147   42.0  0.1388   77.2  0.4120  -45.5
 2.000  0.6711  139.4   1.089   39.6  0.1475   76.7  0.4098  -48.3
 2.100  0.6737  137.1   1.041   37.5  0.1567   76.2  0.4068  -51.0
 2.200  0.6774  134.9   0.994   35.2  0.1660   75.8  0.4047  -53.8
 2.300  0.6819  132.8   0.953   33.3  0.1756   75.0  0.4027  -56.7
 2.400  0.6872  130.8   0.914   31.2  0.1853   74.3  0.4018  -59.7
 2.500  0.6897  128.7   0.878   29.5  0.1948   73.5  0.4002  -62.5
 2.600  0.6930  126.7   0.843   27.7  0.2044   72.8  0.3996  -65.4
 2.700  0.6969  124.7   0.813   26.2  0.2143   71.9  0.3992  -68.2
 2.800  0.7016  122.8   0.783   24.6  0.2242   71.0  0.3997  -71.0
 2.900  0.7034  120.8   0.756   23.3  0.2343   70.0  0.3979  -73.8
 3.000  0.7060  118.8   0.729   21.8  0.2445   69.1  0.3970  -76.7
 3.100  0.7072  116.8   0.708   20.9  0.2547   67.9  0.3942  -79.3
 3.200  0.7092  114.8   0.687   20.0  0.2650   66.8  0.3922  -82.0
 3.300  0.7121  112.7   0.666   19.0  0.2754   65.7  0.3911  -84.7
 3.400  0.7159  110.8   0.645   17.9  0.2859   64.8  0.3908  -87.4
 3.500  0.7205  108.8   0.625   16.8  0.2964   63.9  0.3914  -90.1
 3.600  0.7205  107.0   0.611   16.3  0.3063   62.5  0.3865  -92.8
 3.700  0.7212  105.1   0.597   15.8  0.3163   61.1  0.3824  -95.6
 3.800  0.7227  103.3   0.583   15.3  0.3265   59.9  0.3793  -98.5
 3.900  0.7249  101.5   0.569   14.8  0.3369   58.7  0.3772 -101.4
 4.000  0.7278   99.7   0.555   14.2  0.3474   57.6  0.3760 -104.3
 4.100  0.7263   98.0   0.546   14.0  0.3567   56.1  0.3696 -107.5
 4.200  0.7254   96.3   0.537   13.7  0.3661   54.7  0.3643 -110.7
 4.300  0.7251   94.6   0.528   13.4  0.3758   53.4  0.3602 -114.0
 4.400  0.7255   92.9   0.519   13.2  0.3857   52.1  0.3574 -117.5
 4.500  0.7265   91.2   0.510   12.9  0.3958   50.9  0.3559 -120.9
 4.600  0.7257   89.9   0.505   13.0  0.4040   49.5  0.3518 -124.4
 4.700  0.7253   88.6   0.500   13.1  0.4125   48.2  0.3490 -127.9
 4.800  0.7252   87.2   0.495   13.1  0.4211   46.9  0.3475 -131.4
 4.900  0.7256   85.9   0.490   13.2  0.4300   45.7  0.3474 -135.0
 5.000  0.7263   84.6   0.485   13.3  0.4390   44.5  0.3486 -138.6
 5.100  0.7251   83.3   0.485   13.3  0.4464   43.2  0.3492 -141.9
 5.200  0.7242   82.0   0.485   13.3  0.4541   41.8  0.3509 -145.1
 5.300  0.7237   80.8   0.485   13.3  0.4620   40.6  0.3537 -148.4
 5.400  0.7235   79.5   0.485   13.3  0.4702   39.4  0.3576 -151.5
 5.500  0.7237   78.2   0.485   13.3  0.4785   38.2  0.3626 -154.6
 5.600  0.7203   77.0   0.486   13.2  0.4849   36.9  0.3639 -157.2
 5.700  0.7172   75.8   0.488   13.1  0.4916   35.6  0.3659 -159.8
 5.800  0.7144   74.6   0.489   13.0  0.4985   34.3  0.3687 -162.4
 5.900  0.7120   73.3   0.491   12.9  0.5057   33.1  0.3723 -164.9
 6.000  0.7099   72.1   0.492   12.8  0.5131   31.9  0.3765 -167.4
!
!  f       NFmin   Gammaopt  rn/50
! GHz       dB    MAG  ANG    -
!
! noise parameter not available yet for this operation point!
!
! (c) 2017  Infineon Technologies AG, Munich