! Infineon Technologies  Discrete & RF Semiconductors
! BFR181W
! VCE =  2.0 V,  IC =  4.0 mA
! Common Emitter S-Parameters:                            Jan 2017
# GHz  S  MA  R  50
!  f         S11            S21            S12            S22
! GHz     MAG   ANG      MAG   ANG      MAG   ANG      MAG   ANG
 0.010  0.8771   -1.1  12.758  179.5  0.0016   89.1  0.9986   -1.0
 0.020  0.8610   -5.2  12.629  176.9  0.0034   91.3  0.9893   -1.7
 0.030  0.8543   -6.6  12.580  175.4  0.0054   87.4  0.9894   -2.8
 0.040  0.8480   -8.0  12.540  173.9  0.0075   85.6  0.9898   -3.8
 0.050  0.8423   -9.4  12.509  172.4  0.0095   84.6  0.9906   -4.9
 0.060  0.8405  -11.3  12.433  170.9  0.0113   82.9  0.9863   -5.8
 0.070  0.8396  -13.3  12.366  169.3  0.0130   81.7  0.9822   -6.8
 0.080  0.8396  -15.2  12.309  167.7  0.0148   80.8  0.9783   -7.7
 0.090  0.8407  -17.2  12.260  166.1  0.0165   80.1  0.9748   -8.6
 0.100  0.8427  -19.1  12.222  164.5  0.0183   79.5  0.9715   -9.6
 0.110  0.8337  -21.0  12.126  163.1  0.0200   78.2  0.9656  -10.5
 0.120  0.8256  -22.9  12.038  161.7  0.0218   77.2  0.9599  -11.3
 0.130  0.8184  -24.8  11.957  160.2  0.0235   76.3  0.9544  -12.2
 0.140  0.8122  -26.8  11.883  158.8  0.0252   75.5  0.9492  -13.1
 0.150  0.8070  -28.8  11.818  157.3  0.0270   74.8  0.9442  -14.0
 0.200  0.7774  -37.0  11.289  150.1  0.0338   71.6  0.9100  -17.8
 0.250  0.7367  -45.7  10.774  143.6  0.0412   67.4  0.8722  -21.2
 0.300  0.6931  -53.4  10.160  137.8  0.0468   63.5  0.8318  -24.1
 0.350  0.6535  -59.7   9.571  133.1  0.0514   61.0  0.7954  -26.2
 0.400  0.6228  -66.7   9.054  127.9  0.0561   59.0  0.7601  -28.5
 0.450  0.5862  -72.4   8.507  124.1  0.0599   57.5  0.7283  -29.9
 0.500  0.5560  -78.7   8.002  119.9  0.0637   56.1  0.6969  -31.5
 0.600  0.5025  -89.2   7.137  113.0  0.0695   53.7  0.6451  -33.4
 0.700  0.4570  -99.2   6.393  107.1  0.0740   52.7  0.6029  -34.7
 0.800  0.4228 -107.9   5.795  102.0  0.0792   52.5  0.5699  -35.7
 0.900  0.3934 -116.2   5.268   97.5  0.0831   52.1  0.5429  -36.5
 1.000  0.3711 -123.7   4.841   93.5  0.0874   52.5  0.5199  -37.1
 1.100  0.3537 -131.0   4.467   90.0  0.0925   53.1  0.5030  -37.7
 1.200  0.3390 -138.2   4.146   86.5  0.0957   53.2  0.4868  -38.3
 1.300  0.3271 -144.4   3.864   83.3  0.1002   53.7  0.4746  -39.1
 1.400  0.3205 -150.4   3.628   80.4  0.1049   54.5  0.4625  -40.0
 1.500  0.3178 -156.3   3.416   77.7  0.1096   55.0  0.4534  -40.8
 1.600  0.3131 -161.7   3.226   74.8  0.1142   55.6  0.4466  -41.7
 1.700  0.3102 -167.0   3.062   72.4  0.1191   56.2  0.4374  -42.9
 1.800  0.3090 -172.0   2.922   69.8  0.1243   56.5  0.4313  -44.0
 1.900  0.3114 -176.1   2.790   67.6  0.1287   57.1  0.4260  -45.2
 2.000  0.3114  179.3   2.666   65.1  0.1349   57.4  0.4217  -46.6
 2.100  0.3118  175.2   2.560   62.9  0.1405   57.7  0.4174  -48.0
 2.200  0.3139  171.1   2.457   60.6  0.1461   57.9  0.4134  -49.5
 2.300  0.3182  167.4   2.369   58.5  0.1518   58.2  0.4106  -51.1
 2.400  0.3237  163.8   2.284   56.2  0.1575   58.4  0.4082  -52.7
 2.500  0.3261  160.7   2.205   54.3  0.1636   58.5  0.4062  -54.3
 2.600  0.3294  157.6   2.129   52.2  0.1697   58.6  0.4046  -56.0
 2.700  0.3338  154.3   2.064   50.3  0.1761   58.5  0.4040  -57.6
 2.800  0.3393  151.1   2.001   48.3  0.1825   58.5  0.4037  -59.3
 2.900  0.3434  148.5   1.946   46.4  0.1891   58.4  0.4022  -60.9
 3.000  0.3482  146.0   1.893   44.3  0.1957   58.3  0.4011  -62.6
 3.100  0.3516  143.3   1.845   42.8  0.2029   58.0  0.4002  -64.2
 3.200  0.3557  140.7   1.797   41.1  0.2101   57.8  0.3996  -65.9
 3.300  0.3605  138.2   1.752   39.4  0.2172   57.6  0.3994  -67.5
 3.400  0.3660  135.7   1.708   37.6  0.2244   57.4  0.3995  -69.2
 3.500  0.3722  133.3   1.666   35.7  0.2316   57.2  0.3999  -70.8
 3.600  0.3766  131.1   1.631   34.2  0.2393   56.7  0.3974  -72.6
 3.700  0.3815  129.0   1.597   32.7  0.2470   56.2  0.3953  -74.4
 3.800  0.3869  127.0   1.564   31.0  0.2547   55.7  0.3936  -76.3
 3.900  0.3928  125.0   1.533   29.4  0.2624   55.2  0.3923  -78.1
 4.000  0.3992  123.1   1.503   27.6  0.2702   54.8  0.3914  -80.0
 4.100  0.4048  121.1   1.475   26.1  0.2784   54.0  0.3871  -82.2
 4.200  0.4108  119.2   1.448   24.6  0.2866   53.3  0.3834  -84.4
 4.300  0.4172  117.4   1.422   23.0  0.2949   52.6  0.3803  -86.6
 4.400  0.4241  115.6   1.397   21.4  0.3032   52.0  0.3777  -88.9
 4.500  0.4314  113.9   1.373   19.7  0.3116   51.4  0.3758  -91.2
 4.600  0.4379  112.3   1.348   18.4  0.3199   50.6  0.3721  -93.9
 4.700  0.4447  110.7   1.323   17.1  0.3282   49.8  0.3693  -96.6
 4.800  0.4518  109.1   1.299   15.7  0.3366   49.1  0.3673  -99.4
 4.900  0.4592  107.6   1.276   14.3  0.3451   48.4  0.3662 -102.2
 5.000  0.4670  106.2   1.254   12.8  0.3536   47.8  0.3660 -105.0
 5.100  0.4719  104.8   1.235   11.6  0.3621   46.9  0.3661 -108.0
 5.200  0.4771  103.3   1.216   10.4  0.3706   46.0  0.3672 -110.9
 5.300  0.4826  102.0   1.198    9.1  0.3793   45.2  0.3692 -113.9
 5.400  0.4884  100.6   1.181    7.8  0.3880   44.4  0.3723 -116.8
 5.500  0.4944   99.3   1.164    6.5  0.3968   43.6  0.3762 -119.6
 5.600  0.4977   98.0   1.146    5.4  0.4051   42.5  0.3781 -122.2
 5.700  0.5013   96.6   1.129    4.4  0.4136   41.5  0.3809 -124.9
 5.800  0.5052   95.3   1.112    3.2  0.4222   40.5  0.3844 -127.4
 5.900  0.5093   94.1   1.096    2.1  0.4310   39.5  0.3887 -129.9
 6.000  0.5137   92.8   1.080    0.9  0.4398   38.6  0.3937 -132.4
!
!  f       NFmin   Gammaopt  rn/50
! GHz       dB    MAG  ANG    -
 0.450      0.92  0.39   16   0.24
 0.900      0.97  0.36   31   0.24
 1.900      1.40  0.20   79   0.20
 2.400      1.56  0.17   94   0.22
!
! (c) 2017  Infineon Technologies AG, Munich