! Infineon Technologies  Discrete & RF Semiconductors
! BFR181W
! VCE =  3.0 V,  IC =  23 mA
! Common Emitter S-Parameters:                            Jan 2017
# GHz  S  MA  R  50
!  f         S11            S21            S12            S22
! GHz     MAG   ANG      MAG   ANG      MAG   ANG      MAG   ANG
 0.010  0.4912  -10.1  31.583  175.0  0.0017   89.0  0.9289   -2.2
 0.020  0.4817  -22.8  30.890  168.8  0.0033   89.6  0.9228   -4.8
 0.030  0.4663  -32.0  29.815  164.1  0.0049   80.2  0.9034   -7.0
 0.040  0.4634  -41.5  28.955  159.1  0.0067   75.5  0.8854   -9.4
 0.050  0.4733  -50.9  28.330  153.8  0.0084   72.8  0.8690  -11.8
 0.060  0.4570  -58.1  26.965  150.6  0.0096   70.0  0.8458  -12.9
 0.070  0.4485  -65.7  25.692  147.1  0.0108   67.9  0.8229  -14.1
 0.080  0.4481  -73.5  24.526  143.2  0.0120   66.2  0.8003  -15.3
 0.090  0.4558  -81.1  23.482  139.0  0.0133   64.8  0.7782  -16.6
 0.100  0.4713  -88.4  22.578  134.4  0.0145   63.6  0.7565  -18.0
 0.110  0.4638  -93.2  21.566  132.4  0.0152   62.7  0.7399  -18.3
 0.120  0.4597  -98.1  20.584  130.2  0.0159   61.8  0.7233  -18.7
 0.130  0.4591 -103.1  19.636  127.7  0.0165   61.1  0.7068  -19.1
 0.140  0.4618 -108.0  18.727  125.0  0.0172   60.4  0.6903  -19.5
 0.150  0.4680 -112.9  17.863  122.1  0.0179   59.7  0.6738  -19.9
 0.200  0.4671 -128.4  14.442  113.5  0.0200   58.9  0.6207  -19.8
 0.250  0.4661 -139.7  12.058  107.4  0.0226   58.0  0.5885  -19.3
 0.300  0.4679 -148.0  10.285  102.9  0.0245   59.5  0.5655  -18.7
 0.350  0.4658 -153.7   9.099  100.0  0.0273   61.8  0.5530  -18.4
 0.400  0.4683 -159.4   7.944   96.2  0.0302   63.6  0.5406  -18.0
 0.450  0.4673 -163.4   7.180   94.0  0.0324   65.0  0.5338  -18.0
 0.500  0.4686 -167.4   6.428   91.3  0.0347   66.2  0.5270  -18.1
 0.600  0.4732 -173.7   5.408   87.2  0.0402   68.4  0.5183  -18.4
 0.700  0.4746 -178.5   4.662   83.6  0.0451   71.3  0.5121  -19.0
 0.800  0.4802  176.9   4.108   80.3  0.0514   73.2  0.5080  -20.0
 0.900  0.4804  173.1   3.662   77.3  0.0568   73.8  0.5036  -21.2
 1.000  0.4843  169.5   3.318   74.6  0.0635   75.2  0.4996  -22.4
 1.100  0.4872  166.2   3.033   72.0  0.0690   76.2  0.4980  -23.7
 1.200  0.4894  163.1   2.789   69.2  0.0756   76.2  0.4948  -25.2
 1.300  0.4931  160.2   2.583   66.7  0.0815   76.8  0.4921  -26.8
 1.400  0.4977  157.5   2.414   64.3  0.0890   77.4  0.4887  -28.5
 1.500  0.5029  155.0   2.262   62.1  0.0951   77.6  0.4864  -30.2
 1.600  0.5078  152.4   2.134   59.7  0.1025   77.5  0.4851  -32.0
 1.700  0.5108  149.9   2.015   57.5  0.1096   77.8  0.4814  -34.0
 1.800  0.5144  147.4   1.917   55.2  0.1170   77.6  0.4783  -35.9
 1.900  0.5196  145.3   1.824   53.3  0.1244   77.6  0.4770  -37.9
 2.000  0.5242  143.0   1.739   51.0  0.1324   77.3  0.4751  -40.1
 2.100  0.5279  140.7   1.666   49.0  0.1403   76.9  0.4727  -42.2
 2.200  0.5325  138.4   1.595   46.8  0.1482   76.6  0.4709  -44.4
 2.300  0.5375  136.4   1.535   44.9  0.1564   76.1  0.4695  -46.7
 2.400  0.5432  134.5   1.477   42.9  0.1646   75.7  0.4688  -49.0
 2.500  0.5460  132.5   1.423   41.2  0.1732   75.1  0.4677  -51.3
 2.600  0.5494  130.6   1.371   39.3  0.1818   74.6  0.4674  -53.6
 2.700  0.5543  128.6   1.327   37.6  0.1905   74.0  0.4673  -55.9
 2.800  0.5598  126.6   1.284   35.8  0.1993   73.4  0.4679  -58.1
 2.900  0.5629  124.7   1.245   34.2  0.2082   72.7  0.4668  -60.4
 3.000  0.5666  122.9   1.207   32.4  0.2171   72.0  0.4665  -62.7
 3.100  0.5693  121.0   1.175   31.1  0.2266   71.1  0.4650  -64.9
 3.200  0.5726  119.1   1.144   29.6  0.2362   70.2  0.4641  -67.1
 3.300  0.5765  117.2   1.113   28.1  0.2459   69.5  0.4640  -69.3
 3.400  0.5811  115.4   1.083   26.6  0.2556   68.8  0.4645  -71.5
 3.500  0.5862  113.6   1.054   24.9  0.2653   68.1  0.4657  -73.7
 3.600  0.5888  111.8   1.030   23.7  0.2749   66.9  0.4620  -76.0
 3.700  0.5919  110.1   1.007   22.5  0.2847   65.8  0.4591  -78.4
 3.800  0.5956  108.4   0.984   21.2  0.2945   64.8  0.4570  -80.7
 3.900  0.5999  106.7   0.962   19.9  0.3045   63.8  0.4556  -83.1
 4.000  0.6046  105.0   0.940   18.5  0.3145   62.9  0.4551  -85.5
 4.100  0.6070  103.4   0.921   17.4  0.3243   61.6  0.4491  -88.1
 4.200  0.6099  101.7   0.903   16.3  0.3342   60.4  0.4441  -90.8
 4.300  0.6133  100.1   0.885   15.2  0.3443   59.2  0.4401  -93.5
 4.400  0.6172   98.6   0.868   14.0  0.3546   58.1  0.4371  -96.3
 4.500  0.6215   97.0   0.851   12.7  0.3649   57.1  0.4351  -99.1
 4.600  0.6239   95.7   0.835   11.9  0.3742   55.8  0.4301 -102.1
 4.700  0.6266   94.4   0.820   11.1  0.3837   54.6  0.4262 -105.2
 4.800  0.6297   93.1   0.805   10.3  0.3933   53.4  0.4237 -108.3
 4.900  0.6330   91.8   0.790    9.4  0.4032   52.3  0.4223 -111.4
 5.000  0.6367   90.5   0.775    8.5  0.4131   51.3  0.4223 -114.6
 5.100  0.6382   89.2   0.765    7.9  0.4221   50.0  0.4215 -117.8
 5.200  0.6401   87.9   0.755    7.2  0.4312   48.7  0.4219 -120.9
 5.300  0.6423   86.6   0.745    6.5  0.4406   47.5  0.4236 -124.1
 5.400  0.6448   85.4   0.735    5.8  0.4502   46.3  0.4266 -127.2
 5.500  0.6476   84.1   0.725    5.1  0.4599   45.2  0.4309 -130.3
 5.600  0.6470   82.9   0.717    4.6  0.4682   43.8  0.4313 -133.1
 5.700  0.6467   81.7   0.708    4.1  0.4767   42.5  0.4327 -135.9
 5.800  0.6467   80.4   0.700    3.5  0.4855   41.2  0.4352 -138.6
 5.900  0.6469   79.2   0.692    3.0  0.4945   40.0  0.4386 -141.3
 6.000  0.6475   78.0   0.684    2.4  0.5037   38.8  0.4430 -144.0
!
!  f       NFmin   Gammaopt  rn/50
! GHz       dB    MAG  ANG    -
!
! noise parameter not available yet for this operation point!
!
! (c) 2017  Infineon Technologies AG, Munich