! Infineon Technologies  Discrete & RF Semiconductors
! BFR181W
! VCE =  7.0 V,  IC =  7.0 mA
! Common Emitter S-Parameters:                            Jan 2017
# GHz  S  MA  R  50
!  f         S11            S21            S12            S22
! GHz     MAG   ANG      MAG   ANG      MAG   ANG      MAG   ANG
 0.010  0.8119   -1.5  19.433  178.2  0.0014   84.8  0.9960   -1.2
 0.020  0.7980   -6.3  19.231  175.3  0.0029  100.1  0.9919   -2.2
 0.030  0.7899   -8.2  19.057  173.5  0.0046   89.6  0.9885   -3.5
 0.040  0.7826  -10.1  18.903  171.6  0.0064   84.9  0.9857   -4.9
 0.050  0.7763  -12.1  18.770  169.7  0.0082   82.2  0.9834   -6.2
 0.060  0.7704  -14.5  18.575  167.8  0.0098   81.5  0.9762   -7.3
 0.070  0.7659  -16.9  18.401  165.9  0.0114   81.0  0.9693   -8.5
 0.080  0.7628  -19.4  18.247  164.0  0.0129   80.6  0.9628   -9.6
 0.090  0.7610  -21.8  18.115  162.0  0.0145   80.2  0.9568  -10.8
 0.100  0.7607  -24.3  18.004  160.0  0.0161   80.0  0.9511  -12.0
 0.110  0.7488  -26.5  17.771  158.3  0.0175   78.3  0.9417  -13.0
 0.120  0.7381  -28.8  17.554  156.6  0.0188   76.9  0.9327  -13.9
 0.130  0.7287  -31.2  17.354  154.8  0.0202   75.7  0.9238  -14.9
 0.140  0.7205  -33.6  17.171  153.0  0.0216   74.6  0.9153  -16.0
 0.150  0.7136  -36.1  17.006  151.1  0.0230   73.7  0.9071  -17.0
 0.200  0.6687  -45.9  15.804  142.9  0.0285   69.5  0.8560  -21.0
 0.250  0.6173  -55.5  14.641  135.8  0.0335   65.1  0.8062  -24.2
 0.300  0.5678  -64.0  13.470  129.8  0.0376   63.4  0.7572  -26.6
 0.350  0.5260  -70.4  12.446  125.3  0.0413   61.7  0.7177  -28.0
 0.400  0.4918  -77.8  11.511  120.1  0.0450   60.3  0.6787  -29.6
 0.450  0.4581  -83.5  10.665  116.7  0.0475   59.6  0.6483  -30.4
 0.500  0.4296  -90.1   9.863  112.7  0.0500   59.0  0.6181  -31.2
 0.600  0.3821 -100.8   8.608  106.6  0.0561   58.3  0.5734  -31.9
 0.700  0.3452 -110.6   7.586  101.5  0.0606   59.5  0.5394  -32.2
 0.800  0.3184 -119.3   6.798   97.0  0.0665   60.0  0.5141  -32.5
 0.900  0.2986 -127.5   6.125   93.2  0.0709   60.3  0.4946  -32.8
 1.000  0.2827 -135.1   5.593   89.8  0.0762   61.0  0.4772  -33.0
 1.100  0.2720 -142.3   5.136   86.8  0.0819   62.0  0.4659  -33.3
 1.200  0.2625 -149.3   4.747   83.7  0.0869   62.0  0.4547  -33.7
 1.300  0.2548 -155.6   4.409   80.9  0.0919   62.6  0.4457  -34.4
 1.400  0.2532 -161.3   4.127   78.4  0.0980   63.2  0.4372  -35.1
 1.500  0.2525 -167.0   3.877   76.0  0.1037   63.6  0.4305  -35.8
 1.600  0.2515 -172.4   3.655   73.5  0.1096   63.8  0.4266  -36.7
 1.700  0.2508 -177.2   3.462   71.3  0.1154   64.0  0.4202  -37.9
 1.800  0.2513  178.3   3.297   69.1  0.1212   64.0  0.4146  -39.0
 1.900  0.2568  174.3   3.143   67.1  0.1272   64.2  0.4108  -40.2
 2.000  0.2591  170.2   2.999   64.8  0.1332   64.2  0.4079  -41.6
 2.100  0.2610  166.5   2.877   62.8  0.1395   64.1  0.4044  -43.0
 2.200  0.2640  162.8   2.758   60.7  0.1458   64.0  0.4011  -44.5
 2.300  0.2690  159.5   2.657   58.8  0.1524   63.8  0.3991  -46.1
 2.400  0.2749  156.3   2.560   56.8  0.1590   63.7  0.3975  -47.7
 2.500  0.2779  153.6   2.470   55.0  0.1654   63.4  0.3958  -49.3
 2.600  0.2815  151.0   2.383   53.1  0.1718   63.2  0.3945  -51.0
 2.700  0.2868  147.9   2.309   51.4  0.1786   62.9  0.3939  -52.7
 2.800  0.2929  145.0   2.238   49.5  0.1854   62.7  0.3937  -54.4
 2.900  0.2968  142.6   2.174   47.7  0.1924   62.2  0.3926  -56.0
 3.000  0.3013  140.2   2.113   45.8  0.1994   61.8  0.3918  -57.7
 3.100  0.3054  137.8   2.059   44.3  0.2066   61.3  0.3910  -59.3
 3.200  0.3100  135.5   2.007   42.8  0.2138   60.9  0.3905  -60.9
 3.300  0.3151  133.2   1.956   41.2  0.2211   60.5  0.3903  -62.4
 3.400  0.3207  131.0   1.907   39.5  0.2283   60.1  0.3904  -64.0
 3.500  0.3268  128.9   1.860   37.7  0.2356   59.8  0.3908  -65.6
 3.600  0.3315  127.0   1.821   36.3  0.2432   59.1  0.3883  -67.3
 3.700  0.3366  125.2   1.782   34.8  0.2507   58.4  0.3862  -69.1
 3.800  0.3420  123.4   1.745   33.3  0.2584   57.8  0.3845  -70.8
 3.900  0.3477  121.7   1.709   31.7  0.2660   57.2  0.3831  -72.6
 4.000  0.3537  120.0   1.675   30.0  0.2737   56.6  0.3821  -74.4
 4.100  0.3595  118.3   1.644   28.6  0.2816   55.8  0.3777  -76.4
 4.200  0.3657  116.6   1.614   27.1  0.2895   55.0  0.3737  -78.5
 4.300  0.3721  115.0   1.586   25.6  0.2975   54.3  0.3702  -80.6
 4.400  0.3788  113.5   1.558   24.0  0.3055   53.6  0.3673  -82.8
 4.500  0.3858  112.0   1.532   22.4  0.3136   52.9  0.3649  -85.0
 4.600  0.3927  110.5   1.505   21.1  0.3215   52.0  0.3609  -87.5
 4.700  0.3998  109.1   1.478   19.8  0.3294   51.2  0.3575  -90.1
 4.800  0.4072  107.8   1.452   18.4  0.3374   50.4  0.3550  -92.8
 4.900  0.4148  106.5   1.427   17.0  0.3454   49.7  0.3531  -95.4
 5.000  0.4226  105.2   1.403   15.5  0.3535   49.0  0.3521  -98.1
 5.100  0.4278  103.9   1.382   14.3  0.3616   48.1  0.3517 -101.0
 5.200  0.4332  102.5   1.363   13.0  0.3697   47.2  0.3522 -104.0
 5.300  0.4388  101.3   1.343   11.8  0.3779   46.4  0.3536 -106.9
 5.400  0.4447  100.0   1.325   10.5  0.3862   45.6  0.3559 -109.8
 5.500  0.4507   98.8   1.307    9.1  0.3946   44.8  0.3591 -112.6
 5.600  0.4545   97.6   1.287    8.0  0.4027   43.7  0.3605 -115.2
 5.700  0.4585   96.5   1.268    6.8  0.4110   42.7  0.3627 -117.8
 5.800  0.4626   95.3   1.250    5.7  0.4193   41.7  0.3656 -120.4
 5.900  0.4670   94.2   1.232    4.5  0.4278   40.8  0.3693 -122.9
 6.000  0.4715   93.1   1.214    3.2  0.4364   39.9  0.3736 -125.4
!
!  f       NFmin   Gammaopt  rn/50
! GHz       dB    MAG  ANG    -
 0.450      1.08  0.24   17   0.22
 0.900      1.13  0.22   31   0.21
 1.900      1.55  0.09   86   0.19
 2.400      1.70  0.08   96   0.23
!
! (c) 2017  Infineon Technologies AG, Munich