! Infineon Technologies  Discrete & RF Semiconductors
! BFR181W
! VCE =  3.0 V,  IC =  26 mA
! Common Emitter S-Parameters:                            Jan 2017
# GHz  S  MA  R  50
!  f         S11            S21            S12            S22
! GHz     MAG   ANG      MAG   ANG      MAG   ANG      MAG   ANG
 0.010  0.4376  -12.8  31.365  174.4  0.0016   72.5  0.9119   -2.4
 0.020  0.4344  -27.7  30.611  167.6  0.0031   83.7  0.9097   -5.2
 0.030  0.4211  -38.7  29.342  162.5  0.0049   74.7  0.8861   -7.4
 0.040  0.4240  -50.1  28.323  157.0  0.0067   70.6  0.8639   -9.8
 0.050  0.4429  -60.8  27.582  151.2  0.0086   68.3  0.8433  -12.3
 0.060  0.4308  -68.8  26.098  148.0  0.0096   66.5  0.8196  -13.3
 0.070  0.4274  -77.1  24.705  144.4  0.0107   65.1  0.7962  -14.3
 0.080  0.4330  -85.3  23.420  140.4  0.0118   63.9  0.7730  -15.5
 0.090  0.4471  -93.1  22.261  136.0  0.0128   62.9  0.7502  -16.6
 0.100  0.4691 -100.4  21.250  131.1  0.0139   62.1  0.7277  -17.9
 0.110  0.4661 -105.1  20.234  129.2  0.0146   60.9  0.7119  -18.1
 0.120  0.4663 -109.8  19.244  127.0  0.0153   59.9  0.6962  -18.3
 0.130  0.4697 -114.5  18.284  124.6  0.0160   58.9  0.6804  -18.5
 0.140  0.4761 -119.1  17.359  122.0  0.0168   58.0  0.6647  -18.8
 0.150  0.4856 -123.6  16.474  119.1  0.0175   57.2  0.6490  -19.0
 0.200  0.4914 -137.9  13.161  110.7  0.0189   57.0  0.6020  -18.5
 0.250  0.4980 -147.8  10.923  105.0  0.0223   58.2  0.5753  -18.0
 0.300  0.5013 -154.8   9.278  100.7  0.0238   60.6  0.5560  -17.3
 0.350  0.5013 -159.8   8.193   97.9  0.0264   62.6  0.5458  -17.1
 0.400  0.5052 -164.8   7.134   94.2  0.0291   64.3  0.5356  -16.9
 0.450  0.5055 -168.4   6.441   92.1  0.0316   65.8  0.5303  -17.0
 0.500  0.5077 -171.9   5.758   89.5  0.0342   67.0  0.5250  -17.1
 0.600  0.5108 -177.3   4.840   85.4  0.0394   69.9  0.5182  -17.6
 0.700  0.5149  178.3   4.168   81.9  0.0446   72.0  0.5131  -18.5
 0.800  0.5183  174.1   3.673   78.5  0.0509   73.8  0.5092  -19.7
 0.900  0.5186  170.5   3.273   75.6  0.0563   74.9  0.5062  -20.9
 1.000  0.5228  167.4   2.967   72.8  0.0623   76.1  0.5017  -22.4
 1.100  0.5280  164.2   2.708   70.2  0.0689   77.1  0.5001  -23.8
 1.200  0.5295  161.4   2.491   67.4  0.0751   77.5  0.4972  -25.3
 1.300  0.5325  158.5   2.307   64.8  0.0814   78.0  0.4942  -27.1
 1.400  0.5370  156.0   2.157   62.4  0.0889   78.2  0.4909  -28.9
 1.500  0.5428  153.6   2.021   60.1  0.0954   78.7  0.4887  -30.6
 1.600  0.5461  151.0   1.904   57.6  0.1030   78.9  0.4876  -32.6
 1.700  0.5507  148.5   1.802   55.4  0.1102   78.9  0.4838  -34.7
 1.800  0.5548  146.1   1.713   53.1  0.1181   78.6  0.4807  -36.7
 1.900  0.5591  144.0   1.631   51.1  0.1254   78.5  0.4787  -38.8
 2.000  0.5642  141.8   1.553   48.8  0.1331   78.2  0.4771  -41.1
 2.100  0.5677  139.4   1.488   46.8  0.1413   77.8  0.4746  -43.3
 2.200  0.5721  137.1   1.424   44.6  0.1496   77.5  0.4729  -45.6
 2.300  0.5767  135.2   1.370   42.7  0.1583   77.0  0.4714  -47.9
 2.400  0.5820  133.3   1.318   40.7  0.1671   76.6  0.4707  -50.3
 2.500  0.5846  131.3   1.269   38.9  0.1756   76.0  0.4696  -52.7
 2.600  0.5879  129.4   1.222   37.0  0.1842   75.4  0.4694  -55.1
 2.700  0.5930  127.4   1.182   35.4  0.1933   74.7  0.4690  -57.5
 2.800  0.5988  125.4   1.144   33.6  0.2025   74.1  0.4694  -59.8
 2.900  0.6015  123.5   1.109   32.0  0.2119   73.3  0.4682  -62.2
 3.000  0.6048  121.6   1.074   30.2  0.2213   72.5  0.4678  -64.6
 3.100  0.6073  119.7   1.045   28.9  0.2311   71.5  0.4661  -66.9
 3.200  0.6105  117.8   1.016   27.6  0.2409   70.6  0.4651  -69.1
 3.300  0.6143  115.9   0.988   26.2  0.2508   69.8  0.4648  -71.4
 3.400  0.6189  114.0   0.961   24.7  0.2608   69.0  0.4653  -73.7
 3.500  0.6240  112.2   0.934   23.1  0.2708   68.3  0.4665  -76.0
 3.600  0.6260  110.4   0.913   22.0  0.2807   67.1  0.4624  -78.4
 3.700  0.6285  108.6   0.892   20.9  0.2907   65.9  0.4592  -80.8
 3.800  0.6317  106.9   0.871   19.7  0.3008   64.8  0.4568  -83.2
 3.900  0.6355  105.1   0.851   18.5  0.3110   63.8  0.4552  -85.7
 4.000  0.6398  103.4   0.831   17.2  0.3213   62.9  0.4545  -88.2
 4.100  0.6412  101.8   0.815   16.3  0.3312   61.5  0.4483  -90.9
 4.200  0.6430  100.2   0.799   15.3  0.3412   60.2  0.4432  -93.7
 4.300  0.6454   98.6   0.783   14.3  0.3514   59.0  0.4391  -96.6
 4.400  0.6483   97.0   0.767   13.3  0.3618   57.9  0.4361  -99.5
 4.500  0.6517   95.4   0.752   12.2  0.3723   56.8  0.4343 -102.4
 4.600  0.6534   94.1   0.739   11.6  0.3817   55.5  0.4290 -105.5
 4.700  0.6554   92.7   0.727   10.9  0.3913   54.2  0.4250 -108.6
 4.800  0.6578   91.4   0.714   10.3  0.4010   53.0  0.4223 -111.8
 4.900  0.6605   90.1   0.701    9.6  0.4110   51.8  0.4209 -115.0
 5.000  0.6636   88.8   0.689    8.9  0.4211   50.7  0.4208 -118.2
 5.100  0.6643   87.5   0.681    8.4  0.4299   49.4  0.4198 -121.4
 5.200  0.6654   86.2   0.672    7.9  0.4389   48.1  0.4201 -124.6
 5.300  0.6668   84.9   0.664    7.4  0.4481   46.8  0.4217 -127.8
 5.400  0.6685   83.6   0.656    6.8  0.4575   45.6  0.4246 -130.9
 5.500  0.6706   82.3   0.648    6.3  0.4671   44.5  0.4287 -134.0
 5.600  0.6695   81.1   0.642    6.0  0.4751   43.1  0.4292 -136.8
 5.700  0.6688   79.9   0.636    5.7  0.4834   41.7  0.4306 -139.6
 5.800  0.6683   78.6   0.631    5.4  0.4920   40.4  0.4331 -142.3
 5.900  0.6682   77.4   0.625    5.0  0.5008   39.1  0.4366 -145.0
 6.000  0.6683   76.2   0.619    4.7  0.5099   37.9  0.4410 -147.7
!
!  f       NFmin   Gammaopt  rn/50
! GHz       dB    MAG  ANG    -
!
! noise parameter not available yet for this operation point!
!
! (c) 2017  Infineon Technologies AG, Munich