! Infineon Technologies  Discrete & RF Semiconductors
! BFR181W
! VCE =  6.0 V,  IC =  14 mA
! Common Emitter S-Parameters:                            Jan 2017
# GHz  S  MA  R  50
!  f         S11            S21            S12            S22
! GHz     MAG   ANG      MAG   ANG      MAG   ANG      MAG   ANG
 0.010  0.6731   -3.1  30.025  177.0  0.0014   78.5  0.9883   -1.6
 0.020  0.6600   -9.3  29.515  173.2  0.0025   82.0  0.9870   -3.4
 0.030  0.6492  -12.8  29.137  170.4  0.0041   83.1  0.9786   -5.2
 0.040  0.6409  -16.4  28.828  167.6  0.0058   83.5  0.9711   -7.0
 0.050  0.6352  -20.1  28.592  164.7  0.0074   83.8  0.9647   -8.9
 0.060  0.6227  -23.6  27.980  162.1  0.0088   80.5  0.9500  -10.3
 0.070  0.6127  -27.2  27.426  159.5  0.0102   78.0  0.9359  -11.8
 0.080  0.6051  -30.9  26.934  156.7  0.0116   76.2  0.9225  -13.3
 0.090  0.6002  -34.7  26.507  153.8  0.0130   74.8  0.9097  -14.9
 0.100  0.5980  -38.6  26.148  150.9  0.0144   73.6  0.8976  -16.5
 0.110  0.5817  -41.6  25.493  148.9  0.0153   72.2  0.8815  -17.5
 0.120  0.5670  -44.7  24.872  146.7  0.0163   70.9  0.8657  -18.5
 0.130  0.5542  -48.0  24.287  144.5  0.0173   69.8  0.8502  -19.6
 0.140  0.5432  -51.4  23.741  142.2  0.0182   68.8  0.8350  -20.7
 0.150  0.5343  -55.0  23.236  139.7  0.0192   67.9  0.8201  -21.8
 0.200  0.4811  -68.2  20.380  130.5  0.0235   66.7  0.7480  -25.1
 0.250  0.4348  -80.3  17.984  123.3  0.0272   63.3  0.6883  -27.0
 0.300  0.3931  -90.7  15.899  117.6  0.0305   62.4  0.6379  -28.0
 0.350  0.3632  -98.2  14.331  113.8  0.0335   63.3  0.6040  -28.2
 0.400  0.3405 -106.8  12.841  109.1  0.0365   64.1  0.5701  -28.5
 0.450  0.3216 -113.0  11.728  106.3  0.0390   64.3  0.5483  -28.4
 0.500  0.3069 -119.9  10.649  102.9  0.0415   64.4  0.5266  -28.3
 0.600  0.2849 -131.2   9.094   97.9  0.0479   65.3  0.4975  -27.8
 0.700  0.2720 -140.4   7.902   93.8  0.0528   67.1  0.4767  -27.4
 0.800  0.2633 -149.7   7.005   90.1  0.0597   68.0  0.4624  -27.5
 0.900  0.2570 -156.3   6.266   87.0  0.0651   68.4  0.4507  -27.6
 1.000  0.2552 -163.1   5.694   84.1  0.0707   69.0  0.4411  -27.8
 1.100  0.2559 -168.9   5.209   81.5  0.0770   69.7  0.4354  -28.2
 1.200  0.2564 -174.4   4.797   78.8  0.0836   69.3  0.4289  -28.8
 1.300  0.2547 -179.5   4.446   76.4  0.0893   69.8  0.4238  -29.6
 1.400  0.2558  176.1   4.156   74.1  0.0963   69.8  0.4182  -30.5
 1.500  0.2628  172.5   3.894   72.0  0.1026   69.9  0.4141  -31.4
 1.600  0.2636  168.3   3.669   69.7  0.1090   70.0  0.4119  -32.6
 1.700  0.2668  164.7   3.469   67.7  0.1154   69.7  0.4069  -33.9
 1.800  0.2698  161.4   3.301   65.6  0.1221   69.6  0.4038  -35.2
 1.900  0.2759  158.7   3.143   63.8  0.1289   69.5  0.4008  -36.6
 2.000  0.2802  155.6   2.995   61.7  0.1358   69.2  0.3987  -38.2
 2.100  0.2834  152.8   2.871   59.8  0.1424   68.8  0.3961  -39.8
 2.200  0.2872  150.0   2.750   57.8  0.1491   68.4  0.3939  -41.4
 2.300  0.2936  147.5   2.650   56.0  0.1563   67.9  0.3922  -43.2
 2.400  0.3006  145.2   2.552   54.1  0.1635   67.5  0.3909  -45.0
 2.500  0.3044  143.0   2.461   52.4  0.1704   67.0  0.3899  -46.8
 2.600  0.3087  140.8   2.373   50.5  0.1773   66.6  0.3892  -48.6
 2.700  0.3147  138.5   2.298   48.9  0.1844   66.0  0.3887  -50.4
 2.800  0.3212  136.2   2.226   47.1  0.1915   65.5  0.3886  -52.3
 2.900  0.3253  134.3   2.161   45.4  0.1989   65.0  0.3876  -54.0
 3.000  0.3297  132.5   2.099   43.6  0.2063   64.5  0.3869  -55.8
 3.100  0.3339  130.5   2.045   42.2  0.2138   63.8  0.3861  -57.5
 3.200  0.3385  128.5   1.993   40.6  0.2213   63.2  0.3856  -59.2
 3.300  0.3435  126.6   1.942   39.0  0.2288   62.6  0.3854  -61.0
 3.400  0.3489  124.7   1.893   37.4  0.2363   62.0  0.3856  -62.7
 3.500  0.3546  122.9   1.845   35.6  0.2439   61.5  0.3862  -64.4
 3.600  0.3593  121.2   1.806   34.2  0.2516   60.7  0.3836  -66.2
 3.700  0.3642  119.6   1.768   32.8  0.2594   59.9  0.3815  -68.0
 3.800  0.3695  118.0   1.730   31.3  0.2673   59.1  0.3797  -69.9
 3.900  0.3750  116.5   1.695   29.8  0.2752   58.5  0.3783  -71.7
 4.000  0.3808  115.0   1.660   28.2  0.2831   57.8  0.3773  -73.6
 4.100  0.3863  113.5   1.629   26.8  0.2911   56.8  0.3729  -75.7
 4.200  0.3920  112.0   1.599   25.4  0.2992   55.9  0.3690  -77.9
 4.300  0.3980  110.6   1.570   23.9  0.3074   55.1  0.3657  -80.1
 4.400  0.4042  109.2   1.543   22.3  0.3156   54.3  0.3629  -82.3
 4.500  0.4107  107.9   1.516   20.7  0.3239   53.5  0.3607  -84.6
 4.600  0.4172  106.6   1.489   19.5  0.3318   52.6  0.3565  -87.2
 4.700  0.4240  105.3   1.462   18.2  0.3398   51.7  0.3531  -89.9
 4.800  0.4310  104.1   1.437   16.8  0.3479   50.9  0.3504  -92.6
 4.900  0.4381  102.9   1.412   15.4  0.3561   50.1  0.3486  -95.4
 5.000  0.4455  101.7   1.388   14.0  0.3643   49.3  0.3476  -98.2
 5.100  0.4507  100.5   1.367   12.8  0.3723   48.3  0.3470 -101.2
 5.200  0.4562   99.3   1.347   11.6  0.3804   47.3  0.3474 -104.2
 5.300  0.4618   98.1   1.328   10.3  0.3885   46.4  0.3487 -107.2
 5.400  0.4677   96.9   1.309    9.0  0.3968   45.5  0.3509 -110.1
 5.500  0.4737   95.8   1.291    7.7  0.4052   44.7  0.3541 -113.0
 5.600  0.4770   94.6   1.272    6.6  0.4132   43.6  0.3554 -115.7
 5.700  0.4805   93.5   1.253    5.6  0.4214   42.5  0.3575 -118.4
 5.800  0.4842   92.4   1.235    4.4  0.4298   41.5  0.3604 -121.0
 5.900  0.4881   91.3   1.217    3.3  0.4382   40.5  0.3641 -123.6
 6.000  0.4922   90.2   1.200    2.1  0.4468   39.6  0.3684 -126.1
!
!  f       NFmin   Gammaopt  rn/50
! GHz       dB    MAG  ANG    -
 0.450      1.43  0.06   16   0.21
 0.900      1.48  0.06   32   0.21
 1.900      1.92  0.11 -141   0.21
 2.400      2.13  0.14 -109   0.27
!
! (c) 2017  Infineon Technologies AG, Munich