! Infineon Technologies  Discrete & RF Semiconductors
! BFR181W
! VCE =  4.0 V,  IC =  21 mA
! Common Emitter S-Parameters:                            Jan 2017
# GHz  S  MA  R  50
!  f         S11            S21            S12            S22
! GHz     MAG   ANG      MAG   ANG      MAG   ANG      MAG   ANG
 0.010  0.5491   -6.7  33.033  175.9  0.0014   89.1  0.9595   -1.9
 0.020  0.5388  -16.3  32.671  170.7  0.0030   88.7  0.9491   -4.1
 0.030  0.5231  -22.8  31.796  166.7  0.0046   82.0  0.9365   -6.2
 0.040  0.5144  -29.6  31.082  162.5  0.0062   78.8  0.9252   -8.4
 0.050  0.5132  -36.5  30.541  158.2  0.0078   76.9  0.9153  -10.7
 0.060  0.4951  -42.2  29.379  155.1  0.0091   73.9  0.8945  -12.0
 0.070  0.4823  -48.3  28.308  151.9  0.0103   71.7  0.8742  -13.4
 0.080  0.4752  -54.6  27.337  148.3  0.0116   69.9  0.8545  -14.8
 0.090  0.4741  -61.1  26.478  144.5  0.0129   68.5  0.8353  -16.3
 0.100  0.4789  -67.5  25.742  140.5  0.0142   67.4  0.8167  -17.9
 0.110  0.4657  -71.9  24.761  138.4  0.0150   66.4  0.7986  -18.5
 0.120  0.4554  -76.5  23.815  136.1  0.0157   65.4  0.7807  -19.1
 0.130  0.4482  -81.3  22.910  133.7  0.0165   64.6  0.7628  -19.7
 0.140  0.4443  -86.2  22.050  131.1  0.0172   63.8  0.7450  -20.3
 0.150  0.4436  -91.2  21.241  128.2  0.0180   63.1  0.7273  -21.0
 0.200  0.4205 -108.0  17.600  119.1  0.0203   61.5  0.6630  -22.0
 0.250  0.4062 -121.3  14.915  112.6  0.0235   61.4  0.6188  -22.0
 0.300  0.3978 -131.5  12.847  107.6  0.0258   60.7  0.5871  -21.6
 0.350  0.3897 -138.6  11.420  104.4  0.0283   62.9  0.5685  -21.2
 0.400  0.3877 -145.9  10.037  100.4  0.0308   64.7  0.5499  -20.8
 0.450  0.3829 -151.0   9.093   98.1  0.0335   65.9  0.5393  -20.7
 0.500  0.3813 -156.2   8.167   95.2  0.0363   66.9  0.5288  -20.5
 0.600  0.3811 -164.1   6.900   90.9  0.0413   68.3  0.5156  -20.4
 0.700  0.3815 -170.3   5.961   87.3  0.0467   71.2  0.5067  -20.6
 0.800  0.3855 -175.9   5.260   83.9  0.0533   72.2  0.5001  -21.2
 0.900  0.3860  179.5   4.691   81.0  0.0583   72.7  0.4956  -22.1
 1.000  0.3897  175.3   4.254   78.3  0.0640   73.7  0.4896  -22.9
 1.100  0.3932  171.5   3.885   75.7  0.0703   74.2  0.4871  -24.0
 1.200  0.3948  168.0   3.575   73.1  0.0767   74.8  0.4831  -25.2
 1.300  0.3970  164.7   3.314   70.7  0.0827   75.2  0.4804  -26.6
 1.400  0.4020  161.7   3.094   68.4  0.0894   75.4  0.4767  -28.0
 1.500  0.4077  159.0   2.899   66.2  0.0960   75.5  0.4739  -29.4
 1.600  0.4109  156.0   2.733   63.9  0.1028   75.7  0.4726  -31.0
 1.700  0.4157  153.4   2.582   61.9  0.1100   75.8  0.4689  -32.8
 1.800  0.4195  150.9   2.456   59.7  0.1170   75.5  0.4659  -34.4
 1.900  0.4248  148.8   2.339   57.8  0.1242   75.5  0.4640  -36.2
 2.000  0.4273  146.3   2.229   55.6  0.1311   75.4  0.4624  -38.1
 2.100  0.4318  144.0   2.136   53.7  0.1385   74.9  0.4599  -40.1
 2.200  0.4370  141.7   2.045   51.6  0.1460   74.4  0.4580  -42.1
 2.300  0.4425  139.7   1.969   49.8  0.1538   74.1  0.4569  -44.1
 2.400  0.4486  137.7   1.896   47.8  0.1617   73.8  0.4563  -46.2
 2.500  0.4521  135.7   1.829   46.1  0.1694   73.3  0.4553  -48.3
 2.600  0.4562  133.7   1.763   44.2  0.1771   72.8  0.4549  -50.4
 2.700  0.4618  131.7   1.707   42.5  0.1853   72.2  0.4547  -52.5
 2.800  0.4679  129.7   1.652   40.7  0.1935   71.7  0.4550  -54.5
 2.900  0.4714  127.8   1.603   39.0  0.2019   71.0  0.4542  -56.6
 3.000  0.4754  126.0   1.555   37.2  0.2103   70.3  0.4540  -58.8
 3.100  0.4790  124.1   1.514   35.8  0.2190   69.5  0.4530  -60.8
 3.200  0.4831  122.3   1.475   34.3  0.2278   68.8  0.4525  -62.8
 3.300  0.4877  120.4   1.436   32.7  0.2366   68.2  0.4526  -64.7
 3.400  0.4928  118.6   1.399   31.1  0.2454   67.6  0.4532  -66.7
 3.500  0.4983  116.9   1.363   29.3  0.2542   67.0  0.4543  -68.7
 3.600  0.5019  115.2   1.333   28.0  0.2632   66.0  0.4512  -70.8
 3.700  0.5059  113.5   1.304   26.6  0.2723   65.0  0.4486  -73.0
 3.800  0.5103  111.9   1.275   25.2  0.2815   64.1  0.4467  -75.1
 3.900  0.5152  110.3   1.248   23.7  0.2907   63.2  0.4455  -77.3
 4.000  0.5204  108.7   1.221   22.2  0.3000   62.4  0.4449  -79.5
 4.100  0.5241  107.1   1.197   20.9  0.3093   61.2  0.4395  -81.9
 4.200  0.5282  105.6   1.174   19.6  0.3187   60.1  0.4350  -84.4
 4.300  0.5327  104.1   1.152   18.3  0.3282   59.1  0.4313  -87.0
 4.400  0.5376  102.6   1.130   16.9  0.3378   58.1  0.4284  -89.6
 4.500  0.5428  101.1   1.109   15.4  0.3475   57.2  0.4265  -92.2
 4.600  0.5472   99.8   1.088   14.3  0.3565   56.1  0.4217  -95.0
 4.700  0.5519   98.4   1.068   13.2  0.3657   55.0  0.4179  -97.9
 4.800  0.5569   97.1   1.048   12.1  0.3749   54.0  0.4152 -100.8
 4.900  0.5622   95.9   1.028   10.9  0.3843   53.0  0.4136 -103.7
 5.000  0.5677   94.6   1.009    9.7  0.3938   52.1  0.4131 -106.7
 5.100  0.5708   93.4   0.994    8.8  0.4028   50.9  0.4123 -109.7
 5.200  0.5741   92.2   0.979    7.8  0.4120   49.8  0.4127 -112.8
 5.300  0.5777   91.0   0.965    6.8  0.4214   48.7  0.4143 -115.8
 5.400  0.5816   89.8   0.951    5.8  0.4309   47.6  0.4170 -118.8
 5.500  0.5857   88.6   0.937    4.7  0.4405   46.6  0.4208 -121.8
 5.600  0.5867   87.4   0.923    3.9  0.4489   45.3  0.4215 -124.6
 5.700  0.5879   86.2   0.910    3.1  0.4576   44.1  0.4231 -127.3
 5.800  0.5893   85.0   0.897    2.3  0.4665   42.9  0.4257 -130.0
 5.900  0.5910   83.9   0.884    1.5  0.4755   41.7  0.4292 -132.7
 6.000  0.5930   82.7   0.871    0.6  0.4848   40.6  0.4337 -135.3
!
!  f       NFmin   Gammaopt  rn/50
! GHz       dB    MAG  ANG    -
!
! noise parameter not available yet for this operation point!
!
! (c) 2017  Infineon Technologies AG, Munich