! Infineon Technologies  Discrete & RF Semiconductors
! BFR181W
! VCE =  6.0 V,  IC =  28 mA
! Common Emitter S-Parameters:                            Jan 2017
# GHz  S  MA  R  50
!  f         S11            S21            S12            S22
! GHz     MAG   ANG      MAG   ANG      MAG   ANG      MAG   ANG
 0.010  0.4908   -8.0  34.096  175.2  0.0013   88.4  0.9484   -1.7
 0.020  0.4826  -19.1  33.618  169.7  0.0028   92.0  0.9485   -4.1
 0.030  0.4676  -26.9  32.597  165.4  0.0042   82.4  0.9309   -6.2
 0.040  0.4617  -35.1  31.768  160.9  0.0057   77.7  0.9147   -8.4
 0.050  0.4654  -43.3  31.146  156.2  0.0072   75.0  0.8998  -10.7
 0.060  0.4488  -49.7  29.804  153.1  0.0083   72.8  0.8781  -11.9
 0.070  0.4382  -56.5  28.558  149.6  0.0093   71.2  0.8568  -13.1
 0.080  0.4340  -63.5  27.424  145.9  0.0104   69.9  0.8359  -14.3
 0.090  0.4364  -70.5  26.415  141.9  0.0115   68.8  0.8154  -15.7
 0.100  0.4452  -77.4  25.545  137.6  0.0126   67.9  0.7954  -17.1
 0.110  0.4351  -82.1  24.486  135.5  0.0133   66.5  0.7788  -17.5
 0.120  0.4281  -87.0  23.462  133.3  0.0140   65.3  0.7622  -18.0
 0.130  0.4243  -92.0  22.477  130.9  0.0147   64.2  0.7457  -18.5
 0.140  0.4237  -97.1  21.536  128.2  0.0154   63.2  0.7293  -19.0
 0.150  0.4265 -102.1  20.646  125.3  0.0161   62.3  0.7129  -19.5
 0.200  0.4128 -118.5  16.896  116.6  0.0184   62.2  0.6563  -19.8
 0.250  0.4090 -131.0  14.197  110.4  0.0214   63.1  0.6194  -19.6
 0.300  0.4051 -140.5  12.183  105.7  0.0233   63.7  0.5937  -19.0
 0.350  0.3997 -146.9  10.803  102.7  0.0260   65.1  0.5790  -18.7
 0.400  0.3994 -153.3   9.461   98.9  0.0288   66.3  0.5644  -18.4
 0.450  0.3983 -157.9   8.564   96.7  0.0312   67.5  0.5563  -18.4
 0.500  0.3998 -162.4   7.682   94.0  0.0336   68.5  0.5482  -18.3
 0.600  0.4000 -169.5   6.479   89.9  0.0390   71.0  0.5382  -18.5
 0.700  0.4027 -175.2   5.597   86.4  0.0437   73.1  0.5307  -19.0
 0.800  0.4061  179.9   4.936   83.2  0.0507   75.1  0.5258  -19.9
 0.900  0.4056  175.6   4.402   80.4  0.0560   75.1  0.5211  -20.9
 1.000  0.4107  171.7   3.993   77.8  0.0617   76.4  0.5160  -22.0
 1.100  0.4149  168.4   3.648   75.3  0.0677   77.3  0.5141  -23.2
 1.200  0.4171  165.1   3.359   72.7  0.0741   77.2  0.5102  -24.5
 1.300  0.4185  161.7   3.112   70.3  0.0801   77.6  0.5069  -26.0
 1.400  0.4219  158.9   2.909   68.0  0.0872   77.8  0.5034  -27.5
 1.500  0.4279  156.5   2.726   65.9  0.0936   77.9  0.5006  -29.0
 1.600  0.4325  153.7   2.570   63.7  0.1001   78.1  0.4995  -30.7
 1.700  0.4356  151.1   2.430   61.6  0.1070   78.1  0.4958  -32.5
 1.800  0.4403  148.6   2.312   59.4  0.1143   78.1  0.4925  -34.2
 1.900  0.4454  146.5   2.202   57.6  0.1217   77.8  0.4909  -36.0
 2.000  0.4482  144.2   2.099   55.4  0.1287   77.5  0.4892  -38.0
 2.100  0.4522  141.9   2.012   53.5  0.1364   77.1  0.4866  -40.0
 2.200  0.4569  139.7   1.928   51.5  0.1442   76.8  0.4846  -42.0
 2.300  0.4622  137.7   1.856   49.7  0.1521   76.3  0.4832  -44.1
 2.400  0.4680  135.7   1.787   47.7  0.1600   75.9  0.4824  -46.2
 2.500  0.4712  133.8   1.724   46.0  0.1679   75.4  0.4812  -48.3
 2.600  0.4749  131.9   1.662   44.2  0.1758   74.9  0.4806  -50.4
 2.700  0.4796  130.0   1.610   42.5  0.1841   74.3  0.4803  -52.6
 2.800  0.4849  128.1   1.559   40.6  0.1925   73.8  0.4806  -54.7
 2.900  0.4883  126.2   1.512   39.0  0.2012   73.1  0.4794  -56.7
 3.000  0.4923  124.4   1.467   37.3  0.2099   72.4  0.4789  -58.8
 3.100  0.4957  122.5   1.429   35.9  0.2189   71.6  0.4776  -60.8
 3.200  0.4997  120.6   1.392   34.5  0.2279   70.8  0.4769  -62.8
 3.300  0.5043  118.8   1.356   32.9  0.2369   70.1  0.4768  -64.9
 3.400  0.5093  117.0   1.321   31.3  0.2460   69.4  0.4772  -66.9
 3.500  0.5148  115.2   1.287   29.6  0.2551   68.8  0.4783  -68.9
 3.600  0.5179  113.5   1.259   28.3  0.2644   67.7  0.4749  -71.0
 3.700  0.5214  111.8   1.232   27.0  0.2737   66.7  0.4722  -73.2
 3.800  0.5253  110.2   1.206   25.6  0.2832   65.7  0.4702  -75.3
 3.900  0.5297  108.6   1.180   24.1  0.2927   64.8  0.4689  -77.5
 4.000  0.5345  107.0   1.155   22.6  0.3023   64.0  0.4682  -79.7
 4.100  0.5379  105.5   1.133   21.4  0.3117   62.8  0.4625  -82.1
 4.200  0.5417  103.9   1.112   20.1  0.3213   61.6  0.4576  -84.6
 4.300  0.5459  102.4   1.091   18.8  0.3310   60.5  0.4536  -87.1
 4.400  0.5504  101.0   1.071   17.4  0.3408   59.5  0.4505  -89.7
 4.500  0.5553   99.5   1.051   16.0  0.3507   58.5  0.4483  -92.3
 4.600  0.5592   98.2   1.032   15.0  0.3599   57.3  0.4431  -95.1
 4.700  0.5634   97.0   1.013   14.0  0.3693   56.2  0.4391  -98.0
 4.800  0.5679   95.8   0.995   12.9  0.3788   55.1  0.4361 -100.9
 4.900  0.5726   94.6   0.977   11.8  0.3884   54.1  0.4343 -103.8
 5.000  0.5775   93.4   0.959   10.6  0.3982   53.1  0.4337 -106.8
 5.100  0.5801   92.2   0.946    9.7  0.4072   51.9  0.4325 -109.8
 5.200  0.5830   90.9   0.932    8.8  0.4165   50.7  0.4324 -112.8
 5.300  0.5862   89.7   0.919    7.9  0.4258   49.5  0.4336 -115.9
 5.400  0.5896   88.5   0.906    6.9  0.4354   48.4  0.4360 -118.8
 5.500  0.5933   87.3   0.894    5.9  0.4451   47.4  0.4395 -121.8
 5.600  0.5943   86.1   0.881    5.1  0.4537   46.1  0.4399 -124.5
 5.700  0.5956   84.9   0.869    4.4  0.4626   44.8  0.4413 -127.2
 5.800  0.5971   83.7   0.857    3.6  0.4718   43.5  0.4437 -129.9
 5.900  0.5989   82.6   0.845    2.7  0.4811   42.3  0.4470 -132.5
 6.000  0.6009   81.4   0.833    1.9  0.4906   41.2  0.4513 -135.1
!
!  f       NFmin   Gammaopt  rn/50
! GHz       dB    MAG  ANG    -
!
! noise parameter not available yet for this operation point!
!
! (c) 2017  Infineon Technologies AG, Munich