! Infineon Technologies  Discrete & RF Semiconductors
! BFR181W
! VCE =  4.0 V,  IC =  16 mA
! Common Emitter S-Parameters:                            Jan 2017
# GHz  S  MA  R  50
!  f         S11            S21            S12            S22
! GHz     MAG   ANG      MAG   ANG      MAG   ANG      MAG   ANG
 0.010  0.6208   -4.3  31.670  176.8  0.0014   98.7  0.9808   -1.8
 0.020  0.6077  -11.6  31.295  172.5  0.0029   86.6  0.9820   -3.8
 0.030  0.5951  -16.2  30.751  169.2  0.0046   80.7  0.9699   -5.8
 0.040  0.5863  -20.9  30.313  165.8  0.0064   78.0  0.9590   -7.8
 0.050  0.5817  -25.7  29.985  162.3  0.0081   76.5  0.9492   -9.8
 0.060  0.5664  -30.0  29.154  159.5  0.0094   74.7  0.9315  -11.2
 0.070  0.5545  -34.5  28.397  156.5  0.0106   73.4  0.9144  -12.8
 0.080  0.5460  -39.1  27.719  153.4  0.0119   72.4  0.8980  -14.3
 0.090  0.5413  -43.9  27.126  150.2  0.0131   71.5  0.8823  -15.9
 0.100  0.5404  -48.7  26.625  146.8  0.0144   70.8  0.8673  -17.6
 0.110  0.5240  -52.3  25.818  144.7  0.0153   69.4  0.8497  -18.5
 0.120  0.5098  -56.0  25.048  142.5  0.0163   68.1  0.8322  -19.4
 0.130  0.4979  -60.0  24.317  140.1  0.0172   67.0  0.8150  -20.3
 0.140  0.4886  -64.1  23.630  137.6  0.0181   66.0  0.7980  -21.3
 0.150  0.4818  -68.4  22.991  135.0  0.0191   65.1  0.7813  -22.3
 0.200  0.4376  -83.5  19.691  125.7  0.0225   65.2  0.7083  -24.7
 0.250  0.4005  -96.8  17.073  118.6  0.0259   62.7  0.6519  -25.8
 0.300  0.3742 -107.9  14.913  113.2  0.0285   62.7  0.6077  -26.1
 0.350  0.3545 -115.8  13.355  109.7  0.0313   63.5  0.5798  -26.0
 0.400  0.3421 -124.4  11.862  105.2  0.0342   64.2  0.5520  -25.8
 0.450  0.3305 -130.6  10.791  102.6  0.0369   65.1  0.5345  -25.5
 0.500  0.3230 -137.1   9.746   99.5  0.0397   65.9  0.5171  -25.2
 0.600  0.3121 -147.5   8.275   94.8  0.0452   66.0  0.4953  -24.8
 0.700  0.3076 -155.6   7.174   90.9  0.0509   68.4  0.4804  -24.6
 0.800  0.3061 -162.9   6.342   87.4  0.0573   69.5  0.4696  -24.8
 0.900  0.3040 -169.0   5.664   84.3  0.0628   69.7  0.4613  -25.1
 1.000  0.3057 -174.4   5.143   81.5  0.0688   70.8  0.4539  -25.6
 1.100  0.3084 -179.2   4.699   78.9  0.0746   71.3  0.4498  -26.3
 1.200  0.3102  176.5   4.328   76.3  0.0810   71.5  0.4445  -27.0
 1.300  0.3102  172.3   4.009   73.9  0.0874   71.7  0.4407  -28.1
 1.400  0.3151  168.7   3.748   71.6  0.0938   71.9  0.4360  -29.1
 1.500  0.3201  165.6   3.509   69.4  0.1002   71.9  0.4327  -30.4
 1.600  0.3240  162.0   3.306   67.1  0.1068   71.9  0.4307  -31.7
 1.700  0.3260  159.0   3.126   65.1  0.1130   71.9  0.4267  -33.1
 1.800  0.3299  156.1   2.974   62.9  0.1205   71.7  0.4238  -34.6
 1.900  0.3349  153.8   2.831   61.1  0.1272   71.5  0.4217  -36.2
 2.000  0.3404  151.0   2.698   59.0  0.1342   71.1  0.4195  -37.9
 2.100  0.3444  148.5   2.585   57.1  0.1412   70.7  0.4171  -39.7
 2.200  0.3490  146.0   2.476   55.0  0.1482   70.4  0.4151  -41.5
 2.300  0.3548  143.8   2.384   53.2  0.1554   70.0  0.4137  -43.4
 2.400  0.3610  141.7   2.295   51.2  0.1627   69.7  0.4128  -45.3
 2.500  0.3648  139.6   2.215   49.5  0.1697   69.2  0.4120  -47.2
 2.600  0.3690  137.6   2.137   47.7  0.1767   68.7  0.4116  -49.2
 2.700  0.3749  135.4   2.068   46.0  0.1842   68.2  0.4113  -51.1
 2.800  0.3813  133.3   2.002   44.1  0.1918   67.8  0.4114  -53.0
 2.900  0.3858  131.5   1.944   42.4  0.1995   67.2  0.4108  -54.9
 3.000  0.3907  129.7   1.888   40.6  0.2073   66.6  0.4106  -56.9
 3.100  0.3947  127.7   1.839   39.2  0.2153   65.9  0.4098  -58.7
 3.200  0.3992  125.8   1.791   37.6  0.2233   65.2  0.4094  -60.6
 3.300  0.4041  123.9   1.745   36.1  0.2314   64.6  0.4094  -62.4
 3.400  0.4094  122.1   1.700   34.4  0.2395   64.0  0.4098  -64.3
 3.500  0.4152  120.3   1.656   32.6  0.2476   63.5  0.4107  -66.1
 3.600  0.4196  118.7   1.620   31.2  0.2558   62.6  0.4079  -68.0
 3.700  0.4242  117.1   1.585   29.8  0.2641   61.7  0.4056  -70.0
 3.800  0.4292  115.6   1.551   28.3  0.2725   61.0  0.4038  -72.0
 3.900  0.4345  114.1   1.519   26.7  0.2809   60.2  0.4025  -74.0
 4.000  0.4401  112.6   1.487   25.1  0.2893   59.5  0.4017  -76.0
 4.100  0.4451  111.1   1.458   23.8  0.2978   58.5  0.3971  -78.3
 4.200  0.4505  109.6   1.431   22.4  0.3065   57.5  0.3931  -80.6
 4.300  0.4561  108.1   1.404   20.9  0.3152   56.7  0.3898  -82.9
 4.400  0.4620  106.7   1.378   19.5  0.3240   55.8  0.3872  -85.3
 4.500  0.4682  105.3   1.353   17.9  0.3328   55.0  0.3852  -87.7
 4.600  0.4741  104.0   1.328   16.7  0.3413   54.0  0.3810  -90.4
 4.700  0.4802  102.7   1.304   15.4  0.3498   53.0  0.3777  -93.2
 4.800  0.4865  101.5   1.280   14.1  0.3585   52.1  0.3752  -96.1
 4.900  0.4930  100.3   1.257   12.8  0.3672   51.2  0.3738  -98.9
 5.000  0.4998   99.1   1.235   11.4  0.3760   50.4  0.3732 -101.8
 5.100  0.5044   97.8   1.216   10.3  0.3844   49.3  0.3727 -104.9
 5.200  0.5093   96.5   1.198    9.1  0.3930   48.3  0.3732 -107.9
 5.300  0.5144   95.2   1.181    7.8  0.4017   47.3  0.3748 -110.9
 5.400  0.5197   94.0   1.163    6.6  0.4105   46.3  0.3774 -113.9
 5.500  0.5253   92.8   1.147    5.3  0.4194   45.4  0.3811 -116.9
 5.600  0.5277   91.7   1.130    4.3  0.4275   44.2  0.3824 -119.6
 5.700  0.5302   90.5   1.113    3.3  0.4358   43.0  0.3846 -122.3
 5.800  0.5330   89.4   1.097    2.3  0.4443   41.9  0.3876 -124.9
 5.900  0.5360   88.3   1.081    1.2  0.4529   40.8  0.3914 -127.6
 6.000  0.5392   87.2   1.065    0.1  0.4617   39.8  0.3960 -130.1
!
!  f       NFmin   Gammaopt  rn/50
! GHz       dB    MAG  ANG    -
!
! noise parameter not available yet for this operation point!
!
! (c) 2017  Infineon Technologies AG, Munich