! Infineon Technologies  Discrete & RF Semiconductors
! BFR181W
! VCE =  6.0 V,  IC =  13 mA
! Common Emitter S-Parameters:                            Jan 2017
# GHz  S  MA  R  50
!  f         S11            S21            S12            S22
! GHz     MAG   ANG      MAG   ANG      MAG   ANG      MAG   ANG
 0.010  0.6889   -2.8  28.893  177.1  0.0015  101.0  0.9898   -1.6
 0.020  0.6736   -9.0  28.333  173.5  0.0028   96.8  0.9849   -3.2
 0.030  0.6641  -12.3  28.018  170.8  0.0043   87.6  0.9779   -5.0
 0.040  0.6567  -15.6  27.766  168.1  0.0058   83.2  0.9718   -6.8
 0.050  0.6517  -19.0  27.578  165.3  0.0074   80.7  0.9667   -8.6
 0.060  0.6397  -22.4  27.019  162.8  0.0089   79.4  0.9527  -10.0
 0.070  0.6301  -25.8  26.514  160.2  0.0104   78.5  0.9394  -11.5
 0.080  0.6228  -29.4  26.065  157.5  0.0119   77.8  0.9267  -13.0
 0.090  0.6179  -33.0  25.675  154.8  0.0134   77.3  0.9146  -14.5
 0.100  0.6156  -36.7  25.347  151.9  0.0149   76.9  0.9032  -16.1
 0.110  0.5997  -39.6  24.757  149.9  0.0159   75.1  0.8880  -17.1
 0.120  0.5855  -42.7  24.197  147.8  0.0169   73.6  0.8731  -18.2
 0.130  0.5730  -45.9  23.672  145.6  0.0179   72.2  0.8585  -19.2
 0.140  0.5623  -49.2  23.182  143.4  0.0189   70.9  0.8442  -20.3
 0.150  0.5537  -52.7  22.730  141.0  0.0199   69.8  0.8302  -21.5
 0.200  0.4982  -65.4  20.060  131.7  0.0239   66.9  0.7597  -24.9
 0.250  0.4493  -77.3  17.783  124.5  0.0279   64.5  0.6994  -27.0
 0.300  0.4074  -87.2  15.781  118.8  0.0310   63.5  0.6487  -28.1
 0.350  0.3762  -94.6  14.251  114.9  0.0341   63.6  0.6134  -28.5
 0.400  0.3522 -103.1  12.802  110.1  0.0372   63.6  0.5781  -28.9
 0.450  0.3306 -109.3  11.709  107.2  0.0398   63.8  0.5553  -28.9
 0.500  0.3134 -116.2  10.651  103.8  0.0425   63.9  0.5325  -28.9
 0.600  0.2906 -127.7   9.106   98.7  0.0483   64.8  0.5014  -28.4
 0.700  0.2740 -137.2   7.924   94.5  0.0537   66.5  0.4799  -28.1
 0.800  0.2638 -146.3   7.026   90.7  0.0600   67.5  0.4639  -28.1
 0.900  0.2563 -153.6   6.290   87.5  0.0651   67.6  0.4519  -28.2
 1.000  0.2539 -160.6   5.719   84.6  0.0715   68.4  0.4416  -28.4
 1.100  0.2528 -166.7   5.230   82.0  0.0772   68.8  0.4356  -28.8
 1.200  0.2519 -172.5   4.818   79.3  0.0840   68.9  0.4288  -29.3
 1.300  0.2511 -177.5   4.467   76.8  0.0897   69.2  0.4231  -30.1
 1.400  0.2538  178.2   4.175   74.5  0.0966   69.3  0.4176  -31.0
 1.500  0.2581  174.1   3.914   72.3  0.1028   69.3  0.4129  -31.9
 1.600  0.2607  169.7   3.688   70.1  0.1093   69.2  0.4105  -33.0
 1.700  0.2620  166.1   3.486   68.1  0.1158   69.4  0.4060  -34.3
 1.800  0.2655  162.7   3.317   65.9  0.1223   68.8  0.4024  -35.6
 1.900  0.2722  160.2   3.158   64.1  0.1289   68.8  0.3995  -36.9
 2.000  0.2749  156.7   3.011   62.0  0.1357   68.5  0.3971  -38.5
 2.100  0.2787  153.8   2.887   60.2  0.1425   68.2  0.3943  -40.1
 2.200  0.2832  151.0   2.766   58.2  0.1493   67.9  0.3919  -41.7
 2.300  0.2894  148.4   2.664   56.3  0.1562   67.5  0.3902  -43.5
 2.400  0.2961  146.0   2.565   54.3  0.1631   67.1  0.3888  -45.3
 2.500  0.2995  143.8   2.474   52.7  0.1700   66.6  0.3877  -47.1
 2.600  0.3034  141.7   2.386   50.9  0.1770   66.1  0.3869  -48.9
 2.700  0.3095  139.3   2.311   49.2  0.1841   65.6  0.3865  -50.6
 2.800  0.3162  137.0   2.239   47.4  0.1912   65.2  0.3864  -52.4
 2.900  0.3200  135.0   2.174   45.7  0.1987   64.6  0.3855  -54.2
 3.000  0.3242  133.1   2.112   43.9  0.2062   64.0  0.3850  -56.0
 3.100  0.3286  131.0   2.058   42.5  0.2136   63.4  0.3842  -57.7
 3.200  0.3334  129.0   2.005   40.9  0.2211   62.8  0.3837  -59.4
 3.300  0.3387  127.0   1.953   39.4  0.2285   62.2  0.3835  -61.1
 3.400  0.3443  125.1   1.903   37.7  0.2360   61.7  0.3837  -62.8
 3.500  0.3503  123.2   1.855   35.9  0.2435   61.2  0.3842  -64.5
 3.600  0.3546  121.6   1.816   34.5  0.2512   60.4  0.3816  -66.3
 3.700  0.3593  120.0   1.777   33.1  0.2590   59.6  0.3793  -68.1
 3.800  0.3642  118.5   1.740   31.6  0.2668   58.9  0.3775  -70.0
 3.900  0.3693  117.0   1.705   30.0  0.2746   58.2  0.3761  -71.8
 4.000  0.3747  115.5   1.670   28.4  0.2825   57.5  0.3750  -73.7
 4.100  0.3804  113.9   1.639   27.0  0.2904   56.6  0.3706  -75.8
 4.200  0.3864  112.4   1.609   25.6  0.2985   55.7  0.3668  -77.9
 4.300  0.3926  111.0   1.580   24.1  0.3065   54.8  0.3634  -80.1
 4.400  0.3991  109.6   1.552   22.6  0.3147   54.1  0.3606  -82.3
 4.500  0.4058  108.2   1.525   21.0  0.3229   53.3  0.3584  -84.6
 4.600  0.4125  106.9   1.498   19.7  0.3308   52.4  0.3543  -87.2
 4.700  0.4194  105.6   1.471   18.4  0.3387   51.5  0.3510  -89.9
 4.800  0.4265  104.4   1.445   17.1  0.3467   50.7  0.3484  -92.6
 4.900  0.4338  103.2   1.420   15.7  0.3548   49.9  0.3467  -95.3
 5.000  0.4413  102.1   1.396   14.2  0.3630   49.1  0.3457  -98.1
 5.100  0.4463  100.8   1.375   13.0  0.3710   48.1  0.3450 -101.1
 5.200  0.4514   99.6   1.355   11.8  0.3790   47.2  0.3453 -104.1
 5.300  0.4568   98.4   1.336   10.5  0.3872   46.3  0.3465 -107.1
 5.400  0.4624   97.2   1.317    9.2  0.3955   45.4  0.3486 -110.1
 5.500  0.4682   96.0   1.299    7.9  0.4038   44.6  0.3517 -113.0
 5.600  0.4717   94.8   1.280    6.8  0.4118   43.5  0.3532 -115.7
 5.700  0.4754   93.7   1.261    5.7  0.4199   42.4  0.3554 -118.3
 5.800  0.4793   92.6   1.243    4.6  0.4281   41.4  0.3584 -120.9
 5.900  0.4834   91.5   1.225    3.4  0.4365   40.4  0.3621 -123.5
 6.000  0.4876   90.4   1.208    2.2  0.4450   39.5  0.3665 -126.0
!
!  f       NFmin   Gammaopt  rn/50
! GHz       dB    MAG  ANG    -
 0.450      1.39  0.08   17   0.21
 0.900      1.43  0.08   31   0.21
 1.900      1.86  0.09 -144   0.21
 2.400      2.07  0.11 -109   0.26
!
! (c) 2017  Infineon Technologies AG, Munich