! Infineon Technologies  Discrete & RF Semiconductors
! BFR181W
! VCE =  10. V,  IC =  2.0 mA
! Common Emitter S-Parameters:                            Jan 2017
# GHz  S  MA  R  50
!  f         S11            S21            S12            S22
! GHz     MAG   ANG      MAG   ANG      MAG   ANG      MAG   ANG
 0.010  0.9520   -0.2   6.907  179.8  0.0017   83.3  1.0000   -0.6
 0.020  0.9347   -3.4   6.863  177.9  0.0036   96.4  0.9969   -1.0
 0.030  0.9281   -4.0   6.831  177.0  0.0053   90.7  0.9970   -1.6
 0.040  0.9216   -4.7   6.801  176.2  0.0071   87.8  0.9972   -2.3
 0.050  0.9152   -5.3   6.772  175.3  0.0088   86.0  0.9975   -2.9
 0.060  0.9171   -6.5   6.754  174.3  0.0105   85.5  0.9959   -3.5
 0.070  0.9195   -7.7   6.738  173.4  0.0123   85.1  0.9945   -4.0
 0.080  0.9222   -8.9   6.725  172.4  0.0140   84.9  0.9931   -4.6
 0.090  0.9253  -10.0   6.713  171.4  0.0158   84.7  0.9918   -5.1
 0.100  0.9288  -11.2   6.703  170.4  0.0175   84.5  0.9906   -5.7
 0.110  0.9245  -12.4   6.686  169.5  0.0192   83.4  0.9886   -6.3
 0.120  0.9206  -13.6   6.672  168.5  0.0209   82.5  0.9867   -6.9
 0.130  0.9170  -14.8   6.659  167.6  0.0226   81.7  0.9849   -7.4
 0.140  0.9139  -16.0   6.647  166.6  0.0244   81.0  0.9832   -8.0
 0.150  0.9112  -17.2   6.638  165.7  0.0261   80.4  0.9816   -8.6
 0.200  0.8990  -22.2   6.523  160.6  0.0334   77.0  0.9675  -11.3
 0.250  0.8808  -27.9   6.437  156.0  0.0419   73.5  0.9533  -13.9
 0.300  0.8547  -33.0   6.279  151.5  0.0485   70.2  0.9337  -16.3
 0.350  0.8301  -37.8   6.113  147.5  0.0550   67.5  0.9136  -18.5
 0.400  0.8116  -42.8   5.980  143.2  0.0616   65.3  0.8950  -20.8
 0.450  0.7824  -47.3   5.784  139.6  0.0670   62.6  0.8732  -22.7
 0.500  0.7585  -52.2   5.613  135.7  0.0726   60.4  0.8524  -24.6
 0.600  0.7089  -60.9   5.272  128.5  0.0819   56.4  0.8103  -27.7
 0.700  0.6589  -69.1   4.920  122.1  0.0890   53.7  0.7709  -30.3
 0.800  0.6133  -76.8   4.616  116.3  0.0955   51.3  0.7350  -32.6
 0.900  0.5721  -83.9   4.316  110.9  0.0998   48.9  0.7032  -34.5
 1.000  0.5365  -90.9   4.049  106.3  0.1041   47.4  0.6734  -36.1
 1.100  0.5024  -97.4   3.803  101.9  0.1073   46.6  0.6491  -37.5
 1.200  0.4739 -103.7   3.581   97.7  0.1101   45.3  0.6263  -38.8
 1.300  0.4470 -109.7   3.378   93.8  0.1129   44.8  0.6067  -40.0
 1.400  0.4259 -115.5   3.201   90.3  0.1153   44.6  0.5892  -41.3
 1.500  0.4088 -121.6   3.047   86.9  0.1183   44.7  0.5739  -42.4
 1.600  0.3908 -127.6   2.890   83.6  0.1205   44.6  0.5628  -43.5
 1.700  0.3765 -133.1   2.764   80.7  0.1224   45.2  0.5484  -44.8
 1.800  0.3661 -138.6   2.656   77.7  0.1250   45.6  0.5377  -45.9
 1.900  0.3597 -144.1   2.548   75.0  0.1279   46.1  0.5284  -47.1
 2.000  0.3508 -149.5   2.447   72.1  0.1308   46.6  0.5214  -48.4
 2.100  0.3442 -154.5   2.357   69.5  0.1338   47.3  0.5146  -49.7
 2.200  0.3403 -159.6   2.273   66.8  0.1368   47.9  0.5081  -51.1
 2.300  0.3366 -164.6   2.194   64.4  0.1401   48.7  0.5033  -52.5
 2.400  0.3354 -169.6   2.120   61.8  0.1434   49.5  0.4989  -54.0
 2.500  0.3337 -173.7   2.051   59.6  0.1472   50.2  0.4953  -55.4
 2.600  0.3338 -177.9   1.985   57.2  0.1511   50.9  0.4920  -56.9
 2.700  0.3337  177.6   1.927   55.0  0.1554   51.6  0.4900  -58.4
 2.800  0.3356  173.2   1.872   52.7  0.1597   52.2  0.4884  -59.9
 2.900  0.3371  169.5   1.824   50.6  0.1649   52.8  0.4862  -61.3
 3.000  0.3399  165.9   1.778   48.3  0.1701   53.3  0.4842  -62.7
 3.100  0.3409  162.4   1.733   46.6  0.1761   53.8  0.4829  -64.2
 3.200  0.3432  158.9   1.690   44.8  0.1820   54.3  0.4819  -65.7
 3.300  0.3467  155.5   1.648   42.9  0.1880   54.7  0.4813  -67.2
 3.400  0.3514  152.2   1.609   40.9  0.1940   55.1  0.4810  -68.8
 3.500  0.3573  149.0   1.571   38.8  0.2000   55.5  0.4810  -70.3
 3.600  0.3605  146.1   1.539   37.2  0.2073   55.5  0.4785  -72.0
 3.700  0.3646  143.3   1.508   35.5  0.2145   55.5  0.4765  -73.7
 3.800  0.3696  140.5   1.478   33.7  0.2218   55.5  0.4748  -75.4
 3.900  0.3754  137.8   1.450   31.9  0.2290   55.5  0.4736  -77.1
 4.000  0.3820  135.2   1.423   30.0  0.2363   55.5  0.4728  -78.8
 4.100  0.3871  132.6   1.396   28.4  0.2448   55.1  0.4685  -80.8
 4.200  0.3929  130.2   1.370   26.8  0.2533   54.8  0.4649  -82.9
 4.300  0.3994  127.8   1.345   25.1  0.2618   54.5  0.4618  -85.0
 4.400  0.4066  125.4   1.321   23.4  0.2703   54.2  0.4594  -87.2
 4.500  0.4145  123.2   1.299   21.6  0.2788   53.9  0.4576  -89.3
 4.600  0.4208  121.1   1.275   20.2  0.2877   53.3  0.4537  -91.8
 4.700  0.4277  119.1   1.251   18.8  0.2966   52.7  0.4507  -94.3
 4.800  0.4350  117.1   1.229   17.4  0.3056   52.1  0.4485  -96.9
 4.900  0.4429  115.2   1.207   15.9  0.3146   51.6  0.4473  -99.5
 5.000  0.4512  113.4   1.186   14.3  0.3236   51.1  0.4470 -102.1
 5.100  0.4563  111.6   1.167   13.1  0.3332   50.3  0.4467 -104.9
 5.200  0.4618  109.8   1.149   11.8  0.3428   49.5  0.4474 -107.7
 5.300  0.4678  108.1   1.131   10.5  0.3525   48.8  0.4491 -110.5
 5.400  0.4741  106.4   1.114    9.2  0.3623   48.1  0.4520 -113.2
 5.500  0.4809  104.8   1.098    7.8  0.3721   47.4  0.4558 -115.9
 5.600  0.4840  103.2   1.081    6.8  0.3815   46.3  0.4571 -118.5
 5.700  0.4875  101.7   1.064    5.7  0.3911   45.3  0.4593 -121.0
 5.800  0.4914  100.2   1.047    4.6  0.4008   44.3  0.4624 -123.6
 5.900  0.4956   98.7   1.031    3.5  0.4106   43.4  0.4663 -126.1
 6.000  0.5001   97.2   1.015    2.3  0.4205   42.5  0.4712 -128.5
!
!  f       NFmin   Gammaopt  rn/50
! GHz       dB    MAG  ANG    -
 0.450      0.84  0.56   18   0.32
 0.900      0.90  0.51   33   0.30
 1.900      1.35  0.31   81   0.23
 2.400      1.58  0.27   95   0.25
!
! (c) 2017  Infineon Technologies AG, Munich