! Infineon Technologies  Discrete & RF Semiconductors
! BFR181W
! VCE =  1.0 V,  IC =  1.0 mA
! Common Emitter S-Parameters:                            Jan 2017
# GHz  S  MA  R  50
!  f         S11            S21            S12            S22
! GHz     MAG   ANG      MAG   ANG      MAG   ANG      MAG   ANG
 0.010  0.9810    0.0   3.609 -179.4  0.0021   85.7  1.0000   -0.5
 0.020  0.9690   -3.1   3.609  178.7  0.0040   93.2  1.0000   -0.8
 0.030  0.9605   -3.4   3.595  178.0  0.0062   89.3  0.9995   -1.3
 0.040  0.9520   -3.7   3.581  177.2  0.0083   87.5  0.9985   -1.8
 0.050  0.9436   -4.0   3.568  176.5  0.0105   86.4  0.9975   -2.3
 0.060  0.9472   -4.9   3.563  175.7  0.0127   85.8  0.9969   -2.8
 0.070  0.9510   -5.9   3.558  174.9  0.0149   85.4  0.9964   -3.3
 0.080  0.9550   -6.8   3.554  174.2  0.0170   85.1  0.9959   -3.7
 0.090  0.9594   -7.7   3.551  173.4  0.0192   84.9  0.9955   -4.2
 0.100  0.9639   -8.6   3.548  172.6  0.0214   84.7  0.9952   -4.7
 0.110  0.9602   -9.6   3.544  171.9  0.0235   83.9  0.9941   -5.2
 0.120  0.9568  -10.5   3.541  171.1  0.0256   83.3  0.9930   -5.6
 0.130  0.9536  -11.5   3.538  170.4  0.0277   82.7  0.9921   -6.1
 0.140  0.9508  -12.5   3.536  169.6  0.0298   82.2  0.9912   -6.5
 0.150  0.9482  -13.5   3.534  168.9  0.0319   81.8  0.9903   -7.0
 0.200  0.9486  -17.3   3.499  164.6  0.0426   79.0  0.9831   -9.3
 0.250  0.9351  -22.1   3.491  160.8  0.0527   75.6  0.9749  -11.5
 0.300  0.9189  -26.3   3.445  157.0  0.0619   72.8  0.9645  -13.8
 0.350  0.9059  -30.3   3.398  153.4  0.0710   70.0  0.9523  -15.9
 0.400  0.8973  -34.3   3.365  149.8  0.0803   67.9  0.9413  -18.0
 0.450  0.8771  -38.3   3.300  146.4  0.0881   65.2  0.9271  -19.9
 0.500  0.8613  -42.5   3.246  142.9  0.0960   62.9  0.9139  -21.9
 0.600  0.8298  -50.5   3.133  136.1  0.1106   58.0  0.8832  -25.4
 0.700  0.7890  -57.9   3.001  129.6  0.1220   54.0  0.8524  -28.7
 0.800  0.7535  -65.2   2.889  123.7  0.1326   50.3  0.8216  -31.6
 0.900  0.7176  -72.3   2.761  118.0  0.1402   46.7  0.7916  -34.3
 1.000  0.6837  -78.8   2.640  112.9  0.1470   43.7  0.7622  -36.8
 1.100  0.6536  -85.4   2.523  108.0  0.1525   41.3  0.7371  -38.9
 1.200  0.6228  -91.7   2.410  103.3  0.1565   38.6  0.7112  -41.1
 1.300  0.5938  -97.7   2.306   98.7  0.1591   36.5  0.6886  -43.0
 1.400  0.5720 -103.3   2.208   94.7  0.1620   34.9  0.6669  -44.9
 1.500  0.5521 -109.6   2.128   90.8  0.1637   33.4  0.6486  -46.6
 1.600  0.5294 -115.2   2.031   86.9  0.1644   32.4  0.6345  -48.3
 1.700  0.5155 -120.8   1.964   83.6  0.1646   31.3  0.6155  -50.1
 1.800  0.4987 -126.3   1.904   80.0  0.1653   30.6  0.6004  -51.6
 1.900  0.4899 -131.9   1.841   76.9  0.1650   30.1  0.5881  -53.3
 2.000  0.4748 -137.4   1.783   73.3  0.1655   30.0  0.5780  -54.7
 2.100  0.4647 -142.4   1.726   70.3  0.1651   30.0  0.5686  -56.4
 2.200  0.4583 -147.5   1.674   67.1  0.1647   30.0  0.5598  -58.1
 2.300  0.4521 -152.4   1.621   64.3  0.1641   30.3  0.5526  -59.8
 2.400  0.4492 -157.4   1.572   61.3  0.1635   30.7  0.5460  -61.6
 2.500  0.4450 -161.9   1.525   58.8  0.1635   31.5  0.5403  -63.2
 2.600  0.4437 -166.5   1.481   56.1  0.1636   32.3  0.5351  -64.9
 2.700  0.4403 -171.1   1.442   53.6  0.1640   33.3  0.5320  -66.5
 2.800  0.4397 -175.7   1.406   51.0  0.1644   34.3  0.5294  -68.2
 2.900  0.4389 -179.8   1.374   48.5  0.1659   35.5  0.5262  -69.7
 3.000  0.4402  176.2   1.345   45.8  0.1675   36.6  0.5234  -71.2
 3.100  0.4386  172.5   1.312   43.9  0.1706   38.1  0.5212  -72.9
 3.200  0.4389  168.7   1.280   42.0  0.1738   39.5  0.5196  -74.6
 3.300  0.4411  165.0   1.250   39.9  0.1770   40.9  0.5183  -76.3
 3.400  0.4451  161.3   1.222   37.8  0.1804   42.2  0.5176  -78.1
 3.500  0.4509  157.7   1.195   35.5  0.1839   43.5  0.5173  -79.8
 3.600  0.4525  154.5   1.170   33.8  0.1899   44.5  0.5143  -81.7
 3.700  0.4555  151.2   1.147   32.0  0.1959   45.5  0.5119  -83.6
 3.800  0.4600  148.1   1.125   30.1  0.2019   46.4  0.5101  -85.6
 3.900  0.4658  145.0   1.104   28.2  0.2080   47.3  0.5089  -87.5
 4.000  0.4729  142.0   1.084   26.2  0.2142   48.1  0.5083  -89.5
 4.100  0.4763  139.1   1.063   24.6  0.2229   48.4  0.5036  -91.8
 4.200  0.4809  136.2   1.043   23.0  0.2315   48.8  0.4997  -94.2
 4.300  0.4867  133.4   1.024   21.3  0.2402   49.1  0.4967  -96.6
 4.400  0.4936  130.7   1.005   19.6  0.2489   49.3  0.4946  -99.0
 4.500  0.5016  128.0   0.988   17.8  0.2576   49.6  0.4933 -101.4
 4.600  0.5066  125.6   0.969   16.6  0.2676   49.4  0.4895 -104.2
 4.700  0.5124  123.3   0.950   15.3  0.2776   49.2  0.4868 -106.9
 4.800  0.5191  121.0   0.932   13.9  0.2877   49.0  0.4853 -109.8
 4.900  0.5266  118.8   0.915   12.5  0.2977   48.9  0.4850 -112.6
 5.000  0.5348  116.6   0.898   11.1  0.3077   48.7  0.4858 -115.4
 5.100  0.5384  114.6   0.884   10.1  0.3186   48.0  0.4859 -118.3
 5.200  0.5427  112.5   0.870    9.0  0.3295   47.3  0.4871 -121.2
 5.300  0.5476  110.6   0.856    7.9  0.3405   46.7  0.4896 -124.0
 5.400  0.5532  108.6   0.843    6.8  0.3515   46.1  0.4933 -126.8
 5.500  0.5594  106.7   0.830    5.6  0.3625   45.5  0.4982 -129.6
 5.600  0.5613  104.9   0.817    4.8  0.3731   44.4  0.4993 -132.2
 5.700  0.5637  103.2   0.805    4.0  0.3838   43.4  0.5015 -134.9
 5.800  0.5667  101.4   0.792    3.2  0.3946   42.5  0.5047 -137.4
 5.900  0.5701   99.7   0.780    2.4  0.4055   41.6  0.5089 -140.0
 6.000  0.5741   98.0   0.768    1.5  0.4165   40.7  0.5141 -142.5
!
!  f       NFmin   Gammaopt  rn/50
! GHz       dB    MAG  ANG    -
 0.450      0.87  0.69   18   0.51
 0.900      0.95  0.64   36   0.47
 1.900      1.56  0.44   83   0.32
 2.400      1.81  0.38   99   0.34
!
! (c) 2017  Infineon Technologies AG, Munich