! Infineon Technologies  Discrete & RF Semiconductors
! BFR181W
! VCE =  7.0 V,  IC =  4.0 mA
! Common Emitter S-Parameters:                            Jan 2017
# GHz  S  MA  R  50
!  f         S11            S21            S12            S22
! GHz     MAG   ANG      MAG   ANG      MAG   ANG      MAG   ANG
 0.010  0.8875   -0.9  12.633  179.1  0.0018   96.8  0.9990   -0.9
 0.020  0.8740   -4.8  12.528  176.7  0.0036  100.4  0.9898   -1.6
 0.030  0.8660   -6.0  12.449  175.4  0.0052   91.1  0.9901   -2.5
 0.040  0.8584   -7.2  12.376  174.1  0.0070   86.4  0.9907   -3.5
 0.050  0.8512   -8.4  12.310  172.8  0.0087   83.5  0.9915   -4.4
 0.060  0.8502  -10.2  12.241  171.4  0.0104   82.8  0.9874   -5.3
 0.070  0.8499  -12.0  12.180  169.9  0.0121   82.3  0.9835   -6.1
 0.080  0.8505  -13.7  12.126  168.5  0.0139   81.9  0.9798   -7.0
 0.090  0.8520  -15.5  12.080  167.0  0.0156   81.6  0.9764   -7.9
 0.100  0.8542  -17.3  12.043  165.5  0.0173   81.4  0.9732   -8.8
 0.110  0.8463  -19.0  11.965  164.2  0.0188   80.1  0.9685   -9.6
 0.120  0.8392  -20.7  11.893  162.8  0.0204   79.0  0.9641  -10.4
 0.130  0.8329  -22.5  11.828  161.5  0.0220   78.1  0.9598  -11.2
 0.140  0.8273  -24.3  11.770  160.1  0.0235   77.3  0.9557  -12.0
 0.150  0.8226  -26.1  11.718  158.7  0.0251   76.6  0.9518  -12.8
 0.200  0.7950  -33.6  11.256  151.9  0.0318   73.0  0.9208  -16.5
 0.250  0.7554  -41.3  10.804  145.7  0.0387   68.3  0.8875  -19.7
 0.300  0.7156  -48.4  10.245  140.1  0.0437   65.9  0.8517  -22.4
 0.350  0.6767  -54.3   9.700  135.5  0.0484   63.3  0.8172  -24.5
 0.400  0.6457  -60.8   9.224  130.4  0.0532   61.1  0.7840  -26.8
 0.450  0.6077  -66.0   8.702  126.6  0.0569   59.2  0.7536  -28.3
 0.500  0.5755  -71.9   8.222  122.4  0.0606   57.5  0.7237  -29.9
 0.600  0.5191  -82.0   7.387  115.5  0.0664   55.4  0.6726  -31.8
 0.700  0.4696  -91.1   6.648  109.5  0.0710   54.6  0.6308  -33.3
 0.800  0.4281  -99.6   6.047  104.4  0.0765   54.1  0.5972  -34.3
 0.900  0.3942 -107.2   5.514   99.9  0.0807   53.8  0.5698  -35.3
 1.000  0.3687 -114.6   5.079   95.9  0.0848   53.7  0.5456  -35.9
 1.100  0.3481 -122.0   4.693   92.3  0.0892   54.0  0.5281  -36.5
 1.200  0.3284 -128.9   4.360   88.7  0.0931   54.0  0.5114  -37.2
 1.300  0.3139 -135.2   4.068   85.5  0.0968   54.8  0.4981  -37.9
 1.400  0.3021 -141.3   3.823   82.6  0.1014   55.2  0.4856  -38.7
 1.500  0.2976 -147.5   3.603   79.8  0.1060   55.7  0.4761  -39.5
 1.600  0.2897 -153.5   3.404   77.0  0.1104   56.5  0.4686  -40.4
 1.700  0.2836 -158.8   3.230   74.6  0.1150   57.0  0.4599  -41.5
 1.800  0.2812 -163.9   3.084   72.1  0.1203   57.2  0.4526  -42.5
 1.900  0.2820 -169.1   2.945   69.8  0.1247   57.7  0.4472  -43.7
 2.000  0.2804 -174.0   2.814   67.4  0.1306   58.1  0.4425  -44.9
 2.100  0.2793 -178.4   2.703   65.2  0.1359   58.5  0.4379  -46.2
 2.200  0.2799  177.2   2.596   62.8  0.1413   58.8  0.4336  -47.6
 2.300  0.2830  173.1   2.502   60.7  0.1468   59.0  0.4309  -49.1
 2.400  0.2876  169.1   2.412   58.5  0.1523   59.2  0.4286  -50.7
 2.500  0.2900  165.8   2.329   56.6  0.1581   59.3  0.4264  -52.2
 2.600  0.2933  162.6   2.249   54.5  0.1640   59.4  0.4245  -53.7
 2.700  0.2972  158.9   2.181   52.6  0.1700   59.5  0.4236  -55.3
 2.800  0.3023  155.3   2.115   50.6  0.1761   59.5  0.4230  -56.9
 2.900  0.3054  152.3   2.057   48.7  0.1827   59.4  0.4215  -58.4
 3.000  0.3093  149.3   2.001   46.7  0.1893   59.3  0.4203  -59.9
 3.100  0.3128  146.5   1.950   45.2  0.1962   59.1  0.4194  -61.4
 3.200  0.3171  143.7   1.901   43.5  0.2031   58.9  0.4189  -63.0
 3.300  0.3221  141.1   1.853   41.8  0.2101   58.8  0.4186  -64.5
 3.400  0.3278  138.5   1.807   40.0  0.2170   58.6  0.4187  -66.1
 3.500  0.3341  136.0   1.763   38.1  0.2239   58.5  0.4190  -67.6
 3.600  0.3384  133.8   1.726   36.6  0.2314   58.0  0.4166  -69.3
 3.700  0.3433  131.6   1.690   35.1  0.2390   57.5  0.4145  -71.0
 3.800  0.3486  129.5   1.655   33.4  0.2466   57.0  0.4129  -72.8
 3.900  0.3543  127.5   1.622   31.8  0.2542   56.6  0.4116  -74.5
 4.000  0.3605  125.5   1.590   30.0  0.2618   56.2  0.4107  -76.3
 4.100  0.3664  123.5   1.561   28.5  0.2698   55.5  0.4064  -78.3
 4.200  0.3727  121.6   1.532   27.0  0.2779   54.8  0.4027  -80.4
 4.300  0.3794  119.7   1.505   25.4  0.2861   54.2  0.3995  -82.5
 4.400  0.3865  117.9   1.479   23.8  0.2942   53.6  0.3968  -84.6
 4.500  0.3940  116.2   1.454   22.1  0.3024   53.0  0.3947  -86.8
 4.600  0.4008  114.5   1.428   20.8  0.3106   52.2  0.3907  -89.3
 4.700  0.4080  112.9   1.402   19.4  0.3189   51.5  0.3875  -91.9
 4.800  0.4155  111.3   1.377   18.1  0.3273   50.9  0.3851  -94.4
 4.900  0.4233  109.8   1.353   16.6  0.3357   50.2  0.3835  -97.1
 5.000  0.4314  108.3   1.330   15.1  0.3441   49.6  0.3827  -99.7
 5.100  0.4367  106.8   1.310   13.9  0.3526   48.7  0.3823 -102.6
 5.200  0.4423  105.4   1.290   12.6  0.3612   47.9  0.3829 -105.4
 5.300  0.4481  104.0   1.272   11.3  0.3698   47.1  0.3845 -108.2
 5.400  0.4542  102.6   1.253   10.0  0.3785   46.3  0.3869 -111.0
 5.500  0.4606  101.3   1.236    8.6  0.3873   45.6  0.3903 -113.8
 5.600  0.4644   99.9   1.217    7.5  0.3958   44.5  0.3918 -116.4
 5.700  0.4684   98.6   1.199    6.4  0.4045   43.5  0.3942 -119.0
 5.800  0.4728   97.3   1.182    5.2  0.4133   42.5  0.3973 -121.5
 5.900  0.4773   96.0   1.165    4.0  0.4222   41.6  0.4012 -124.0
 6.000  0.4821   94.7   1.148    2.8  0.4312   40.7  0.4059 -126.5
!
!  f       NFmin   Gammaopt  rn/50
! GHz       dB    MAG  ANG    -
 0.450      0.92  0.39   16   0.24
 0.900      0.97  0.36   31   0.24
 1.900      1.40  0.20   79   0.20
 2.400      1.56  0.17   94   0.22
!
! (c) 2017  Infineon Technologies AG, Munich