! Infineon Technologies  Discrete & RF Semiconductors
! BFR181W
! VCE =  3.0 V,  IC =  17 mA
! Common Emitter S-Parameters:                            Jan 2017
# GHz  S  MA  R  50
!  f         S11            S21            S12            S22
! GHz     MAG   ANG      MAG   ANG      MAG   ANG      MAG   ANG
 0.010  0.5930   -5.9  31.149  176.4  0.0014   88.1  0.9659   -1.9
 0.020  0.5808  -14.6  30.820  171.5  0.0035   92.1  0.9555   -4.0
 0.030  0.5661  -20.4  30.107  167.7  0.0050   84.4  0.9440   -6.1
 0.040  0.5575  -26.4  29.531  163.8  0.0066   80.3  0.9339   -8.3
 0.050  0.5553  -32.6  29.100  159.7  0.0082   77.8  0.9251  -10.5
 0.060  0.5376  -37.8  28.103  156.7  0.0095   75.0  0.9055  -11.9
 0.070  0.5246  -43.3  27.189  153.5  0.0107   72.8  0.8864  -13.3
 0.080  0.5167  -49.0  26.364  150.1  0.0120   71.1  0.8679  -14.8
 0.090  0.5139  -54.8  25.638  146.5  0.0133   69.7  0.8501  -16.3
 0.100  0.5165  -60.6  25.020  142.7  0.0146   68.6  0.8328  -17.9
 0.110  0.5013  -64.7  24.135  140.6  0.0154   67.2  0.8146  -18.6
 0.120  0.4888  -69.1  23.286  138.3  0.0163   66.0  0.7965  -19.4
 0.130  0.4793  -73.6  22.475  135.9  0.0172   64.9  0.7786  -20.1
 0.140  0.4729  -78.3  21.708  133.3  0.0180   63.9  0.7608  -20.9
 0.150  0.4698  -83.1  20.989  130.5  0.0189   63.0  0.7432  -21.8
 0.200  0.4348  -99.8  17.586  121.2  0.0217   61.8  0.6746  -23.2
 0.250  0.4158 -113.5  15.020  114.5  0.0253   60.0  0.6260  -23.6
 0.300  0.3994 -124.4  12.983  109.3  0.0273   60.7  0.5897  -23.3
 0.350  0.3878 -131.8  11.571  106.0  0.0299   61.8  0.5679  -23.0
 0.400  0.3829 -139.5  10.207  101.8  0.0326   62.7  0.5461  -22.7
 0.450  0.3767 -145.2   9.257   99.3  0.0352   63.7  0.5336  -22.5
 0.500  0.3744 -151.0   8.329   96.3  0.0378   64.6  0.5212  -22.3
 0.600  0.3724 -159.6   7.042   91.8  0.0436   65.9  0.5059  -22.0
 0.700  0.3732 -166.3   6.092   88.1  0.0484   68.3  0.4946  -22.1
 0.800  0.3721 -172.5   5.378   84.6  0.0544   70.6  0.4867  -22.6
 0.900  0.3731 -177.7   4.798   81.6  0.0599   70.8  0.4806  -23.3
 1.000  0.3761  178.1   4.355   78.8  0.0662   71.8  0.4750  -24.0
 1.100  0.3806  174.1   3.976   76.2  0.0722   72.6  0.4720  -25.0
 1.200  0.3826  170.4   3.660   73.6  0.0781   72.9  0.4676  -26.1
 1.300  0.3845  166.6   3.391   71.0  0.0843   73.2  0.4646  -27.4
 1.400  0.3886  163.6   3.168   68.7  0.0913   73.6  0.4608  -28.7
 1.500  0.3936  160.9   2.968   66.5  0.0974   73.7  0.4577  -30.1
 1.600  0.3980  157.6   2.797   64.2  0.1042   73.8  0.4559  -31.6
 1.700  0.4009  154.9   2.643   62.1  0.1118   74.0  0.4525  -33.4
 1.800  0.4060  152.2   2.515   59.9  0.1185   73.7  0.4494  -35.1
 1.900  0.4119  150.0   2.395   58.0  0.1254   73.7  0.4476  -36.8
 2.000  0.4159  147.6   2.280   55.8  0.1322   73.5  0.4461  -38.7
 2.100  0.4194  145.2   2.185   53.8  0.1397   73.2  0.4437  -40.6
 2.200  0.4236  142.8   2.092   51.7  0.1473   72.9  0.4418  -42.6
 2.300  0.4294  140.7   2.016   49.9  0.1548   72.5  0.4407  -44.7
 2.400  0.4358  138.7   1.942   47.9  0.1624   72.1  0.4402  -46.8
 2.500  0.4393  136.7   1.873   46.1  0.1702   71.7  0.4393  -48.8
 2.600  0.4434  134.7   1.805   44.2  0.1780   71.3  0.4390  -50.9
 2.700  0.4496  132.7   1.747   42.5  0.1858   70.7  0.4389  -53.0
 2.800  0.4564  130.7   1.691   40.6  0.1936   70.1  0.4393  -55.1
 2.900  0.4602  128.8   1.641   38.9  0.2019   69.5  0.4385  -57.2
 3.000  0.4646  126.9   1.592   37.1  0.2103   68.9  0.4383  -59.3
 3.100  0.4682  124.9   1.550   35.7  0.2189   68.1  0.4373  -61.3
 3.200  0.4724  123.0   1.510   34.2  0.2276   67.4  0.4369  -63.3
 3.300  0.4771  121.1   1.470   32.6  0.2363   66.8  0.4370  -65.3
 3.400  0.4822  119.3   1.432   30.9  0.2450   66.2  0.4376  -67.3
 3.500  0.4879  117.5   1.395   29.1  0.2538   65.6  0.4388  -69.3
 3.600  0.4917  115.8   1.364   27.8  0.2626   64.6  0.4358  -71.4
 3.700  0.4959  114.1   1.334   26.4  0.2715   63.7  0.4334  -73.6
 3.800  0.5005  112.5   1.304   25.0  0.2805   62.8  0.4316  -75.7
 3.900  0.5056  110.9   1.276   23.5  0.2895   62.0  0.4304  -77.9
 4.000  0.5110  109.3   1.248   21.9  0.2986   61.2  0.4299  -80.1
 4.100  0.5150  107.8   1.224   20.6  0.3078   60.1  0.4248  -82.5
 4.200  0.5194  106.3   1.200   19.3  0.3171   59.0  0.4205  -85.0
 4.300  0.5242  104.8   1.177   17.9  0.3265   58.0  0.4170  -87.5
 4.400  0.5293  103.3   1.155   16.5  0.3360   57.1  0.4143  -90.0
 4.500  0.5347  101.9   1.133   15.0  0.3456   56.2  0.4124  -92.6
 4.600  0.5395  100.5   1.112   13.9  0.3545   55.1  0.4079  -95.5
 4.700  0.5446   99.2   1.091   12.8  0.3635   54.0  0.4044  -98.4
 4.800  0.5501   97.9   1.070   11.6  0.3727   52.9  0.4021 -101.4
 4.900  0.5557   96.6   1.050   10.4  0.3819   51.9  0.4008 -104.5
 5.000  0.5617   95.4   1.031    9.1  0.3913   51.0  0.4007 -107.5
 5.100  0.5650   94.1   1.015    8.1  0.4003   49.8  0.4002 -110.6
 5.200  0.5685   92.8   1.000    7.1  0.4094   48.7  0.4009 -113.7
 5.300  0.5724   91.6   0.985    6.1  0.4186   47.6  0.4027 -116.8
 5.400  0.5765   90.3   0.970    5.0  0.4281   46.6  0.4057 -119.8
 5.500  0.5809   89.1   0.956    3.9  0.4376   45.6  0.4098 -122.8
 5.600  0.5821   87.9   0.942    3.1  0.4460   44.3  0.4108 -125.6
 5.700  0.5836   86.7   0.928    2.3  0.4546   43.1  0.4127 -128.3
 5.800  0.5853   85.5   0.915    1.4  0.4634   41.9  0.4156 -131.0
 5.900  0.5873   84.3   0.901    0.5  0.4724   40.8  0.4194 -133.7
 6.000  0.5895   83.1   0.888   -0.4  0.4816   39.7  0.4241 -136.3
!
!  f       NFmin   Gammaopt  rn/50
! GHz       dB    MAG  ANG    -
!
! noise parameter not available yet for this operation point!
!
! (c) 2017  Infineon Technologies AG, Munich