! Infineon Technologies  Discrete & RF Semiconductors
! BFR181W
! VCE =  1.0 V,  IC =  29 mA
! Common Emitter S-Parameters:                            Jan 2017
# GHz  S  MA  R  50
!  f         S11            S21            S12            S22
! GHz     MAG   ANG      MAG   ANG      MAG   ANG      MAG   ANG
 0.010  0.2782  -38.3  26.148  169.8  0.0043   63.5  0.7563   -6.9
 0.020  0.3374  -69.0  24.866  158.9  0.0081   64.6  0.7273  -13.3
 0.030  0.3641  -87.9  22.589  152.4  0.0110   58.5  0.6778  -17.1
 0.040  0.4233 -102.8  20.670  144.5  0.0140   55.0  0.6317  -21.5
 0.050  0.5037 -113.6  19.215  135.2  0.0170   52.7  0.5900  -26.6
 0.060  0.5141 -120.6  17.701  132.4  0.0180   51.0  0.5582  -27.4
 0.070  0.5318 -127.3  16.239  129.0  0.0191   49.5  0.5265  -28.4
 0.080  0.5562 -133.4  14.843  125.0  0.0201   48.2  0.4950  -29.4
 0.090  0.5865 -139.0  13.534  120.2  0.0212   47.0  0.4637  -30.6
 0.100  0.6217 -144.0  12.341  114.4  0.0223   45.9  0.4326  -32.0
 0.110  0.6269 -146.7  11.608  112.9  0.0229   46.1  0.4182  -31.8
 0.120  0.6335 -149.4  10.884  111.1  0.0235   46.4  0.4037  -31.7
 0.130  0.6415 -152.0  10.172  109.1  0.0241   46.6  0.3893  -31.5
 0.140  0.6507 -154.5   9.474  106.8  0.0247   46.8  0.3748  -31.3
 0.150  0.6612 -157.0   8.794  104.2  0.0253   47.0  0.3604  -31.1
 0.200  0.6724 -164.4   6.748   97.3  0.0274   47.6  0.3258  -29.2
 0.250  0.6808 -169.7   5.469   92.4  0.0309   50.7  0.3081  -28.0
 0.300  0.6850 -173.4   4.586   88.5  0.0335   53.6  0.2953  -27.1
 0.350  0.6867 -176.3   4.027   85.8  0.0372   56.8  0.2890  -27.1
 0.400  0.6901 -179.1   3.479   82.2  0.0409   59.5  0.2828  -27.1
 0.450  0.6906  178.8   3.133   79.9  0.0444   61.3  0.2790  -27.6
 0.500  0.6921  176.7   2.793   77.1  0.0479   62.9  0.2753  -28.2
 0.600  0.6960  173.0   2.340   72.3  0.0557   65.5  0.2697  -30.1
 0.700  0.6986  169.9   2.012   68.0  0.0624   68.2  0.2655  -32.2
 0.800  0.7037  166.9   1.768   63.8  0.0715   69.6  0.2622  -34.9
 0.900  0.7028  164.1   1.574   60.0  0.0798   70.2  0.2579  -38.1
 1.000  0.7079  161.4   1.427   56.3  0.0884   71.3  0.2530  -41.1
 1.100  0.7136  158.8   1.301   52.8  0.0976   71.6  0.2507  -44.5
 1.200  0.7160  156.2   1.195   49.3  0.1065   71.7  0.2470  -47.9
 1.300  0.7192  153.8   1.104   46.1  0.1161   71.9  0.2441  -51.7
 1.400  0.7244  151.4   1.031   43.0  0.1260   71.8  0.2393  -55.8
 1.500  0.7295  149.0   0.961   40.1  0.1355   71.5  0.2364  -59.8
 1.600  0.7360  146.7   0.905   37.2  0.1459   71.0  0.2343  -63.9
 1.700  0.7394  144.2   0.851   34.7  0.1558   70.5  0.2312  -68.6
 1.800  0.7450  141.8   0.808   32.0  0.1663   69.8  0.2290  -73.2
 1.900  0.7474  139.8   0.763   30.1  0.1764   69.2  0.2275  -77.5
 2.000  0.7506  137.4   0.723   27.7  0.1872   68.3  0.2281  -82.3
 2.100  0.7532  135.0   0.689   25.9  0.1979   67.3  0.2270  -87.0
 2.200  0.7571  132.6   0.655   24.0  0.2086   66.4  0.2275  -91.8
 2.300  0.7602  130.5   0.626   22.5  0.2193   65.2  0.2281  -96.4
 2.400  0.7644  128.4   0.597   20.9  0.2300   64.2  0.2302 -100.9
 2.500  0.7647  126.2   0.572   19.9  0.2403   63.1  0.2317 -105.2
 2.600  0.7661  124.1   0.548   18.8  0.2506   62.0  0.2345 -109.5
 2.700  0.7682  122.0   0.528   18.1  0.2609   60.8  0.2364 -113.3
 2.800  0.7713  120.0   0.508   17.4  0.2713   59.6  0.2394 -117.1
 2.900  0.7711  117.9   0.490   17.0  0.2813   58.3  0.2405 -120.9
 3.000  0.7720  115.8   0.473   16.5  0.2915   57.1  0.2426 -124.6
 3.100  0.7706  113.8   0.463   16.5  0.3008   55.7  0.2417 -128.0
 3.200  0.7700  111.8   0.453   16.5  0.3103   54.3  0.2416 -131.4
 3.300  0.7704  109.9   0.442   16.5  0.3200   53.1  0.2424 -134.8
 3.400  0.7718  107.9   0.432   16.5  0.3298   51.9  0.2440 -138.2
 3.500  0.7740  105.9   0.422   16.5  0.3397   50.8  0.2465 -141.5
 3.600  0.7714  104.1   0.419   16.8  0.3478   49.3  0.2448 -145.0
 3.700  0.7695  102.3   0.415   17.2  0.3561   47.9  0.2439 -148.5
 3.800  0.7684  100.5   0.412   17.6  0.3646   46.6  0.2440 -152.0
 3.900  0.7681   98.7   0.408   17.9  0.3732   45.3  0.2451 -155.5
 4.000  0.7685   96.9   0.405   18.3  0.3821   44.1  0.2470 -159.0
 4.100  0.7647   95.3   0.406   18.4  0.3890   42.7  0.2464 -162.8
 4.200  0.7616   93.7   0.407   18.6  0.3962   41.3  0.2468 -166.6
 4.300  0.7590   92.0   0.408   18.7  0.4036   39.9  0.2483 -170.4
 4.400  0.7571   90.4   0.409   18.9  0.4112   38.6  0.2509 -174.1
 4.500  0.7558   88.7   0.410   19.0  0.4190   37.4  0.2545 -177.7
 4.600  0.7532   87.5   0.413   19.0  0.4246   36.2  0.2572  179.1
 4.700  0.7509   86.3   0.415   19.0  0.4304   35.0  0.2606  176.0
 4.800  0.7490   85.1   0.418   18.9  0.4364   33.8  0.2648  173.0
 4.900  0.7474   83.8   0.420   18.9  0.4426   32.7  0.2696  170.1
 5.000  0.7461   82.6   0.423   18.9  0.4489   31.6  0.2752  167.3
 5.100  0.7437   81.4   0.428   18.5  0.4538   30.4  0.2801  165.2
 5.200  0.7416   80.2   0.433   18.2  0.4589   29.3  0.2854  163.1
 5.300  0.7399   79.0   0.439   17.9  0.4642   28.2  0.2910  161.1
 5.400  0.7385   77.8   0.444   17.5  0.4696   27.1  0.2970  159.2
 5.500  0.7374   76.6   0.449   17.2  0.4752   26.1  0.3033  157.4
 5.600  0.7336   75.6   0.453   16.7  0.4796   25.0  0.3062  155.9
 5.700  0.7300   74.5   0.458   16.3  0.4842   23.9  0.3094  154.5
 5.800  0.7267   73.5   0.462   15.9  0.4889   22.8  0.3127  153.1
 5.900  0.7236   72.5   0.467   15.4  0.4938   21.7  0.3162  151.7
 6.000  0.7207   71.4   0.471   15.0  0.4989   20.7  0.3199  150.4
!
!  f       NFmin   Gammaopt  rn/50
! GHz       dB    MAG  ANG    -
!
! noise parameter not available yet for this operation point!
!
! (c) 2017  Infineon Technologies AG, Munich