! Infineon Technologies  Discrete & RF Semiconductors
! BFR181W
! VCE =  8.0 V,  IC =  10 mA
! Common Emitter S-Parameters:                            Jan 2017
# GHz  S  MA  R  50
!  f         S11            S21            S12            S22
! GHz     MAG   ANG      MAG   ANG      MAG   ANG      MAG   ANG
 0.010  0.7501   -2.1  24.896  177.3  0.0013  101.6  0.9934   -1.4
 0.020  0.7331   -7.4  24.383  174.2  0.0030   97.7  0.9834   -2.8
 0.030  0.7253  -10.0  24.176  171.9  0.0046   88.8  0.9801   -4.4
 0.040  0.7189  -12.6  24.007  169.6  0.0062   84.5  0.9775   -5.9
 0.050  0.7140  -15.2  23.877  167.3  0.0079   82.0  0.9756   -7.5
 0.060  0.7048  -18.1  23.513  165.1  0.0094   80.5  0.9649   -8.8
 0.070  0.6975  -21.0  23.184  162.9  0.0109   79.5  0.9547  -10.1
 0.080  0.6919  -23.9  22.892  160.6  0.0123   78.7  0.9451  -11.5
 0.090  0.6883  -27.0  22.638  158.2  0.0138   78.0  0.9360  -12.9
 0.100  0.6866  -30.0  22.423  155.8  0.0153   77.5  0.9274  -14.3
 0.110  0.6724  -32.6  22.019  153.9  0.0164   75.8  0.9151  -15.3
 0.120  0.6597  -35.3  21.640  152.0  0.0175   74.3  0.9031  -16.3
 0.130  0.6485  -38.1  21.287  149.9  0.0186   72.9  0.8914  -17.4
 0.140  0.6389  -40.9  20.962  147.9  0.0198   71.8  0.8800  -18.5
 0.150  0.6309  -43.9  20.665  145.7  0.0209   70.7  0.8689  -19.6
 0.200  0.5766  -54.9  18.686  136.8  0.0257   68.9  0.8049  -23.5
 0.250  0.5221  -65.8  16.914  129.6  0.0306   65.6  0.7471  -26.3
 0.300  0.4750  -74.8  15.243  123.6  0.0334   64.0  0.6957  -28.0
 0.350  0.4371  -81.8  13.889  119.4  0.0366   62.9  0.6572  -28.9
 0.400  0.4068  -89.9  12.623  114.4  0.0398   62.0  0.6188  -29.9
 0.450  0.3772  -95.6  11.606  111.3  0.0426   62.2  0.5915  -30.1
 0.500  0.3520 -102.2  10.629  107.6  0.0454   62.4  0.5643  -30.4
 0.600  0.3190 -113.2   9.161  102.1  0.0515   61.9  0.5277  -30.4
 0.700  0.2917 -123.1   8.005   97.5  0.0560   63.8  0.5003  -30.3
 0.800  0.2735 -132.4   7.127   93.4  0.0625   64.2  0.4799  -30.4
 0.900  0.2610 -140.5   6.396   90.0  0.0679   64.5  0.4649  -30.5
 1.000  0.2513 -147.9   5.824   86.9  0.0734   65.8  0.4518  -30.6
 1.100  0.2476 -154.7   5.335   84.2  0.0793   66.2  0.4437  -31.0
 1.200  0.2432 -161.1   4.921   81.3  0.0854   66.3  0.4351  -31.4
 1.300  0.2383 -167.6   4.565   78.7  0.0908   66.6  0.4281  -32.1
 1.400  0.2397 -172.3   4.271   76.3  0.0976   66.9  0.4216  -32.9
 1.500  0.2419 -177.2   4.007   74.1  0.1034   67.1  0.4161  -33.8
 1.600  0.2436  178.0   3.774   71.8  0.1103   67.0  0.4126  -34.7
 1.700  0.2440  173.8   3.569   69.7  0.1160   67.4  0.4073  -35.9
 1.800  0.2472  170.1   3.397   67.6  0.1227   66.8  0.4031  -37.1
 1.900  0.2532  166.3   3.237   65.7  0.1288   66.9  0.4002  -38.5
 2.000  0.2563  162.8   3.088   63.6  0.1355   66.7  0.3970  -39.9
 2.100  0.2583  159.6   2.961   61.7  0.1420   66.4  0.3945  -41.4
 2.200  0.2610  156.5   2.838   59.6  0.1486   66.1  0.3922  -43.0
 2.300  0.2678  153.4   2.733   57.8  0.1554   65.8  0.3900  -44.7
 2.400  0.2754  150.5   2.632   55.8  0.1622   65.5  0.3881  -46.4
 2.500  0.2780  148.0   2.540   54.1  0.1690   65.1  0.3872  -48.1
 2.600  0.2811  145.6   2.450   52.2  0.1758   64.7  0.3866  -49.9
 2.700  0.2875  143.1   2.373   50.5  0.1827   64.3  0.3859  -51.5
 2.800  0.2944  140.7   2.299   48.7  0.1896   63.9  0.3855  -53.2
 2.900  0.2987  138.4   2.233   47.0  0.1969   63.4  0.3846  -54.9
 3.000  0.3034  136.2   2.169   45.2  0.2042   62.9  0.3840  -56.7
 3.100  0.3072  134.0   2.113   43.7  0.2114   62.2  0.3829  -58.4
 3.200  0.3115  131.9   2.058   42.2  0.2186   61.6  0.3822  -60.0
 3.300  0.3162  129.8   2.005   40.6  0.2259   61.0  0.3818  -61.7
 3.400  0.3212  127.8   1.954   38.9  0.2331   60.5  0.3817  -63.4
 3.500  0.3267  125.9   1.904   37.1  0.2404   60.0  0.3820  -65.1
 3.600  0.3315  124.2   1.864   35.7  0.2480   59.3  0.3793  -66.8
 3.700  0.3366  122.5   1.825   34.3  0.2556   58.6  0.3770  -68.6
 3.800  0.3420  120.9   1.787   32.8  0.2633   57.9  0.3751  -70.4
 3.900  0.3476  119.3   1.750   31.2  0.2710   57.3  0.3735  -72.2
 4.000  0.3535  117.8   1.715   29.6  0.2787   56.7  0.3723  -74.0
 4.100  0.3595  116.2   1.684   28.2  0.2867   55.8  0.3681  -76.0
 4.200  0.3658  114.6   1.654   26.8  0.2947   55.0  0.3645  -78.1
 4.300  0.3723  113.1   1.625   25.3  0.3028   54.2  0.3613  -80.3
 4.400  0.3791  111.7   1.597   23.8  0.3110   53.4  0.3586  -82.4
 4.500  0.3861  110.3   1.570   22.2  0.3192   52.7  0.3564  -84.6
 4.600  0.3930  108.9   1.542   20.9  0.3271   51.8  0.3523  -87.2
 4.700  0.4001  107.6   1.515   19.6  0.3351   50.9  0.3490  -89.9
 4.800  0.4073  106.3   1.489   18.3  0.3431   50.1  0.3464  -92.6
 4.900  0.4148  105.1   1.464   16.9  0.3512   49.3  0.3447  -95.3
 5.000  0.4225  103.9   1.440   15.4  0.3594   48.5  0.3437  -98.1
 5.100  0.4280  102.6   1.419   14.2  0.3674   47.5  0.3432 -101.0
 5.200  0.4337  101.3   1.399   12.9  0.3756   46.6  0.3435 -104.0
 5.300  0.4397  100.1   1.379   11.6  0.3838   45.7  0.3448 -106.9
 5.400  0.4458   98.9   1.360   10.3  0.3921   44.9  0.3470 -109.8
 5.500  0.4521   97.7   1.342    8.9  0.4005   44.1  0.3500 -112.7
 5.600  0.4553   96.6   1.322    7.8  0.4083   43.0  0.3516 -115.4
 5.700  0.4587   95.5   1.303    6.6  0.4163   41.9  0.3540 -118.0
 5.800  0.4623   94.4   1.285    5.5  0.4243   40.9  0.3572 -120.6
 5.900  0.4660   93.3   1.266    4.2  0.4326   39.9  0.3610 -123.2
 6.000  0.4699   92.3   1.249    3.0  0.4409   39.0  0.3656 -125.7
!
!  f       NFmin   Gammaopt  rn/50
! GHz       dB    MAG  ANG    -
 0.450      1.24  0.15   16   0.21
 0.900      1.29  0.14   31   0.21
 1.900      1.71  0.03  142   0.20
 2.400      1.88  0.02 -166   0.24
!
! (c) 2017  Infineon Technologies AG, Munich