! Infineon Technologies  Discrete & RF Semiconductors
! BFR181W
! VCE =  2.0 V,  IC =  15 mA
! Common Emitter S-Parameters:                            Jan 2017
# GHz  S  MA  R  50
!  f         S11            S21            S12            S22
! GHz     MAG   ANG      MAG   ANG      MAG   ANG      MAG   ANG
 0.010  0.6098   -6.7  28.896  176.3  0.0015   83.2  0.9542   -2.1
 0.020  0.5995  -16.1  28.546  171.0  0.0041   93.7  0.9468   -4.3
 0.030  0.5830  -22.3  27.832  167.1  0.0057   83.3  0.9332   -6.5
 0.040  0.5737  -28.9  27.255  163.0  0.0074   77.6  0.9210   -8.7
 0.050  0.5721  -35.5  26.824  158.7  0.0091   74.0  0.9103  -11.0
 0.060  0.5526  -41.1  25.838  155.6  0.0104   71.7  0.8896  -12.3
 0.070  0.5388  -47.1  24.932  152.4  0.0118   70.0  0.8694  -13.7
 0.080  0.5310  -53.3  24.114  148.8  0.0131   68.6  0.8497  -15.2
 0.090  0.5297  -59.6  23.393  145.1  0.0144   67.4  0.8307  -16.7
 0.100  0.5348  -65.9  22.779  141.1  0.0158   66.5  0.8122  -18.3
 0.110  0.5201  -70.3  21.927  139.0  0.0167   65.1  0.7940  -19.0
 0.120  0.5086  -74.9  21.108  136.7  0.0176   63.8  0.7760  -19.7
 0.130  0.5006  -79.7  20.325  134.2  0.0185   62.7  0.7581  -20.4
 0.140  0.4961  -84.6  19.583  131.6  0.0195   61.6  0.7403  -21.2
 0.150  0.4954  -89.6  18.886  128.7  0.0204   60.7  0.7226  -22.0
 0.200  0.4672 -106.2  15.710  119.5  0.0233   59.1  0.6562  -23.1
 0.250  0.4504 -119.9  13.348  112.8  0.0268   57.6  0.6097  -23.3
 0.300  0.4409 -130.4  11.509  107.7  0.0287   58.1  0.5764  -22.9
 0.350  0.4309 -137.5  10.233  104.4  0.0314   59.0  0.5566  -22.5
 0.400  0.4278 -144.8   9.000  100.2  0.0341   59.7  0.5368  -22.1
 0.450  0.4234 -150.0   8.154   97.7  0.0365   60.9  0.5256  -22.0
 0.500  0.4225 -155.2   7.326   94.7  0.0390   61.9  0.5144  -21.8
 0.600  0.4211 -163.5   6.187   90.2  0.0442   64.4  0.5001  -21.6
 0.700  0.4224 -169.6   5.347   86.5  0.0490   66.4  0.4905  -21.9
 0.800  0.4242 -175.5   4.717   82.9  0.0555   68.5  0.4835  -22.5
 0.900  0.4254  179.9   4.208   79.8  0.0604   69.3  0.4780  -23.4
 1.000  0.4265  175.7   3.820   77.0  0.0666   70.3  0.4724  -24.2
 1.100  0.4309  171.9   3.486   74.3  0.0728   71.5  0.4696  -25.4
 1.200  0.4345  168.3   3.209   71.6  0.0789   71.6  0.4657  -26.6
 1.300  0.4358  164.8   2.972   69.0  0.0853   72.6  0.4625  -28.0
 1.400  0.4404  161.9   2.779   66.6  0.0922   73.1  0.4589  -29.5
 1.500  0.4446  159.0   2.603   64.3  0.0988   73.3  0.4561  -31.0
 1.600  0.4503  156.1   2.454   61.9  0.1054   73.3  0.4544  -32.7
 1.700  0.4522  153.6   2.321   59.7  0.1121   73.6  0.4508  -34.5
 1.800  0.4561  150.8   2.206   57.4  0.1193   73.6  0.4480  -36.3
 1.900  0.4624  148.7   2.101   55.5  0.1267   73.4  0.4462  -38.2
 2.000  0.4671  146.2   2.001   53.2  0.1343   73.1  0.4443  -40.3
 2.100  0.4708  143.8   1.917   51.2  0.1418   72.9  0.4422  -42.3
 2.200  0.4753  141.4   1.836   49.1  0.1493   72.8  0.4407  -44.4
 2.300  0.4808  139.3   1.768   47.2  0.1571   72.4  0.4394  -46.5
 2.400  0.4869  137.3   1.703   45.1  0.1650   72.0  0.4387  -48.7
 2.500  0.4899  135.3   1.642   43.3  0.1730   71.5  0.4379  -50.9
 2.600  0.4934  133.4   1.582   41.4  0.1810   71.0  0.4378  -53.2
 2.700  0.4989  131.3   1.531   39.6  0.1891   70.4  0.4375  -55.4
 2.800  0.5051  129.3   1.482   37.7  0.1973   69.9  0.4378  -57.5
 2.900  0.5090  127.4   1.438   36.0  0.2059   69.3  0.4372  -59.7
 3.000  0.5134  125.5   1.396   34.2  0.2146   68.7  0.4373  -61.9
 3.100  0.5167  123.5   1.359   32.8  0.2235   67.9  0.4360  -64.0
 3.200  0.5207  121.6   1.322   31.3  0.2325   67.1  0.4353  -66.2
 3.300  0.5252  119.6   1.287   29.7  0.2416   66.4  0.4352  -68.3
 3.400  0.5303  117.8   1.252   28.1  0.2506   65.8  0.4358  -70.5
 3.500  0.5360  115.9   1.219   26.3  0.2597   65.2  0.4369  -72.6
 3.600  0.5395  114.2   1.192   25.0  0.2689   64.2  0.4337  -74.8
 3.700  0.5435  112.5   1.165   23.7  0.2781   63.2  0.4311  -77.1
 3.800  0.5479  110.8   1.140   22.3  0.2874   62.3  0.4292  -79.4
 3.900  0.5529  109.2   1.114   20.8  0.2968   61.5  0.4280  -81.7
 4.000  0.5582  107.6   1.090   19.3  0.3062   60.7  0.4275  -84.0
 4.100  0.5612  106.0   1.068   18.1  0.3156   59.5  0.4223  -86.6
 4.200  0.5646  104.4   1.047   16.9  0.3252   58.4  0.4180  -89.2
 4.300  0.5685  102.8   1.027   15.6  0.3349   57.3  0.4146  -91.9
 4.400  0.5728  101.2   1.007   14.2  0.3447   56.3  0.4121  -94.6
 4.500  0.5775   99.7   0.987   12.8  0.3546   55.4  0.4105  -97.3
 4.600  0.5815   98.3   0.968   11.8  0.3637   54.2  0.4061 -100.3
 4.700  0.5858   97.0   0.950   10.8  0.3729   53.0  0.4028 -103.4
 4.800  0.5905   95.7   0.932    9.8  0.3823   51.9  0.4007 -106.5
 4.900  0.5954   94.4   0.914    8.7  0.3918   50.9  0.3998 -109.7
 5.000  0.6007   93.1   0.897    7.6  0.4014   49.9  0.4001 -112.8
 5.100  0.6031   91.8   0.884    6.8  0.4103   48.7  0.3997 -116.0
 5.200  0.6058   90.5   0.871    5.9  0.4194   47.5  0.4006 -119.1
 5.300  0.6089   89.2   0.858    5.0  0.4287   46.3  0.4027 -122.3
 5.400  0.6122   87.9   0.845    4.1  0.4381   45.2  0.4060 -125.4
 5.500  0.6159   86.6   0.833    3.1  0.4477   44.2  0.4104 -128.4
 5.600  0.6163   85.4   0.821    2.4  0.4557   42.9  0.4116 -131.2
 5.700  0.6170   84.2   0.810    1.7  0.4640   41.6  0.4138 -134.0
 5.800  0.6179   83.0   0.798    1.0  0.4724   40.4  0.4169 -136.7
 5.900  0.6191   81.9   0.787    0.3  0.4811   39.2  0.4210 -139.4
 6.000  0.6205   80.7   0.776   -0.5  0.4900   38.1  0.4260 -142.0
!
!  f       NFmin   Gammaopt  rn/50
! GHz       dB    MAG  ANG    -
 0.450      1.47  0.04   14   0.21
 0.900      1.52  0.04   31   0.21
 1.900      1.95  0.13 -139   0.22
 2.400      2.20  0.16 -109   0.28
!
! (c) 2017  Infineon Technologies AG, Munich