! Infineon Technologies  Discrete & RF Semiconductors
! BFR181W
! VCE =  3.0 V,  IC =  18 mA
! Common Emitter S-Parameters:                            Jan 2017
# GHz  S  MA  R  50
!  f         S11            S21            S12            S22
! GHz     MAG   ANG      MAG   ANG      MAG   ANG      MAG   ANG
 0.010  0.5752   -6.6  31.461  176.1  0.0016   96.6  0.9600   -2.0
 0.020  0.5655  -15.9  31.155  170.9  0.0034   86.1  0.9589   -4.3
 0.030  0.5494  -22.1  30.348  167.0  0.0051   80.3  0.9433   -6.4
 0.040  0.5402  -28.6  29.689  162.9  0.0069   77.4  0.9289   -8.5
 0.050  0.5381  -35.3  29.190  158.6  0.0086   75.7  0.9159  -10.7
 0.060  0.5193  -40.9  28.111  155.6  0.0099   73.4  0.8950  -12.0
 0.070  0.5059  -46.8  27.118  152.3  0.0111   71.6  0.8747  -13.5
 0.080  0.4981  -53.0  26.219  148.8  0.0124   70.2  0.8549  -14.9
 0.090  0.4962  -59.3  25.424  145.1  0.0137   69.1  0.8357  -16.5
 0.100  0.5004  -65.6  24.745  141.1  0.0150   68.1  0.8172  -18.1
 0.110  0.4868  -70.0  23.820  139.0  0.0158   66.7  0.7992  -18.7
 0.120  0.4762  -74.5  22.930  136.7  0.0165   65.5  0.7814  -19.4
 0.130  0.4687  -79.3  22.079  134.3  0.0173   64.4  0.7636  -20.0
 0.140  0.4645  -84.2  21.271  131.6  0.0181   63.3  0.7459  -20.8
 0.150  0.4638  -89.1  20.512  128.8  0.0189   62.4  0.7284  -21.5
 0.200  0.4367 -105.9  17.050  119.6  0.0217   62.0  0.6627  -22.6
 0.250  0.4189 -119.3  14.485  113.0  0.0243   59.5  0.6173  -22.8
 0.300  0.4089 -129.5  12.482  108.0  0.0272   60.8  0.5841  -22.3
 0.350  0.3996 -136.8  11.103  104.8  0.0297   62.3  0.5645  -22.0
 0.400  0.3972 -144.4   9.770  100.6  0.0322   63.6  0.5449  -21.6
 0.450  0.3926 -149.7   8.854   98.2  0.0346   64.6  0.5336  -21.4
 0.500  0.3914 -155.1   7.957   95.3  0.0371   65.5  0.5223  -21.2
 0.600  0.3898 -162.9   6.719   90.9  0.0427   67.1  0.5091  -21.1
 0.700  0.3912 -169.4   5.807   87.2  0.0477   69.2  0.4994  -21.3
 0.800  0.3927 -175.1   5.123   83.7  0.0541   71.0  0.4926  -21.8
 0.900  0.3925 -179.9   4.571   80.7  0.0592   71.5  0.4867  -22.7
 1.000  0.3961  176.1   4.148   78.0  0.0651   72.6  0.4812  -23.6
 1.100  0.4009  172.3   3.786   75.4  0.0714   73.5  0.4789  -24.7
 1.200  0.4037  168.5   3.486   72.7  0.0774   73.6  0.4752  -25.8
 1.300  0.4041  165.0   3.226   70.2  0.0838   74.0  0.4717  -27.2
 1.400  0.4099  162.0   3.017   67.9  0.0905   74.3  0.4682  -28.6
 1.500  0.4150  159.3   2.825   65.7  0.0969   74.5  0.4648  -30.0
 1.600  0.4188  156.3   2.663   63.4  0.1041   74.7  0.4636  -31.6
 1.700  0.4217  153.7   2.518   61.2  0.1106   74.9  0.4600  -33.4
 1.800  0.4265  151.0   2.393   59.0  0.1176   74.6  0.4577  -35.1
 1.900  0.4312  149.1   2.280   57.1  0.1248   74.5  0.4555  -37.0
 2.000  0.4356  146.4   2.171   54.9  0.1321   74.4  0.4537  -38.9
 2.100  0.4402  144.0   2.081   52.9  0.1394   74.1  0.4514  -40.9
 2.200  0.4455  141.7   1.993   50.8  0.1468   73.8  0.4497  -42.9
 2.300  0.4510  139.6   1.919   49.0  0.1547   73.3  0.4485  -45.0
 2.400  0.4570  137.6   1.848   47.0  0.1627   72.9  0.4479  -47.1
 2.500  0.4598  135.6   1.782   45.2  0.1705   72.5  0.4470  -49.2
 2.600  0.4632  133.7   1.718   43.3  0.1783   72.1  0.4467  -51.4
 2.700  0.4698  131.7   1.663   41.6  0.1864   71.5  0.4465  -53.5
 2.800  0.4769  129.7   1.609   39.7  0.1946   70.9  0.4469  -55.6
 2.900  0.4801  127.7   1.561   38.0  0.2030   70.3  0.4462  -57.7
 3.000  0.4839  125.8   1.515   36.2  0.2115   69.7  0.4462  -59.9
 3.100  0.4876  123.9   1.475   34.8  0.2202   68.9  0.4451  -61.9
 3.200  0.4918  122.1   1.436   33.3  0.2290   68.1  0.4447  -64.0
 3.300  0.4964  120.2   1.398   31.7  0.2378   67.4  0.4447  -66.0
 3.400  0.5016  118.4   1.362   30.1  0.2466   66.8  0.4454  -68.1
 3.500  0.5073  116.7   1.326   28.3  0.2555   66.2  0.4466  -70.1
 3.600  0.5107  115.0   1.297   27.0  0.2646   65.2  0.4435  -72.2
 3.700  0.5145  113.3   1.268   25.6  0.2738   64.2  0.4409  -74.4
 3.800  0.5188  111.6   1.240   24.2  0.2830   63.3  0.4390  -76.6
 3.900  0.5235  110.0   1.212   22.7  0.2923   62.5  0.4378  -78.8
 4.000  0.5286  108.4   1.186   21.2  0.3017   61.7  0.4372  -81.0
 4.100  0.5323  106.8   1.163   19.9  0.3110   60.5  0.4319  -83.5
 4.200  0.5363  105.3   1.141   18.6  0.3205   59.4  0.4275  -86.0
 4.300  0.5408  103.8   1.119   17.3  0.3300   58.4  0.4240  -88.6
 4.400  0.5456  102.3   1.097   15.9  0.3397   57.4  0.4213  -91.2
 4.500  0.5508  100.8   1.077   14.4  0.3494   56.5  0.4195  -93.9
 4.600  0.5553   99.5   1.057   13.4  0.3584   55.3  0.4150  -96.8
 4.700  0.5600   98.1   1.037   12.3  0.3676   54.2  0.4115  -99.8
 4.800  0.5651   96.8   1.017   11.2  0.3769   53.2  0.4092 -102.7
 4.900  0.5704   95.6   0.998   10.0  0.3863   52.2  0.4080 -105.8
 5.000  0.5760   94.3   0.979    8.8  0.3958   51.2  0.4079 -108.8
 5.100  0.5791   93.0   0.964    7.9  0.4047   50.0  0.4072 -111.9
 5.200  0.5825   91.7   0.950    6.9  0.4137   48.8  0.4076 -115.0
 5.300  0.5861   90.5   0.936    5.9  0.4229   47.7  0.4093 -118.1
 5.400  0.5901   89.2   0.922    4.9  0.4323   46.6  0.4121 -121.2
 5.500  0.5943   88.0   0.909    3.9  0.4418   45.6  0.4161 -124.2
 5.600  0.5955   86.8   0.896    3.1  0.4503   44.3  0.4171 -127.0
 5.700  0.5969   85.6   0.884    2.3  0.4590   43.1  0.4191 -129.7
 5.800  0.5986   84.4   0.871    1.5  0.4679   41.9  0.4221 -132.4
 5.900  0.6005   83.2   0.859    0.7  0.4770   40.7  0.4259 -135.1
 6.000  0.6027   82.0   0.847   -0.2  0.4863   39.6  0.4307 -137.7
!
!  f       NFmin   Gammaopt  rn/50
! GHz       dB    MAG  ANG    -
!
! noise parameter not available yet for this operation point!
!
! (c) 2017  Infineon Technologies AG, Munich