! Infineon Technologies  Discrete & RF Semiconductors
! BFR181W
! VCE =  3.0 V,  IC =  11 mA
! Common Emitter S-Parameters:                            Jan 2017
# GHz  S  MA  R  50
!  f         S11            S21            S12            S22
! GHz     MAG   ANG      MAG   ANG      MAG   ANG      MAG   ANG
 0.010  0.7047   -3.2  26.242  177.7  0.0013   90.3  0.9892   -1.6
 0.020  0.6924   -9.2  25.925  174.0  0.0029  100.0  0.9804   -3.2
 0.030  0.6818  -12.5  25.627  171.3  0.0045   89.9  0.9748   -4.9
 0.040  0.6735  -15.9  25.389  168.5  0.0061   85.1  0.9702   -6.7
 0.050  0.6677  -19.4  25.213  165.6  0.0078   82.4  0.9665   -8.5
 0.060  0.6558  -22.8  24.717  163.1  0.0094   80.5  0.9533   -9.9
 0.070  0.6463  -26.4  24.268  160.5  0.0110   79.2  0.9408  -11.3
 0.080  0.6393  -30.0  23.871  157.9  0.0126   78.2  0.9288  -12.8
 0.090  0.6349  -33.7  23.527  155.1  0.0143   77.4  0.9174  -14.3
 0.100  0.6332  -37.4  23.239  152.3  0.0159   76.8  0.9067  -15.8
 0.110  0.6175  -40.4  22.710  150.3  0.0170   74.8  0.8914  -16.8
 0.120  0.6035  -43.6  22.209  148.2  0.0181   73.0  0.8764  -17.9
 0.130  0.5915  -46.9  21.740  146.0  0.0192   71.4  0.8618  -19.0
 0.140  0.5816  -50.4  21.303  143.8  0.0204   70.0  0.8474  -20.1
 0.150  0.5738  -53.9  20.901  141.4  0.0215   68.8  0.8334  -21.3
 0.200  0.5197  -67.0  18.496  132.1  0.0259   64.7  0.7631  -24.8
 0.250  0.4723  -79.1  16.431  124.8  0.0297   62.4  0.7040  -27.0
 0.300  0.4327  -89.7  14.600  119.0  0.0326   61.2  0.6534  -28.1
 0.350  0.4020  -97.3  13.196  115.1  0.0357   61.0  0.6179  -28.5
 0.400  0.3795 -106.0  11.870  110.2  0.0388   60.9  0.5825  -29.0
 0.450  0.3589 -112.4  10.859  107.2  0.0414   61.3  0.5593  -29.0
 0.500  0.3433 -119.5   9.883  103.7  0.0441   61.7  0.5362  -29.1
 0.600  0.3209 -131.0   8.460   98.5  0.0501   62.2  0.5051  -28.7
 0.700  0.3069 -140.7   7.365   94.2  0.0544   64.2  0.4827  -28.5
 0.800  0.2975 -148.9   6.532   90.4  0.0613   65.5  0.4674  -28.5
 0.900  0.2907 -156.2   5.850   87.0  0.0667   65.3  0.4552  -28.7
 1.000  0.2887 -162.7   5.321   84.1  0.0720   66.8  0.4444  -29.0
 1.100  0.2879 -168.5   4.865   81.3  0.0783   67.4  0.4380  -29.4
 1.200  0.2894 -173.9   4.484   78.6  0.0839   67.6  0.4306  -30.0
 1.300  0.2862 -179.1   4.157   76.0  0.0901   67.9  0.4256  -30.9
 1.400  0.2899  176.8   3.887   73.6  0.0965   68.2  0.4200  -31.7
 1.500  0.2939  173.1   3.645   71.4  0.1028   68.6  0.4155  -32.7
 1.600  0.2968  169.2   3.433   69.0  0.1092   68.5  0.4129  -33.9
 1.700  0.2987  165.4   3.247   66.9  0.1159   68.6  0.4080  -35.3
 1.800  0.3032  162.2   3.091   64.8  0.1224   68.5  0.4040  -36.6
 1.900  0.3085  159.5   2.945   62.9  0.1291   68.3  0.4016  -38.0
 2.000  0.3130  156.5   2.806   60.7  0.1360   68.1  0.3998  -39.7
 2.100  0.3164  153.6   2.690   58.8  0.1429   67.9  0.3969  -41.3
 2.200  0.3205  150.8   2.578   56.7  0.1498   67.8  0.3943  -43.0
 2.300  0.3267  148.3   2.484   54.8  0.1567   67.3  0.3928  -44.8
 2.400  0.3334  145.9   2.392   52.8  0.1637   66.9  0.3917  -46.7
 2.500  0.3371  143.6   2.308   51.1  0.1706   66.5  0.3906  -48.5
 2.600  0.3413  141.4   2.226   49.2  0.1776   66.2  0.3899  -50.4
 2.700  0.3470  139.2   2.155   47.5  0.1850   65.7  0.3898  -52.3
 2.800  0.3531  137.1   2.087   45.7  0.1924   65.3  0.3902  -54.1
 2.900  0.3582  134.9   2.027   44.0  0.2000   64.7  0.3891  -55.9
 3.000  0.3639  132.8   1.968   42.1  0.2076   64.2  0.3885  -57.8
 3.100  0.3680  130.8   1.917   40.6  0.2152   63.6  0.3878  -59.6
 3.200  0.3725  128.8   1.868   39.1  0.2229   63.0  0.3875  -61.4
 3.300  0.3775  126.9   1.820   37.5  0.2305   62.4  0.3875  -63.1
 3.400  0.3829  125.0   1.774   35.8  0.2382   61.9  0.3879  -64.9
 3.500  0.3887  123.2   1.729   34.0  0.2459   61.4  0.3887  -66.7
 3.600  0.3932  121.5   1.692   32.6  0.2539   60.6  0.3862  -68.6
 3.700  0.3981  119.8   1.656   31.2  0.2619   59.8  0.3841  -70.5
 3.800  0.4033  118.2   1.621   29.6  0.2700   59.1  0.3825  -72.4
 3.900  0.4089  116.6   1.587   28.1  0.2781   58.4  0.3813  -74.4
 4.000  0.4147  115.0   1.555   26.4  0.2862   57.8  0.3805  -76.3
 4.100  0.4201  113.4   1.526   25.0  0.2945   56.8  0.3760  -78.5
 4.200  0.4258  111.9   1.497   23.6  0.3028   55.9  0.3720  -80.8
 4.300  0.4317  110.4   1.470   22.1  0.3113   55.1  0.3686  -83.1
 4.400  0.4380  109.0   1.443   20.5  0.3197   54.3  0.3658  -85.4
 4.500  0.4445  107.6   1.418   18.9  0.3283   53.5  0.3637  -87.8
 4.600  0.4510  106.3   1.392   17.7  0.3364   52.6  0.3597  -90.5
 4.700  0.4578  105.0   1.367   16.4  0.3446   51.7  0.3566  -93.3
 4.800  0.4648  103.7   1.343   15.1  0.3528   50.8  0.3543  -96.1
 4.900  0.4720  102.5   1.319   13.7  0.3612   50.0  0.3529  -98.9
 5.000  0.4794  101.3   1.296   12.3  0.3696   49.2  0.3523 -101.8
 5.100  0.4838  100.0   1.276   11.2  0.3778   48.2  0.3521 -104.8
 5.200  0.4885   98.7   1.257   10.0  0.3862   47.2  0.3528 -107.9
 5.300  0.4934   97.5   1.238    8.7  0.3946   46.3  0.3546 -110.9
 5.400  0.4985   96.3   1.220    7.5  0.4032   45.4  0.3573 -113.9
 5.500  0.5039   95.1   1.203    6.2  0.4118   44.5  0.3610 -116.8
 5.600  0.5072   93.9   1.185    5.2  0.4200   43.4  0.3626 -119.5
 5.700  0.5106   92.7   1.167    4.1  0.4283   42.3  0.3650 -122.3
 5.800  0.5143   91.6   1.150    3.0  0.4368   41.3  0.3682 -124.9
 5.900  0.5182   90.4   1.133    1.9  0.4454   40.3  0.3722 -127.5
 6.000  0.5223   89.3   1.117    0.7  0.4541   39.3  0.3769 -130.1
!
!  f       NFmin   Gammaopt  rn/50
! GHz       dB    MAG  ANG    -
 0.450      1.29  0.12   17   0.21
 0.900      1.33  0.12   31   0.21
 1.900      1.76  0.04 -171   0.20
 2.400      1.95  0.05 -122   0.25
!
! (c) 2017  Infineon Technologies AG, Munich