! Infineon Technologies  Discrete & RF Semiconductors
! BFR181W
! VCE =  12. V,  IC =  5.0 mA
! Common Emitter S-Parameters:                            Jan 2017
# GHz  S  MA  R  50
!  f         S11            S21            S12            S22
! GHz     MAG   ANG      MAG   ANG      MAG   ANG      MAG   ANG
 0.010  0.8750   -1.0  14.932  178.2  0.0014   77.3  0.9955   -1.0
 0.020  0.8520   -4.8  14.611  176.0  0.0032   93.6  0.9925   -1.7
 0.030  0.8471   -6.3  14.547  174.6  0.0048   90.1  0.9904   -2.8
 0.040  0.8428   -7.8  14.491  173.1  0.0065   88.3  0.9886   -3.8
 0.050  0.8390   -9.3  14.445  171.7  0.0081   87.3  0.9871   -4.9
 0.060  0.8368  -11.2  14.345  170.2  0.0097   85.0  0.9824   -5.8
 0.070  0.8356  -13.1  14.254  168.7  0.0114   83.5  0.9780   -6.8
 0.080  0.8352  -15.0  14.174  167.1  0.0131   82.3  0.9738   -7.7
 0.090  0.8358  -16.9  14.104  165.6  0.0147   81.3  0.9699   -8.6
 0.100  0.8373  -18.8  14.045  164.0  0.0164   80.6  0.9663   -9.6
 0.110  0.8280  -20.6  13.930  162.6  0.0179   79.0  0.9603  -10.4
 0.120  0.8195  -22.5  13.823  161.1  0.0195   77.7  0.9545  -11.3
 0.130  0.8120  -24.4  13.726  159.6  0.0211   76.5  0.9489  -12.1
 0.140  0.8053  -26.3  13.638  158.1  0.0226   75.6  0.9435  -13.0
 0.150  0.7996  -28.3  13.560  156.6  0.0242   74.7  0.9384  -13.9
 0.200  0.7655  -36.3  12.904  149.3  0.0301   71.6  0.9017  -17.7
 0.250  0.7226  -44.5  12.296  142.9  0.0367   67.3  0.8640  -20.9
 0.300  0.6767  -51.9  11.545  137.2  0.0415   64.7  0.8238  -23.6
 0.350  0.6348  -57.8  10.849  132.5  0.0457   62.8  0.7871  -25.6
 0.400  0.6004  -64.4  10.234  127.3  0.0500   61.2  0.7515  -27.7
 0.450  0.5630  -69.7   9.599  123.6  0.0532   59.6  0.7202  -28.9
 0.500  0.5311  -75.7   9.008  119.5  0.0565   58.2  0.6893  -30.3
 0.600  0.4729  -85.7   8.015  112.8  0.0622   56.1  0.6401  -31.9
 0.700  0.4254  -94.7   7.160  107.1  0.0664   56.3  0.6004  -33.0
 0.800  0.3877 -103.0   6.480  102.2  0.0724   56.1  0.5690  -33.7
 0.900  0.3576 -110.9   5.880   97.9  0.0764   55.8  0.5432  -34.3
 1.000  0.3331 -118.5   5.398   94.2  0.0808   56.0  0.5216  -34.8
 1.100  0.3127 -125.3   4.978   90.8  0.0857   57.0  0.5063  -35.2
 1.200  0.2965 -132.8   4.614   87.4  0.0898   57.2  0.4910  -35.8
 1.300  0.2820 -138.8   4.296   84.4  0.0945   57.8  0.4796  -36.5
 1.400  0.2729 -144.9   4.034   81.6  0.1000   58.3  0.4688  -37.2
 1.500  0.2693 -151.0   3.798   79.0  0.1047   59.1  0.4600  -37.9
 1.600  0.2620 -156.8   3.584   76.4  0.1093   59.4  0.4539  -38.7
 1.700  0.2582 -162.3   3.397   74.1  0.1148   59.7  0.4460  -39.8
 1.800  0.2557 -167.7   3.241   71.6  0.1200   60.1  0.4391  -40.9
 1.900  0.2569 -172.2   3.093   69.5  0.1255   60.3  0.4345  -41.9
 2.000  0.2576 -177.3   2.955   67.1  0.1310   60.5  0.4303  -43.2
 2.100  0.2573  178.4   2.837   65.0  0.1367   60.7  0.4263  -44.5
 2.200  0.2584  174.2   2.722   62.8  0.1425   60.9  0.4225  -45.9
 2.300  0.2624  170.2   2.623   60.8  0.1485   61.0  0.4199  -47.4
 2.400  0.2677  166.3   2.528   58.6  0.1546   61.0  0.4176  -49.0
 2.500  0.2697  163.0   2.441   56.8  0.1606   60.9  0.4156  -50.5
 2.600  0.2725  159.8   2.356   54.8  0.1666   60.9  0.4138  -52.0
 2.700  0.2764  156.3   2.284   53.0  0.1729   60.7  0.4131  -53.5
 2.800  0.2813  153.0   2.214   51.1  0.1792   60.6  0.4127  -55.1
 2.900  0.2849  150.1   2.152   49.3  0.1859   60.4  0.4112  -56.6
 3.000  0.2893  147.2   2.092   47.3  0.1927   60.2  0.4100  -58.2
 3.100  0.2931  144.5   2.039   45.8  0.1996   59.9  0.4092  -59.7
 3.200  0.2975  141.8   1.987   44.2  0.2065   59.6  0.4088  -61.2
 3.300  0.3026  139.3   1.937   42.5  0.2134   59.4  0.4086  -62.8
 3.400  0.3082  136.8   1.889   40.8  0.2204   59.1  0.4087  -64.3
 3.500  0.3144  134.4   1.843   38.9  0.2273   58.9  0.4091  -65.8
 3.600  0.3188  132.3   1.804   37.4  0.2347   58.3  0.4066  -67.5
 3.700  0.3237  130.2   1.767   35.9  0.2422   57.8  0.4045  -69.2
 3.800  0.3290  128.1   1.731   34.4  0.2497   57.2  0.4027  -70.9
 3.900  0.3347  126.2   1.696   32.7  0.2572   56.8  0.4013  -72.6
 4.000  0.3408  124.3   1.663   31.0  0.2647   56.3  0.4003  -74.3
 4.100  0.3465  122.4   1.632   29.6  0.2725   55.6  0.3959  -76.3
 4.200  0.3526  120.5   1.603   28.0  0.2804   54.9  0.3920  -78.3
 4.300  0.3590  118.8   1.574   26.5  0.2883   54.2  0.3885  -80.3
 4.400  0.3657  117.1   1.547   24.9  0.2962   53.6  0.3856  -82.4
 4.500  0.3728  115.4   1.521   23.2  0.3042   53.0  0.3832  -84.5
 4.600  0.3799  113.8   1.494   21.9  0.3121   52.2  0.3792  -87.0
 4.700  0.3872  112.3   1.468   20.6  0.3201   51.5  0.3759  -89.5
 4.800  0.3948  110.9   1.443   19.2  0.3282   50.8  0.3734  -92.0
 4.900  0.4026  109.4   1.418   17.8  0.3363   50.1  0.3715  -94.6
 5.000  0.4107  108.1   1.395   16.3  0.3444   49.5  0.3705  -97.2
 5.100  0.4160  106.7   1.374   15.1  0.3527   48.6  0.3700 -100.0
 5.200  0.4216  105.3   1.353   13.8  0.3610   47.8  0.3704 -102.9
 5.300  0.4274  103.9   1.334   12.5  0.3694   47.0  0.3717 -105.7
 5.400  0.4334  102.6   1.314   11.2  0.3779   46.2  0.3739 -108.5
 5.500  0.4397  101.3   1.296    9.8  0.3865   45.5  0.3770 -111.2
 5.600  0.4436  100.0   1.277    8.7  0.3948   44.5  0.3783 -113.8
 5.700  0.4477   98.7   1.258    7.5  0.4033   43.5  0.3805 -116.4
 5.800  0.4521   97.4   1.240    6.4  0.4118   42.5  0.3833 -118.9
 5.900  0.4566   96.2   1.222    5.1  0.4205   41.6  0.3870 -121.4
 6.000  0.4614   95.0   1.205    3.9  0.4293   40.7  0.3913 -123.9
!
!  f       NFmin   Gammaopt  rn/50
! GHz       dB    MAG  ANG    -
 0.450      0.97  0.33   16   0.23
 0.900      1.03  0.30   30   0.23
 1.900      1.44  0.15   80   0.20
 2.400      1.59  0.13   94   0.22
!
! (c) 2017  Infineon Technologies AG, Munich