! Infineon Technologies  Discrete & RF Semiconductors
! BFR181W
! VCE =  3.0 V,  IC =  13 mA
! Common Emitter S-Parameters:                            Jan 2017
# GHz  S  MA  R  50
!  f         S11            S21            S12            S22
! GHz     MAG   ANG      MAG   ANG      MAG   ANG      MAG   ANG
 0.010  0.6662   -3.8  28.585  177.3  0.0012   90.2  0.9838   -1.7
 0.020  0.6534  -10.5  28.264  173.2  0.0027   86.5  0.9744   -3.4
 0.030  0.6411  -14.5  27.844  170.1  0.0045   81.4  0.9672   -5.3
 0.040  0.6320  -18.6  27.505  167.0  0.0062   79.1  0.9611   -7.2
 0.050  0.6262  -22.8  27.251  163.8  0.0080   77.9  0.9561   -9.2
 0.060  0.6120  -26.7  26.595  161.1  0.0094   76.0  0.9404  -10.6
 0.070  0.6008  -30.8  25.999  158.3  0.0109   74.5  0.9252  -12.1
 0.080  0.5928  -35.1  25.468  155.4  0.0124   73.4  0.9108  -13.7
 0.090  0.5882  -39.4  25.007  152.3  0.0138   72.6  0.8970  -15.3
 0.100  0.5869  -43.8  24.619  149.2  0.0153   71.9  0.8839  -16.9
 0.110  0.5705  -47.1  23.958  147.1  0.0164   70.5  0.8673  -17.8
 0.120  0.5560  -50.6  23.331  145.0  0.0175   69.3  0.8509  -18.8
 0.130  0.5438  -54.3  22.739  142.7  0.0186   68.2  0.8348  -19.8
 0.140  0.5338  -58.1  22.185  140.2  0.0197   67.3  0.8190  -20.8
 0.150  0.5263  -62.0  21.673  137.7  0.0208   66.4  0.8034  -21.9
 0.200  0.4768  -76.5  18.812  128.4  0.0243   65.4  0.7307  -24.9
 0.250  0.4357  -89.7  16.491  121.2  0.0281   61.7  0.6729  -26.5
 0.300  0.4034 -100.5  14.499  115.6  0.0306   61.5  0.6254  -27.2
 0.350  0.3778 -108.4  13.037  111.9  0.0337   61.6  0.5941  -27.2
 0.400  0.3603 -117.2  11.645  107.2  0.0368   61.7  0.5629  -27.3
 0.450  0.3461 -123.7  10.612  104.4  0.0390   62.4  0.5431  -27.2
 0.500  0.3367 -130.7   9.609  101.1  0.0413   63.0  0.5234  -27.0
 0.600  0.3225 -141.2   8.187   96.2  0.0475   64.3  0.4976  -26.6
 0.700  0.3142 -150.3   7.106   92.1  0.0524   65.8  0.4797  -26.2
 0.800  0.3100 -157.9   6.291   88.4  0.0588   67.4  0.4676  -26.4
 0.900  0.3068 -164.6   5.627   85.2  0.0643   67.6  0.4579  -26.7
 1.000  0.3059 -170.2   5.111   82.3  0.0700   68.7  0.4492  -27.0
 1.100  0.3094 -175.2   4.671   79.7  0.0761   69.4  0.4438  -27.6
 1.200  0.3082  179.8   4.304   77.0  0.0824   69.3  0.4381  -28.4
 1.300  0.3098  175.4   3.988   74.4  0.0883   69.8  0.4334  -29.4
 1.400  0.3125  171.7   3.728   72.1  0.0954   70.2  0.4286  -30.4
 1.500  0.3182  168.3   3.494   69.9  0.1014   70.4  0.4248  -31.4
 1.600  0.3206  164.6   3.293   67.6  0.1081   70.2  0.4228  -32.8
 1.700  0.3250  161.7   3.112   65.5  0.1141   70.5  0.4186  -34.2
 1.800  0.3282  158.7   2.962   63.3  0.1214   70.2  0.4152  -35.6
 1.900  0.3343  156.1   2.821   61.4  0.1280   70.1  0.4131  -37.1
 2.000  0.3388  153.3   2.687   59.3  0.1350   69.8  0.4109  -38.9
 2.100  0.3427  150.4   2.576   57.4  0.1419   69.5  0.4083  -40.6
 2.200  0.3475  147.6   2.468   55.3  0.1488   69.3  0.4060  -42.4
 2.300  0.3532  145.4   2.377   53.4  0.1560   68.9  0.4047  -44.3
 2.400  0.3594  143.2   2.289   51.4  0.1633   68.5  0.4039  -46.2
 2.500  0.3632  141.2   2.208   49.7  0.1705   68.1  0.4029  -48.1
 2.600  0.3674  139.2   2.130   47.8  0.1778   67.7  0.4024  -50.0
 2.700  0.3734  137.0   2.062   46.1  0.1853   67.2  0.4023  -52.0
 2.800  0.3799  134.9   1.996   44.3  0.1929   66.8  0.4027  -53.9
 2.900  0.3839  132.9   1.938   42.6  0.2003   66.2  0.4017  -55.8
 3.000  0.3883  130.9   1.882   40.7  0.2077   65.6  0.4012  -57.7
 3.100  0.3926  128.9   1.833   39.2  0.2157   64.9  0.4005  -59.6
 3.200  0.3973  127.0   1.785   37.7  0.2238   64.3  0.4003  -61.4
 3.300  0.4024  125.1   1.739   36.1  0.2319   63.7  0.4005  -63.3
 3.400  0.4080  123.3   1.694   34.4  0.2400   63.2  0.4011  -65.1
 3.500  0.4140  121.5   1.651   32.6  0.2481   62.7  0.4021  -67.0
 3.600  0.4183  119.8   1.616   31.2  0.2562   61.8  0.3995  -68.9
 3.700  0.4230  118.2   1.581   29.8  0.2644   61.0  0.3974  -70.9
 3.800  0.4279  116.6   1.548   28.3  0.2727   60.2  0.3958  -72.9
 3.900  0.4333  115.0   1.515   26.7  0.2810   59.5  0.3946  -74.9
 4.000  0.4389  113.5   1.484   25.1  0.2893   58.8  0.3939  -76.9
 4.100  0.4443  111.9   1.456   23.7  0.2978   57.8  0.3893  -79.2
 4.200  0.4500  110.3   1.428   22.3  0.3064   56.9  0.3853  -81.5
 4.300  0.4560  108.8   1.402   20.8  0.3151   56.0  0.3819  -83.8
 4.400  0.4624  107.3   1.376   19.3  0.3239   55.2  0.3792  -86.2
 4.500  0.4690  105.9   1.352   17.7  0.3327   54.4  0.3772  -88.6
 4.600  0.4749  104.6   1.327   16.5  0.3410   53.4  0.3731  -91.4
 4.700  0.4810  103.3   1.302   15.2  0.3495   52.5  0.3699  -94.2
 4.800  0.4873  102.1   1.279   13.9  0.3580   51.6  0.3676  -97.1
 4.900  0.4938  100.9   1.255   12.6  0.3666   50.7  0.3663 -100.0
 5.000  0.5006   99.7   1.233   11.2  0.3753   49.9  0.3659 -102.9
 5.100  0.5052   98.4   1.214   10.1  0.3837   48.8  0.3656 -106.0
 5.200  0.5100   97.2   1.196    8.9  0.3923   47.8  0.3663 -109.0
 5.300  0.5150   96.0   1.179    7.7  0.4010   46.8  0.3681 -112.1
 5.400  0.5203   94.8   1.162    6.5  0.4098   45.9  0.3709 -115.1
 5.500  0.5258   93.6   1.145    5.2  0.4187   45.0  0.3747 -118.0
 5.600  0.5285   92.4   1.127    4.2  0.4270   43.8  0.3761 -120.7
 5.700  0.5314   91.2   1.110    3.2  0.4355   42.7  0.3784 -123.4
 5.800  0.5345   90.1   1.093    2.2  0.4441   41.6  0.3815 -126.1
 5.900  0.5378   88.9   1.076    1.1  0.4529   40.5  0.3854 -128.7
 6.000  0.5414   87.8   1.060    0.0  0.4619   39.5  0.3901 -131.3
!
!  f       NFmin   Gammaopt  rn/50
! GHz       dB    MAG  ANG    -
 0.450      1.39  0.08   17   0.21
 0.900      1.43  0.08   31   0.21
 1.900      1.86  0.09 -144   0.21
 2.400      2.07  0.11 -109   0.26
!
! (c) 2017  Infineon Technologies AG, Munich