! Infineon Technologies  Discrete & RF Semiconductors
! BFR181W
! VCE =  10. V,  IC =  17 mA
! Common Emitter S-Parameters:                            Jan 2017
# GHz  S  MA  R  50
!  f         S11            S21            S12            S22
! GHz     MAG   ANG      MAG   ANG      MAG   ANG      MAG   ANG
 0.010  0.6714   -2.8  32.026  176.0  0.0014   88.1  0.9846   -1.5
 0.020  0.6609   -9.2  31.515  172.6  0.0028   92.2  0.9798   -3.3
 0.030  0.6491  -12.7  31.028  169.8  0.0042   83.9  0.9718   -5.2
 0.040  0.6399  -16.4  30.616  166.9  0.0057   79.9  0.9649   -7.1
 0.050  0.6333  -20.1  30.283  164.0  0.0072   77.5  0.9591   -9.1
 0.060  0.6196  -23.7  29.594  161.4  0.0086   76.3  0.9438  -10.5
 0.070  0.6084  -27.4  28.967  158.7  0.0100   75.4  0.9290  -12.0
 0.080  0.5999  -31.2  28.407  155.9  0.0115   74.8  0.9149  -13.5
 0.090  0.5941  -35.1  27.918  153.0  0.0129   74.3  0.9015  -15.1
 0.100  0.5911  -39.1  27.503  150.0  0.0143   73.9  0.8887  -16.7
 0.110  0.5745  -42.1  26.788  148.0  0.0153   72.6  0.8724  -17.7
 0.120  0.5595  -45.2  26.109  145.8  0.0163   71.5  0.8564  -18.7
 0.130  0.5463  -48.5  25.468  143.6  0.0173   70.5  0.8406  -19.7
 0.140  0.5350  -52.0  24.869  141.2  0.0184   69.6  0.8251  -20.8
 0.150  0.5258  -55.6  24.314  138.7  0.0194   68.8  0.8099  -21.9
 0.200  0.4693  -68.6  21.208  129.5  0.0225   67.0  0.7378  -24.9
 0.250  0.4207  -80.4  18.644  122.3  0.0266   64.7  0.6782  -26.7
 0.300  0.3805  -90.4  16.427  116.8  0.0294   64.3  0.6301  -27.5
 0.350  0.3510  -97.8  14.781  113.1  0.0324   64.7  0.5977  -27.6
 0.400  0.3283 -106.3  13.213  108.4  0.0355   65.0  0.5654  -27.7
 0.450  0.3085 -112.4  12.061  105.7  0.0382   65.4  0.5443  -27.6
 0.500  0.2926 -119.2  10.942  102.4  0.0410   65.8  0.5232  -27.4
 0.600  0.2709 -130.2   9.336   97.5  0.0469   66.4  0.4958  -26.9
 0.700  0.2564 -140.4   8.106   93.5  0.0523   68.1  0.4768  -26.5
 0.800  0.2488 -149.0   7.180   90.0  0.0592   69.1  0.4633  -26.5
 0.900  0.2418 -156.3   6.426   86.8  0.0642   68.9  0.4528  -26.7
 1.000  0.2405 -162.5   5.836   84.1  0.0705   70.1  0.4436  -26.9
 1.100  0.2391 -168.9   5.336   81.5  0.0773   70.1  0.4383  -27.3
 1.200  0.2400 -174.6   4.913   78.9  0.0830   70.3  0.4316  -27.9
 1.300  0.2386 -179.4   4.554   76.5  0.0892   70.4  0.4267  -28.8
 1.400  0.2406  176.3   4.257   74.3  0.0964   70.5  0.4217  -29.7
 1.500  0.2458  172.1   3.990   72.2  0.1023   70.6  0.4176  -30.7
 1.600  0.2492  168.6   3.759   69.9  0.1091   70.4  0.4153  -31.8
 1.700  0.2509  164.6   3.553   68.0  0.1156   70.2  0.4108  -33.1
 1.800  0.2542  161.5   3.378   65.9  0.1222   69.9  0.4072  -34.4
 1.900  0.2606  158.7   3.217   64.1  0.1283   69.8  0.4048  -35.8
 2.000  0.2645  155.5   3.066   62.1  0.1355   69.4  0.4025  -37.3
 2.100  0.2678  152.7   2.940   60.3  0.1423   68.9  0.4000  -38.9
 2.200  0.2717  149.9   2.817   58.3  0.1492   68.5  0.3979  -40.6
 2.300  0.2784  147.4   2.713   56.5  0.1562   68.1  0.3962  -42.3
 2.400  0.2857  145.0   2.612   54.6  0.1633   67.7  0.3949  -44.1
 2.500  0.2887  142.9   2.520   52.9  0.1701   67.2  0.3937  -45.9
 2.600  0.2921  140.8   2.430   51.1  0.1770   66.7  0.3929  -47.7
 2.700  0.2986  138.4   2.354   49.5  0.1840   66.2  0.3923  -49.4
 2.800  0.3056  136.1   2.280   47.7  0.1911   65.7  0.3921  -51.2
 2.900  0.3097  134.2   2.215   46.0  0.1985   65.1  0.3912  -53.0
 3.000  0.3141  132.4   2.151   44.3  0.2059   64.5  0.3907  -54.8
 3.100  0.3182  130.4   2.096   42.9  0.2133   63.8  0.3899  -56.5
 3.200  0.3226  128.4   2.042   41.4  0.2207   63.2  0.3894  -58.2
 3.300  0.3274  126.5   1.989   39.8  0.2282   62.6  0.3893  -59.9
 3.400  0.3326  124.7   1.938   38.1  0.2357   62.0  0.3895  -61.6
 3.500  0.3381  122.9   1.889   36.4  0.2432   61.5  0.3901  -63.3
 3.600  0.3426  121.3   1.849   35.0  0.2509   60.7  0.3876  -65.1
 3.700  0.3473  119.7   1.810   33.6  0.2586   59.9  0.3856  -66.9
 3.800  0.3523  118.1   1.773   32.1  0.2663   59.2  0.3839  -68.7
 3.900  0.3576  116.7   1.736   30.6  0.2741   58.5  0.3825  -70.5
 4.000  0.3631  115.2   1.701   29.0  0.2819   57.9  0.3816  -72.3
 4.100  0.3689  113.7   1.670   27.6  0.2899   56.9  0.3771  -74.4
 4.200  0.3750  112.2   1.639   26.2  0.2979   56.0  0.3730  -76.5
 4.300  0.3813  110.8   1.610   24.7  0.3061   55.2  0.3695  -78.6
 4.400  0.3878  109.4   1.582   23.1  0.3142   54.4  0.3665  -80.8
 4.500  0.3946  108.1   1.555   21.5  0.3225   53.6  0.3641  -83.0
 4.600  0.4012  106.9   1.527   20.3  0.3302   52.7  0.3599  -85.6
 4.700  0.4079  105.7   1.501   19.0  0.3381   51.8  0.3564  -88.2
 4.800  0.4148  104.5   1.475   17.6  0.3460   51.0  0.3537  -90.9
 4.900  0.4219  103.4   1.449   16.2  0.3540   50.2  0.3517  -93.6
 5.000  0.4291  102.3   1.425   14.8  0.3620   49.4  0.3506  -96.3
 5.100  0.4342  101.0   1.404   13.6  0.3699   48.4  0.3498  -99.3
 5.200  0.4396   99.8   1.383   12.4  0.3779   47.5  0.3499 -102.2
 5.300  0.4451   98.6   1.364   11.1  0.3860   46.6  0.3510 -105.2
 5.400  0.4509   97.4   1.344    9.8  0.3942   45.7  0.3530 -108.1
 5.500  0.4568   96.3   1.326    8.5  0.4025   44.9  0.3559 -111.0
 5.600  0.4601   95.1   1.306    7.4  0.4105   43.8  0.3572 -113.7
 5.700  0.4635   94.0   1.287    6.3  0.4186   42.8  0.3592 -116.3
 5.800  0.4672   92.9   1.269    5.1  0.4268   41.8  0.3620 -118.9
 5.900  0.4710   91.8   1.251    3.9  0.4351   40.8  0.3655 -121.5
 6.000  0.4750   90.7   1.233    2.7  0.4436   39.9  0.3698 -124.0
!
!  f       NFmin   Gammaopt  rn/50
! GHz       dB    MAG  ANG    -
!
! noise parameter not available yet for this operation point!
!
! (c) 2017  Infineon Technologies AG, Munich