! Infineon Technologies  Discrete & RF Semiconductors
! BFR181W
! VCE =  4.0 V,  IC =  3.0 mA
! Common Emitter S-Parameters:                            Jan 2017
# GHz  S  MA  R  50
!  f         S11            S21            S12            S22
! GHz     MAG   ANG      MAG   ANG      MAG   ANG      MAG   ANG
 0.010  0.9123   -0.7   9.974  179.7  0.0017   91.5  0.9997   -0.8
 0.020  0.9007   -4.3   9.942  177.3  0.0032   98.6  1.0000   -1.5
 0.030  0.8918   -5.3   9.888  176.2  0.0051   90.8  1.0000   -2.3
 0.040  0.8833   -6.3   9.839  175.0  0.0070   87.3  0.9984   -3.1
 0.050  0.8750   -7.4   9.793  173.9  0.0090   85.3  0.9951   -3.9
 0.060  0.8755   -8.9   9.749  172.6  0.0107   84.0  0.9921   -4.7
 0.070  0.8766  -10.5   9.709  171.4  0.0125   83.1  0.9893   -5.4
 0.080  0.8784  -12.0   9.674  170.1  0.0142   82.5  0.9867   -6.2
 0.090  0.8807  -13.5   9.644  168.8  0.0160   81.9  0.9842   -6.9
 0.100  0.8837  -15.0   9.619  167.5  0.0177   81.5  0.9819   -7.7
 0.110  0.8771  -16.5   9.576  166.3  0.0195   80.5  0.9783   -8.4
 0.120  0.8712  -18.1   9.536  165.1  0.0213   79.7  0.9749   -9.1
 0.130  0.8659  -19.7   9.502  163.9  0.0230   79.1  0.9717   -9.8
 0.140  0.8613  -21.3   9.471  162.6  0.0248   78.5  0.9686  -10.6
 0.150  0.8574  -22.9   9.445  161.4  0.0266   78.0  0.9656  -11.3
 0.200  0.8382  -29.7   9.155  155.2  0.0340   74.2  0.9415  -14.7
 0.250  0.8064  -36.9   8.893  149.5  0.0414   70.0  0.9163  -17.8
 0.300  0.7709  -43.3   8.534  144.2  0.0478   67.1  0.8852  -20.5
 0.350  0.7370  -49.0   8.167  139.7  0.0533   64.1  0.8553  -22.8
 0.400  0.7110  -55.2   7.855  134.8  0.0590   61.7  0.8269  -25.2
 0.450  0.6748  -60.3   7.477  131.0  0.0633   59.3  0.7983  -26.9
 0.500  0.6447  -66.0   7.136  126.8  0.0677   57.2  0.7704  -28.7
 0.600  0.5890  -75.8   6.506  119.6  0.0743   54.5  0.7204  -31.3
 0.700  0.5374  -84.9   5.923  113.3  0.0796   52.3  0.6767  -33.3
 0.800  0.4953  -93.3   5.439  107.9  0.0851   51.2  0.6400  -34.8
 0.900  0.4581 -100.8   4.996  103.0  0.0887   50.2  0.6095  -36.1
 1.000  0.4274 -108.5   4.626   98.7  0.0928   49.8  0.5827  -37.1
 1.100  0.4028 -115.5   4.294   94.8  0.0968   49.8  0.5626  -38.0
 1.200  0.3815 -122.4   4.004   91.0  0.1001   49.5  0.5428  -38.8
 1.300  0.3620 -128.8   3.747   87.5  0.1034   50.0  0.5274  -39.7
 1.400  0.3497 -134.7   3.528   84.4  0.1073   50.2  0.5130  -40.7
 1.500  0.3403 -141.0   3.336   81.4  0.1108   50.7  0.5010  -41.5
 1.600  0.3310 -146.7   3.156   78.4  0.1141   51.3  0.4926  -42.5
 1.700  0.3241 -152.5   3.000   75.8  0.1181   52.1  0.4819  -43.7
 1.800  0.3185 -157.6   2.869   73.1  0.1224   52.5  0.4737  -44.7
 1.900  0.3176 -162.6   2.744   70.7  0.1264   53.0  0.4669  -45.9
 2.000  0.3145 -168.0   2.627   68.0  0.1311   53.8  0.4616  -47.1
 2.100  0.3121 -172.5   2.525   65.7  0.1356   54.2  0.4564  -48.5
 2.200  0.3116 -177.1   2.427   63.2  0.1402   54.6  0.4515  -49.9
 2.300  0.3135  178.5   2.341   61.0  0.1454   55.1  0.4481  -51.4
 2.400  0.3173  174.2   2.258   58.6  0.1506   55.6  0.4451  -52.9
 2.500  0.3184  170.6   2.181   56.6  0.1559   55.9  0.4424  -54.4
 2.600  0.3207  167.1   2.107   54.4  0.1612   56.2  0.4401  -56.0
 2.700  0.3241  163.4   2.044   52.4  0.1668   56.5  0.4389  -57.5
 2.800  0.3289  159.7   1.983   50.3  0.1725   56.8  0.4380  -59.1
 2.900  0.3318  156.6   1.929   48.3  0.1787   56.9  0.4367  -60.6
 3.000  0.3356  153.6   1.878   46.2  0.1849   57.0  0.4356  -62.1
 3.100  0.3384  150.6   1.830   44.6  0.1916   57.0  0.4345  -63.7
 3.200  0.3422  147.7   1.784   42.9  0.1983   57.0  0.4338  -65.3
 3.300  0.3468  144.8   1.739   41.1  0.2051   57.0  0.4334  -66.8
 3.400  0.3522  142.0   1.696   39.2  0.2118   57.0  0.4333  -68.4
 3.500  0.3585  139.3   1.655   37.2  0.2185   57.0  0.4336  -70.0
 3.600  0.3627  136.9   1.620   35.7  0.2261   56.7  0.4311  -71.7
 3.700  0.3674  134.5   1.587   34.1  0.2337   56.3  0.4291  -73.4
 3.800  0.3728  132.3   1.554   32.4  0.2413   56.0  0.4274  -75.2
 3.900  0.3788  130.0   1.523   30.7  0.2489   55.8  0.4261  -76.9
 4.000  0.3853  127.9   1.494   28.9  0.2565   55.5  0.4252  -78.7
 4.100  0.3909  125.7   1.466   27.4  0.2648   54.9  0.4209  -80.8
 4.200  0.3971  123.6   1.439   25.9  0.2731   54.3  0.4172  -82.9
 4.300  0.4038  121.6   1.413   24.3  0.2814   53.8  0.4141  -85.1
 4.400  0.4110  119.6   1.389   22.6  0.2898   53.3  0.4115  -87.3
 4.500  0.4187  117.7   1.365   20.9  0.2982   52.8  0.4096  -89.5
 4.600  0.4252  115.9   1.340   19.6  0.3069   52.1  0.4058  -92.1
 4.700  0.4320  114.1   1.316   18.2  0.3156   51.4  0.4028  -94.7
 4.800  0.4393  112.4   1.292   16.8  0.3244   50.7  0.4007  -97.3
 4.900  0.4469  110.8   1.270   15.3  0.3332   50.1  0.3994 -100.0
 5.000  0.4549  109.2   1.248   13.8  0.3420   49.5  0.3990 -102.7
 5.100  0.4597  107.6   1.229   12.6  0.3508   48.6  0.3990 -105.6
 5.200  0.4649  106.1   1.210   11.4  0.3596   47.7  0.3999 -108.4
 5.300  0.4704  104.6   1.192   10.1  0.3685   46.9  0.4019 -111.2
 5.400  0.4762  103.1   1.174    8.8  0.3775   46.1  0.4048 -114.0
 5.500  0.4823  101.7   1.157    7.4  0.3866   45.4  0.4087 -116.8
 5.600  0.4858  100.3   1.139    6.3  0.3954   44.3  0.4104 -119.4
 5.700  0.4896   98.9   1.122    5.2  0.4043   43.3  0.4128 -122.0
 5.800  0.4937   97.6   1.105    4.1  0.4133   42.3  0.4161 -124.5
 5.900  0.4980   96.2   1.088    2.9  0.4224   41.4  0.4202 -127.0
 6.000  0.5026   94.9   1.072    1.7  0.4317   40.5  0.4251 -129.4
!
!  f       NFmin   Gammaopt  rn/50
! GHz       dB    MAG  ANG    -
 0.450      0.87  0.47   17   0.27
 0.900      0.93  0.42   32   0.26
 1.900      1.34  0.24   80   0.21
 2.400      1.55  0.21   94   0.23
!
! (c) 2017  Infineon Technologies AG, Munich