! Infineon Technologies  Discrete & RF Semiconductors
! BFR181W
! VCE =  4.0 V,  IC =  4.0 mA
! Common Emitter S-Parameters:                            Jan 2017
# GHz  S  MA  R  50
!  f         S11            S21            S12            S22
! GHz     MAG   ANG      MAG   ANG      MAG   ANG      MAG   ANG
 0.010  0.8812   -1.0  12.731  179.4  0.0015   91.0  0.9990   -0.9
 0.020  0.8691   -5.0  12.668  176.9  0.0031   95.3  1.0000   -1.8
 0.030  0.8604   -6.2  12.588  175.5  0.0051   88.6  0.9997   -2.7
 0.040  0.8521   -7.5  12.515  174.0  0.0071   85.6  0.9957   -3.7
 0.050  0.8442   -8.8  12.451  172.6  0.0091   84.0  0.9920   -4.6
 0.060  0.8431  -10.6  12.382  171.1  0.0108   83.3  0.9880   -5.5
 0.070  0.8429  -12.5  12.321  169.6  0.0125   82.7  0.9842   -6.4
 0.080  0.8435  -14.3  12.268  168.1  0.0142   82.3  0.9807   -7.3
 0.090  0.8450  -16.2  12.224  166.6  0.0159   82.0  0.9774   -8.2
 0.100  0.8474  -18.0  12.189  165.1  0.0176   81.7  0.9743   -9.1
 0.110  0.8391  -19.8  12.101  163.7  0.0192   80.1  0.9688   -9.9
 0.120  0.8317  -21.6  12.019  162.4  0.0209   78.7  0.9636  -10.8
 0.130  0.8251  -23.5  11.945  161.0  0.0226   77.5  0.9585  -11.6
 0.140  0.8194  -25.4  11.878  159.5  0.0242   76.5  0.9536  -12.4
 0.150  0.8146  -27.3  11.818  158.1  0.0259   75.6  0.9490  -13.3
 0.200  0.7856  -35.2  11.326  151.1  0.0322   72.0  0.9163  -17.0
 0.250  0.7469  -43.3  10.841  144.8  0.0394   68.0  0.8824  -20.3
 0.300  0.7042  -50.7  10.255  139.1  0.0445   64.6  0.8435  -23.1
 0.350  0.6643  -56.8   9.690  134.5  0.0495   62.1  0.8085  -25.2
 0.400  0.6327  -63.5   9.195  129.3  0.0545   60.0  0.7746  -27.4
 0.450  0.5961  -69.0   8.657  125.5  0.0580   58.3  0.7435  -28.8
 0.500  0.5656  -75.1   8.161  121.3  0.0615   56.8  0.7129  -30.4
 0.600  0.5100  -85.4   7.307  114.3  0.0677   55.0  0.6618  -32.4
 0.700  0.4615  -94.7   6.560  108.5  0.0721   53.9  0.6195  -33.7
 0.800  0.4246 -103.5   5.958  103.3  0.0773   53.5  0.5861  -34.8
 0.900  0.3926 -111.3   5.423   98.8  0.0813   52.9  0.5592  -35.7
 1.000  0.3688 -119.1   4.991   94.9  0.0856   53.3  0.5354  -36.2
 1.100  0.3499 -126.0   4.611   91.3  0.0897   53.9  0.5183  -36.9
 1.200  0.3316 -133.0   4.279   87.8  0.0937   54.1  0.5024  -37.5
 1.300  0.3183 -139.4   3.992   84.5  0.0978   54.4  0.4892  -38.2
 1.400  0.3099 -145.6   3.749   81.6  0.1026   55.2  0.4774  -39.1
 1.500  0.3066 -151.6   3.532   78.9  0.1072   55.5  0.4675  -39.8
 1.600  0.2990 -157.3   3.336   76.1  0.1118   56.1  0.4607  -40.7
 1.700  0.2953 -162.7   3.166   73.6  0.1165   56.8  0.4517  -41.9
 1.800  0.2923 -168.0   3.022   71.1  0.1212   57.2  0.4451  -42.9
 1.900  0.2940 -172.5   2.886   68.9  0.1265   57.8  0.4398  -44.1
 2.000  0.2940 -177.2   2.759   66.4  0.1319   58.0  0.4355  -45.4
 2.100  0.2938  178.5   2.649   64.2  0.1372   58.3  0.4311  -46.8
 2.200  0.2953  174.2   2.543   61.9  0.1425   58.6  0.4270  -48.2
 2.300  0.2988  170.3   2.451   59.8  0.1484   58.8  0.4242  -49.7
 2.400  0.3036  166.6   2.363   57.5  0.1544   59.0  0.4217  -51.3
 2.500  0.3063  163.3   2.281   55.6  0.1602   59.2  0.4196  -52.9
 2.600  0.3100  160.1   2.202   53.5  0.1661   59.3  0.4179  -54.5
 2.700  0.3139  156.8   2.135   51.6  0.1723   59.3  0.4170  -56.1
 2.800  0.3189  153.5   2.071   49.6  0.1784   59.3  0.4165  -57.7
 2.900  0.3225  150.6   2.014   47.7  0.1850   59.1  0.4150  -59.2
 3.000  0.3268  147.8   1.959   45.7  0.1916   59.0  0.4139  -60.8
 3.100  0.3301  145.1   1.909   44.1  0.1987   58.8  0.4130  -62.4
 3.200  0.3342  142.4   1.860   42.5  0.2058   58.6  0.4124  -64.0
 3.300  0.3390  139.8   1.813   40.7  0.2128   58.4  0.4121  -65.5
 3.400  0.3445  137.2   1.767   38.9  0.2199   58.3  0.4122  -67.1
 3.500  0.3506  134.8   1.724   37.0  0.2270   58.1  0.4125  -68.7
 3.600  0.3552  132.6   1.688   35.5  0.2346   57.6  0.4100  -70.4
 3.700  0.3604  130.4   1.653   34.0  0.2423   57.1  0.4079  -72.2
 3.800  0.3660  128.4   1.619   32.4  0.2499   56.6  0.4062  -74.0
 3.900  0.3721  126.3   1.587   30.7  0.2576   56.2  0.4049  -75.8
 4.000  0.3787  124.4   1.556   29.0  0.2653   55.8  0.4040  -77.6
 4.100  0.3841  122.4   1.527   27.5  0.2734   55.1  0.3997  -79.7
 4.200  0.3900  120.5   1.499   26.0  0.2816   54.4  0.3960  -81.8
 4.300  0.3963  118.7   1.472   24.4  0.2898   53.7  0.3928  -84.0
 4.400  0.4029  116.9   1.446   22.8  0.2981   53.1  0.3901  -86.2
 4.500  0.4100  115.2   1.421   21.1  0.3064   52.5  0.3881  -88.4
 4.600  0.4169  113.6   1.395   19.8  0.3147   51.7  0.3842  -91.0
 4.700  0.4242  112.0   1.370   18.4  0.3231   51.0  0.3812  -93.6
 4.800  0.4318  110.4   1.346   17.1  0.3315   50.3  0.3790  -96.3
 4.900  0.4397  108.9   1.323   15.6  0.3400   49.6  0.3776  -99.0
 5.000  0.4479  107.5   1.300   14.1  0.3485   49.0  0.3770 -101.7
 5.100  0.4529  106.0   1.280   12.9  0.3570   48.1  0.3769 -104.6
 5.200  0.4581  104.5   1.261   11.7  0.3655   47.2  0.3777 -107.5
 5.300  0.4637  103.1   1.243   10.4  0.3742   46.4  0.3794 -110.4
 5.400  0.4696  101.7   1.225    9.1  0.3829   45.6  0.3822 -113.2
 5.500  0.4757  100.3   1.208    7.7  0.3917   44.8  0.3858 -116.0
 5.600  0.4789   98.9   1.190    6.6  0.4001   43.7  0.3875 -118.6
 5.700  0.4823   97.6   1.172    5.5  0.4087   42.7  0.3900 -121.2
 5.800  0.4860   96.3   1.154    4.3  0.4174   41.7  0.3932 -123.8
 5.900  0.4899   95.0   1.137    3.1  0.4262   40.8  0.3972 -126.3
 6.000  0.4941   93.7   1.121    1.9  0.4351   39.9  0.4020 -128.7
!
!  f       NFmin   Gammaopt  rn/50
! GHz       dB    MAG  ANG    -
 0.450      0.92  0.39   16   0.24
 0.900      0.97  0.36   31   0.24
 1.900      1.40  0.20   79   0.20
 2.400      1.56  0.17   94   0.22
!
! (c) 2017  Infineon Technologies AG, Munich