! Infineon Technologies  Discrete & RF Semiconductors
! BFR181W
! VCE =  4.0 V,  IC =  10 mA
! Common Emitter S-Parameters:                            Jan 2017
# GHz  S  MA  R  50
!  f         S11            S21            S12            S22
! GHz     MAG   ANG      MAG   ANG      MAG   ANG      MAG   ANG
 0.010  0.7314   -2.6  24.973  177.9  0.0012   91.4  0.9926   -1.4
 0.020  0.7182   -8.2  24.807  174.4  0.0030   91.2  0.9948   -3.0
 0.030  0.7079  -11.0  24.506  171.9  0.0047   86.0  0.9868   -4.6
 0.040  0.6994  -13.9  24.252  169.4  0.0064   83.5  0.9796   -6.2
 0.050  0.6927  -16.9  24.047  166.8  0.0081   82.1  0.9732   -7.9
 0.060  0.6829  -20.0  23.649  164.5  0.0096   79.8  0.9617   -9.2
 0.070  0.6752  -23.2  23.291  162.1  0.0111   78.2  0.9508  -10.6
 0.080  0.6696  -26.5  22.975  159.6  0.0126   76.9  0.9405  -12.0
 0.090  0.6662  -29.8  22.703  157.1  0.0141   75.9  0.9307  -13.4
 0.100  0.6651  -33.1  22.476  154.5  0.0156   75.1  0.9215  -14.9
 0.110  0.6499  -35.9  22.023  152.6  0.0168   73.9  0.9076  -15.9
 0.120  0.6364  -38.8  21.596  150.6  0.0180   72.8  0.8940  -17.0
 0.130  0.6245  -41.8  21.197  148.5  0.0192   71.9  0.8807  -18.1
 0.140  0.6144  -44.9  20.826  146.3  0.0204   71.1  0.8677  -19.2
 0.150  0.6062  -48.1  20.486  144.1  0.0216   70.4  0.8551  -20.4
 0.200  0.5520  -60.1  18.378  135.0  0.0257   66.8  0.7885  -24.1
 0.250  0.5017  -71.4  16.510  127.7  0.0306   63.4  0.7305  -26.7
 0.300  0.4588  -81.3  14.804  121.8  0.0342   61.9  0.6786  -28.3
 0.350  0.4227  -88.6  13.443  117.7  0.0371   61.5  0.6408  -29.0
 0.400  0.3946  -97.0  12.167  112.7  0.0400   61.1  0.6031  -29.8
 0.450  0.3700 -103.2  11.163  109.6  0.0428   61.1  0.5773  -30.0
 0.500  0.3503 -110.2  10.197  106.0  0.0456   61.1  0.5516  -30.2
 0.600  0.3209 -121.4   8.763  100.6  0.0511   61.8  0.5166  -30.0
 0.700  0.3009 -131.4   7.649   96.1  0.0560   63.2  0.4913  -29.9
 0.800  0.2877 -140.7   6.799   92.1  0.0622   64.6  0.4727  -29.9
 0.900  0.2772 -148.3   6.097   88.7  0.0676   64.5  0.4587  -30.0
 1.000  0.2707 -155.2   5.549   85.7  0.0731   65.6  0.4464  -30.2
 1.100  0.2687 -161.7   5.077   82.9  0.0791   66.2  0.4386  -30.5
 1.200  0.2661 -167.8   4.681   80.1  0.0847   66.6  0.4310  -31.0
 1.300  0.2648 -173.0   4.343   77.5  0.0906   66.8  0.4246  -31.7
 1.400  0.2668 -177.8   4.060   75.1  0.0974   67.2  0.4178  -32.6
 1.500  0.2698  177.9   3.808   72.8  0.1034   67.3  0.4133  -33.5
 1.600  0.2713  173.2   3.588   70.5  0.1101   67.4  0.4099  -34.6
 1.700  0.2736  169.3   3.393   68.4  0.1164   67.5  0.4052  -35.8
 1.800  0.2776  166.2   3.229   66.2  0.1224   67.3  0.4009  -37.0
 1.900  0.2818  162.9   3.077   64.3  0.1291   67.3  0.3982  -38.4
 2.000  0.2860  159.5   2.934   62.2  0.1361   67.1  0.3957  -40.0
 2.100  0.2893  156.5   2.814   60.3  0.1425   66.9  0.3928  -41.6
 2.200  0.2934  153.6   2.697   58.2  0.1490   66.7  0.3902  -43.2
 2.300  0.2998  150.8   2.597   56.3  0.1560   66.3  0.3885  -44.9
 2.400  0.3069  148.2   2.500   54.3  0.1631   65.9  0.3872  -46.6
 2.500  0.3098  145.8   2.412   52.6  0.1700   65.5  0.3860  -48.4
 2.600  0.3132  143.5   2.326   50.7  0.1769   65.2  0.3852  -50.3
 2.700  0.3196  141.2   2.253   49.0  0.1837   64.7  0.3847  -52.0
 2.800  0.3264  139.0   2.183   47.2  0.1906   64.3  0.3846  -53.8
 2.900  0.3303  136.7   2.121   45.5  0.1981   63.8  0.3836  -55.6
 3.000  0.3347  134.4   2.061   43.6  0.2056   63.3  0.3830  -57.4
 3.100  0.3390  132.3   2.008   42.2  0.2131   62.7  0.3822  -59.1
 3.200  0.3438  130.3   1.956   40.6  0.2206   62.1  0.3818  -60.8
 3.300  0.3490  128.4   1.906   39.1  0.2281   61.6  0.3817  -62.5
 3.400  0.3546  126.5   1.857   37.4  0.2356   61.1  0.3819  -64.2
 3.500  0.3605  124.7   1.810   35.6  0.2432   60.6  0.3825  -65.9
 3.600  0.3649  123.0   1.771   34.2  0.2509   59.8  0.3799  -67.7
 3.700  0.3696  121.2   1.734   32.8  0.2587   59.0  0.3777  -69.5
 3.800  0.3746  119.6   1.698   31.2  0.2665   58.3  0.3758  -71.4
 3.900  0.3799  118.0   1.663   29.7  0.2743   57.6  0.3744  -73.2
 4.000  0.3855  116.4   1.629   28.0  0.2822   57.0  0.3733  -75.1
 4.100  0.3912  114.8   1.599   26.6  0.2902   56.1  0.3689  -77.2
 4.200  0.3973  113.3   1.569   25.2  0.2983   55.2  0.3650  -79.4
 4.300  0.4036  111.8   1.541   23.7  0.3065   54.4  0.3616  -81.6
 4.400  0.4102  110.3   1.514   22.1  0.3147   53.6  0.3588  -83.9
 4.500  0.4170  108.9   1.488   20.5  0.3230   52.9  0.3566  -86.2
 4.600  0.4236  107.5   1.461   19.3  0.3310   52.0  0.3526  -88.9
 4.700  0.4303  106.2   1.435   18.0  0.3390   51.1  0.3494  -91.6
 4.800  0.4374  104.9   1.410   16.6  0.3471   50.3  0.3469  -94.3
 4.900  0.4446  103.7   1.386   15.2  0.3553   49.5  0.3453  -97.1
 5.000  0.4520  102.5   1.362   13.8  0.3636   48.7  0.3445  -99.9
 5.100  0.4570  101.2   1.342   12.6  0.3717   47.7  0.3441 -102.9
 5.200  0.4622   99.9   1.322   11.4  0.3798   46.8  0.3448 -105.9
 5.300  0.4677   98.7   1.302   10.1  0.3881   45.9  0.3463 -108.9
 5.400  0.4733   97.5   1.284    8.8  0.3965   45.0  0.3488 -111.9
 5.500  0.4792   96.3   1.266    7.5  0.4049   44.2  0.3522 -114.8
 5.600  0.4824   95.1   1.247    6.4  0.4127   43.1  0.3538 -117.5
 5.700  0.4857   94.0   1.229    5.3  0.4207   42.0  0.3561 -120.2
 5.800  0.4893   92.8   1.212    4.2  0.4288   41.0  0.3592 -122.8
 5.900  0.4931   91.7   1.195    3.0  0.4370   40.0  0.3630 -125.4
 6.000  0.4970   90.6   1.178    1.8  0.4454   39.0  0.3676 -127.9
!
!  f       NFmin   Gammaopt  rn/50
! GHz       dB    MAG  ANG    -
 0.450      1.24  0.15   16   0.21
 0.900      1.29  0.14   31   0.21
 1.900      1.71  0.03  142   0.20
 2.400      1.88  0.02 -166   0.24
!
! (c) 2017  Infineon Technologies AG, Munich