! Infineon Technologies  Discrete & RF Semiconductors
! BFR181W
! VCE =  8.0 V,  IC =  21 mA
! Common Emitter S-Parameters:                            Jan 2017
# GHz  S  MA  R  50
!  f         S11            S21            S12            S22
! GHz     MAG   ANG      MAG   ANG      MAG   ANG      MAG   ANG
 0.010  0.6105   -3.9  34.387  176.0  0.0013   79.4  0.9797   -1.6
 0.020  0.6009  -11.3  33.990  172.0  0.0029  105.6  0.9725   -3.6
 0.030  0.5873  -15.8  33.338  168.8  0.0045   91.4  0.9633   -5.6
 0.040  0.5774  -20.4  32.796  165.4  0.0062   84.7  0.9554   -7.7
 0.050  0.5715  -25.2  32.369  162.0  0.0079   81.0  0.9487   -9.8
 0.060  0.5561  -29.3  31.457  159.2  0.0091   79.0  0.9308  -11.2
 0.070  0.5437  -33.7  30.625  156.2  0.0104   77.4  0.9135  -12.7
 0.080  0.5346  -38.2  29.879  153.1  0.0117   76.2  0.8969  -14.3
 0.090  0.5290  -42.9  29.227  149.8  0.0129   75.2  0.8810  -15.9
 0.100  0.5269  -47.6  28.675  146.4  0.0142   74.4  0.8658  -17.6
 0.110  0.5102  -51.0  27.789  144.3  0.0150   72.7  0.8479  -18.4
 0.120  0.4954  -54.6  26.943  142.1  0.0158   71.2  0.8301  -19.3
 0.130  0.4827  -58.5  26.139  139.7  0.0166   69.8  0.8126  -20.2
 0.140  0.4723  -62.5  25.383  137.2  0.0175   68.5  0.7953  -21.2
 0.150  0.4643  -66.7  24.677  134.6  0.0183   67.4  0.7782  -22.2
 0.200  0.4170  -81.5  21.083  125.3  0.0213   65.4  0.7046  -24.5
 0.250  0.3787  -94.6  18.254  118.5  0.0245   65.3  0.6493  -25.6
 0.300  0.3503 -105.4  15.916  113.2  0.0272   65.1  0.6062  -25.7
 0.350  0.3293 -113.0  14.241  109.7  0.0300   65.2  0.5787  -25.5
 0.400  0.3148 -121.5  12.633  105.3  0.0329   65.3  0.5512  -25.3
 0.450  0.3016 -127.9  11.492  102.8  0.0357   66.2  0.5345  -25.0
 0.500  0.2925 -134.7  10.378   99.7  0.0386   67.0  0.5179  -24.7
 0.600  0.2825 -145.0   8.813   95.1  0.0442   68.4  0.4970  -24.2
 0.700  0.2756 -153.8   7.637   91.3  0.0501   70.2  0.4820  -23.9
 0.800  0.2737 -161.3   6.752   87.9  0.0564   71.7  0.4711  -24.1
 0.900  0.2706 -167.3   6.032   84.9  0.0617   71.3  0.4632  -24.4
 1.000  0.2721 -172.9   5.478   82.3  0.0681   72.0  0.4557  -24.9
 1.100  0.2737 -178.0   5.004   79.8  0.0745   72.6  0.4517  -25.5
 1.200  0.2759  177.5   4.606   77.3  0.0806   72.4  0.4467  -26.3
 1.300  0.2770  173.1   4.269   74.9  0.0869   72.8  0.4431  -27.2
 1.400  0.2803  169.5   3.987   72.6  0.0942   72.9  0.4381  -28.3
 1.500  0.2856  166.6   3.738   70.6  0.1002   72.7  0.4348  -29.3
 1.600  0.2898  162.7   3.520   68.4  0.1068   72.6  0.4329  -30.7
 1.700  0.2927  159.5   3.327   66.5  0.1136   72.5  0.4292  -32.1
 1.800  0.2966  156.6   3.165   64.4  0.1204   72.3  0.4256  -33.5
 1.900  0.3013  154.3   3.015   62.6  0.1270   71.9  0.4238  -35.0
 2.000  0.3066  151.6   2.873   60.5  0.1337   71.5  0.4216  -36.7
 2.100  0.3100  149.0   2.754   58.7  0.1407   71.2  0.4190  -38.3
 2.200  0.3140  146.4   2.638   56.7  0.1478   70.9  0.4168  -40.0
 2.300  0.3197  144.2   2.541   54.9  0.1549   70.4  0.4153  -41.9
 2.400  0.3259  142.1   2.446   53.0  0.1621   70.0  0.4142  -43.8
 2.500  0.3294  140.1   2.359   51.3  0.1692   69.5  0.4130  -45.6
 2.600  0.3332  138.2   2.275   49.5  0.1764   69.1  0.4123  -47.5
 2.700  0.3392  136.1   2.204   47.9  0.1838   68.5  0.4122  -49.4
 2.800  0.3457  134.0   2.135   46.1  0.1912   68.0  0.4125  -51.2
 2.900  0.3502  132.1   2.072   44.5  0.1987   67.4  0.4115  -53.0
 3.000  0.3550  130.2   2.011   42.7  0.2063   66.8  0.4110  -54.9
 3.100  0.3592  128.3   1.960   41.3  0.2141   66.1  0.4103  -56.7
 3.200  0.3637  126.5   1.910   39.8  0.2218   65.5  0.4100  -58.4
 3.300  0.3687  124.7   1.861   38.3  0.2296   64.9  0.4101  -60.2
 3.400  0.3740  122.9   1.814   36.6  0.2375   64.4  0.4105  -61.9
 3.500  0.3796  121.2   1.768   34.9  0.2453   63.9  0.4114  -63.7
 3.600  0.3839  119.6   1.730   33.5  0.2533   63.0  0.4089  -65.6
 3.700  0.3885  118.0   1.693   32.1  0.2613   62.2  0.4067  -67.5
 3.800  0.3933  116.5   1.658   30.6  0.2694   61.4  0.4051  -69.4
 3.900  0.3985  115.0   1.623   29.1  0.2775   60.6  0.4039  -71.3
 4.000  0.4039  113.5   1.590   27.5  0.2857   59.9  0.4031  -73.2
 4.100  0.4091  112.0   1.560   26.1  0.2940   58.9  0.3985  -75.3
 4.200  0.4146  110.5   1.531   24.7  0.3023   57.9  0.3945  -77.5
 4.300  0.4203  109.1   1.503   23.2  0.3107   57.1  0.3910  -79.7
 4.400  0.4263  107.7   1.476   21.7  0.3192   56.2  0.3882  -81.9
 4.500  0.4325  106.4   1.450   20.1  0.3278   55.4  0.3859  -84.2
 4.600  0.4387  105.1   1.424   18.9  0.3360   54.5  0.3815  -86.8
 4.700  0.4452  103.9   1.399   17.6  0.3442   53.6  0.3778  -89.5
 4.800  0.4518  102.8   1.374   16.3  0.3525   52.7  0.3750  -92.2
 4.900  0.4586  101.6   1.350   15.0  0.3609   51.9  0.3731  -94.9
 5.000  0.4656  100.5   1.327   13.6  0.3694   51.1  0.3720  -97.7
 5.100  0.4703   99.3   1.307   12.5  0.3778   50.1  0.3713 -100.6
 5.200  0.4752   98.1   1.288   11.3  0.3863   49.1  0.3716 -103.6
 5.300  0.4804   96.9   1.269   10.0  0.3949   48.2  0.3729 -106.5
 5.400  0.4857   95.8   1.251    8.8  0.4037   47.3  0.3751 -109.4
 5.500  0.4912   94.7   1.233    7.5  0.4125   46.4  0.3783 -112.3
 5.600  0.4943   93.5   1.214    6.5  0.4208   45.3  0.3794 -115.0
 5.700  0.4975   92.4   1.196    5.4  0.4292   44.2  0.3813 -117.6
 5.800  0.5009   91.3   1.178    4.4  0.4378   43.1  0.3841 -120.3
 5.900  0.5046   90.2   1.160    3.2  0.4465   42.1  0.3876 -122.9
 6.000  0.5084   89.1   1.143    2.1  0.4554   41.1  0.3919 -125.4
!
!  f       NFmin   Gammaopt  rn/50
! GHz       dB    MAG  ANG    -
!
! noise parameter not available yet for this operation point!
!
! (c) 2017  Infineon Technologies AG, Munich