! Infineon Technologies  Discrete & RF Semiconductors
! BFR181W
! VCE =  9.0 V,  IC =  4.0 mA
! Common Emitter S-Parameters:                            Jan 2017
# GHz  S  MA  R  50
!  f         S11            S21            S12            S22
! GHz     MAG   ANG      MAG   ANG      MAG   ANG      MAG   ANG
 0.010  0.8914   -0.9  12.581  178.9  0.0014   76.8  0.9987   -0.8
 0.020  0.8685   -4.6  12.338  176.7  0.0032   87.1  0.9884   -1.5
 0.030  0.8642   -5.8  12.298  175.4  0.0051   86.2  0.9893   -2.4
 0.040  0.8602   -7.1  12.264  174.1  0.0069   85.8  0.9905   -3.4
 0.050  0.8567   -8.3  12.237  172.8  0.0088   85.6  0.9919   -4.3
 0.060  0.8553  -10.0  12.166  171.4  0.0105   84.6  0.9882   -5.1
 0.070  0.8546  -11.7  12.103  170.0  0.0121   83.9  0.9847   -6.0
 0.080  0.8546  -13.4  12.047  168.6  0.0138   83.3  0.9814   -6.9
 0.090  0.8554  -15.1  11.998  167.1  0.0154   82.9  0.9783   -7.7
 0.100  0.8570  -16.8  11.957  165.7  0.0171   82.5  0.9755   -8.6
 0.110  0.8497  -18.5  11.886  164.4  0.0187   80.9  0.9706   -9.4
 0.120  0.8432  -20.2  11.820  163.1  0.0202   79.6  0.9658  -10.2
 0.130  0.8375  -22.0  11.762  161.7  0.0218   78.5  0.9613  -11.0
 0.140  0.8326  -23.8  11.710  160.4  0.0234   77.5  0.9569  -11.8
 0.150  0.8285  -25.6  11.664  159.0  0.0250   76.7  0.9527  -12.6
 0.200  0.7993  -32.8  11.213  152.2  0.0311   73.2  0.9228  -16.2
 0.250  0.7622  -40.5  10.771  146.1  0.0381   68.2  0.8911  -19.4
 0.300  0.7205  -47.5  10.232  140.6  0.0432   65.6  0.8545  -22.2
 0.350  0.6822  -53.3   9.696  136.0  0.0481   63.1  0.8211  -24.3
 0.400  0.6517  -59.7   9.229  130.9  0.0530   61.1  0.7889  -26.5
 0.450  0.6131  -65.0   8.714  127.1  0.0566   59.4  0.7585  -28.0
 0.500  0.5804  -70.9   8.241  122.9  0.0602   57.9  0.7286  -29.6
 0.600  0.5229  -80.6   7.412  116.0  0.0660   55.6  0.6778  -31.7
 0.700  0.4729  -89.7   6.677  110.0  0.0706   54.9  0.6354  -33.1
 0.800  0.4311  -97.9   6.079  104.8  0.0764   54.4  0.6013  -34.2
 0.900  0.3980 -105.6   5.547  100.3  0.0804   53.3  0.5741  -35.1
 1.000  0.3702 -113.1   5.111   96.3  0.0844   53.6  0.5497  -35.8
 1.100  0.3468 -120.3   4.727   92.7  0.0892   54.1  0.5314  -36.5
 1.200  0.3271 -126.9   4.392   89.2  0.0926   54.3  0.5148  -37.1
 1.300  0.3109 -133.2   4.097   85.9  0.0973   54.8  0.5014  -37.8
 1.400  0.2999 -139.5   3.851   83.0  0.1016   55.3  0.4889  -38.6
 1.500  0.2933 -145.6   3.630   80.3  0.1061   55.7  0.4792  -39.4
 1.600  0.2848 -151.4   3.428   77.5  0.1101   56.2  0.4717  -40.2
 1.700  0.2797 -156.8   3.256   75.0  0.1149   56.9  0.4626  -41.3
 1.800  0.2758 -162.5   3.110   72.5  0.1200   57.3  0.4552  -42.4
 1.900  0.2761 -167.2   2.968   70.3  0.1246   57.7  0.4497  -43.5
 2.000  0.2753 -172.4   2.838   67.8  0.1299   58.0  0.4456  -44.7
 2.100  0.2737 -176.9   2.725   65.6  0.1353   58.4  0.4408  -46.0
 2.200  0.2739  178.5   2.617   63.2  0.1408   58.7  0.4362  -47.4
 2.300  0.2770  174.3   2.523   61.1  0.1463   58.9  0.4335  -48.9
 2.400  0.2815  170.2   2.433   58.9  0.1518   59.1  0.4310  -50.4
 2.500  0.2834  166.7   2.349   57.0  0.1573   59.3  0.4287  -51.9
 2.600  0.2864  163.3   2.268   55.0  0.1629   59.4  0.4268  -53.5
 2.700  0.2900  159.6   2.199   53.1  0.1691   59.5  0.4258  -55.0
 2.800  0.2948  156.1   2.132   51.1  0.1753   59.5  0.4251  -56.6
 2.900  0.2984  153.1   2.073   49.2  0.1817   59.3  0.4235  -58.0
 3.000  0.3028  150.2   2.017   47.1  0.1881   59.2  0.4222  -59.5
 3.100  0.3062  147.3   1.966   45.6  0.1951   59.0  0.4215  -61.0
 3.200  0.3104  144.5   1.916   43.9  0.2021   58.9  0.4211  -62.6
 3.300  0.3153  141.8   1.868   42.2  0.2090   58.8  0.4210  -64.1
 3.400  0.3209  139.1   1.821   40.4  0.2160   58.6  0.4213  -65.7
 3.500  0.3272  136.6   1.777   38.5  0.2230   58.5  0.4218  -67.2
 3.600  0.3316  134.3   1.740   37.0  0.2305   58.0  0.4194  -68.9
 3.700  0.3364  132.1   1.704   35.5  0.2380   57.6  0.4173  -70.6
 3.800  0.3418  129.9   1.670   33.8  0.2455   57.2  0.4156  -72.3
 3.900  0.3476  127.8   1.637   32.2  0.2530   56.8  0.4143  -74.0
 4.000  0.3539  125.8   1.605   30.4  0.2605   56.4  0.4133  -75.7
 4.100  0.3595  123.8   1.575   29.0  0.2685   55.7  0.4089  -77.7
 4.200  0.3656  121.9   1.546   27.4  0.2765   55.0  0.4049  -79.8
 4.300  0.3720  120.0   1.518   25.9  0.2845   54.4  0.4016  -81.8
 4.400  0.3788  118.2   1.491   24.3  0.2926   53.8  0.3987  -84.0
 4.500  0.3860  116.5   1.466   22.6  0.3007   53.2  0.3964  -86.1
 4.600  0.3930  114.8   1.440   21.3  0.3089   52.4  0.3924  -88.6
 4.700  0.4004  113.2   1.414   19.9  0.3172   51.7  0.3891  -91.2
 4.800  0.4081  111.6   1.389   18.5  0.3255   51.0  0.3866  -93.7
 4.900  0.4161  110.1   1.365   17.0  0.3339   50.3  0.3850  -96.4
 5.000  0.4243  108.7   1.342   15.5  0.3423   49.7  0.3841  -99.0
 5.100  0.4296  107.2   1.322   14.3  0.3508   48.8  0.3838 -101.8
 5.200  0.4352  105.7   1.302   13.0  0.3593   48.0  0.3844 -104.7
 5.300  0.4411  104.3   1.284   11.7  0.3679   47.2  0.3860 -107.5
 5.400  0.4473  102.9   1.265   10.4  0.3766   46.4  0.3885 -110.3
 5.500  0.4537  101.6   1.248    9.0  0.3853   45.7  0.3919 -113.0
 5.600  0.4574  100.3   1.229    7.9  0.3939   44.7  0.3933 -115.6
 5.700  0.4613   98.9   1.211    6.8  0.4026   43.7  0.3954 -118.1
 5.800  0.4655   97.6   1.193    5.6  0.4114   42.8  0.3984 -120.7
 5.900  0.4699   96.4   1.175    4.4  0.4203   41.9  0.4021 -123.2
 6.000  0.4746   95.1   1.158    3.2  0.4293   41.0  0.4065 -125.6
!
!  f       NFmin   Gammaopt  rn/50
! GHz       dB    MAG  ANG    -
 0.450      0.92  0.39   16   0.24
 0.900      0.97  0.36   31   0.24
 1.900      1.40  0.20   79   0.20
 2.400      1.56  0.17   94   0.22
!
! (c) 2017  Infineon Technologies AG, Munich