! Infineon Technologies  Discrete & RF Semiconductors
! BFR181W
! VCE =  7.0 V,  IC =  3.0 mA
! Common Emitter S-Parameters:                            Jan 2017
# GHz  S  MA  R  50
!  f         S11            S21            S12            S22
! GHz     MAG   ANG      MAG   ANG      MAG   ANG      MAG   ANG
 0.010  0.9162   -0.6   9.906  179.5  0.0014   83.8  0.9999   -0.8
 0.020  0.8945   -4.2   9.762  177.4  0.0031   92.0  0.9973   -1.3
 0.030  0.8893   -5.1   9.738  176.3  0.0051   89.0  0.9960   -2.1
 0.040  0.8843   -6.0   9.717  175.1  0.0071   87.6  0.9948   -2.9
 0.050  0.8796   -6.9   9.700  174.0  0.0091   86.9  0.9939   -3.7
 0.060  0.8804   -8.4   9.658  172.8  0.0108   85.2  0.9915   -4.4
 0.070  0.8818   -9.9   9.621  171.5  0.0126   83.9  0.9892   -5.2
 0.080  0.8838  -11.4   9.589  170.3  0.0144   82.9  0.9870   -5.9
 0.090  0.8864  -12.9   9.561  169.1  0.0161   82.2  0.9851   -6.7
 0.100  0.8896  -14.4   9.537  167.8  0.0179   81.6  0.9833   -7.4
 0.110  0.8831  -15.9   9.495  166.6  0.0195   80.6  0.9797   -8.1
 0.120  0.8771  -17.3   9.458  165.5  0.0211   79.7  0.9763   -8.8
 0.130  0.8718  -18.8   9.424  164.3  0.0227   78.9  0.9730   -9.5
 0.140  0.8670  -20.4   9.395  163.1  0.0244   78.3  0.9699  -10.2
 0.150  0.8629  -21.9   9.369  161.9  0.0260   77.7  0.9669  -10.9
 0.200  0.8437  -28.4   9.102  155.8  0.0331   74.2  0.9437  -14.2
 0.250  0.8158  -35.4   8.855  150.3  0.0404   70.2  0.9199  -17.2
 0.300  0.7795  -41.7   8.512  145.1  0.0469   67.6  0.8908  -19.9
 0.350  0.7462  -47.2   8.160  140.6  0.0520   64.7  0.8622  -22.1
 0.400  0.7204  -53.1   7.862  135.8  0.0573   62.4  0.8350  -24.5
 0.450  0.6849  -58.1   7.497  132.0  0.0616   60.2  0.8069  -26.2
 0.500  0.6552  -63.6   7.168  127.8  0.0660   58.3  0.7795  -28.1
 0.600  0.5975  -73.2   6.553  120.7  0.0733   55.0  0.7300  -30.6
 0.700  0.5454  -82.0   5.979  114.4  0.0783   53.1  0.6872  -32.6
 0.800  0.5011  -90.0   5.504  108.9  0.0835   51.9  0.6502  -34.3
 0.900  0.4633  -97.8   5.061  104.0  0.0878   50.5  0.6198  -35.6
 1.000  0.4310 -105.0   4.694   99.7  0.0919   50.3  0.5931  -36.6
 1.100  0.4048 -111.9   4.361   95.8  0.0958   50.2  0.5717  -37.5
 1.200  0.3802 -118.6   4.069   92.0  0.0987   49.9  0.5524  -38.4
 1.300  0.3601 -124.8   3.810   88.5  0.1021   50.3  0.5362  -39.2
 1.400  0.3458 -131.0   3.589   85.4  0.1060   50.8  0.5217  -40.2
 1.500  0.3350 -137.4   3.394   82.4  0.1099   51.1  0.5098  -41.1
 1.600  0.3242 -142.9   3.210   79.4  0.1132   51.8  0.5012  -42.0
 1.700  0.3154 -148.7   3.054   76.8  0.1168   52.2  0.4901  -43.2
 1.800  0.3100 -154.3   2.922   74.1  0.1209   52.9  0.4813  -44.2
 1.900  0.3075 -159.4   2.794   71.6  0.1250   53.5  0.4747  -45.3
 2.000  0.3046 -164.6   2.676   69.0  0.1297   53.8  0.4696  -46.6
 2.100  0.3011 -169.4   2.572   66.7  0.1341   54.4  0.4642  -47.9
 2.200  0.2997 -174.3   2.472   64.2  0.1385   54.9  0.4590  -49.2
 2.300  0.3011 -178.7   2.385   62.0  0.1435   55.4  0.4554  -50.7
 2.400  0.3042  176.9   2.301   59.6  0.1485   55.9  0.4521  -52.2
 2.500  0.3050  173.2   2.223   57.6  0.1537   56.3  0.4497  -53.7
 2.600  0.3070  169.6   2.147   55.4  0.1590   56.7  0.4476  -55.2
 2.700  0.3106  165.7   2.084   53.4  0.1645   56.9  0.4463  -56.7
 2.800  0.3155  162.0   2.023   51.3  0.1701   57.1  0.4453  -58.2
 2.900  0.3182  158.8   1.967   49.3  0.1762   57.3  0.4437  -59.6
 3.000  0.3218  155.6   1.914   47.2  0.1824   57.4  0.4423  -61.1
 3.100  0.3243  152.5   1.865   45.6  0.1891   57.4  0.4413  -62.6
 3.200  0.3278  149.5   1.818   43.9  0.1958   57.5  0.4407  -64.2
 3.300  0.3321  146.5   1.773   42.1  0.2024   57.5  0.4403  -65.7
 3.400  0.3373  143.6   1.730   40.3  0.2091   57.6  0.4403  -67.3
 3.500  0.3434  140.8   1.688   38.3  0.2158   57.6  0.4406  -68.8
 3.600  0.3476  138.3   1.653   36.8  0.2233   57.2  0.4382  -70.5
 3.700  0.3524  135.9   1.618   35.1  0.2308   56.9  0.4362  -72.2
 3.800  0.3579  133.6   1.585   33.5  0.2383   56.6  0.4346  -73.9
 3.900  0.3639  131.3   1.554   31.7  0.2458   56.3  0.4334  -75.7
 4.000  0.3705  129.1   1.524   29.9  0.2533   56.0  0.4326  -77.4
 4.100  0.3760  126.9   1.496   28.4  0.2615   55.4  0.4283  -79.5
 4.200  0.3820  124.8   1.469   26.9  0.2697   54.9  0.4245  -81.5
 4.300  0.3885  122.7   1.443   25.3  0.2779   54.3  0.4213  -83.7
 4.400  0.3954  120.7   1.418   23.6  0.2861   53.9  0.4186  -85.8
 4.500  0.4029  118.8   1.394   21.9  0.2944   53.4  0.4166  -88.0
 4.600  0.4095  117.0   1.368   20.6  0.3029   52.7  0.4128  -90.5
 4.700  0.4165  115.2   1.344   19.2  0.3115   52.0  0.4097  -93.0
 4.800  0.4238  113.5   1.319   17.7  0.3201   51.4  0.4075  -95.6
 4.900  0.4315  111.9   1.296   16.2  0.3288   50.8  0.4061  -98.2
 5.000  0.4396  110.3   1.274   14.7  0.3375   50.2  0.4055 -100.8
 5.100  0.4449  108.7   1.254   13.5  0.3464   49.3  0.4052 -103.6
 5.200  0.4506  107.1   1.235   12.3  0.3553   48.5  0.4059 -106.5
 5.300  0.4566  105.6   1.217   11.0  0.3644   47.7  0.4076 -109.3
 5.400  0.4630  104.1   1.199    9.7  0.3734   46.9  0.4103 -112.1
 5.500  0.4696  102.6   1.182    8.3  0.3826   46.2  0.4139 -114.8
 5.600  0.4733  101.2   1.164    7.2  0.3914   45.2  0.4153 -117.4
 5.700  0.4772   99.8   1.146    6.1  0.4004   44.1  0.4175 -119.9
 5.800  0.4815   98.4   1.128    5.0  0.4095   43.2  0.4206 -122.5
 5.900  0.4859   97.1   1.111    3.8  0.4187   42.3  0.4245 -125.0
 6.000  0.4907   95.8   1.095    2.6  0.4280   41.4  0.4291 -127.4
!
!  f       NFmin   Gammaopt  rn/50
! GHz       dB    MAG  ANG    -
 0.450      0.87  0.47   17   0.27
 0.900      0.93  0.42   32   0.26
 1.900      1.34  0.24   80   0.21
 2.400      1.55  0.21   94   0.23
!
! (c) 2017  Infineon Technologies AG, Munich