! Infineon Technologies  Discrete & RF Semiconductors
! BFR181W
! VCE =  3.0 V,  IC =  7.0 mA
! Common Emitter S-Parameters:                            Jan 2017
# GHz  S  MA  R  50
!  f         S11            S21            S12            S22
! GHz     MAG   ANG      MAG   ANG      MAG   ANG      MAG   ANG
 0.010  0.7959   -2.0  19.596  178.6  0.0015   79.7  0.9945   -1.3
 0.020  0.7780   -6.7  19.354  175.5  0.0033   91.6  0.9884   -2.4
 0.030  0.7704   -8.9  19.230  173.5  0.0051   87.1  0.9856   -3.8
 0.040  0.7639  -11.2  19.130  171.4  0.0070   84.9  0.9833   -5.2
 0.050  0.7587  -13.5  19.056  169.3  0.0088   83.7  0.9817   -6.6
 0.060  0.7525  -16.1  18.833  167.3  0.0104   82.0  0.9734   -7.8
 0.070  0.7478  -18.7  18.633  165.2  0.0120   80.8  0.9656   -9.0
 0.080  0.7448  -21.4  18.458  163.1  0.0136   79.9  0.9581  -10.3
 0.090  0.7434  -24.1  18.309  161.0  0.0153   79.2  0.9512  -11.5
 0.100  0.7436  -26.8  18.185  158.8  0.0169   78.6  0.9447  -12.8
 0.110  0.7308  -29.2  17.920  157.0  0.0184   76.8  0.9342  -13.8
 0.120  0.7194  -31.7  17.673  155.2  0.0198   75.2  0.9241  -14.8
 0.130  0.7093  -34.2  17.444  153.4  0.0213   73.9  0.9142  -15.9
 0.140  0.7006  -36.8  17.234  151.5  0.0228   72.7  0.9046  -16.9
 0.150  0.6935  -39.5  17.043  149.5  0.0243   71.7  0.8954  -18.0
 0.200  0.6455  -50.2  15.717  141.0  0.0294   67.9  0.8403  -22.1
 0.250  0.5959  -60.5  14.479  133.8  0.0347   63.5  0.7875  -25.2
 0.300  0.5482  -69.6  13.231  127.8  0.0384   61.9  0.7370  -27.5
 0.350  0.5073  -76.5  12.172  123.4  0.0420   60.8  0.6970  -28.8
 0.400  0.4749  -84.5  11.200  118.1  0.0456   59.8  0.6574  -30.3
 0.450  0.4434  -90.5  10.350  114.7  0.0483   58.9  0.6277  -31.0
 0.500  0.4175  -97.3   9.542  110.8  0.0511   58.1  0.5980  -31.7
 0.600  0.3759 -108.4   8.290  104.7  0.0567   58.0  0.5553  -32.2
 0.700  0.3453 -118.6   7.290   99.7  0.0614   58.8  0.5230  -32.4
 0.800  0.3244 -127.7   6.516   95.3  0.0667   59.6  0.4988  -32.6
 0.900  0.3079 -136.0   5.864   91.6  0.0718   59.8  0.4802  -32.9
 1.000  0.2963 -143.6   5.349   88.2  0.0771   61.1  0.4647  -33.1
 1.100  0.2899 -150.0   4.908   85.2  0.0823   61.4  0.4538  -33.4
 1.200  0.2844 -157.2   4.531   82.2  0.0877   61.8  0.4432  -33.9
 1.300  0.2778 -163.0   4.207   79.4  0.0926   62.4  0.4348  -34.6
 1.400  0.2775 -168.2   3.940   76.8  0.0994   63.1  0.4269  -35.3
 1.500  0.2781 -173.2   3.699   74.4  0.1048   63.3  0.4204  -36.2
 1.600  0.2791 -178.1   3.488   71.9  0.1108   63.7  0.4167  -37.2
 1.700  0.2793  177.6   3.302   69.7  0.1166   64.0  0.4107  -38.4
 1.800  0.2815  173.4   3.145   67.4  0.1227   64.0  0.4053  -39.6
 1.900  0.2872  169.6   2.999   65.5  0.1287   64.3  0.4019  -40.9
 2.000  0.2890  166.1   2.858   63.2  0.1354   64.1  0.3994  -42.3
 2.100  0.2918  162.6   2.743   61.2  0.1419   64.1  0.3961  -43.8
 2.200  0.2956  159.2   2.631   59.0  0.1485   64.1  0.3931  -45.4
 2.300  0.3013  156.2   2.533   57.1  0.1551   63.9  0.3909  -47.1
 2.400  0.3078  153.3   2.439   55.0  0.1618   63.7  0.3891  -48.8
 2.500  0.3113  150.6   2.355   53.2  0.1683   63.4  0.3879  -50.5
 2.600  0.3154  148.0   2.273   51.3  0.1748   63.2  0.3870  -52.3
 2.700  0.3207  145.3   2.202   49.6  0.1816   62.9  0.3865  -54.0
 2.800  0.3266  142.7   2.134   47.7  0.1885   62.6  0.3864  -55.7
 2.900  0.3311  140.4   2.073   45.9  0.1957   62.2  0.3853  -57.4
 3.000  0.3362  138.2   2.014   44.0  0.2030   61.8  0.3846  -59.2
 3.100  0.3402  135.9   1.962   42.5  0.2104   61.3  0.3838  -60.9
 3.200  0.3447  133.7   1.912   40.9  0.2177   60.8  0.3834  -62.6
 3.300  0.3497  131.5   1.863   39.3  0.2251   60.4  0.3832  -64.2
 3.400  0.3552  129.4   1.816   37.5  0.2325   60.0  0.3835  -65.9
 3.500  0.3611  127.4   1.771   35.7  0.2399   59.6  0.3840  -67.6
 3.600  0.3658  125.5   1.734   34.3  0.2477   58.9  0.3815  -69.4
 3.700  0.3709  123.7   1.697   32.8  0.2555   58.2  0.3795  -71.3
 3.800  0.3763  122.0   1.662   31.3  0.2634   57.5  0.3778  -73.1
 3.900  0.3821  120.3   1.628   29.7  0.2713   56.9  0.3766  -75.0
 4.000  0.3882  118.6   1.596   28.0  0.2792   56.3  0.3757  -76.9
 4.100  0.3939  116.9   1.566   26.6  0.2873   55.4  0.3713  -79.0
 4.200  0.4000  115.2   1.538   25.1  0.2955   54.6  0.3674  -81.2
 4.300  0.4064  113.6   1.510   23.6  0.3038   53.8  0.3640  -83.4
 4.400  0.4131  112.0   1.483   22.0  0.3121   53.1  0.3612  -85.7
 4.500  0.4201  110.5   1.458   20.4  0.3204   52.4  0.3590  -88.0
 4.600  0.4267  109.1   1.431   19.1  0.3283   51.5  0.3551  -90.7
 4.700  0.4335  107.8   1.406   17.8  0.3364   50.7  0.3520  -93.4
 4.800  0.4405  106.5   1.381   16.5  0.3444   49.9  0.3497  -96.1
 4.900  0.4477  105.2   1.356   15.1  0.3526   49.1  0.3483  -98.9
 5.000  0.4552  104.0   1.333   13.6  0.3608   48.4  0.3476 -101.7
 5.100  0.4600  102.6   1.313   12.4  0.3690   47.4  0.3473 -104.7
 5.200  0.4651  101.3   1.294   11.2  0.3772   46.5  0.3480 -107.7
 5.300  0.4704  100.0   1.275    9.9  0.3856   45.6  0.3497 -110.7
 5.400  0.4759   98.7   1.257    8.6  0.3940   44.8  0.3522 -113.6
 5.500  0.4817   97.5   1.239    7.3  0.4025   44.0  0.3557 -116.5
 5.600  0.4850   96.3   1.220    6.2  0.4105   42.9  0.3575 -119.2
 5.700  0.4886   95.1   1.202    5.1  0.4187   41.9  0.3600 -121.8
 5.800  0.4924   93.9   1.185    4.0  0.4270   40.9  0.3634 -124.4
 5.900  0.4963   92.7   1.168    2.8  0.4354   39.9  0.3674 -127.0
 6.000  0.5005   91.6   1.151    1.6  0.4439   39.0  0.3722 -129.5
!
!  f       NFmin   Gammaopt  rn/50
! GHz       dB    MAG  ANG    -
 0.450      1.08  0.24   17   0.22
 0.900      1.13  0.22   31   0.21
 1.900      1.55  0.09   86   0.19
 2.400      1.70  0.08   96   0.23
!
! (c) 2017  Infineon Technologies AG, Munich