! Infineon Technologies  Discrete & RF Semiconductors
! BFR181W
! VCE =  12. V,  IC =  3.0 mA
! Common Emitter S-Parameters:                            Jan 2017
# GHz  S  MA  R  50
!  f         S11            S21            S12            S22
! GHz     MAG   ANG      MAG   ANG      MAG   ANG      MAG   ANG
 0.010  0.9274   -0.5   9.856  179.2  0.0014   74.6  0.9987   -0.7
 0.020  0.9130   -4.0   9.762  177.1  0.0036   92.7  0.9891   -1.2
 0.030  0.9055   -4.9   9.707  176.1  0.0054   89.4  0.9906   -2.0
 0.040  0.8982   -5.8   9.656  175.0  0.0071   87.8  0.9922   -2.8
 0.050  0.8912   -6.7   9.607  174.0  0.0089   86.8  0.9941   -3.6
 0.060  0.8918   -8.1   9.570  172.8  0.0105   85.4  0.9914   -4.3
 0.070  0.8930   -9.6   9.538  171.6  0.0122   84.4  0.9890   -5.0
 0.080  0.8948  -11.0   9.510  170.4  0.0138   83.6  0.9866   -5.7
 0.090  0.8971  -12.5   9.486  169.2  0.0155   83.0  0.9844   -6.5
 0.100  0.9000  -13.9   9.466  168.0  0.0171   82.5  0.9824   -7.2
 0.110  0.8937  -15.3   9.425  166.9  0.0187   81.3  0.9791   -7.9
 0.120  0.8879  -16.8   9.387  165.7  0.0204   80.3  0.9759   -8.5
 0.130  0.8827  -18.3   9.353  164.6  0.0220   79.5  0.9729   -9.2
 0.140  0.8782  -19.8   9.323  163.5  0.0237   78.7  0.9700   -9.9
 0.150  0.8742  -21.3   9.296  162.3  0.0253   78.1  0.9673  -10.6
 0.200  0.8562  -27.4   9.038  156.4  0.0323   74.3  0.9459  -13.8
 0.250  0.8272  -34.0   8.809  151.0  0.0402   70.6  0.9224  -16.8
 0.300  0.7928  -40.2   8.481  145.8  0.0457   67.6  0.8942  -19.5
 0.350  0.7598  -45.5   8.144  141.4  0.0514   64.9  0.8666  -21.7
 0.400  0.7339  -51.2   7.859  136.7  0.0571   62.8  0.8404  -24.0
 0.450  0.6987  -56.1   7.504  132.9  0.0614   60.6  0.8130  -25.7
 0.500  0.6691  -61.5   7.185  128.7  0.0657   58.6  0.7864  -27.6
 0.600  0.6112  -70.8   6.585  121.6  0.0737   55.7  0.7379  -30.2
 0.700  0.5584  -79.5   6.022  115.4  0.0784   53.7  0.6949  -32.2
 0.800  0.5113  -87.4   5.552  109.8  0.0835   52.6  0.6581  -33.9
 0.900  0.4702  -94.8   5.113  104.9  0.0878   51.0  0.6271  -35.2
 1.000  0.4369 -101.9   4.745  100.6  0.0917   50.7  0.6004  -36.2
 1.100  0.4098 -108.7   4.412   96.7  0.0952   50.2  0.5789  -37.1
 1.200  0.3838 -115.1   4.120   92.9  0.0989   50.1  0.5592  -38.1
 1.300  0.3624 -121.4   3.860   89.3  0.1021   50.3  0.5429  -39.0
 1.400  0.3471 -127.3   3.639   86.2  0.1058   50.6  0.5279  -39.9
 1.500  0.3347 -133.5   3.443   83.2  0.1097   51.4  0.5157  -40.7
 1.600  0.3236 -139.5   3.256   80.2  0.1134   51.4  0.5068  -41.7
 1.700  0.3132 -144.9   3.098   77.6  0.1167   52.2  0.4958  -42.8
 1.800  0.3046 -150.5   2.965   74.9  0.1209   52.5  0.4871  -43.8
 1.900  0.3033 -155.8   2.837   72.5  0.1248   53.1  0.4797  -44.9
 2.000  0.2975 -161.1   2.715   69.8  0.1294   53.8  0.4743  -46.1
 2.100  0.2938 -166.1   2.611   67.5  0.1337   54.4  0.4688  -47.4
 2.200  0.2923 -171.1   2.511   65.0  0.1380   54.9  0.4635  -48.7
 2.300  0.2929 -175.7   2.422   62.8  0.1429   55.3  0.4600  -50.2
 2.400  0.2954  179.7   2.337   60.4  0.1478   55.7  0.4568  -51.7
 2.500  0.2957  175.9   2.258   58.4  0.1530   56.1  0.4541  -53.1
 2.600  0.2972  172.2   2.181   56.3  0.1582   56.5  0.4516  -54.6
 2.700  0.2990  168.1   2.116   54.3  0.1635   56.8  0.4502  -56.0
 2.800  0.3022  164.1   2.053   52.2  0.1688   57.0  0.4491  -57.5
 2.900  0.3048  160.8   1.998   50.2  0.1749   57.2  0.4473  -58.9
 3.000  0.3084  157.5   1.945   48.1  0.1811   57.3  0.4458  -60.4
 3.100  0.3109  154.4   1.896   46.5  0.1876   57.3  0.4449  -61.9
 3.200  0.3144  151.3   1.848   44.8  0.1942   57.4  0.4442  -63.4
 3.300  0.3187  148.2   1.802   43.0  0.2007   57.4  0.4439  -64.9
 3.400  0.3239  145.3   1.758   41.2  0.2073   57.5  0.4438  -66.4
 3.500  0.3299  142.5   1.716   39.2  0.2138   57.5  0.4441  -67.9
 3.600  0.3340  140.0   1.680   37.7  0.2211   57.2  0.4417  -69.5
 3.700  0.3386  137.5   1.646   36.1  0.2285   56.8  0.4398  -71.2
 3.800  0.3439  135.1   1.612   34.4  0.2358   56.5  0.4381  -72.8
 3.900  0.3498  132.8   1.580   32.7  0.2431   56.3  0.4369  -74.5
 4.000  0.3562  130.6   1.550   30.9  0.2505   56.0  0.4360  -76.2
 4.100  0.3617  128.3   1.521   29.4  0.2586   55.4  0.4316  -78.2
 4.200  0.3677  126.1   1.494   27.8  0.2667   54.9  0.4277  -80.2
 4.300  0.3742  124.0   1.467   26.2  0.2748   54.4  0.4243  -82.3
 4.400  0.3813  121.9   1.442   24.5  0.2829   53.9  0.4215  -84.4
 4.500  0.3888  119.9   1.418   22.8  0.2911   53.5  0.4193  -86.5
 4.600  0.3956  118.1   1.392   21.5  0.2995   52.8  0.4154  -89.0
 4.700  0.4028  116.3   1.367   20.1  0.3080   52.2  0.4123  -91.5
 4.800  0.4103  114.5   1.342   18.6  0.3164   51.6  0.4100  -94.0
 4.900  0.4182  112.9   1.319   17.1  0.3250   51.0  0.4085  -96.5
 5.000  0.4265  111.3   1.296   15.6  0.3335   50.5  0.4078  -99.1
 5.100  0.4318  109.7   1.276   14.4  0.3424   49.6  0.4074 -101.9
 5.200  0.4373  108.1   1.257   13.1  0.3513   48.8  0.4081 -104.7
 5.300  0.4433  106.6   1.239   11.8  0.3603   48.0  0.4096 -107.4
 5.400  0.4495  105.1   1.221   10.4  0.3694   47.3  0.4121 -110.2
 5.500  0.4560  103.6   1.204    9.0  0.3785   46.6  0.4156 -112.9
 5.600  0.4600  102.1   1.186    7.9  0.3873   45.6  0.4170 -115.5
 5.700  0.4642  100.7   1.168    6.8  0.3963   44.6  0.4192 -118.0
 5.800  0.4687   99.3   1.150    5.7  0.4053   43.7  0.4222 -120.5
 5.900  0.4735   97.9   1.133    4.5  0.4145   42.8  0.4260 -123.0
 6.000  0.4786   96.6   1.117    3.3  0.4237   41.9  0.4306 -125.4
!
!  f       NFmin   Gammaopt  rn/50
! GHz       dB    MAG  ANG    -
 0.450      0.87  0.47   17   0.27
 0.900      0.93  0.42   32   0.26
 1.900      1.34  0.24   80   0.21
 2.400      1.55  0.21   94   0.23
!
! (c) 2017  Infineon Technologies AG, Munich