! Infineon Technologies  Discrete & RF Semiconductors
! BFR181W
! VCE =  6.0 V,  IC =  8.0 mA
! Common Emitter S-Parameters:                            Jan 2017
# GHz  S  MA  R  50
!  f         S11            S21            S12            S22
! GHz     MAG   ANG      MAG   ANG      MAG   ANG      MAG   ANG
 0.010  0.7829   -1.9  21.452  178.0  0.0016   77.7  0.9957   -1.3
 0.020  0.7687   -6.7  21.159  175.0  0.0030   94.2  0.9854   -2.5
 0.030  0.7602   -9.0  20.986  173.0  0.0048   88.1  0.9832   -3.9
 0.040  0.7528  -11.3  20.840  170.9  0.0066   85.4  0.9817   -5.3
 0.050  0.7467  -13.6  20.722  168.8  0.0084   83.8  0.9807   -6.7
 0.060  0.7398  -16.2  20.466  166.7  0.0099   81.9  0.9720   -7.9
 0.070  0.7344  -18.9  20.236  164.7  0.0115   80.5  0.9638   -9.2
 0.080  0.7307  -21.6  20.035  162.5  0.0131   79.4  0.9560  -10.4
 0.090  0.7287  -24.4  19.862  160.3  0.0146   78.6  0.9487  -11.7
 0.100  0.7283  -27.1  19.718  158.1  0.0162   77.9  0.9419  -13.0
 0.110  0.7153  -29.5  19.418  156.3  0.0174   76.3  0.9310  -14.0
 0.120  0.7037  -32.0  19.138  154.5  0.0186   75.0  0.9204  -15.0
 0.130  0.6934  -34.5  18.878  152.6  0.0198   73.8  0.9102  -16.0
 0.140  0.6844  -37.1  18.639  150.7  0.0211   72.7  0.9002  -17.1
 0.150  0.6770  -39.8  18.421  148.7  0.0223   71.8  0.8905  -18.2
 0.200  0.6272  -50.5  16.918  140.1  0.0275   68.2  0.8339  -22.2
 0.250  0.5756  -60.4  15.509  132.9  0.0325   64.6  0.7803  -25.2
 0.300  0.5257  -69.3  14.119  126.9  0.0359   62.6  0.7293  -27.4
 0.350  0.4849  -76.1  12.968  122.6  0.0394   61.8  0.6897  -28.6
 0.400  0.4520  -84.0  11.905  117.4  0.0430   61.2  0.6505  -29.9
 0.450  0.4210  -89.9  10.985  114.1  0.0456   60.5  0.6217  -30.5
 0.500  0.3951  -96.6  10.108  110.2  0.0482   59.9  0.5929  -31.1
 0.600  0.3526 -107.4   8.763  104.3  0.0539   59.9  0.5512  -31.5
 0.700  0.3225 -117.3   7.696   99.4  0.0589   61.3  0.5200  -31.5
 0.800  0.2993 -126.7   6.870   95.2  0.0642   61.9  0.4968  -31.7
 0.900  0.2830 -134.4   6.177   91.5  0.0696   61.7  0.4792  -31.8
 1.000  0.2719 -141.9   5.636   88.3  0.0752   63.0  0.4644  -32.0
 1.100  0.2628 -149.5   5.166   85.3  0.0806   63.5  0.4543  -32.4
 1.200  0.2579 -156.1   4.767   82.4  0.0865   63.8  0.4442  -32.8
 1.300  0.2516 -162.0   4.427   79.7  0.0912   64.3  0.4365  -33.4
 1.400  0.2519 -167.5   4.144   77.2  0.0980   64.7  0.4287  -34.2
 1.500  0.2539 -172.9   3.888   74.8  0.1033   65.0  0.4228  -35.0
 1.600  0.2524 -178.1   3.667   72.4  0.1094   65.2  0.4190  -36.0
 1.700  0.2541  177.7   3.469   70.3  0.1159   65.4  0.4129  -37.1
 1.800  0.2569  173.6   3.304   68.1  0.1220   65.3  0.4083  -38.2
 1.900  0.2598  170.0   3.148   66.1  0.1277   65.2  0.4048  -39.5
 2.000  0.2626  166.0   3.003   63.9  0.1346   65.2  0.4015  -41.0
 2.100  0.2658  162.6   2.880   62.0  0.1407   65.1  0.3986  -42.4
 2.200  0.2699  159.3   2.761   59.9  0.1468   65.0  0.3960  -43.9
 2.300  0.2750  156.1   2.659   58.0  0.1536   64.7  0.3941  -45.5
 2.400  0.2810  153.1   2.561   56.0  0.1604   64.5  0.3925  -47.2
 2.500  0.2845  150.6   2.471   54.2  0.1672   64.1  0.3909  -48.9
 2.600  0.2886  148.1   2.383   52.3  0.1740   63.8  0.3896  -50.6
 2.700  0.2947  145.2   2.309   50.6  0.1807   63.5  0.3891  -52.3
 2.800  0.3016  142.5   2.237   48.7  0.1875   63.2  0.3890  -54.0
 2.900  0.3052  140.2   2.174   47.0  0.1946   62.7  0.3879  -55.7
 3.000  0.3092  137.9   2.114   45.1  0.2017   62.3  0.3871  -57.4
 3.100  0.3133  135.6   2.060   43.6  0.2090   61.8  0.3862  -59.0
 3.200  0.3179  133.4   2.007   42.1  0.2163   61.2  0.3856  -60.7
 3.300  0.3230  131.2   1.956   40.5  0.2236   60.8  0.3853  -62.3
 3.400  0.3285  129.1   1.906   38.8  0.2310   60.3  0.3853  -64.0
 3.500  0.3344  127.1   1.858   37.0  0.2383   59.9  0.3857  -65.6
 3.600  0.3392  125.3   1.819   35.6  0.2459   59.2  0.3832  -67.3
 3.700  0.3443  123.5   1.781   34.1  0.2535   58.5  0.3811  -69.1
 3.800  0.3497  121.8   1.744   32.6  0.2612   57.8  0.3793  -70.9
 3.900  0.3554  120.2   1.708   31.0  0.2689   57.2  0.3779  -72.7
 4.000  0.3614  118.6   1.674   29.3  0.2766   56.6  0.3769  -74.5
 4.100  0.3669  116.9   1.643   27.9  0.2845   55.7  0.3725  -76.6
 4.200  0.3727  115.3   1.614   26.5  0.2925   54.9  0.3686  -78.7
 4.300  0.3788  113.7   1.585   25.0  0.3005   54.1  0.3653  -80.8
 4.400  0.3852  112.2   1.557   23.4  0.3086   53.3  0.3624  -83.0
 4.500  0.3918  110.7   1.531   21.8  0.3167   52.6  0.3601  -85.2
 4.600  0.3989  109.3   1.504   20.5  0.3245   51.7  0.3560  -87.8
 4.700  0.4063  107.9   1.477   19.2  0.3324   50.9  0.3527  -90.4
 4.800  0.4138  106.6   1.451   17.8  0.3404   50.2  0.3501  -93.1
 4.900  0.4216  105.3   1.426   16.4  0.3484   49.4  0.3483  -95.9
 5.000  0.4296  104.1   1.402   14.9  0.3565   48.7  0.3473  -98.6
 5.100  0.4347  102.8   1.381   13.7  0.3645   47.7  0.3468 -101.6
 5.200  0.4401  101.5   1.361   12.5  0.3726   46.8  0.3473 -104.5
 5.300  0.4457  100.2   1.341   11.2  0.3808   45.9  0.3487 -107.4
 5.400  0.4515   99.0   1.322    9.9  0.3891   45.1  0.3509 -110.3
 5.500  0.4575   97.8   1.304    8.5  0.3975   44.3  0.3541 -113.2
 5.600  0.4610   96.6   1.285    7.4  0.4055   43.2  0.3555 -115.9
 5.700  0.4647   95.5   1.267    6.3  0.4137   42.2  0.3577 -118.5
 5.800  0.4686   94.3   1.248    5.2  0.4219   41.2  0.3607 -121.1
 5.900  0.4727   93.2   1.231    4.0  0.4303   40.3  0.3643 -123.6
 6.000  0.4770   92.1   1.214    2.8  0.4388   39.4  0.3687 -126.1
!
!  f       NFmin   Gammaopt  rn/50
! GHz       dB    MAG  ANG    -
 0.450      1.14  0.20   16   0.21
 0.900      1.18  0.19   31   0.21
 1.900      1.60  0.07   92   0.20
 2.400      1.76  0.06  100   0.23
!
! (c) 2017  Infineon Technologies AG, Munich