! Infineon Technologies  Discrete & RF Semiconductors
! BFR181W
! VCE =  3.0 V,  IC =  12 mA
! Common Emitter S-Parameters:                            Jan 2017
# GHz  S  MA  R  50
!  f         S11            S21            S12            S22
! GHz     MAG   ANG      MAG   ANG      MAG   ANG      MAG   ANG
 0.010  0.6856   -3.5  27.516  177.5  0.0016   90.7  0.9870   -1.7
 0.020  0.6678   -9.7  27.111  173.6  0.0030   82.6  0.9769   -3.4
 0.030  0.6580  -13.4  26.777  170.7  0.0047   81.3  0.9708   -5.2
 0.040  0.6511  -17.2  26.513  167.8  0.0065   80.7  0.9657   -7.0
 0.050  0.6470  -21.0  26.319  164.8  0.0082   80.3  0.9616   -8.9
 0.060  0.6335  -24.7  25.745  162.2  0.0096   78.2  0.9468  -10.3
 0.070  0.6228  -28.5  25.225  159.5  0.0110   76.7  0.9327  -11.8
 0.080  0.6149  -32.4  24.764  156.7  0.0124   75.4  0.9191  -13.3
 0.090  0.6099  -36.4  24.365  153.8  0.0138   74.5  0.9062  -14.8
 0.100  0.6080  -40.5  24.030  150.8  0.0152   73.7  0.8940  -16.4
 0.110  0.5921  -43.7  23.434  148.8  0.0163   72.1  0.8783  -17.4
 0.120  0.5782  -47.0  22.869  146.6  0.0175   70.7  0.8629  -18.4
 0.130  0.5663  -50.5  22.339  144.3  0.0187   69.4  0.8478  -19.5
 0.140  0.5567  -54.2  21.844  142.0  0.0198   68.4  0.8330  -20.6
 0.150  0.5493  -57.9  21.389  139.5  0.0210   67.4  0.8185  -21.7
 0.200  0.4963  -71.8  18.746  130.2  0.0250   64.3  0.7463  -24.9
 0.250  0.4522  -84.3  16.534  123.0  0.0290   62.7  0.6874  -26.8
 0.300  0.4164  -95.0  14.617  117.3  0.0317   60.5  0.6383  -27.8
 0.350  0.3889 -102.8  13.177  113.5  0.0347   60.9  0.6051  -28.0
 0.400  0.3697 -111.6  11.811  108.7  0.0377   61.2  0.5720  -28.2
 0.450  0.3514 -117.9  10.781  105.8  0.0404   61.9  0.5504  -28.2
 0.500  0.3378 -124.9   9.784  102.4  0.0431   62.5  0.5288  -28.1
 0.600  0.3188 -136.0   8.350   97.3  0.0488   63.3  0.5002  -27.7
 0.700  0.3093 -145.3   7.261   93.1  0.0538   65.4  0.4806  -27.4
 0.800  0.3009 -153.6   6.434   89.4  0.0603   66.4  0.4661  -27.5
 0.900  0.2978 -160.3   5.759   86.1  0.0655   66.5  0.4548  -27.7
 1.000  0.2959 -166.4   5.231   83.2  0.0714   67.7  0.4458  -28.0
 1.100  0.2964 -172.0   4.786   80.5  0.0775   68.2  0.4401  -28.5
 1.200  0.2979 -177.1   4.409   77.8  0.0834   68.2  0.4332  -29.2
 1.300  0.2963  178.2   4.086   75.2  0.0891   68.9  0.4286  -30.1
 1.400  0.2993  174.1   3.821   72.9  0.0961   69.2  0.4230  -31.1
 1.500  0.3053  170.8   3.582   70.7  0.1019   69.2  0.4191  -32.0
 1.600  0.3078  166.8   3.374   68.3  0.1088   69.2  0.4169  -33.3
 1.700  0.3112  163.4   3.190   66.2  0.1155   69.3  0.4125  -34.7
 1.800  0.3148  160.2   3.036   64.1  0.1219   69.2  0.4087  -36.1
 1.900  0.3197  157.7   2.892   62.2  0.1284   69.2  0.4063  -37.6
 2.000  0.3244  154.5   2.756   60.0  0.1356   69.0  0.4044  -39.2
 2.100  0.3283  151.9   2.642   58.1  0.1424   68.7  0.4017  -40.9
 2.200  0.3328  149.3   2.531   56.0  0.1493   68.5  0.3994  -42.7
 2.300  0.3393  146.9   2.438   54.2  0.1565   68.1  0.3980  -44.5
 2.400  0.3463  144.6   2.347   52.2  0.1637   67.7  0.3971  -46.4
 2.500  0.3495  142.5   2.265   50.5  0.1706   67.3  0.3960  -48.3
 2.600  0.3531  140.4   2.185   48.6  0.1775   66.9  0.3953  -50.2
 2.700  0.3590  138.1   2.116   46.9  0.1850   66.4  0.3951  -52.1
 2.800  0.3655  135.8   2.049   45.0  0.1925   66.0  0.3954  -53.9
 2.900  0.3699  133.8   1.990   43.3  0.2000   65.4  0.3945  -55.8
 3.000  0.3747  131.9   1.933   41.4  0.2076   64.9  0.3941  -57.7
 3.100  0.3790  129.9   1.883   40.0  0.2154   64.2  0.3934  -59.5
 3.200  0.3837  127.9   1.834   38.4  0.2232   63.6  0.3931  -61.3
 3.300  0.3889  126.0   1.787   36.9  0.2310   63.0  0.3931  -63.2
 3.400  0.3944  124.2   1.740   35.2  0.2388   62.5  0.3936  -65.0
 3.500  0.4004  122.4   1.696   33.4  0.2467   62.0  0.3945  -66.8
 3.600  0.4047  120.7   1.660   32.0  0.2548   61.2  0.3920  -68.7
 3.700  0.4093  119.0   1.624   30.6  0.2629   60.4  0.3899  -70.6
 3.800  0.4143  117.4   1.590   29.0  0.2711   59.6  0.3882  -72.6
 3.900  0.4196  115.8   1.557   27.5  0.2793   59.0  0.3870  -74.5
 4.000  0.4252  114.2   1.525   25.8  0.2876   58.3  0.3863  -76.5
 4.100  0.4306  112.7   1.496   24.4  0.2959   57.3  0.3817  -78.7
 4.200  0.4363  111.2   1.468   23.0  0.3043   56.4  0.3778  -81.0
 4.300  0.4423  109.7   1.441   21.5  0.3128   55.5  0.3744  -83.3
 4.400  0.4486  108.3   1.415   20.0  0.3213   54.7  0.3717  -85.7
 4.500  0.4552  106.9   1.390   18.4  0.3299   53.9  0.3696  -88.1
 4.600  0.4613  105.5   1.364   17.2  0.3382   52.9  0.3656  -90.8
 4.700  0.4676  104.2   1.340   15.9  0.3466   52.0  0.3624  -93.6
 4.800  0.4742  103.0   1.315   14.6  0.3551   51.1  0.3601  -96.5
 4.900  0.4811  101.7   1.292   13.2  0.3637   50.2  0.3587  -99.3
 5.000  0.4881  100.5   1.269   11.8  0.3723   49.4  0.3582 -102.2
 5.100  0.4930   99.2   1.250   10.7  0.3807   48.4  0.3579 -105.3
 5.200  0.4981   98.0   1.231    9.5  0.3892   47.4  0.3587 -108.3
 5.300  0.5034   96.8   1.213    8.2  0.3977   46.5  0.3604 -111.4
 5.400  0.5090   95.6   1.195    7.0  0.4064   45.6  0.3632 -114.4
 5.500  0.5148   94.4   1.178    5.7  0.4152   44.8  0.3669 -117.3
 5.600  0.5174   93.2   1.160    4.7  0.4234   43.6  0.3685 -120.0
 5.700  0.5202   92.0   1.142    3.6  0.4318   42.5  0.3709 -122.8
 5.800  0.5232   90.8   1.125    2.5  0.4403   41.4  0.3742 -125.4
 5.900  0.5264   89.7   1.108    1.4  0.4490   40.4  0.3783 -128.0
 6.000  0.5299   88.5   1.092    0.2  0.4578   39.4  0.3831 -130.6
!
!  f       NFmin   Gammaopt  rn/50
! GHz       dB    MAG  ANG    -
 0.450      1.34  0.10   16   0.21
 0.900      1.38  0.10   32   0.21
 1.900      1.82  0.07 -151   0.21
 2.400      2.01  0.08 -113   0.26
!
! (c) 2017  Infineon Technologies AG, Munich