! Infineon Technologies  Discrete & RF Semiconductors
! BFR181W
! VCE =  3.0 V,  IC =  15 mA
! Common Emitter S-Parameters:                            Jan 2017
# GHz  S  MA  R  50
!  f         S11            S21            S12            S22
! GHz     MAG   ANG      MAG   ANG      MAG   ANG      MAG   ANG
 0.010  0.6295   -4.8  30.215  176.8  0.0014   96.6  0.9768   -1.8
 0.020  0.6175  -12.4  29.923  172.4  0.0028  100.3  0.9668   -3.7
 0.030  0.6038  -17.2  29.349  169.0  0.0045   86.7  0.9575   -5.7
 0.040  0.5944  -22.1  28.884  165.4  0.0063   80.7  0.9494   -7.8
 0.050  0.5896  -27.2  28.532  161.8  0.0081   77.4  0.9426   -9.9
 0.060  0.5731  -31.7  27.708  159.0  0.0095   75.0  0.9246  -11.3
 0.070  0.5603  -36.4  26.957  156.0  0.0108   73.3  0.9071  -12.8
 0.080  0.5515  -41.4  26.284  152.8  0.0122   71.9  0.8902  -14.3
 0.090  0.5468  -46.4  25.695  149.5  0.0136   70.8  0.8740  -15.9
 0.100  0.5465  -51.5  25.196  146.0  0.0150   69.9  0.8585  -17.5
 0.110  0.5302  -55.2  24.410  143.9  0.0159   68.7  0.8410  -18.3
 0.120  0.5163  -59.1  23.659  141.7  0.0169   67.7  0.8237  -19.2
 0.130  0.5049  -63.3  22.946  139.3  0.0179   66.8  0.8066  -20.1
 0.140  0.4963  -67.6  22.274  136.8  0.0188   65.9  0.7897  -21.1
 0.150  0.4905  -72.0  21.649  134.1  0.0198   65.2  0.7730  -22.1
 0.200  0.4497  -87.8  18.459  124.7  0.0234   63.5  0.7012  -24.3
 0.250  0.4164 -101.5  15.950  117.8  0.0261   60.7  0.6467  -25.3
 0.300  0.3919 -112.5  13.903  112.4  0.0290   61.3  0.6043  -25.4
 0.350  0.3746 -120.5  12.441  108.9  0.0316   62.1  0.5777  -25.3
 0.400  0.3653 -129.1  11.039  104.4  0.0343   62.7  0.5512  -25.1
 0.450  0.3543 -135.0  10.031  101.8  0.0371   63.3  0.5351  -24.8
 0.500  0.3473 -141.3   9.049   98.6  0.0400   63.9  0.5190  -24.5
 0.600  0.3416 -151.3   7.679   93.9  0.0449   64.7  0.4998  -24.2
 0.700  0.3377 -159.1   6.653   90.0  0.0505   67.2  0.4856  -24.0
 0.800  0.3362 -166.0   5.880   86.4  0.0564   68.6  0.4759  -24.3
 0.900  0.3360 -171.8   5.252   83.4  0.0618   69.2  0.4678  -24.8
 1.000  0.3371 -176.6   4.767   80.5  0.0682   70.3  0.4605  -25.4
 1.100  0.3407  178.8   4.355   77.9  0.0743   71.1  0.4566  -26.1
 1.200  0.3431  174.6   4.010   75.2  0.0801   71.3  0.4526  -27.0
 1.300  0.3434  170.5   3.715   72.7  0.0867   71.6  0.4478  -28.2
 1.400  0.3491  167.2   3.472   70.4  0.0934   71.9  0.4439  -29.3
 1.500  0.3539  164.2   3.253   68.2  0.0998   72.1  0.4408  -30.6
 1.600  0.3566  160.8   3.065   65.9  0.1065   72.2  0.4392  -32.0
 1.700  0.3602  157.7   2.898   63.8  0.1127   72.2  0.4353  -33.6
 1.800  0.3653  155.1   2.756   61.6  0.1201   72.0  0.4320  -35.1
 1.900  0.3699  152.9   2.625   59.8  0.1267   71.8  0.4298  -36.7
 2.000  0.3748  150.1   2.502   57.6  0.1336   71.7  0.4283  -38.6
 2.100  0.3787  147.5   2.398   55.7  0.1407   71.4  0.4258  -40.4
 2.200  0.3834  144.9   2.296   53.6  0.1478   71.1  0.4237  -42.3
 2.300  0.3896  142.9   2.211   51.7  0.1552   70.7  0.4226  -44.3
 2.400  0.3963  140.9   2.129   49.7  0.1627   70.3  0.4220  -46.3
 2.500  0.3996  138.9   2.053   48.0  0.1701   69.9  0.4210  -48.3
 2.600  0.4033  136.9   1.980   46.1  0.1775   69.5  0.4206  -50.3
 2.700  0.4088  134.8   1.918   44.4  0.1852   69.0  0.4206  -52.3
 2.800  0.4149  132.7   1.857   42.5  0.1930   68.6  0.4211  -54.3
 2.900  0.4193  130.8   1.802   40.8  0.2007   67.9  0.4202  -56.3
 3.000  0.4242  128.9   1.748   38.9  0.2084   67.3  0.4198  -58.3
 3.100  0.4281  126.9   1.703   37.5  0.2167   66.6  0.4190  -60.2
 3.200  0.4325  125.0   1.658   35.9  0.2251   65.9  0.4187  -62.1
 3.300  0.4374  123.1   1.615   34.4  0.2335   65.3  0.4189  -64.1
 3.400  0.4427  121.3   1.573   32.7  0.2419   64.7  0.4196  -66.0
 3.500  0.4485  119.5   1.533   30.9  0.2503   64.2  0.4207  -67.9
 3.600  0.4528  117.8   1.499   29.5  0.2588   63.3  0.4179  -69.9
 3.700  0.4576  116.2   1.467   28.1  0.2674   62.4  0.4157  -72.0
 3.800  0.4627  114.6   1.435   26.6  0.2760   61.6  0.4140  -74.0
 3.900  0.4681  113.0   1.405   25.0  0.2847   60.8  0.4128  -76.1
 4.000  0.4739  111.5   1.375   23.4  0.2934   60.1  0.4122  -78.2
 4.100  0.4783  109.9   1.348   22.1  0.3022   59.0  0.4074  -80.6
 4.200  0.4830  108.4   1.323   20.7  0.3111   58.0  0.4033  -83.0
 4.300  0.4881  106.8   1.297   19.2  0.3201   57.1  0.4000  -85.4
 4.400  0.4935  105.4   1.273   17.8  0.3292   56.2  0.3974  -87.9
 4.500  0.4993  103.9   1.250   16.2  0.3384   55.3  0.3955  -90.4
 4.600  0.5049  102.6   1.227   15.1  0.3471   54.2  0.3912  -93.2
 4.700  0.5108  101.3   1.204   13.9  0.3558   53.2  0.3879  -96.1
 4.800  0.5170  100.0   1.182   12.6  0.3647   52.3  0.3856  -99.0
 4.900  0.5234   98.8   1.161   11.3  0.3736   51.4  0.3843 -101.9
 5.000  0.5300   97.6   1.140   10.0  0.3827   50.5  0.3840 -104.9
 5.100  0.5341   96.3   1.122    8.9  0.3915   49.4  0.3836 -108.0
 5.200  0.5384   95.1   1.105    7.8  0.4004   48.4  0.3843 -111.1
 5.300  0.5430   93.8   1.088    6.7  0.4094   47.4  0.3861 -114.1
 5.400  0.5479   92.6   1.071    5.5  0.4185   46.4  0.3890 -117.1
 5.500  0.5530   91.4   1.055    4.3  0.4278   45.5  0.3930 -120.1
 5.600  0.5553   90.2   1.039    3.4  0.4361   44.2  0.3942 -122.8
 5.700  0.5578   89.0   1.023    2.4  0.4446   43.0  0.3964 -125.6
 5.800  0.5605   87.9   1.008    1.4  0.4532   41.9  0.3994 -128.3
 5.900  0.5635   86.7   0.993    0.4  0.4621   40.8  0.4033 -130.9
 6.000  0.5667   85.6   0.978   -0.6  0.4711   39.7  0.4080 -133.5
!
!  f       NFmin   Gammaopt  rn/50
! GHz       dB    MAG  ANG    -
 0.450      1.47  0.04   14   0.21
 0.900      1.52  0.04   31   0.21
 1.900      1.95  0.13 -139   0.22
 2.400      2.20  0.16 -109   0.28
!
! (c) 2017  Infineon Technologies AG, Munich