! Infineon Technologies  Discrete & RF Semiconductors
! BFR181W
! VCE =  7.0 V,  IC =  12 mA
! Common Emitter S-Parameters:                            Jan 2017
# GHz  S  MA  R  50
!  f         S11            S21            S12            S22
! GHz     MAG   ANG      MAG   ANG      MAG   ANG      MAG   ANG
 0.010  0.7138   -2.5  27.429  177.1  0.0014   82.6  0.9912   -1.5
 0.020  0.7010   -8.2  27.001  173.7  0.0028   89.5  0.9894   -3.0
 0.030  0.6910  -11.2  26.683  171.2  0.0045   84.4  0.9823   -4.7
 0.040  0.6829  -14.2  26.417  168.7  0.0062   82.1  0.9760   -6.4
 0.050  0.6768  -17.3  26.203  166.1  0.0079   80.8  0.9707   -8.2
 0.060  0.6664  -20.5  25.726  163.7  0.0093   79.6  0.9584   -9.6
 0.070  0.6581  -23.7  25.295  161.3  0.0107   78.7  0.9467  -11.0
 0.080  0.6520  -27.0  24.912  158.8  0.0122   78.0  0.9356  -12.4
 0.090  0.6480  -30.4  24.578  156.2  0.0136   77.4  0.9251  -13.9
 0.100  0.6464  -33.8  24.296  153.5  0.0150   77.0  0.9152  -15.4
 0.110  0.6308  -36.5  23.782  151.5  0.0161   75.0  0.9007  -16.4
 0.120  0.6167  -39.4  23.298  149.5  0.0171   73.3  0.8864  -17.5
 0.130  0.6042  -42.4  22.844  147.4  0.0182   71.8  0.8724  -18.5
 0.140  0.5934  -45.5  22.422  145.2  0.0193   70.4  0.8588  -19.7
 0.150  0.5844  -48.7  22.035  142.9  0.0204   69.2  0.8455  -20.8
 0.200  0.5290  -60.7  19.631  133.8  0.0241   66.8  0.7765  -24.4
 0.250  0.4784  -72.0  17.554  126.5  0.0287   64.6  0.7171  -26.8
 0.300  0.4326  -81.7  15.657  120.7  0.0318   63.3  0.6658  -28.2
 0.350  0.3975  -88.7  14.193  116.7  0.0349   63.0  0.6291  -28.8
 0.400  0.3695  -97.0  12.814  111.8  0.0381   62.7  0.5925  -29.4
 0.450  0.3454 -103.1  11.739  108.8  0.0408   63.2  0.5676  -29.5
 0.500  0.3257 -110.0  10.701  105.3  0.0436   63.6  0.5428  -29.6
 0.600  0.2958 -121.3   9.175  100.0  0.0497   63.2  0.5100  -29.3
 0.700  0.2759 -131.2   7.994   95.7  0.0548   65.5  0.4855  -29.0
 0.800  0.2630 -140.3   7.101   91.9  0.0609   66.3  0.4685  -29.0
 0.900  0.2523 -148.0   6.363   88.6  0.0662   66.5  0.4555  -29.1
 1.000  0.2475 -155.5   5.786   85.6  0.0725   67.4  0.4441  -29.2
 1.100  0.2443 -161.6   5.295   83.0  0.0781   67.9  0.4368  -29.5
 1.200  0.2436 -167.9   4.880   80.2  0.0841   67.8  0.4290  -30.0
 1.300  0.2422 -173.3   4.523   77.7  0.0900   68.3  0.4233  -30.7
 1.400  0.2433 -178.1   4.231   75.4  0.0970   68.3  0.4173  -31.6
 1.500  0.2475  177.6   3.969   73.2  0.1030   68.6  0.4127  -32.4
 1.600  0.2492  172.9   3.737   70.9  0.1097   68.6  0.4096  -33.5
 1.700  0.2510  169.2   3.535   68.9  0.1156   68.6  0.4049  -34.7
 1.800  0.2541  165.6   3.363   66.8  0.1225   68.3  0.4006  -35.9
 1.900  0.2592  162.6   3.204   65.0  0.1287   68.2  0.3980  -37.3
 2.000  0.2631  159.1   3.055   62.9  0.1355   68.0  0.3957  -38.8
 2.100  0.2665  156.0   2.929   61.0  0.1425   67.6  0.3928  -40.3
 2.200  0.2706  153.0   2.806   59.0  0.1495   67.3  0.3901  -41.9
 2.300  0.2763  150.3   2.702   57.2  0.1561   66.9  0.3884  -43.6
 2.400  0.2826  147.7   2.601   55.2  0.1628   66.5  0.3871  -45.4
 2.500  0.2863  145.4   2.510   53.5  0.1696   66.1  0.3860  -47.1
 2.600  0.2904  143.2   2.421   51.7  0.1765   65.7  0.3853  -48.9
 2.700  0.2960  140.8   2.345   50.1  0.1835   65.3  0.3845  -50.6
 2.800  0.3022  138.4   2.271   48.3  0.1906   64.9  0.3841  -52.4
 2.900  0.3067  136.3   2.206   46.6  0.1977   64.3  0.3833  -54.1
 3.000  0.3116  134.2   2.144   44.8  0.2048   63.7  0.3829  -55.9
 3.100  0.3159  132.1   2.089   43.4  0.2123   63.1  0.3821  -57.6
 3.200  0.3206  130.1   2.035   41.9  0.2198   62.5  0.3817  -59.2
 3.300  0.3257  128.1   1.983   40.3  0.2273   62.0  0.3815  -60.9
 3.400  0.3312  126.2   1.933   38.6  0.2348   61.5  0.3817  -62.5
 3.500  0.3370  124.4   1.884   36.9  0.2424   61.0  0.3822  -64.2
 3.600  0.3415  122.7   1.844   35.5  0.2500   60.2  0.3797  -66.0
 3.700  0.3464  121.0   1.805   34.1  0.2576   59.4  0.3776  -67.7
 3.800  0.3515  119.4   1.767   32.6  0.2653   58.7  0.3759  -69.6
 3.900  0.3569  117.8   1.731   31.0  0.2730   58.0  0.3745  -71.4
 4.000  0.3626  116.3   1.696   29.4  0.2808   57.4  0.3735  -73.2
 4.100  0.3682  114.8   1.665   28.0  0.2886   56.5  0.3689  -75.3
 4.200  0.3740  113.4   1.634   26.6  0.2965   55.6  0.3648  -77.4
 4.300  0.3801  112.0   1.605   25.1  0.3044   54.7  0.3613  -79.6
 4.400  0.3864  110.6   1.577   23.5  0.3124   54.0  0.3582  -81.8
 4.500  0.3929  109.3   1.550   21.9  0.3205   53.2  0.3557  -84.0
 4.600  0.4000  108.0   1.522   20.6  0.3284   52.3  0.3516  -86.6
 4.700  0.4073  106.7   1.496   19.3  0.3363   51.5  0.3483  -89.2
 4.800  0.4148  105.4   1.469   18.0  0.3444   50.7  0.3457  -91.9
 4.900  0.4225  104.3   1.444   16.6  0.3525   49.9  0.3439  -94.6
 5.000  0.4304  103.1   1.420   15.1  0.3606   49.2  0.3428  -97.3
 5.100  0.4353  101.8   1.399   13.9  0.3685   48.2  0.3422 -100.3
 5.200  0.4404  100.6   1.379   12.7  0.3766   47.3  0.3425 -103.2
 5.300  0.4457   99.4   1.359   11.4  0.3847   46.4  0.3437 -106.2
 5.400  0.4512   98.2   1.340   10.1  0.3929   45.6  0.3458 -109.1
 5.500  0.4569   97.1   1.322    8.8  0.4012   44.8  0.3488 -112.0
 5.600  0.4606   96.0   1.302    7.7  0.4090   43.7  0.3501 -114.7
 5.700  0.4645   94.8   1.283    6.6  0.4170   42.7  0.3522 -117.4
 5.800  0.4685   93.7   1.265    5.5  0.4251   41.7  0.3551 -120.0
 5.900  0.4727   92.7   1.247    4.3  0.4334   40.8  0.3587 -122.6
 6.000  0.4771   91.6   1.229    3.1  0.4417   39.9  0.3630 -125.1
!
!  f       NFmin   Gammaopt  rn/50
! GHz       dB    MAG  ANG    -
 0.450      1.34  0.10   16   0.21
 0.900      1.38  0.10   32   0.21
 1.900      1.82  0.07 -151   0.21
 2.400      2.01  0.08 -113   0.26
!
! (c) 2017  Infineon Technologies AG, Munich