! Infineon Technologies  Discrete & RF Semiconductors
! BFR181W
! VCE =  8.0 V,  IC =  9.0 mA
! Common Emitter S-Parameters:                            Jan 2017
# GHz  S  MA  R  50
!  f         S11            S21            S12            S22
! GHz     MAG   ANG      MAG   ANG      MAG   ANG      MAG   ANG
 0.010  0.7689   -1.8  23.285  177.5  0.0012   84.5  0.9943   -1.4
 0.020  0.7549   -7.0  22.881  174.5  0.0027   94.6  0.9944   -2.7
 0.030  0.7462   -9.4  22.684  172.4  0.0044   87.1  0.9884   -4.2
 0.040  0.7388  -11.8  22.519  170.3  0.0061   83.7  0.9830   -5.6
 0.050  0.7327  -14.3  22.385  168.1  0.0079   81.9  0.9783   -7.1
 0.060  0.7250  -17.0  22.076  166.0  0.0095   80.4  0.9688   -8.4
 0.070  0.7188  -19.7  21.798  163.8  0.0111   79.3  0.9599   -9.6
 0.080  0.7143  -22.5  21.553  161.6  0.0126   78.5  0.9514  -10.9
 0.090  0.7116  -25.3  21.340  159.3  0.0142   77.9  0.9434  -12.3
 0.100  0.7105  -28.1  21.162  157.0  0.0158   77.4  0.9359  -13.6
 0.110  0.6969  -30.6  20.816  155.2  0.0170   75.8  0.9243  -14.6
 0.120  0.6846  -33.1  20.491  153.3  0.0181   74.3  0.9129  -15.6
 0.130  0.6737  -35.8  20.189  151.4  0.0193   73.1  0.9019  -16.7
 0.140  0.6643  -38.5  19.911  149.4  0.0205   72.0  0.8912  -17.8
 0.150  0.6564  -41.3  19.658  147.3  0.0217   71.0  0.8808  -18.9
 0.200  0.6049  -52.1  17.928  138.6  0.0263   68.8  0.8207  -22.8
 0.250  0.5515  -62.4  16.351  131.4  0.0311   65.4  0.7648  -25.7
 0.300  0.5012  -71.5  14.805  125.4  0.0347   63.0  0.7146  -27.7
 0.350  0.4618  -78.2  13.547  121.1  0.0378   62.2  0.6751  -28.7
 0.400  0.4299  -86.0  12.379  116.0  0.0410   61.6  0.6359  -29.9
 0.450  0.3990  -91.9  11.402  112.8  0.0440   61.0  0.6078  -30.3
 0.500  0.3729  -98.6  10.467  109.0  0.0470   60.5  0.5797  -30.8
 0.600  0.3351 -109.3   9.051  103.3  0.0526   61.2  0.5401  -31.0
 0.700  0.3060 -119.5   7.932   98.6  0.0576   62.4  0.5110  -31.0
 0.800  0.2852 -128.3   7.070   94.5  0.0633   63.0  0.4888  -31.1
 0.900  0.2697 -136.4   6.350   90.9  0.0684   63.6  0.4721  -31.2
 1.000  0.2588 -144.0   5.788   87.7  0.0740   64.2  0.4583  -31.4
 1.100  0.2531 -150.7   5.306   84.9  0.0797   65.0  0.4492  -31.7
 1.200  0.2482 -158.0   4.895   82.0  0.0854   65.1  0.4398  -32.1
 1.300  0.2429 -164.0   4.544   79.4  0.0912   65.7  0.4324  -32.8
 1.400  0.2413 -169.1   4.252   76.9  0.0975   65.9  0.4254  -33.5
 1.500  0.2444 -174.0   3.987   74.6  0.1035   66.2  0.4194  -34.4
 1.600  0.2434 -179.3   3.759   72.3  0.1096   66.3  0.4153  -35.4
 1.700  0.2459  176.4   3.556   70.2  0.1159   66.3  0.4097  -36.5
 1.800  0.2465  172.4   3.385   68.0  0.1219   66.1  0.4060  -37.7
 1.900  0.2514  168.9   3.227   66.1  0.1281   66.1  0.4026  -39.0
 2.000  0.2549  164.9   3.077   63.9  0.1350   66.0  0.3994  -40.5
 2.100  0.2575  161.6   2.951   62.0  0.1416   65.7  0.3968  -42.0
 2.200  0.2610  158.4   2.829   60.0  0.1483   65.5  0.3944  -43.5
 2.300  0.2669  155.2   2.725   58.1  0.1551   65.2  0.3922  -45.1
 2.400  0.2736  152.2   2.624   56.1  0.1619   65.0  0.3903  -46.8
 2.500  0.2765  149.7   2.532   54.4  0.1685   64.6  0.3893  -48.5
 2.600  0.2800  147.3   2.443   52.5  0.1751   64.2  0.3886  -50.3
 2.700  0.2858  144.5   2.367   50.8  0.1819   63.8  0.3877  -51.9
 2.800  0.2922  141.9   2.293   49.0  0.1888   63.5  0.3872  -53.6
 2.900  0.2965  139.7   2.227   47.3  0.1958   63.0  0.3863  -55.3
 3.000  0.3012  137.5   2.164   45.4  0.2029   62.5  0.3857  -57.1
 3.100  0.3051  135.2   2.108   43.9  0.2101   61.9  0.3847  -58.8
 3.200  0.3095  133.0   2.053   42.4  0.2174   61.3  0.3840  -60.4
 3.300  0.3144  130.8   1.999   40.8  0.2246   60.7  0.3836  -62.1
 3.400  0.3197  128.7   1.948   39.1  0.2319   60.2  0.3836  -63.8
 3.500  0.3254  126.7   1.898   37.3  0.2392   59.7  0.3839  -65.5
 3.600  0.3301  125.0   1.858   35.9  0.2468   59.0  0.3812  -67.2
 3.700  0.3352  123.3   1.820   34.4  0.2544   58.3  0.3789  -68.9
 3.800  0.3405  121.7   1.783   32.9  0.2620   57.7  0.3769  -70.7
 3.900  0.3461  120.1   1.747   31.3  0.2697   57.1  0.3753  -72.4
 4.000  0.3519  118.6   1.712   29.7  0.2774   56.6  0.3740  -74.2
 4.100  0.3578  117.0   1.681   28.3  0.2854   55.7  0.3699  -76.2
 4.200  0.3640  115.4   1.650   26.9  0.2935   54.9  0.3662  -78.3
 4.300  0.3705  113.9   1.621   25.4  0.3016   54.1  0.3630  -80.5
 4.400  0.3772  112.4   1.593   23.9  0.3098   53.3  0.3603  -82.6
 4.500  0.3842  111.0   1.566   22.3  0.3181   52.6  0.3582  -84.8
 4.600  0.3912  109.6   1.539   21.0  0.3260   51.7  0.3542  -87.4
 4.700  0.3985  108.2   1.512   19.7  0.3340   50.8  0.3509  -90.1
 4.800  0.4059  106.9   1.486   18.3  0.3420   50.0  0.3484  -92.8
 4.900  0.4136  105.6   1.461   16.9  0.3501   49.2  0.3466  -95.5
 5.000  0.4215  104.4   1.437   15.4  0.3583   48.5  0.3457  -98.3
 5.100  0.4268  103.1   1.416   14.2  0.3663   47.5  0.3452 -101.2
 5.200  0.4324  101.8   1.395   12.9  0.3743   46.6  0.3456 -104.2
 5.300  0.4382  100.5   1.375   11.6  0.3825   45.7  0.3470 -107.1
 5.400  0.4441   99.3   1.356   10.3  0.3908   44.9  0.3492 -110.0
 5.500  0.4503   98.1   1.338    8.9  0.3991   44.1  0.3523 -112.9
 5.600  0.4539   97.0   1.318    7.8  0.4069   43.0  0.3538 -115.6
 5.700  0.4577   95.8   1.299    6.7  0.4149   41.9  0.3561 -118.2
 5.800  0.4617   94.7   1.281    5.5  0.4230   40.9  0.3591 -120.8
 5.900  0.4659   93.7   1.263    4.3  0.4312   39.9  0.3629 -123.3
 6.000  0.4702   92.6   1.245    3.1  0.4396   39.0  0.3673 -125.8
!
!  f       NFmin   Gammaopt  rn/50
! GHz       dB    MAG  ANG    -
 0.450      1.18  0.17   16   0.21
 0.900      1.23  0.16   31   0.21
 1.900      1.65  0.05  107   0.20
 2.400      1.82  0.03  116   0.23
!
! (c) 2017  Infineon Technologies AG, Munich