! Infineon Technologies  Discrete & RF Semiconductors
! BFR181W
! VCE =  10. V,  IC =  12 mA
! Common Emitter S-Parameters:                            Jan 2017
# GHz  S  MA  R  50
!  f         S11            S21            S12            S22
! GHz     MAG   ANG      MAG   ANG      MAG   ANG      MAG   ANG
 0.010  0.7329   -2.2  27.139  176.6  0.0013   83.4  0.9901   -1.4
 0.020  0.7176   -7.7  26.520  173.6  0.0028   92.3  0.9826   -2.8
 0.030  0.7086  -10.5  26.242  171.2  0.0044   84.6  0.9778   -4.5
 0.040  0.7014  -13.4  26.010  168.8  0.0061   81.0  0.9739   -6.2
 0.050  0.6959  -16.3  25.824  166.4  0.0078   79.0  0.9708   -7.9
 0.060  0.6857  -19.3  25.380  164.1  0.0093   78.0  0.9591   -9.3
 0.070  0.6774  -22.4  24.978  161.7  0.0108   77.4  0.9479  -10.6
 0.080  0.6711  -25.5  24.620  159.3  0.0123   76.8  0.9373  -12.1
 0.090  0.6668  -28.7  24.309  156.8  0.0138   76.4  0.9273  -13.5
 0.100  0.6646  -31.9  24.045  154.2  0.0153   76.1  0.9179  -15.0
 0.110  0.6492  -34.6  23.563  152.3  0.0163   74.8  0.9041  -16.0
 0.120  0.6352  -37.4  23.109  150.3  0.0173   73.6  0.8907  -17.0
 0.130  0.6229  -40.3  22.685  148.2  0.0183   72.6  0.8775  -18.1
 0.140  0.6122  -43.3  22.291  146.0  0.0194   71.6  0.8646  -19.2
 0.150  0.6032  -46.4  21.930  143.8  0.0204   70.8  0.8521  -20.3
 0.200  0.5478  -57.9  19.636  134.8  0.0250   69.0  0.7858  -24.0
 0.250  0.4928  -68.8  17.623  127.5  0.0290   65.0  0.7268  -26.5
 0.300  0.4470  -77.8  15.774  121.7  0.0324   63.2  0.6749  -28.0
 0.350  0.4092  -84.8  14.320  117.6  0.0355   63.2  0.6380  -28.7
 0.400  0.3787  -93.0  12.953  112.7  0.0386   63.2  0.6012  -29.4
 0.450  0.3525  -98.9  11.878  109.7  0.0414   63.0  0.5759  -29.5
 0.500  0.3307 -105.7  10.843  106.1  0.0442   62.9  0.5507  -29.7
 0.600  0.2970 -116.5   9.314  100.8  0.0493   63.6  0.5154  -29.5
 0.700  0.2743 -126.9   8.129   96.4  0.0547   65.4  0.4908  -29.2
 0.800  0.2583 -135.7   7.220   92.5  0.0612   65.7  0.4726  -29.2
 0.900  0.2466 -143.7   6.472   89.2  0.0666   65.9  0.4585  -29.3
 1.000  0.2394 -150.8   5.889   86.2  0.0725   67.3  0.4475  -29.5
 1.100  0.2352 -157.9   5.389   83.5  0.0786   67.3  0.4393  -29.8
 1.200  0.2330 -164.2   4.971   80.7  0.0847   67.4  0.4317  -30.2
 1.300  0.2286 -170.5   4.607   78.2  0.0904   67.8  0.4253  -30.9
 1.400  0.2307 -175.6   4.309   75.9  0.0966   68.1  0.4192  -31.7
 1.500  0.2337 -179.8   4.040   73.7  0.1031   68.1  0.4144  -32.6
 1.600  0.2346  175.5   3.807   71.4  0.1090   68.1  0.4111  -33.6
 1.700  0.2372  171.4   3.602   69.4  0.1159   68.1  0.4061  -34.8
 1.800  0.2391  167.4   3.426   67.3  0.1224   67.7  0.4024  -36.0
 1.900  0.2430  164.1   3.263   65.4  0.1288   67.6  0.3993  -37.3
 2.000  0.2484  160.6   3.112   63.3  0.1350   67.4  0.3968  -38.8
 2.100  0.2513  157.5   2.983   61.5  0.1417   67.0  0.3939  -40.3
 2.200  0.2549  154.4   2.858   59.5  0.1484   66.7  0.3913  -41.9
 2.300  0.2609  151.5   2.752   57.7  0.1555   66.3  0.3895  -43.6
 2.400  0.2675  148.7   2.650   55.7  0.1626   66.0  0.3881  -45.3
 2.500  0.2710  146.4   2.557   54.0  0.1693   65.6  0.3867  -47.0
 2.600  0.2749  144.2   2.466   52.2  0.1760   65.2  0.3857  -48.8
 2.700  0.2808  141.6   2.389   50.5  0.1828   64.7  0.3851  -50.5
 2.800  0.2873  139.1   2.315   48.7  0.1896   64.3  0.3849  -52.2
 2.900  0.2915  136.9   2.249   47.0  0.1969   63.7  0.3838  -53.9
 3.000  0.2962  134.7   2.185   45.2  0.2043   63.1  0.3831  -55.6
 3.100  0.3004  132.5   2.129   43.8  0.2116   62.5  0.3823  -57.2
 3.200  0.3051  130.4   2.074   42.3  0.2188   61.9  0.3819  -58.9
 3.300  0.3102  128.3   2.021   40.7  0.2261   61.4  0.3817  -60.5
 3.400  0.3157  126.3   1.969   39.0  0.2335   60.9  0.3819  -62.2
 3.500  0.3215  124.4   1.919   37.3  0.2408   60.4  0.3824  -63.8
 3.600  0.3259  122.7   1.879   35.9  0.2483   59.6  0.3799  -65.5
 3.700  0.3307  121.1   1.840   34.5  0.2558   58.8  0.3777  -67.3
 3.800  0.3356  119.5   1.802   33.0  0.2634   58.1  0.3758  -69.1
 3.900  0.3408  118.0   1.765   31.4  0.2710   57.4  0.3744  -70.9
 4.000  0.3463  116.5   1.730   29.8  0.2786   56.8  0.3733  -72.7
 4.100  0.3523  115.0   1.698   28.4  0.2864   55.9  0.3688  -74.7
 4.200  0.3586  113.5   1.667   27.0  0.2943   55.0  0.3648  -76.8
 4.300  0.3651  112.0   1.637   25.5  0.3022   54.2  0.3613  -78.9
 4.400  0.3719  110.6   1.608   23.9  0.3102   53.4  0.3582  -81.0
 4.500  0.3788  109.3   1.580   22.3  0.3182   52.7  0.3557  -83.2
 4.600  0.3856  108.0   1.552   21.0  0.3258   51.8  0.3515  -85.8
 4.700  0.3926  106.7   1.525   19.7  0.3336   50.9  0.3480  -88.4
 4.800  0.3998  105.4   1.499   18.4  0.3413   50.1  0.3452  -91.1
 4.900  0.4072  104.3   1.474   17.0  0.3492   49.3  0.3432  -93.8
 5.000  0.4147  103.1   1.450   15.5  0.3571   48.6  0.3420  -96.5
 5.100  0.4199  101.8   1.429   14.3  0.3650   47.7  0.3412  -99.4
 5.200  0.4253  100.6   1.408   13.0  0.3729   46.8  0.3414 -102.4
 5.300  0.4309   99.4   1.388   11.8  0.3810   45.9  0.3424 -105.3
 5.400  0.4367   98.2   1.369   10.5  0.3891   45.1  0.3444 -108.2
 5.500  0.4427   97.1   1.350    9.1  0.3973   44.3  0.3472 -111.1
 5.600  0.4462   95.9   1.330    8.0  0.4051   43.2  0.3486 -113.8
 5.700  0.4499   94.8   1.311    6.9  0.4131   42.2  0.3507 -116.4
 5.800  0.4537   93.7   1.292    5.7  0.4212   41.2  0.3535 -119.0
 5.900  0.4577   92.6   1.274    4.5  0.4294   40.2  0.3571 -121.5
 6.000  0.4619   91.5   1.256    3.3  0.4377   39.3  0.3613 -124.0
!
!  f       NFmin   Gammaopt  rn/50
! GHz       dB    MAG  ANG    -
 0.450      1.34  0.10   16   0.21
 0.900      1.38  0.10   32   0.21
 1.900      1.82  0.07 -151   0.21
 2.400      2.01  0.08 -113   0.26
!
! (c) 2017  Infineon Technologies AG, Munich