! Infineon Technologies  Discrete & RF Semiconductors
! BFR181W
! VCE =  8.0 V,  IC =  20 mA
! Common Emitter S-Parameters:                            Jan 2017
# GHz  S  MA  R  50
!  f         S11            S21            S12            S22
! GHz     MAG   ANG      MAG   ANG      MAG   ANG      MAG   ANG
 0.010  0.6082   -3.8  34.849  176.0  0.0013   89.3  0.9816   -1.7
 0.020  0.5996  -11.0  34.458  171.9  0.0026   99.0  0.9841   -3.8
 0.030  0.5867  -15.4  33.795  168.7  0.0040   87.0  0.9713   -5.8
 0.040  0.5774  -20.0  33.240  165.4  0.0055   81.4  0.9597   -7.9
 0.050  0.5719  -24.7  32.800  162.0  0.0070   78.2  0.9494  -10.0
 0.060  0.5558  -28.8  31.877  159.2  0.0083   76.5  0.9316  -11.4
 0.070  0.5428  -33.1  31.035  156.3  0.0096   75.3  0.9143  -12.9
 0.080  0.5330  -37.6  30.279  153.1  0.0110   74.4  0.8977  -14.5
 0.090  0.5266  -42.3  29.617  149.9  0.0123   73.7  0.8819  -16.1
 0.100  0.5237  -47.0  29.054  146.5  0.0136   73.1  0.8667  -17.8
 0.110  0.5076  -50.4  28.170  144.4  0.0145   72.0  0.8487  -18.7
 0.120  0.4934  -54.1  27.326  142.2  0.0154   71.0  0.8309  -19.6
 0.130  0.4813  -57.9  26.526  139.8  0.0163   70.1  0.8133  -20.5
 0.140  0.4714  -61.9  25.773  137.3  0.0172   69.3  0.7959  -21.5
 0.150  0.4640  -66.1  25.072  134.7  0.0181   68.6  0.7788  -22.5
 0.200  0.4143  -80.6  21.432  125.5  0.0209   65.9  0.7053  -24.9
 0.250  0.3759  -93.7  18.568  118.6  0.0248   64.7  0.6488  -25.9
 0.300  0.3475 -104.5  16.199  113.3  0.0276   65.1  0.6050  -26.2
 0.350  0.3259 -112.2  14.501  109.8  0.0305   65.8  0.5768  -26.0
 0.400  0.3111 -120.9  12.871  105.4  0.0335   66.4  0.5486  -25.8
 0.450  0.2973 -127.0  11.713  102.9  0.0360   66.8  0.5317  -25.5
 0.500  0.2871 -133.6  10.582   99.8  0.0385   67.2  0.5148  -25.2
 0.600  0.2760 -144.0   8.982   95.2  0.0451   68.8  0.4928  -24.7
 0.700  0.2707 -152.8   7.788   91.4  0.0501   70.4  0.4773  -24.4
 0.800  0.2689 -160.1   6.888   88.0  0.0572   71.8  0.4658  -24.5
 0.900  0.2647 -166.7   6.150   85.0  0.0628   71.7  0.4580  -24.8
 1.000  0.2659 -172.3   5.584   82.3  0.0691   72.0  0.4509  -25.3
 1.100  0.2693 -177.7   5.102   79.8  0.0751   72.4  0.4463  -26.0
 1.200  0.2696  177.8   4.698   77.3  0.0814   72.4  0.4411  -26.7
 1.300  0.2706  173.4   4.352   74.9  0.0877   72.3  0.4369  -27.7
 1.400  0.2742  169.9   4.068   72.7  0.0943   72.7  0.4327  -28.7
 1.500  0.2786  166.6   3.811   70.6  0.1011   72.6  0.4295  -29.9
 1.600  0.2839  163.2   3.590   68.4  0.1077   72.3  0.4266  -31.2
 1.700  0.2869  159.6   3.392   66.4  0.1141   72.2  0.4230  -32.5
 1.800  0.2897  157.2   3.227   64.4  0.1212   71.7  0.4204  -33.9
 1.900  0.2941  154.8   3.074   62.6  0.1278   71.5  0.4180  -35.5
 2.000  0.2996  151.9   2.930   60.5  0.1351   71.1  0.4157  -37.1
 2.100  0.3031  149.4   2.808   58.7  0.1419   70.7  0.4135  -38.8
 2.200  0.3072  147.0   2.690   56.7  0.1488   70.3  0.4117  -40.5
 2.300  0.3138  144.5   2.591   54.9  0.1561   69.8  0.4098  -42.3
 2.400  0.3209  142.2   2.495   53.0  0.1635   69.4  0.4083  -44.2
 2.500  0.3239  140.3   2.407   51.3  0.1704   68.9  0.4077  -46.1
 2.600  0.3273  138.5   2.321   49.5  0.1773   68.4  0.4076  -48.1
 2.700  0.3340  136.4   2.248   47.9  0.1847   67.8  0.4069  -49.9
 2.800  0.3412  134.3   2.176   46.1  0.1922   67.3  0.4066  -51.7
 2.900  0.3450  132.5   2.113   44.4  0.1998   66.7  0.4061  -53.6
 3.000  0.3491  130.7   2.052   42.6  0.2074   66.2  0.4060  -55.5
 3.100  0.3530  128.7   1.999   41.2  0.2150   65.4  0.4050  -57.3
 3.200  0.3574  126.8   1.947   39.7  0.2227   64.7  0.4043  -59.1
 3.300  0.3621  125.0   1.896   38.1  0.2304   64.0  0.4041  -60.9
 3.400  0.3672  123.2   1.847   36.4  0.2381   63.4  0.4042  -62.7
 3.500  0.3727  121.4   1.800   34.7  0.2459   62.8  0.4048  -64.5
 3.600  0.3771  119.8   1.762   33.3  0.2539   62.0  0.4021  -66.3
 3.700  0.3818  118.2   1.724   31.9  0.2619   61.2  0.3997  -68.2
 3.800  0.3868  116.7   1.688   30.4  0.2699   60.4  0.3978  -70.0
 3.900  0.3921  115.2   1.653   28.9  0.2781   59.8  0.3964  -71.9
 4.000  0.3976  113.8   1.619   27.3  0.2862   59.1  0.3953  -73.8
 4.100  0.4030  112.3   1.589   25.9  0.2946   58.1  0.3910  -75.9
 4.200  0.4086  110.8   1.560   24.5  0.3031   57.1  0.3873  -78.1
 4.300  0.4145  109.4   1.531   23.1  0.3116   56.3  0.3841  -80.4
 4.400  0.4207  108.0   1.504   21.6  0.3202   55.4  0.3816  -82.6
 4.500  0.4271  106.7   1.478   20.0  0.3289   54.6  0.3796  -84.9
 4.600  0.4339  105.5   1.452   18.8  0.3371   53.6  0.3754  -87.6
 4.700  0.4408  104.3   1.426   17.5  0.3454   52.7  0.3719  -90.3
 4.800  0.4480  103.2   1.401   16.2  0.3538   51.8  0.3694  -93.1
 4.900  0.4553  102.1   1.377   14.8  0.3623   51.0  0.3677  -95.9
 5.000  0.4628  101.0   1.354   13.4  0.3708   50.2  0.3669  -98.7
 5.100  0.4677   99.7   1.334   12.2  0.3791   49.1  0.3662 -101.7
 5.200  0.4728   98.4   1.315   11.0  0.3875   48.1  0.3665 -104.7
 5.300  0.4781   97.2   1.296    9.8  0.3960   47.1  0.3678 -107.6
 5.400  0.4836   96.0   1.278    8.5  0.4047   46.2  0.3701 -110.6
 5.500  0.4894   94.8   1.260    7.2  0.4134   45.3  0.3733 -113.5
 5.600  0.4922   93.7   1.241    6.1  0.4215   44.1  0.3748 -116.2
 5.700  0.4952   92.6   1.223    5.0  0.4297   43.0  0.3771 -118.9
 5.800  0.4984   91.5   1.206    3.9  0.4381   41.9  0.3802 -121.6
 5.900  0.5018   90.4   1.189    2.7  0.4467   40.9  0.3842 -124.2
 6.000  0.5053   89.3   1.172    1.5  0.4554   39.9  0.3889 -126.7
!
!  f       NFmin   Gammaopt  rn/50
! GHz       dB    MAG  ANG    -
!
! noise parameter not available yet for this operation point!
!
! (c) 2017  Infineon Technologies AG, Munich