! Infineon Technologies  Discrete & RF Semiconductors
! BFR181W
! VCE =  5.0 V,  IC =  3.0 mA
! Common Emitter S-Parameters:                            Jan 2017
# GHz  S  MA  R  50
!  f         S11            S21            S12            S22
! GHz     MAG   ANG      MAG   ANG      MAG   ANG      MAG   ANG
 0.010  0.9151   -0.6   9.941  179.6  0.0014   97.7  1.0000   -0.8
 0.020  0.8952   -4.3   9.821  177.4  0.0031   91.9  0.9909   -1.3
 0.030  0.8892   -5.2   9.793  176.2  0.0051   88.9  0.9917   -2.1
 0.040  0.8835   -6.2   9.769  175.1  0.0071   87.6  0.9928   -3.0
 0.050  0.8780   -7.1   9.749  173.9  0.0091   86.9  0.9940   -3.8
 0.060  0.8784   -8.6   9.709  172.7  0.0109   85.1  0.9914   -4.6
 0.070  0.8795  -10.2   9.673  171.4  0.0127   83.8  0.9890   -5.3
 0.080  0.8813  -11.7   9.643  170.1  0.0145   82.8  0.9867   -6.1
 0.090  0.8836  -13.3   9.616  168.9  0.0164   82.0  0.9846   -6.8
 0.100  0.8866  -14.8   9.595  167.6  0.0182   81.4  0.9827   -7.6
 0.110  0.8800  -16.3   9.548  166.4  0.0198   80.4  0.9790   -8.3
 0.120  0.8740  -17.9   9.505  165.3  0.0215   79.5  0.9754   -9.0
 0.130  0.8686  -19.4   9.466  164.1  0.0231   78.8  0.9720   -9.7
 0.140  0.8639  -21.0   9.432  162.9  0.0248   78.2  0.9687  -10.4
 0.150  0.8599  -22.6   9.401  161.7  0.0264   77.6  0.9656  -11.1
 0.200  0.8407  -29.1   9.122  155.4  0.0340   74.4  0.9425  -14.5
 0.250  0.8102  -36.1   8.867  149.9  0.0408   70.3  0.9175  -17.5
 0.300  0.7745  -42.6   8.518  144.6  0.0470   67.4  0.8876  -20.2
 0.350  0.7412  -48.1   8.158  140.1  0.0526   64.2  0.8578  -22.5
 0.400  0.7154  -54.1   7.852  135.2  0.0583   61.6  0.8294  -24.9
 0.450  0.6793  -59.2   7.480  131.4  0.0626   59.4  0.8013  -26.6
 0.500  0.6493  -64.9   7.144  127.2  0.0669   57.5  0.7740  -28.4
 0.600  0.5926  -74.7   6.518  120.1  0.0738   54.7  0.7243  -31.0
 0.700  0.5405  -83.6   5.942  113.8  0.0791   52.9  0.6804  -33.0
 0.800  0.4986  -91.8   5.461  108.3  0.0843   51.8  0.6443  -34.6
 0.900  0.4580  -99.6   5.019  103.4  0.0884   50.2  0.6137  -35.9
 1.000  0.4285 -106.9   4.647   99.2  0.0924   50.0  0.5871  -36.9
 1.100  0.4034 -114.0   4.319   95.2  0.0959   50.0  0.5660  -37.7
 1.200  0.3807 -120.7   4.027   91.4  0.0991   49.6  0.5464  -38.6
 1.300  0.3607 -126.9   3.771   87.9  0.1026   50.0  0.5312  -39.5
 1.400  0.3472 -133.0   3.550   84.8  0.1065   50.5  0.5161  -40.5
 1.500  0.3364 -139.3   3.357   81.8  0.1106   50.9  0.5044  -41.3
 1.600  0.3279 -145.3   3.174   78.8  0.1140   51.3  0.4961  -42.3
 1.700  0.3198 -150.6   3.020   76.2  0.1177   52.2  0.4849  -43.5
 1.800  0.3150 -156.1   2.889   73.5  0.1216   52.7  0.4765  -44.5
 1.900  0.3121 -161.3   2.764   71.1  0.1257   53.4  0.4698  -45.7
 2.000  0.3094 -166.5   2.645   68.4  0.1304   53.9  0.4646  -46.9
 2.100  0.3070 -171.1   2.542   66.1  0.1350   54.3  0.4593  -48.2
 2.200  0.3065 -175.7   2.444   63.6  0.1397   54.7  0.4543  -49.6
 2.300  0.3083  179.8   2.357   61.4  0.1447   55.3  0.4509  -51.1
 2.400  0.3120  175.4   2.274   59.0  0.1497   55.8  0.4478  -52.6
 2.500  0.3123  171.8   2.197   57.0  0.1548   56.1  0.4452  -54.1
 2.600  0.3138  168.2   2.122   54.9  0.1599   56.4  0.4429  -55.7
 2.700  0.3172  164.4   2.058   52.9  0.1656   56.7  0.4418  -57.2
 2.800  0.3219  160.6   1.997   50.8  0.1713   56.9  0.4410  -58.8
 2.900  0.3248  157.5   1.943   48.8  0.1775   57.1  0.4392  -60.3
 3.000  0.3286  154.4   1.892   46.6  0.1838   57.2  0.4377  -61.8
 3.100  0.3315  151.4   1.844   45.0  0.1906   57.2  0.4368  -63.3
 3.200  0.3353  148.4   1.797   43.3  0.1974   57.2  0.4362  -64.9
 3.300  0.3400  145.5   1.752   41.5  0.2041   57.3  0.4360  -66.4
 3.400  0.3455  142.6   1.708   39.7  0.2109   57.3  0.4360  -68.0
 3.500  0.3519  139.9   1.667   37.7  0.2177   57.3  0.4364  -69.5
 3.600  0.3562  137.4   1.632   36.2  0.2252   56.9  0.4340  -71.2
 3.700  0.3611  135.1   1.599   34.5  0.2327   56.6  0.4320  -73.0
 3.800  0.3666  132.7   1.566   32.9  0.2402   56.3  0.4304  -74.7
 3.900  0.3727  130.5   1.535   31.1  0.2477   56.0  0.4293  -76.5
 4.000  0.3793  128.3   1.506   29.3  0.2552   55.7  0.4285  -78.3
 4.100  0.3848  126.1   1.478   27.8  0.2634   55.1  0.4242  -80.4
 4.200  0.3908  124.1   1.451   26.3  0.2717   54.6  0.4204  -82.4
 4.300  0.3973  122.0   1.425   24.7  0.2800   54.0  0.4172  -84.6
 4.400  0.4043  120.1   1.400   23.0  0.2883   53.6  0.4146  -86.7
 4.500  0.4118  118.2   1.376   21.3  0.2966   53.1  0.4126  -88.9
 4.600  0.4185  116.4   1.351   20.0  0.3051   52.4  0.4087  -91.5
 4.700  0.4256  114.6   1.326   18.6  0.3136   51.7  0.4057  -94.0
 4.800  0.4331  112.9   1.302   17.2  0.3222   51.0  0.4034  -96.7
 4.900  0.4410  111.3   1.279   15.7  0.3308   50.4  0.4021  -99.3
 5.000  0.4492  109.7   1.257   14.2  0.3394   49.8  0.4016 -102.0
 5.100  0.4544  108.1   1.238   13.0  0.3483   48.9  0.4015 -104.8
 5.200  0.4599  106.5   1.220   11.8  0.3574   48.1  0.4024 -107.7
 5.300  0.4657  105.0   1.202   10.5  0.3664   47.3  0.4043 -110.5
 5.400  0.4718  103.5   1.185    9.2  0.3756   46.6  0.4072 -113.3
 5.500  0.4783  102.1   1.168    7.8  0.3848   45.9  0.4110 -116.0
 5.600  0.4818  100.7   1.150    6.7  0.3937   44.8  0.4125 -118.6
 5.700  0.4856   99.3   1.131    5.6  0.4027   43.8  0.4148 -121.2
 5.800  0.4896   97.9   1.114    4.5  0.4118   42.8  0.4180 -123.7
 5.900  0.4940   96.5   1.097    3.3  0.4211   41.9  0.4219 -126.2
 6.000  0.4986   95.2   1.080    2.1  0.4304   41.0  0.4267 -128.7
!
!  f       NFmin   Gammaopt  rn/50
! GHz       dB    MAG  ANG    -
 0.450      0.87  0.47   17   0.27
 0.900      0.93  0.42   32   0.26
 1.900      1.34  0.24   80   0.21
 2.400      1.55  0.21   94   0.23
!
! (c) 2017  Infineon Technologies AG, Munich