! Infineon Technologies  Discrete & RF Semiconductors
! BFR181W
! VCE =  3.0 V,  IC =  29 mA
! Common Emitter S-Parameters:                            Jan 2017
# GHz  S  MA  R  50
!  f         S11            S21            S12            S22
! GHz     MAG   ANG      MAG   ANG      MAG   ANG      MAG   ANG
 0.010  0.3841  -15.8  30.934  173.8  0.0020   80.2  0.8967   -2.5
 0.020  0.3854  -33.4  30.301  166.5  0.0038   77.7  0.8839   -5.4
 0.030  0.3775  -46.5  28.809  161.1  0.0054   72.0  0.8610   -7.8
 0.040  0.3895  -59.4  27.595  155.3  0.0070   69.0  0.8397  -10.3
 0.050  0.4196  -71.0  26.697  148.9  0.0087   67.1  0.8200  -12.9
 0.060  0.4129  -79.5  25.139  145.7  0.0098   64.8  0.7960  -13.8
 0.070  0.4153  -88.0  23.670  142.1  0.0108   62.9  0.7722  -14.7
 0.080  0.4268  -96.3  22.306  138.1  0.0119   61.4  0.7486  -15.7
 0.090  0.4467 -104.0  21.068  133.5  0.0130   60.2  0.7253  -16.8
 0.100  0.4738 -110.9  19.979  128.4  0.0141   59.1  0.7022  -17.9
 0.110  0.4744 -115.3  18.981  126.5  0.0147   58.5  0.6872  -18.0
 0.120  0.4778 -119.8  18.005  124.4  0.0153   58.0  0.6722  -18.1
 0.130  0.4840 -124.1  17.056  122.1  0.0159   57.5  0.6573  -18.2
 0.140  0.4929 -128.3  16.138  119.5  0.0165   57.0  0.6423  -18.3
 0.150  0.5043 -132.3  15.258  116.6  0.0171   56.6  0.6273  -18.4
 0.200  0.5165 -144.8  12.093  108.6  0.0182   56.7  0.5858  -17.7
 0.250  0.5249 -153.6   9.976  103.0  0.0213   58.3  0.5625  -17.0
 0.300  0.5313 -159.9   8.451   98.8  0.0235   60.5  0.5460  -16.4
 0.350  0.5319 -164.3   7.453   96.1  0.0262   62.8  0.5376  -16.3
 0.400  0.5356 -168.7   6.477   92.6  0.0290   64.6  0.5293  -16.2
 0.450  0.5362 -171.9   5.845   90.5  0.0314   66.1  0.5245  -16.3
 0.500  0.5384 -175.0   5.222   87.9  0.0339   67.4  0.5198  -16.5
 0.600  0.5441 -180.0   4.386   84.0  0.0391   70.4  0.5144  -17.2
 0.700  0.5474  176.1   3.774   80.4  0.0441   73.6  0.5100  -18.2
 0.800  0.5497  172.2   3.326   77.0  0.0508   75.0  0.5066  -19.5
 0.900  0.5531  168.6   2.962   74.0  0.0564   75.4  0.5038  -21.0
 1.000  0.5573  165.8   2.686   71.2  0.0624   77.0  0.4997  -22.4
 1.100  0.5612  162.7   2.452   68.4  0.0692   78.2  0.4983  -24.1
 1.200  0.5637  159.9   2.255   65.7  0.0755   78.3  0.4953  -25.7
 1.300  0.5662  157.2   2.087   63.0  0.0818   78.8  0.4923  -27.6
 1.400  0.5709  154.7   1.953   60.5  0.0893   79.3  0.4892  -29.4
 1.500  0.5755  152.4   1.829   58.1  0.0963   79.6  0.4865  -31.3
 1.600  0.5804  150.0   1.722   55.7  0.1036   79.7  0.4852  -33.3
 1.700  0.5834  147.5   1.628   53.4  0.1113   79.9  0.4818  -35.5
 1.800  0.5893  145.0   1.548   51.0  0.1193   79.3  0.4783  -37.6
 1.900  0.5924  143.1   1.473   49.0  0.1270   79.4  0.4765  -39.8
 2.000  0.5980  140.9   1.403   46.7  0.1346   79.1  0.4750  -42.1
 2.100  0.6007  138.6   1.344   44.6  0.1431   78.6  0.4722  -44.4
 2.200  0.6044  136.3   1.286   42.4  0.1516   78.2  0.4702  -46.8
 2.300  0.6093  134.3   1.236   40.5  0.1607   77.6  0.4687  -49.3
 2.400  0.6150  132.3   1.188   38.5  0.1698   77.1  0.4681  -51.8
 2.500  0.6177  130.3   1.144   36.8  0.1786   76.5  0.4669  -54.2
 2.600  0.6212  128.3   1.101   34.9  0.1875   75.9  0.4665  -56.7
 2.700  0.6258  126.3   1.065   33.3  0.1968   75.2  0.4661  -59.2
 2.800  0.6311  124.4   1.029   31.5  0.2062   74.5  0.4666  -61.6
 2.900  0.6335  122.5   0.997   29.9  0.2159   73.6  0.4651  -64.1
 3.000  0.6366  120.6   0.965   28.2  0.2257   72.7  0.4645  -66.6
 3.100  0.6389  118.7   0.938   27.0  0.2357   71.6  0.4625  -68.9
 3.200  0.6419  116.7   0.912   25.7  0.2458   70.7  0.4613  -71.3
 3.300  0.6457  114.8   0.886   24.4  0.2559   69.8  0.4609  -73.6
 3.400  0.6502  113.0   0.861   22.9  0.2661   69.0  0.4612  -76.0
 3.500  0.6553  111.1   0.836   21.4  0.2764   68.2  0.4623  -78.3
 3.600  0.6566  109.3   0.817   20.5  0.2864   66.9  0.4579  -80.8
 3.700  0.6585  107.5   0.798   19.5  0.2966   65.7  0.4543  -83.2
 3.800  0.6611  105.7   0.779   18.5  0.3069   64.6  0.4516  -85.8
 3.900  0.6644  103.9   0.761   17.4  0.3173   63.6  0.4498  -88.3
 4.000  0.6682  102.2   0.743   16.3  0.3278   62.6  0.4489  -90.9
 4.100  0.6689  100.5   0.729   15.5  0.3377   61.1  0.4424  -93.7
 4.200  0.6701   98.9   0.714   14.7  0.3478   59.8  0.4370  -96.6
 4.300  0.6718   97.3   0.700   13.9  0.3581   58.5  0.4327  -99.6
 4.400  0.6741   95.6   0.686   13.0  0.3686   57.3  0.4296 -102.6
 4.500  0.6770   94.0   0.672   12.1  0.3792   56.1  0.4277 -105.6
 4.600  0.6781   92.6   0.661   11.7  0.3884   54.7  0.4224 -108.8
 4.700  0.6795   91.3   0.651   11.2  0.3979   53.4  0.4184 -112.0
 4.800  0.6813   90.0   0.640   10.8  0.4075   52.2  0.4157 -115.3
 4.900  0.6835   88.6   0.630   10.3  0.4173   51.0  0.4145 -118.6
 5.000  0.6860   87.3   0.619    9.8  0.4273   49.9  0.4146 -121.9
 5.100  0.6859   86.0   0.613    9.5  0.4360   48.5  0.4137 -125.1
 5.200  0.6861   84.7   0.607    9.1  0.4449   47.2  0.4140 -128.3
 5.300  0.6867   83.4   0.602    8.8  0.4540   46.0  0.4157 -131.5
 5.400  0.6877   82.1   0.596    8.5  0.4634   44.8  0.4187 -134.7
 5.500  0.6890   80.8   0.590    8.1  0.4729   43.6  0.4229 -137.8
 5.600  0.6870   79.6   0.586    7.9  0.4806   42.2  0.4232 -140.5
 5.700  0.6853   78.4   0.582    7.7  0.4887   40.8  0.4244 -143.3
 5.800  0.6839   77.2   0.579    7.6  0.4970   39.4  0.4266 -146.0
 5.900  0.6829   75.9   0.575    7.4  0.5056   38.2  0.4297 -148.7
 6.000  0.6821   74.7   0.571    7.2  0.5144   36.9  0.4338 -151.3
!
!  f       NFmin   Gammaopt  rn/50
! GHz       dB    MAG  ANG    -
!
! noise parameter not available yet for this operation point!
!
! (c) 2017  Infineon Technologies AG, Munich