! Infineon Technologies  Discrete & RF Semiconductors
! BFR181W
! VCE =  2.0 V,  IC =  2.0 mA
! Common Emitter S-Parameters:                            Jan 2017
# GHz  S  MA  R  50
!  f         S11            S21            S12            S22
! GHz     MAG   ANG      MAG   ANG      MAG   ANG      MAG   ANG
 0.010  0.9445   -0.4   6.957 -179.8  0.0015   91.3  1.0000   -0.7
 0.020  0.9315   -3.7   6.951  178.1  0.0034   88.3  1.0000   -1.2
 0.030  0.9237   -4.4   6.919  177.1  0.0056   87.2  1.0000   -1.8
 0.040  0.9160   -5.1   6.888  176.1  0.0077   86.7  0.9999   -2.5
 0.050  0.9085   -5.8   6.860  175.1  0.0099   86.4  0.9970   -3.1
 0.060  0.9101   -7.1   6.839  174.1  0.0118   85.6  0.9949   -3.7
 0.070  0.9121   -8.4   6.821  173.0  0.0138   85.1  0.9928   -4.4
 0.080  0.9146   -9.7   6.804  171.9  0.0157   84.7  0.9909   -5.0
 0.090  0.9176  -11.0   6.791  170.9  0.0177   84.4  0.9892   -5.7
 0.100  0.9210  -12.3   6.779  169.8  0.0196   84.1  0.9875   -6.3
 0.110  0.9162  -13.6   6.761  168.8  0.0215   82.8  0.9855   -6.9
 0.120  0.9118  -14.9   6.744  167.8  0.0234   81.7  0.9837   -7.5
 0.130  0.9080  -16.2   6.730  166.8  0.0253   80.7  0.9819   -8.2
 0.140  0.9045  -17.5   6.718  165.8  0.0272   79.9  0.9803   -8.8
 0.150  0.9016  -18.8   6.708  164.8  0.0291   79.2  0.9788   -9.4
 0.200  0.8900  -24.4   6.574  159.4  0.0375   76.0  0.9631  -12.4
 0.250  0.8689  -30.5   6.471  154.5  0.0461   72.2  0.9463  -15.2
 0.300  0.8407  -36.3   6.292  149.8  0.0536   68.8  0.9246  -17.9
 0.350  0.8149  -41.4   6.107  145.6  0.0607   65.8  0.9017  -20.2
 0.400  0.7958  -46.7   5.957  141.1  0.0680   63.4  0.8803  -22.6
 0.450  0.7645  -51.5   5.743  137.3  0.0734   60.7  0.8565  -24.5
 0.500  0.7391  -56.7   5.556  133.3  0.0790   58.4  0.8337  -26.6
 0.600  0.6908  -66.1   5.183  126.0  0.0883   54.3  0.7879  -29.8
 0.700  0.6407  -74.7   4.809  119.4  0.0951   51.8  0.7455  -32.4
 0.800  0.5966  -82.9   4.490  113.6  0.1015   49.0  0.7077  -34.7
 0.900  0.5542  -90.5   4.180  108.3  0.1058   46.9  0.6741  -36.6
 1.000  0.5209  -97.7   3.909  103.6  0.1101   45.6  0.6441  -38.2
 1.100  0.4944 -104.6   3.663   99.3  0.1133   44.6  0.6204  -39.5
 1.200  0.4652 -111.3   3.440   95.1  0.1162   43.4  0.5970  -40.9
 1.300  0.4413 -117.5   3.239   91.2  0.1186   43.1  0.5777  -42.1
 1.400  0.4236 -123.5   3.065   87.7  0.1218   43.0  0.5600  -43.3
 1.500  0.4105 -129.8   2.913   84.4  0.1242   43.1  0.5448  -44.4
 1.600  0.3961 -135.7   2.762   81.0  0.1268   43.0  0.5338  -45.6
 1.700  0.3859 -141.2   2.639   78.2  0.1287   43.6  0.5203  -46.9
 1.800  0.3771 -146.6   2.532   75.1  0.1314   44.0  0.5093  -48.1
 1.900  0.3736 -152.1   2.427   72.5  0.1338   44.6  0.5001  -49.3
 2.000  0.3674 -157.4   2.331   69.5  0.1370   45.2  0.4936  -50.7
 2.100  0.3621 -162.2   2.245   66.9  0.1401   45.8  0.4869  -52.1
 2.200  0.3594 -167.1   2.163   64.2  0.1433   46.4  0.4805  -53.5
 2.300  0.3584 -171.8   2.089   61.8  0.1467   47.2  0.4760  -55.1
 2.400  0.3598 -176.4   2.018   59.3  0.1502   47.9  0.4719  -56.7
 2.500  0.3597  179.7   1.951   57.1  0.1542   48.7  0.4685  -58.2
 2.600  0.3612  175.8   1.888   54.7  0.1582   49.4  0.4654  -59.7
 2.700  0.3624  171.7   1.833   52.6  0.1628   50.1  0.4637  -61.2
 2.800  0.3655  167.7   1.780   50.3  0.1675   50.7  0.4624  -62.8
 2.900  0.3679  164.3   1.734   48.1  0.1727   51.2  0.4602  -64.3
 3.000  0.3715  160.9   1.691   45.8  0.1779   51.7  0.4583  -65.8
 3.100  0.3728  157.6   1.648   44.1  0.1841   52.2  0.4570  -67.4
 3.200  0.3753  154.4   1.606   42.3  0.1903   52.6  0.4560  -69.0
 3.300  0.3790  151.2   1.566   40.4  0.1965   53.0  0.4554  -70.6
 3.400  0.3839  148.1   1.528   38.4  0.2027   53.3  0.4552  -72.3
 3.500  0.3898  145.1   1.492   36.3  0.2089   53.7  0.4553  -73.9
 3.600  0.3937  142.4   1.461   34.7  0.2163   53.7  0.4528  -75.7
 3.700  0.3985  139.7   1.431   33.1  0.2236   53.6  0.4507  -77.5
 3.800  0.4042  137.1   1.402   31.4  0.2310   53.6  0.4491  -79.3
 3.900  0.4106  134.6   1.374   29.6  0.2383   53.5  0.4479  -81.1
 4.000  0.4178  132.2   1.348   27.7  0.2457   53.5  0.4472  -82.9
 4.100  0.4227  129.8   1.323   26.2  0.2543   53.1  0.4429  -85.1
 4.200  0.4284  127.5   1.298   24.6  0.2628   52.7  0.4392  -87.3
 4.300  0.4347  125.2   1.275   23.0  0.2714   52.4  0.4362  -89.5
 4.400  0.4417  123.0   1.253   21.3  0.2800   52.0  0.4339  -91.8
 4.500  0.4493  120.9   1.232   19.5  0.2886   51.7  0.4323  -94.1
 4.600  0.4554  118.9   1.209   18.2  0.2976   51.1  0.4287  -96.7
 4.700  0.4620  116.9   1.186   16.8  0.3067   50.5  0.4260  -99.4
 4.800  0.4691  115.0   1.164   15.3  0.3158   49.9  0.4243 -102.1
 4.900  0.4767  113.2   1.142   13.8  0.3249   49.4  0.4235 -104.9
 5.000  0.4848  111.4   1.122   12.3  0.3341   48.9  0.4237 -107.6
 5.100  0.4896  109.7   1.104   11.1  0.3436   48.1  0.4239 -110.5
 5.200  0.4949  108.0   1.087    9.9  0.3532   47.3  0.4251 -113.4
 5.300  0.5007  106.3   1.071    8.7  0.3628   46.5  0.4274 -116.2
 5.400  0.5068  104.7   1.055    7.4  0.3725   45.8  0.4307 -119.0
 5.500  0.5133  103.1   1.039    6.1  0.3823   45.1  0.4351 -121.8
 5.600  0.5160  101.5   1.023    5.1  0.3914   44.0  0.4368 -124.4
 5.700  0.5190  100.0   1.006    4.0  0.4006   43.0  0.4393 -127.0
 5.800  0.5224   98.5   0.991    3.0  0.4100   42.0  0.4428 -129.5
 5.900  0.5262   97.0   0.975    1.8  0.4195   41.0  0.4471 -132.0
 6.000  0.5303   95.5   0.960    0.7  0.4291   40.1  0.4522 -134.5
!
!  f       NFmin   Gammaopt  rn/50
! GHz       dB    MAG  ANG    -
 0.450      0.84  0.56   18   0.32
 0.900      0.90  0.51   33   0.30
 1.900      1.35  0.31   81   0.23
 2.400      1.58  0.27   95   0.25
!
! (c) 2017  Infineon Technologies AG, Munich