! Infineon Technologies  Discrete & RF Semiconductors
! BFR181W
! VCE =  1.0 V,  IC =  30 mA
! Common Emitter S-Parameters:                            Jan 2017
# GHz  S  MA  R  50
!  f         S11            S21            S12            S22
! GHz     MAG   ANG      MAG   ANG      MAG   ANG      MAG   ANG
 0.010  0.2608  -41.9  25.977  169.5  0.0046   63.9  0.7481   -7.1
 0.020  0.3292  -72.4  24.564  158.4  0.0080   68.0  0.7153  -13.7
 0.030  0.3610  -91.5  22.287  151.8  0.0107   59.9  0.6654  -17.6
 0.040  0.4247 -106.1  20.367  143.9  0.0136   55.1  0.6190  -22.2
 0.050  0.5085 -116.5  18.914  134.5  0.0165   52.0  0.5772  -27.4
 0.060  0.5198 -123.3  17.403  131.7  0.0176   50.2  0.5454  -28.2
 0.070  0.5380 -129.7  15.941  128.4  0.0187   48.7  0.5138  -29.1
 0.080  0.5625 -135.6  14.544  124.4  0.0198   47.3  0.4823  -30.1
 0.090  0.5924 -141.0  13.231  119.6  0.0210   46.0  0.4510  -31.3
 0.100  0.6270 -145.8  12.031  113.8  0.0221   44.9  0.4199  -32.6
 0.110  0.6326 -148.4  11.316  112.3  0.0228   45.0  0.4059  -32.4
 0.120  0.6395 -150.9  10.611  110.5  0.0235   45.2  0.3918  -32.3
 0.130  0.6476 -153.4   9.916  108.5  0.0241   45.3  0.3778  -32.1
 0.140  0.6568 -155.8   9.236  106.2  0.0248   45.4  0.3638  -31.9
 0.150  0.6672 -158.1   8.572  103.6  0.0255   45.5  0.3498  -31.7
 0.200  0.6771 -165.5   6.568   96.8  0.0277   48.5  0.3154  -29.9
 0.250  0.6876 -170.5   5.321   91.9  0.0309   51.1  0.2980  -28.7
 0.300  0.6910 -174.0   4.460   88.1  0.0340   53.5  0.2856  -27.9
 0.350  0.6927 -176.8   3.916   85.3  0.0377   56.6  0.2796  -27.9
 0.400  0.6959 -179.5   3.384   81.7  0.0414   59.1  0.2735  -27.9
 0.450  0.6966  178.4   3.046   79.4  0.0448   61.3  0.2698  -28.6
 0.500  0.6982  176.3   2.715   76.5  0.0482   63.2  0.2662  -29.3
 0.600  0.7032  172.6   2.275   71.8  0.0563   66.0  0.2607  -31.2
 0.700  0.7034  169.8   1.956   67.4  0.0635   68.7  0.2567  -33.4
 0.800  0.7088  166.5   1.719   63.1  0.0725   69.9  0.2531  -36.3
 0.900  0.7104  163.9   1.529   59.2  0.0806   70.3  0.2493  -39.6
 1.000  0.7155  161.3   1.385   55.5  0.0895   71.3  0.2438  -43.0
 1.100  0.7196  158.6   1.264   52.0  0.0988   71.7  0.2420  -46.4
 1.200  0.7221  156.1   1.160   48.5  0.1080   71.8  0.2383  -50.0
 1.300  0.7273  153.5   1.073   45.3  0.1171   71.9  0.2352  -54.2
 1.400  0.7312  151.1   1.002   42.2  0.1276   71.6  0.2309  -58.3
 1.500  0.7359  148.9   0.935   39.2  0.1374   71.4  0.2279  -62.5
 1.600  0.7409  146.5   0.877   36.4  0.1479   71.0  0.2267  -67.0
 1.700  0.7455  143.9   0.826   33.9  0.1580   70.6  0.2234  -71.7
 1.800  0.7509  141.7   0.783   31.2  0.1687   69.6  0.2217  -76.4
 1.900  0.7538  139.4   0.740   29.4  0.1788   69.0  0.2209  -81.2
 2.000  0.7572  137.1   0.701   26.9  0.1900   68.0  0.2216  -86.0
 2.100  0.7593  134.7   0.667   25.2  0.2005   66.9  0.2210  -90.9
 2.200  0.7627  132.3   0.634   23.3  0.2111   65.9  0.2220  -95.8
 2.300  0.7656  130.2   0.606   21.9  0.2219   64.8  0.2231 -100.4
 2.400  0.7696  128.1   0.578   20.4  0.2328   63.8  0.2257 -105.0
 2.500  0.7698  126.0   0.554   19.4  0.2433   62.6  0.2277 -109.4
 2.600  0.7711  123.9   0.531   18.4  0.2538   61.5  0.2311 -113.7
 2.700  0.7736  121.8   0.511   17.8  0.2640   60.3  0.2331 -117.5
 2.800  0.7771  119.7   0.492   17.2  0.2743   59.1  0.2362 -121.3
 2.900  0.7759  117.7   0.476   16.9  0.2845   57.8  0.2378 -125.1
 3.000  0.7757  115.7   0.460   16.5  0.2949   56.5  0.2404 -128.9
 3.100  0.7740  113.7   0.450   16.6  0.3040   55.1  0.2396 -132.3
 3.200  0.7732  111.7   0.441   16.7  0.3134   53.7  0.2397 -135.7
 3.300  0.7735  109.6   0.431   16.8  0.3229   52.4  0.2407 -139.1
 3.400  0.7747  107.6   0.422   17.0  0.3325   51.2  0.2424 -142.4
 3.500  0.7768  105.6   0.412   17.1  0.3423   50.1  0.2450 -145.7
 3.600  0.7740  103.8   0.409   17.5  0.3503   48.6  0.2436 -149.2
 3.700  0.7720  102.1   0.407   17.8  0.3585   47.2  0.2431 -152.7
 3.800  0.7707  100.3   0.404   18.2  0.3669   45.9  0.2435 -156.2
 3.900  0.7701   98.5   0.402   18.5  0.3754   44.6  0.2449 -159.7
 4.000  0.7703   96.7   0.399   18.9  0.3842   43.4  0.2471 -163.1
 4.100  0.7666   95.1   0.401   19.0  0.3910   42.0  0.2468 -166.8
 4.200  0.7634   93.5   0.402   19.1  0.3981   40.6  0.2476 -170.5
 4.300  0.7609   91.9   0.404   19.3  0.4053   39.2  0.2494 -174.2
 4.400  0.7590   90.2   0.405   19.4  0.4128   37.9  0.2522 -177.8
 4.500  0.7577   88.6   0.407   19.5  0.4205   36.7  0.2560  178.7
 4.600  0.7550   87.4   0.410   19.4  0.4260   35.5  0.2589  175.6
 4.700  0.7526   86.1   0.413   19.4  0.4316   34.3  0.2626  172.6
 4.800  0.7506   84.9   0.416   19.3  0.4375   33.1  0.2670  169.7
 4.900  0.7489   83.7   0.419   19.3  0.4435   32.0  0.2720  166.9
 5.000  0.7476   82.4   0.422   19.2  0.4497   30.9  0.2777  164.2
 5.100  0.7454   81.3   0.427   18.8  0.4546   29.8  0.2827  162.2
 5.200  0.7434   80.1   0.433   18.5  0.4596   28.7  0.2880  160.2
 5.300  0.7418   79.0   0.438   18.1  0.4648   27.6  0.2936  158.3
 5.400  0.7404   77.8   0.444   17.7  0.4702   26.5  0.2996  156.5
 5.500  0.7394   76.7   0.449   17.4  0.4757   25.5  0.3058  154.7
 5.600  0.7352   75.6   0.453   16.9  0.4798   24.4  0.3087  153.3
 5.700  0.7313   74.5   0.458   16.4  0.4841   23.3  0.3117  151.9
 5.800  0.7277   73.4   0.462   15.9  0.4885   22.3  0.3149  150.6
 5.900  0.7243   72.3   0.467   15.5  0.4931   21.2  0.3183  149.3
 6.000  0.7212   71.2   0.471   15.0  0.4979   20.2  0.3219  148.0
!
!  f       NFmin   Gammaopt  rn/50
! GHz       dB    MAG  ANG    -
!
! noise parameter not available yet for this operation point!
!
! (c) 2017  Infineon Technologies AG, Munich