! Infineon Technologies  Discrete & RF Semiconductors
! BFR181W
! VCE =  8.0 V,  IC =  3.0 mA
! Common Emitter S-Parameters:                            Jan 2017
# GHz  S  MA  R  50
!  f         S11            S21            S12            S22
! GHz     MAG   ANG      MAG   ANG      MAG   ANG      MAG   ANG
 0.010  0.9161   -0.5   9.968  179.4  0.0013   78.3  1.0000   -0.8
 0.020  0.9054   -4.2   9.910  177.2  0.0032  101.6  0.9907   -1.3
 0.030  0.8973   -5.1   9.854  176.1  0.0049   91.8  0.9916   -2.1
 0.040  0.8894   -6.0   9.801  175.0  0.0068   87.2  0.9927   -2.9
 0.050  0.8817   -6.9   9.752  173.9  0.0086   84.5  0.9940   -3.7
 0.060  0.8825   -8.4   9.717  172.7  0.0104   83.5  0.9917   -4.4
 0.070  0.8838   -9.9   9.686  171.4  0.0121   82.7  0.9895   -5.2
 0.080  0.8858  -11.4   9.659  170.2  0.0139   82.2  0.9875   -5.9
 0.090  0.8884  -12.9   9.637  169.0  0.0156   81.7  0.9857   -6.7
 0.100  0.8916  -14.4   9.620  167.7  0.0174   81.4  0.9840   -7.4
 0.110  0.8851  -15.9   9.575  166.6  0.0190   80.5  0.9805   -8.1
 0.120  0.8793  -17.3   9.534  165.4  0.0207   79.7  0.9772   -8.8
 0.130  0.8740  -18.8   9.496  164.3  0.0223   79.1  0.9740   -9.5
 0.140  0.8693  -20.4   9.463  163.2  0.0240   78.5  0.9710  -10.3
 0.150  0.8653  -21.9   9.433  162.0  0.0256   78.0  0.9681  -11.0
 0.200  0.8446  -28.4   9.154  155.9  0.0324   74.1  0.9454  -14.2
 0.250  0.8147  -35.1   8.917  150.4  0.0402   70.9  0.9214  -17.2
 0.300  0.7813  -41.6   8.571  145.2  0.0461   67.0  0.8915  -19.9
 0.350  0.7473  -47.1   8.221  140.7  0.0516   64.5  0.8633  -22.1
 0.400  0.7208  -53.0   7.926  135.9  0.0572   62.4  0.8365  -24.5
 0.450  0.6854  -57.9   7.558  132.1  0.0615   60.3  0.8086  -26.2
 0.500  0.6556  -63.3   7.226  127.9  0.0659   58.4  0.7814  -28.1
 0.600  0.5995  -73.0   6.607  120.7  0.0730   55.4  0.7314  -30.7
 0.700  0.5467  -81.7   6.029  114.5  0.0778   53.5  0.6886  -32.7
 0.800  0.5038  -89.8   5.550  109.0  0.0834   52.3  0.6516  -34.4
 0.900  0.4638  -97.4   5.108  104.1  0.0878   50.6  0.6213  -35.6
 1.000  0.4315 -104.6   4.732   99.8  0.0916   50.6  0.5945  -36.6
 1.100  0.4077 -111.6   4.403   95.9  0.0953   50.3  0.5734  -37.6
 1.200  0.3820 -118.2   4.107   92.1  0.0984   50.1  0.5537  -38.5
 1.300  0.3616 -124.6   3.846   88.6  0.1024   50.3  0.5378  -39.3
 1.400  0.3468 -130.4   3.624   85.4  0.1058   50.8  0.5233  -40.4
 1.500  0.3365 -136.9   3.426   82.4  0.1096   51.2  0.5113  -41.3
 1.600  0.3251 -142.7   3.241   79.4  0.1130   51.7  0.5022  -42.2
 1.700  0.3160 -148.4   3.084   76.8  0.1166   52.3  0.4911  -43.3
 1.800  0.3101 -153.8   2.949   74.0  0.1213   52.8  0.4832  -44.4
 1.900  0.3083 -158.9   2.822   71.7  0.1250   53.6  0.4762  -45.6
 2.000  0.3050 -164.6   2.702   69.0  0.1297   54.0  0.4706  -46.8
 2.100  0.3011 -169.1   2.597   66.7  0.1344   54.5  0.4657  -48.1
 2.200  0.2991 -173.7   2.497   64.2  0.1391   55.0  0.4610  -49.5
 2.300  0.3007 -178.3   2.409   62.0  0.1439   55.4  0.4571  -51.0
 2.400  0.3043  177.2   2.324   59.6  0.1488   55.8  0.4535  -52.5
 2.500  0.3049  173.6   2.245   57.6  0.1539   56.2  0.4515  -54.0
 2.600  0.3067  170.0   2.170   55.4  0.1590   56.6  0.4498  -55.5
 2.700  0.3097  166.1   2.105   53.4  0.1646   56.8  0.4480  -57.0
 2.800  0.3141  162.3   2.042   51.3  0.1702   57.0  0.4465  -58.5
 2.900  0.3168  159.0   1.987   49.3  0.1764   57.1  0.4452  -60.0
 3.000  0.3206  155.7   1.935   47.1  0.1826   57.1  0.4443  -61.6
 3.100  0.3230  152.6   1.885   45.5  0.1893   57.1  0.4430  -63.1
 3.200  0.3263  149.6   1.836   43.8  0.1960   57.1  0.4420  -64.7
 3.300  0.3305  146.6   1.789   42.0  0.2026   57.2  0.4413  -66.3
 3.400  0.3356  143.8   1.744   40.1  0.2093   57.2  0.4410  -67.8
 3.500  0.3415  141.0   1.701   38.1  0.2160   57.2  0.4410  -69.4
 3.600  0.3457  138.5   1.666   36.6  0.2235   56.9  0.4385  -71.1
 3.700  0.3505  136.1   1.631   35.0  0.2310   56.6  0.4364  -72.8
 3.800  0.3560  133.8   1.598   33.3  0.2385   56.3  0.4347  -74.5
 3.900  0.3620  131.6   1.567   31.6  0.2460   56.0  0.4333  -76.2
 4.000  0.3685  129.4   1.537   29.8  0.2535   55.8  0.4324  -77.9
 4.100  0.3742  127.2   1.509   28.3  0.2619   55.2  0.4284  -79.9
 4.200  0.3805  125.0   1.481   26.8  0.2703   54.6  0.4248  -82.0
 4.300  0.3873  122.9   1.455   25.2  0.2787   54.1  0.4219  -84.1
 4.400  0.3946  120.9   1.430   23.6  0.2871   53.6  0.4195  -86.2
 4.500  0.4024  119.0   1.406   21.9  0.2956   53.1  0.4177  -88.3
 4.600  0.4092  117.2   1.381   20.5  0.3042   52.4  0.4139  -90.9
 4.700  0.4164  115.4   1.356   19.1  0.3128   51.7  0.4110  -93.5
 4.800  0.4240  113.7   1.333   17.7  0.3215   51.0  0.4090  -96.1
 4.900  0.4319  112.0   1.310   16.2  0.3302   50.4  0.4079  -98.8
 5.000  0.4402  110.4   1.288   14.6  0.3389   49.8  0.4076 -101.5
 5.100  0.4457  108.8   1.268   13.4  0.3478   48.9  0.4073 -104.3
 5.200  0.4515  107.2   1.249   12.1  0.3568   48.0  0.4079 -107.2
 5.300  0.4577  105.6   1.231   10.8  0.3659   47.2  0.4096 -110.0
 5.400  0.4642  104.1   1.213    9.4  0.3751   46.4  0.4122 -112.8
 5.500  0.4710  102.6   1.196    8.0  0.3843   45.7  0.4158 -115.5
 5.600  0.4743  101.2   1.178    6.9  0.3930   44.6  0.4175 -118.1
 5.700  0.4779   99.8   1.160    5.8  0.4018   43.6  0.4200 -120.7
 5.800  0.4817   98.5   1.142    4.6  0.4108   42.6  0.4233 -123.2
 5.900  0.4858   97.1   1.125    3.4  0.4198   41.6  0.4275 -125.7
 6.000  0.4902   95.8   1.109    2.2  0.4290   40.7  0.4324 -128.1
!
!  f       NFmin   Gammaopt  rn/50
! GHz       dB    MAG  ANG    -
 0.450      0.87  0.47   17   0.27
 0.900      0.93  0.42   32   0.26
 1.900      1.34  0.24   80   0.21
 2.400      1.55  0.21   94   0.23
!
! (c) 2017  Infineon Technologies AG, Munich