! Infineon Technologies  Discrete & RF Semiconductors
! BFR181W
! VCE =  2.0 V,  IC =  14 mA
! Common Emitter S-Parameters:                            Jan 2017
# GHz  S  MA  R  50
!  f         S11            S21            S12            S22
! GHz     MAG   ANG      MAG   ANG      MAG   ANG      MAG   ANG
 0.010  0.6313   -5.9  28.407  176.6  0.0016   84.3  0.9624   -2.0
 0.020  0.6191  -14.5  28.109  171.7  0.0033   89.5  0.9506   -4.1
 0.030  0.6035  -20.1  27.480  168.0  0.0052   81.5  0.9401   -6.2
 0.040  0.5940  -26.0  26.973  164.1  0.0071   77.8  0.9309   -8.3
 0.050  0.5909  -32.0  26.593  160.1  0.0091   75.7  0.9230  -10.5
 0.060  0.5724  -37.2  25.708  157.1  0.0105   73.3  0.9032  -11.9
 0.070  0.5589  -42.7  24.898  153.9  0.0120   71.5  0.8840  -13.3
 0.080  0.5508  -48.4  24.170  150.6  0.0135   70.1  0.8653  -14.8
 0.090  0.5482  -54.2  23.531  147.0  0.0149   68.9  0.8473  -16.4
 0.100  0.5513  -60.0  22.989  143.2  0.0164   68.0  0.8299  -18.0
 0.110  0.5355  -64.1  22.191  141.1  0.0173   66.4  0.8121  -18.7
 0.120  0.5226  -68.5  21.426  138.8  0.0182   65.0  0.7945  -19.5
 0.130  0.5129  -73.1  20.697  136.4  0.0191   63.7  0.7770  -20.3
 0.140  0.5066  -77.8  20.008  133.8  0.0201   62.5  0.7597  -21.2
 0.150  0.5038  -82.6  19.363  131.0  0.0210   61.4  0.7426  -22.1
 0.200  0.4699  -99.5  16.270  121.6  0.0237   59.0  0.6738  -23.6
 0.250  0.4473 -113.1  13.914  114.8  0.0272   58.0  0.6243  -24.1
 0.300  0.4313 -123.9  12.057  109.5  0.0297   57.2  0.5873  -24.0
 0.350  0.4187 -131.5  10.743  106.1  0.0323   58.7  0.5647  -23.7
 0.400  0.4139 -139.4   9.479  101.7  0.0349   59.9  0.5421  -23.3
 0.450  0.4068 -145.0   8.597   99.2  0.0374   60.9  0.5293  -23.1
 0.500  0.4037 -150.7   7.736   96.1  0.0399   61.8  0.5166  -22.9
 0.600  0.4006 -159.3   6.543   91.5  0.0452   63.9  0.4998  -22.7
 0.700  0.4001 -166.2   5.662   87.7  0.0500   66.2  0.4886  -22.8
 0.800  0.3995 -172.3   4.998   84.1  0.0564   67.7  0.4805  -23.3
 0.900  0.4010 -177.2   4.460   80.9  0.0620   68.5  0.4744  -24.1
 1.000  0.4039  178.3   4.047   78.1  0.0672   69.6  0.4687  -24.8
 1.100  0.4090  174.2   3.698   75.4  0.0735   70.7  0.4654  -25.8
 1.200  0.4109  170.1   3.404   72.7  0.0796   71.2  0.4611  -27.0
 1.300  0.4130  166.8   3.153   70.1  0.0857   71.6  0.4574  -28.3
 1.400  0.4165  163.9   2.948   67.7  0.0928   72.3  0.4536  -29.6
 1.500  0.4221  160.9   2.761   65.4  0.0990   72.3  0.4508  -31.1
 1.600  0.4256  157.7   2.602   63.0  0.1059   72.4  0.4491  -32.7
 1.700  0.4286  155.0   2.461   60.9  0.1125   72.7  0.4456  -34.4
 1.800  0.4330  152.4   2.340   58.6  0.1197   72.5  0.4424  -36.2
 1.900  0.4385  150.1   2.229   56.6  0.1267   72.6  0.4409  -38.0
 2.000  0.4433  147.6   2.124   54.4  0.1340   72.4  0.4387  -39.9
 2.100  0.4472  145.2   2.035   52.4  0.1415   72.1  0.4366  -41.9
 2.200  0.4519  142.9   1.949   50.2  0.1490   71.9  0.4351  -44.0
 2.300  0.4575  140.6   1.877   48.3  0.1567   71.5  0.4337  -46.1
 2.400  0.4638  138.4   1.807   46.3  0.1645   71.2  0.4329  -48.3
 2.500  0.4668  136.4   1.743   44.5  0.1723   70.7  0.4321  -50.4
 2.600  0.4704  134.4   1.680   42.5  0.1802   70.2  0.4320  -52.6
 2.700  0.4760  132.3   1.626   40.8  0.1882   69.7  0.4318  -54.8
 2.800  0.4823  130.3   1.574   38.9  0.1963   69.3  0.4322  -56.9
 2.900  0.4861  128.4   1.527   37.2  0.2048   68.7  0.4316  -59.0
 3.000  0.4904  126.6   1.482   35.4  0.2133   68.1  0.4317  -61.2
 3.100  0.4942  124.6   1.442   34.0  0.2220   67.3  0.4305  -63.3
 3.200  0.4985  122.7   1.404   32.4  0.2308   66.6  0.4300  -65.4
 3.300  0.5034  120.8   1.366   30.8  0.2396   65.9  0.4299  -67.4
 3.400  0.5088  118.9   1.330   29.1  0.2484   65.3  0.4305  -69.5
 3.500  0.5148  117.1   1.295   27.3  0.2573   64.7  0.4316  -71.6
 3.600  0.5182  115.4   1.266   26.0  0.2663   63.7  0.4285  -73.8
 3.700  0.5221  113.7   1.238   24.6  0.2753   62.8  0.4260  -76.0
 3.800  0.5264  112.0   1.211   23.2  0.2844   61.9  0.4242  -78.2
 3.900  0.5312  110.3   1.185   21.7  0.2936   61.1  0.4230  -80.4
 4.000  0.5364  108.7   1.159   20.2  0.3028   60.3  0.4224  -82.7
 4.100  0.5402  107.1   1.136   18.9  0.3121   59.2  0.4174  -85.2
 4.200  0.5444  105.5   1.114   17.6  0.3215   58.1  0.4132  -87.8
 4.300  0.5490  104.0   1.092   16.3  0.3311   57.1  0.4098  -90.4
 4.400  0.5540  102.5   1.071   14.9  0.3407   56.1  0.4074  -93.1
 4.500  0.5594  101.0   1.050   13.4  0.3504   55.2  0.4058  -95.8
 4.600  0.5636   99.7   1.030   12.4  0.3594   54.1  0.4015  -98.8
 4.700  0.5680   98.3   1.011   11.3  0.3686   53.0  0.3983 -101.8
 4.800  0.5728   97.0   0.992   10.2  0.3779   51.9  0.3962 -104.9
 4.900  0.5779   95.8   0.973    9.1  0.3873   50.9  0.3953 -108.0
 5.000  0.5832   94.5   0.955    7.9  0.3968   50.0  0.3956 -111.1
 5.100  0.5862   93.1   0.941    7.0  0.4056   48.8  0.3952 -114.2
 5.200  0.5895   91.8   0.927    6.0  0.4145   47.6  0.3960 -117.4
 5.300  0.5932   90.5   0.913    5.0  0.4236   46.5  0.3980 -120.5
 5.400  0.5971   89.2   0.899    4.0  0.4329   45.4  0.4012 -123.6
 5.500  0.6014   87.9   0.886    3.0  0.4423   44.4  0.4055 -126.6
 5.600  0.6020   86.7   0.873    2.3  0.4505   43.1  0.4069 -129.4
 5.700  0.6030   85.5   0.861    1.5  0.4589   41.8  0.4093 -132.2
 5.800  0.6041   84.3   0.848    0.7  0.4675   40.6  0.4126 -134.9
 5.900  0.6056   83.1   0.836   -0.1  0.4763   39.4  0.4168 -137.6
 6.000  0.6073   81.9   0.824   -0.9  0.4853   38.3  0.4219 -140.2
!
!  f       NFmin   Gammaopt  rn/50
! GHz       dB    MAG  ANG    -
 0.450      1.43  0.06   16   0.21
 0.900      1.48  0.06   32   0.21
 1.900      1.92  0.11 -141   0.21
 2.400      2.13  0.14 -109   0.27
!
! (c) 2017  Infineon Technologies AG, Munich