! Infineon Technologies  Discrete & RF Semiconductors
! BFR181W
! VCE =  2.0 V,  IC =  24 mA
! Common Emitter S-Parameters:                            Jan 2017
# GHz  S  MA  R  50
!  f         S11            S21            S12            S22
! GHz     MAG   ANG      MAG   ANG      MAG   ANG      MAG   ANG
 0.010  0.4337  -15.1  29.680  173.8  0.0019   75.8  0.8877   -3.0
 0.020  0.4335  -31.9  28.907  166.3  0.0044   77.6  0.8748   -6.0
 0.030  0.4208  -44.5  27.485  160.9  0.0063   72.1  0.8500   -8.6
 0.040  0.4291  -57.3  26.334  154.9  0.0082   69.2  0.8270  -11.3
 0.050  0.4574  -69.0  25.492  148.5  0.0102   67.4  0.8060  -14.1
 0.060  0.4474  -77.4  23.994  145.3  0.0113   64.7  0.7801  -15.1
 0.070  0.4472  -85.9  22.581  141.7  0.0125   62.5  0.7544  -16.1
 0.080  0.4568  -94.3  21.269  137.6  0.0136   60.7  0.7290  -17.2
 0.090  0.4757 -102.2  20.078  133.0  0.0148   59.1  0.7039  -18.4
 0.100  0.5028 -109.3  19.032  127.9  0.0160   57.8  0.6791  -19.7
 0.110  0.5014 -113.7  18.068  126.0  0.0166   57.0  0.6632  -19.8
 0.120  0.5031 -118.2  17.125  123.9  0.0172   56.3  0.6474  -19.9
 0.130  0.5078 -122.6  16.207  121.6  0.0178   55.6  0.6315  -20.0
 0.140  0.5153 -126.9  15.319  119.0  0.0184   54.9  0.6157  -20.2
 0.150  0.5257 -131.0  14.467  116.1  0.0190   54.3  0.5998  -20.3
 0.200  0.5349 -143.7  11.453  108.0  0.0211   54.5  0.5553  -19.5
 0.250  0.5432 -152.6   9.433  102.4  0.0240   54.7  0.5304  -18.8
 0.300  0.5480 -159.1   7.994   98.2  0.0261   57.0  0.5127  -18.0
 0.350  0.5478 -163.6   7.047   95.5  0.0287   59.7  0.5037  -17.8
 0.400  0.5510 -168.1   6.120   91.9  0.0314   62.0  0.4947  -17.5
 0.450  0.5511 -171.3   5.519   89.8  0.0338   63.7  0.4900  -17.6
 0.500  0.5529 -174.5   4.928   87.1  0.0363   65.1  0.4853  -17.8
 0.600  0.5589 -179.5   4.140   83.0  0.0416   67.5  0.4792  -18.4
 0.700  0.5597  176.4   3.564   79.4  0.0477   70.9  0.4746  -19.4
 0.800  0.5643  172.5   3.140   75.8  0.0537   72.7  0.4705  -20.7
 0.900  0.5662  169.1   2.797   72.7  0.0600   73.5  0.4673  -22.1
 1.000  0.5707  166.0   2.536   69.8  0.0658   74.4  0.4635  -23.7
 1.100  0.5754  163.0   2.315   67.0  0.0727   75.5  0.4617  -25.3
 1.200  0.5765  160.0   2.129   64.1  0.0790   75.6  0.4587  -27.0
 1.300  0.5788  157.5   1.970   61.4  0.0859   76.4  0.4556  -28.9
 1.400  0.5851  154.9   1.840   58.8  0.0937   76.9  0.4522  -30.8
 1.500  0.5895  152.6   1.725   56.3  0.1006   77.0  0.4496  -32.8
 1.600  0.5953  150.1   1.625   53.8  0.1084   76.9  0.4481  -34.9
 1.700  0.5974  147.6   1.536   51.4  0.1160   77.4  0.4446  -37.2
 1.800  0.6033  145.3   1.461   48.9  0.1241   76.9  0.4411  -39.4
 1.900  0.6078  143.2   1.390   46.9  0.1322   76.7  0.4392  -41.7
 2.000  0.6124  141.0   1.322   44.5  0.1404   76.5  0.4375  -44.2
 2.100  0.6154  138.7   1.266   42.4  0.1490   76.1  0.4349  -46.6
 2.200  0.6194  136.4   1.211   40.2  0.1576   75.8  0.4331  -49.1
 2.300  0.6240  134.4   1.164   38.2  0.1663   75.2  0.4315  -51.7
 2.400  0.6293  132.4   1.118   36.1  0.1751   74.7  0.4309  -54.4
 2.500  0.6320  130.3   1.076   34.4  0.1842   74.0  0.4299  -57.0
 2.600  0.6355  128.3   1.035   32.5  0.1933   73.4  0.4297  -59.6
 2.700  0.6399  126.3   1.000   30.9  0.2027   72.7  0.4292  -62.1
 2.800  0.6450  124.4   0.965   29.1  0.2122   72.0  0.4295  -64.7
 2.900  0.6480  122.5   0.934   27.5  0.2217   71.0  0.4283  -67.3
 3.000  0.6518  120.6   0.903   25.8  0.2312   70.1  0.4279  -69.9
 3.100  0.6537  118.6   0.878   24.6  0.2412   69.1  0.4258  -72.3
 3.200  0.6565  116.6   0.853   23.4  0.2513   68.1  0.4245  -74.8
 3.300  0.6600  114.7   0.828   22.1  0.2614   67.3  0.4240  -77.3
 3.400  0.6643  112.7   0.804   20.8  0.2716   66.4  0.4242  -79.7
 3.500  0.6693  110.8   0.781   19.3  0.2818   65.7  0.4253  -82.2
 3.600  0.6707  109.0   0.763   18.4  0.2918   64.4  0.4210  -84.8
 3.700  0.6727  107.2   0.744   17.5  0.3019   63.2  0.4176  -87.4
 3.800  0.6755  105.4   0.726   16.5  0.3122   62.1  0.4151  -90.0
 3.900  0.6789  103.6   0.709   15.5  0.3225   61.0  0.4135  -92.7
 4.000  0.6829  101.8   0.691   14.4  0.3330   60.0  0.4128  -95.4
 4.100  0.6832  100.1   0.677   13.8  0.3427   58.6  0.4065  -98.4
 4.200  0.6840   98.4   0.664   13.1  0.3525   57.2  0.4013 -101.4
 4.300  0.6855   96.7   0.651   12.4  0.3626   55.9  0.3973 -104.5
 4.400  0.6875   95.1   0.637   11.7  0.3728   54.7  0.3945 -107.7
 4.500  0.6901   93.4   0.624   10.9  0.3832   53.6  0.3929 -110.9
 4.600  0.6905   92.1   0.614   10.6  0.3921   52.3  0.3882 -114.2
 4.700  0.6914   90.7   0.605   10.3  0.4011   51.0  0.3848 -117.5
 4.800  0.6926   89.4   0.595   10.0  0.4104   49.8  0.3827 -120.9
 4.900  0.6941   88.0   0.586    9.6  0.4198   48.6  0.3820 -124.4
 5.000  0.6961   86.7   0.576    9.3  0.4294   47.5  0.3827 -127.8
 5.100  0.6957   85.4   0.571    9.1  0.4377   46.1  0.3825 -131.1
 5.200  0.6957   84.1   0.567    8.9  0.4461   44.8  0.3836 -134.4
 5.300  0.6961   82.8   0.562    8.7  0.4549   43.6  0.3860 -137.6
 5.400  0.6968   81.5   0.558    8.4  0.4638   42.4  0.3895 -140.9
 5.500  0.6979   80.2   0.553    8.2  0.4729   41.2  0.3943 -144.0
 5.600  0.6953   79.0   0.551    8.1  0.4802   39.8  0.3953 -146.8
 5.700  0.6931   77.8   0.548    8.0  0.4878   38.5  0.3971 -149.5
 5.800  0.6911   76.6   0.546    7.9  0.4957   37.2  0.3999 -152.2
 5.900  0.6894   75.4   0.543    7.8  0.5038   35.9  0.4036 -154.9
 6.000  0.6881   74.2   0.541    7.7  0.5121   34.7  0.4081 -157.5
!
!  f       NFmin   Gammaopt  rn/50
! GHz       dB    MAG  ANG    -
!
! noise parameter not available yet for this operation point!
!
! (c) 2017  Infineon Technologies AG, Munich