! Infineon Technologies  Discrete & RF Semiconductors
! BFR181W
! VCE =  5.0 V,  IC =  15 mA
! Common Emitter S-Parameters:                            Jan 2017
# GHz  S  MA  R  50
!  f         S11            S21            S12            S22
! GHz     MAG   ANG      MAG   ANG      MAG   ANG      MAG   ANG
 0.010  0.6495   -3.6  30.874  177.0  0.0014   84.0  0.9852   -1.6
 0.020  0.6389  -10.3  30.561  173.0  0.0030   92.0  0.9849   -3.6
 0.030  0.6269  -14.0  30.079  170.0  0.0045   84.4  0.9750   -5.5
 0.040  0.6176  -17.9  29.681  166.9  0.0060   80.6  0.9661   -7.4
 0.050  0.6112  -21.8  29.371  163.8  0.0076   78.4  0.9583   -9.3
 0.060  0.5974  -25.6  28.668  161.1  0.0090   76.7  0.9426  -10.7
 0.070  0.5864  -29.5  28.030  158.4  0.0104   75.5  0.9275  -12.2
 0.080  0.5782  -33.6  27.462  155.4  0.0119   74.6  0.9130  -13.8
 0.090  0.5731  -37.8  26.966  152.4  0.0133   73.9  0.8993  -15.4
 0.100  0.5710  -42.0  26.549  149.3  0.0147   73.3  0.8862  -17.0
 0.110  0.5548  -45.2  25.837  147.3  0.0156   72.4  0.8694  -18.0
 0.120  0.5405  -48.7  25.159  145.1  0.0165   71.6  0.8528  -19.0
 0.130  0.5282  -52.3  24.520  142.8  0.0175   70.8  0.8365  -20.0
 0.140  0.5180  -56.0  23.921  140.4  0.0184   70.2  0.8204  -21.1
 0.150  0.5102  -59.9  23.366  137.9  0.0193   69.6  0.8047  -22.2
 0.200  0.4580  -73.9  20.291  128.6  0.0229   66.1  0.7305  -25.1
 0.250  0.4155  -86.2  17.788  121.4  0.0268   63.0  0.6721  -26.8
 0.300  0.3806  -96.8  15.653  115.9  0.0295   63.6  0.6239  -27.4
 0.350  0.3546 -104.6  14.069  112.2  0.0324   63.9  0.5919  -27.5
 0.400  0.3361 -113.4  12.558  107.6  0.0354   64.2  0.5600  -27.6
 0.450  0.3189 -119.7  11.448  104.9  0.0381   64.7  0.5398  -27.5
 0.500  0.3059 -126.6  10.369  101.6  0.0408   65.1  0.5196  -27.3
 0.600  0.2896 -137.6   8.834   96.7  0.0464   66.0  0.4936  -26.7
 0.700  0.2802 -146.7   7.670   92.7  0.0520   67.7  0.4752  -26.4
 0.800  0.2744 -154.8   6.789   89.1  0.0585   69.0  0.4619  -26.4
 0.900  0.2696 -161.7   6.075   86.0  0.0639   68.7  0.4521  -26.6
 1.000  0.2716 -168.1   5.517   83.2  0.0701   70.4  0.4433  -27.0
 1.100  0.2712 -173.3   5.042   80.6  0.0767   70.6  0.4377  -27.4
 1.200  0.2734 -178.2   4.643   78.0  0.0825   70.4  0.4321  -28.0
 1.300  0.2716  177.0   4.303   75.5  0.0886   70.6  0.4271  -28.9
 1.400  0.2752  172.8   4.022   73.2  0.0953   70.9  0.4224  -29.8
 1.500  0.2815  169.6   3.769   71.1  0.1020   70.9  0.4186  -30.9
 1.600  0.2837  165.7   3.551   68.8  0.1085   70.7  0.4160  -32.2
 1.700  0.2866  162.3   3.357   66.8  0.1150   70.7  0.4118  -33.6
 1.800  0.2897  159.4   3.192   64.7  0.1219   70.2  0.4085  -34.8
 1.900  0.2947  156.7   3.042   62.9  0.1283   70.4  0.4060  -36.2
 2.000  0.3001  153.9   2.899   60.8  0.1352   69.9  0.4039  -38.0
 2.100  0.3040  151.1   2.779   59.0  0.1420   69.5  0.4013  -39.6
 2.200  0.3087  148.4   2.663   57.0  0.1488   69.2  0.3991  -41.3
 2.300  0.3147  146.1   2.564   55.2  0.1560   68.8  0.3976  -43.1
 2.400  0.3211  143.9   2.468   53.2  0.1632   68.5  0.3966  -45.0
 2.500  0.3245  141.7   2.380   51.5  0.1702   68.0  0.3955  -46.8
 2.600  0.3284  139.6   2.295   49.7  0.1773   67.5  0.3949  -48.7
 2.700  0.3345  137.5   2.223   48.0  0.1845   66.9  0.3946  -50.5
 2.800  0.3411  135.5   2.153   46.2  0.1918   66.4  0.3946  -52.3
 2.900  0.3453  133.4   2.091   44.5  0.1994   65.8  0.3939  -54.2
 3.000  0.3499  131.4   2.030   42.7  0.2070   65.2  0.3937  -56.1
 3.100  0.3542  129.4   1.978   41.3  0.2146   64.6  0.3929  -57.8
 3.200  0.3588  127.5   1.927   39.7  0.2223   64.0  0.3925  -59.6
 3.300  0.3639  125.7   1.877   38.2  0.2299   63.4  0.3925  -61.3
 3.400  0.3693  123.9   1.829   36.5  0.2376   62.9  0.3928  -63.1
 3.500  0.3751  122.1   1.783   34.7  0.2453   62.4  0.3935  -64.8
 3.600  0.3797  120.5   1.745   33.3  0.2532   61.5  0.3909  -66.7
 3.700  0.3847  118.9   1.708   31.9  0.2611   60.7  0.3888  -68.5
 3.800  0.3899  117.4   1.672   30.4  0.2691   59.9  0.3871  -70.5
 3.900  0.3954  115.9   1.637   28.8  0.2771   59.2  0.3858  -72.4
 4.000  0.4011  114.4   1.604   27.2  0.2852   58.5  0.3849  -74.3
 4.100  0.4065  112.9   1.574   25.8  0.2934   57.5  0.3804  -76.5
 4.200  0.4122  111.4   1.545   24.4  0.3017   56.6  0.3765  -78.7
 4.300  0.4182  110.0   1.517   22.9  0.3101   55.8  0.3731  -80.9
 4.400  0.4244  108.6   1.490   21.4  0.3185   55.0  0.3704  -83.2
 4.500  0.4308  107.3   1.464   19.8  0.3270   54.2  0.3682  -85.5
 4.600  0.4373  106.0   1.437   18.6  0.3350   53.3  0.3640  -88.2
 4.700  0.4440  104.7   1.411   17.3  0.3432   52.4  0.3606  -90.9
 4.800  0.4509  103.4   1.386   16.0  0.3514   51.5  0.3580  -93.7
 4.900  0.4581  102.2   1.362   14.6  0.3596   50.7  0.3563  -96.5
 5.000  0.4654  101.0   1.338   13.2  0.3680   49.9  0.3554  -99.3
 5.100  0.4702   99.8   1.318   12.1  0.3763   48.9  0.3549 -102.3
 5.200  0.4752   98.6   1.298   10.9  0.3847   47.9  0.3553 -105.3
 5.300  0.4805   97.4   1.279    9.6  0.3932   47.0  0.3567 -108.3
 5.400  0.4859   96.3   1.260    8.4  0.4018   46.1  0.3591 -111.2
 5.500  0.4915   95.2   1.242    7.1  0.4105   45.3  0.3624 -114.1
 5.600  0.4947   94.0   1.224    6.0  0.4185   44.2  0.3638 -116.8
 5.700  0.4982   92.9   1.205    5.0  0.4267   43.1  0.3660 -119.5
 5.800  0.5018   91.7   1.188    3.8  0.4350   42.0  0.3690 -122.2
 5.900  0.5057   90.6   1.171    2.7  0.4435   41.0  0.3728 -124.8
 6.000  0.5097   89.5   1.154    1.5  0.4521   40.0  0.3774 -127.4
!
!  f       NFmin   Gammaopt  rn/50
! GHz       dB    MAG  ANG    -
 0.450      1.47  0.04   14   0.21
 0.900      1.52  0.04   31   0.21
 1.900      1.95  0.13 -139   0.22
 2.400      2.20  0.16 -109   0.28
!
! (c) 2017  Infineon Technologies AG, Munich