! Infineon Technologies  Discrete & RF Semiconductors
! BFR181W
! VCE =  1.0 V,  IC =  24 mA
! Common Emitter S-Parameters:                            Jan 2017
# GHz  S  MA  R  50
!  f         S11            S21            S12            S22
! GHz     MAG   ANG      MAG   ANG      MAG   ANG      MAG   ANG
 0.010  0.3752  -25.8  26.627  171.2  0.0039   70.4  0.7979   -5.7
 0.020  0.3994  -50.8  25.624  161.3  0.0070   70.8  0.7754  -11.0
 0.030  0.3996  -68.2  23.607  155.0  0.0099   63.5  0.7318  -14.6
 0.040  0.4347  -84.1  21.923  147.7  0.0129   59.6  0.6914  -18.6
 0.050  0.4973  -96.8  20.654  139.3  0.0160   57.2  0.6548  -23.1
 0.060  0.4982 -104.8  19.132  136.3  0.0171   55.0  0.6228  -24.0
 0.070  0.5087 -112.7  17.671  132.8  0.0182   53.1  0.5910  -25.1
 0.080  0.5284 -120.1  16.288  128.7  0.0194   51.4  0.5594  -26.2
 0.090  0.5561 -126.9  15.005  123.8  0.0205   49.9  0.5280  -27.5
 0.100  0.5908 -132.9  13.849  118.1  0.0217   48.6  0.4970  -29.0
 0.110  0.5938 -136.2  13.054  116.5  0.0225   48.1  0.4813  -28.9
 0.120  0.5987 -139.6  12.272  114.6  0.0232   47.5  0.4656  -28.8
 0.130  0.6057 -142.8  11.504  112.5  0.0240   47.1  0.4500  -28.7
 0.140  0.6145 -145.9  10.753  110.1  0.0247   46.6  0.4343  -28.6
 0.150  0.6251 -149.0  10.024  107.4  0.0255   46.2  0.4186  -28.5
 0.200  0.6368 -158.4   7.742  100.1  0.0280   47.3  0.3792  -26.9
 0.250  0.6456 -164.6   6.295   95.0  0.0308   49.9  0.3578  -25.6
 0.300  0.6485 -169.3   5.292   91.1  0.0331   53.0  0.3436  -24.6
 0.350  0.6507 -172.7   4.652   88.4  0.0360   55.4  0.3361  -24.4
 0.400  0.6551 -176.1   4.025   84.8  0.0390   57.5  0.3286  -24.2
 0.450  0.6552 -178.5   3.625   82.6  0.0425   59.7  0.3244  -24.5
 0.500  0.6564  179.2   3.232   79.8  0.0461   61.6  0.3202  -24.8
 0.600  0.6601  175.2   2.709   75.3  0.0529   64.2  0.3144  -26.0
 0.700  0.6640  171.8   2.331   71.3  0.0595   66.8  0.3101  -27.4
 0.800  0.6672  168.5   2.049   67.2  0.0678   68.1  0.3062  -29.5
 0.900  0.6679  165.5   1.824   63.5  0.0751   69.3  0.3028  -31.9
 1.000  0.6718  162.7   1.652   60.1  0.0834   70.4  0.2980  -34.2
 1.100  0.6786  160.1   1.509   56.7  0.0916   71.1  0.2953  -36.8
 1.200  0.6803  157.4   1.388   53.4  0.0994   71.6  0.2913  -39.5
 1.300  0.6844  154.8   1.282   50.3  0.1081   71.8  0.2879  -42.6
 1.400  0.6893  152.5   1.198   47.3  0.1174   71.7  0.2827  -45.6
 1.500  0.6943  150.2   1.120   44.5  0.1261   71.6  0.2796  -48.7
 1.600  0.6997  147.7   1.053   41.6  0.1356   71.4  0.2775  -52.1
 1.700  0.7035  145.2   0.995   39.0  0.1449   71.1  0.2730  -55.7
 1.800  0.7084  142.9   0.943   36.4  0.1543   70.6  0.2698  -59.4
 1.900  0.7138  140.7   0.895   34.3  0.1641   70.1  0.2676  -63.0
 2.000  0.7167  138.4   0.849   31.8  0.1740   69.3  0.2663  -67.0
 2.100  0.7196  136.0   0.809   29.8  0.1840   68.6  0.2639  -70.9
 2.200  0.7237  133.7   0.771   27.6  0.1941   67.9  0.2628  -74.9
 2.300  0.7275  131.5   0.738   25.9  0.2042   67.0  0.2619  -78.9
 2.400  0.7324  129.4   0.706   24.0  0.2144   66.2  0.2622  -82.9
 2.500  0.7338  127.3   0.677   22.6  0.2244   65.1  0.2622  -86.8
 2.600  0.7361  125.3   0.648   21.1  0.2345   64.1  0.2634  -90.6
 2.700  0.7390  123.2   0.624   20.0  0.2445   63.1  0.2640  -94.2
 2.800  0.7428  121.2   0.601   18.8  0.2546   62.1  0.2657  -97.7
 2.900  0.7438  119.1   0.579   17.9  0.2648   60.9  0.2655 -101.3
 3.000  0.7458  117.1   0.558   17.0  0.2751   59.8  0.2664 -104.9
 3.100  0.7453  115.1   0.543   16.6  0.2847   58.5  0.2646 -108.1
 3.200  0.7457  113.1   0.529   16.2  0.2944   57.3  0.2636 -111.4
 3.300  0.7470  111.1   0.514   15.7  0.3042   56.2  0.2635 -114.6
 3.400  0.7492  109.1   0.500   15.2  0.3142   55.1  0.2642 -117.9
 3.500  0.7523  107.1   0.485   14.7  0.3242   54.1  0.2658 -121.1
 3.600  0.7507  105.3   0.477   14.8  0.3329   52.7  0.2628 -124.5
 3.700  0.7499  103.4   0.469   14.9  0.3418   51.3  0.2607 -127.9
 3.800  0.7499  101.6   0.461   15.0  0.3509   50.0  0.2596 -131.4
 3.900  0.7506   99.7   0.453   15.1  0.3601   48.8  0.2594 -134.9
 4.000  0.7521   97.9   0.445   15.2  0.3695   47.6  0.2602 -138.4
 4.100  0.7495   96.3   0.443   15.3  0.3771   46.2  0.2574 -142.2
 4.200  0.7474   94.6   0.440   15.4  0.3850   44.8  0.2558 -146.1
 4.300  0.7460   93.0   0.438   15.5  0.3931   43.5  0.2554 -150.0
 4.400  0.7452   91.3   0.435   15.6  0.4013   42.2  0.2561 -153.9
 4.500  0.7450   89.7   0.433   15.7  0.4098   41.0  0.2581 -157.8
 4.600  0.7429   88.4   0.433   15.9  0.4162   39.7  0.2589 -161.5
 4.700  0.7412   87.1   0.433   16.0  0.4228   38.5  0.2607 -165.1
 4.800  0.7399   85.8   0.434   16.2  0.4295   37.3  0.2636 -168.7
 4.900  0.7390   84.5   0.434   16.3  0.4365   36.1  0.2675 -172.2
 5.000  0.7384   83.2   0.434   16.5  0.4436   35.0  0.2723 -175.6
 5.100  0.7363   82.0   0.438   16.3  0.4493   33.8  0.2767 -178.3
 5.200  0.7344   80.7   0.442   16.1  0.4553   32.6  0.2816  179.1
 5.300  0.7330   79.5   0.445   16.0  0.4614   31.5  0.2872  176.5
 5.400  0.7319   78.2   0.449   15.8  0.4676   30.4  0.2932  174.1
 5.500  0.7311   77.0   0.453   15.6  0.4741   29.3  0.2998  171.8
 5.600  0.7272   75.9   0.457   15.3  0.4790   28.1  0.3030  170.0
 5.700  0.7236   74.9   0.461   15.0  0.4842   27.0  0.3064  168.2
 5.800  0.7202   73.8   0.465   14.7  0.4895   25.9  0.3102  166.4
 5.900  0.7171   72.7   0.469   14.5  0.4950   24.8  0.3143  164.7
 6.000  0.7142   71.6   0.473   14.2  0.5007   23.7  0.3186  163.0
!
!  f       NFmin   Gammaopt  rn/50
! GHz       dB    MAG  ANG    -
!
! noise parameter not available yet for this operation point!
!
! (c) 2017  Infineon Technologies AG, Munich