! Infineon Technologies  Discrete & RF Semiconductors
! BFR181W
! VCE =  5.0 V,  IC =  12 mA
! Common Emitter S-Parameters:                            Jan 2017
# GHz  S  MA  R  50
!  f         S11            S21            S12            S22
! GHz     MAG   ANG      MAG   ANG      MAG   ANG      MAG   ANG
 0.010  0.7005   -2.8  27.589  177.4  0.0012   88.2  0.9900   -1.6
 0.020  0.6824   -8.7  27.098  173.8  0.0030   89.0  0.9928   -3.2
 0.030  0.6733  -11.8  26.817  171.1  0.0046   82.7  0.9837   -4.9
 0.040  0.6662  -15.0  26.594  168.4  0.0063   79.7  0.9755   -6.6
 0.050  0.6613  -18.3  26.432  165.7  0.0079   78.0  0.9682   -8.4
 0.060  0.6504  -21.6  25.928  163.3  0.0093   77.2  0.9551   -9.8
 0.070  0.6418  -25.1  25.474  160.7  0.0107   76.6  0.9425  -11.2
 0.080  0.6355  -28.6  25.071  158.1  0.0122   76.1  0.9306  -12.7
 0.090  0.6317  -32.2  24.723  155.4  0.0136   75.8  0.9193  -14.2
 0.100  0.6304  -35.8  24.431  152.6  0.0150   75.5  0.9087  -15.8
 0.110  0.6145  -38.7  23.881  150.6  0.0161   73.9  0.8937  -16.8
 0.120  0.6001  -41.7  23.360  148.6  0.0173   72.6  0.8789  -17.9
 0.130  0.5875  -44.8  22.871  146.4  0.0185   71.4  0.8644  -18.9
 0.140  0.5768  -48.1  22.416  144.1  0.0196   70.3  0.8503  -20.0
 0.150  0.5680  -51.5  21.997  141.8  0.0208   69.4  0.8365  -21.2
 0.200  0.5143  -64.2  19.490  132.6  0.0246   67.2  0.7668  -24.7
 0.250  0.4649  -75.7  17.348  125.4  0.0288   64.1  0.7070  -27.0
 0.300  0.4230  -85.8  15.428  119.6  0.0317   61.9  0.6559  -28.3
 0.350  0.3901  -93.1  13.952  115.7  0.0346   62.2  0.6201  -28.7
 0.400  0.3646 -101.6  12.557  110.8  0.0375   62.4  0.5844  -29.2
 0.450  0.3421 -108.0  11.494  107.9  0.0403   62.9  0.5608  -29.2
 0.500  0.3245 -115.2  10.467  104.4  0.0432   63.4  0.5371  -29.2
 0.600  0.2991 -126.3   8.965   99.2  0.0494   63.5  0.5046  -28.9
 0.700  0.2836 -136.0   7.802   94.9  0.0546   65.3  0.4819  -28.6
 0.800  0.2720 -144.8   6.926   91.1  0.0602   66.5  0.4658  -28.6
 0.900  0.2623 -152.3   6.201   87.8  0.0659   66.7  0.4532  -28.7
 1.000  0.2605 -159.1   5.640   84.9  0.0718   67.3  0.4423  -29.0
 1.100  0.2603 -165.5   5.159   82.2  0.0782   68.0  0.4353  -29.2
 1.200  0.2585 -171.4   4.754   79.5  0.0840   68.1  0.4283  -29.8
 1.300  0.2575 -176.6   4.406   77.0  0.0897   68.5  0.4225  -30.6
 1.400  0.2596  179.2   4.121   74.6  0.0967   68.8  0.4165  -31.4
 1.500  0.2636  175.3   3.865   72.4  0.1031   68.8  0.4125  -32.3
 1.600  0.2649  170.5   3.641   70.2  0.1095   68.9  0.4097  -33.4
 1.700  0.2680  167.1   3.441   68.2  0.1161   68.8  0.4050  -34.8
 1.800  0.2723  163.5   3.276   66.0  0.1222   68.5  0.4012  -36.0
 1.900  0.2766  160.6   3.119   64.2  0.1291   68.5  0.3983  -37.4
 2.000  0.2805  157.6   2.974   62.0  0.1358   68.2  0.3958  -38.9
 2.100  0.2842  154.5   2.851   60.1  0.1424   67.9  0.3931  -40.5
 2.200  0.2887  151.4   2.732   58.1  0.1491   67.6  0.3908  -42.2
 2.300  0.2949  149.0   2.631   56.3  0.1562   67.3  0.3892  -43.9
 2.400  0.3016  146.7   2.533   54.3  0.1634   67.0  0.3879  -45.7
 2.500  0.3050  144.5   2.444   52.6  0.1704   66.5  0.3867  -47.5
 2.600  0.3088  142.3   2.357   50.8  0.1774   66.1  0.3859  -49.4
 2.700  0.3146  139.9   2.283   49.1  0.1844   65.6  0.3856  -51.1
 2.800  0.3209  137.5   2.211   47.3  0.1914   65.1  0.3856  -52.8
 2.900  0.3255  135.4   2.148   45.6  0.1987   64.6  0.3845  -54.6
 3.000  0.3306  133.3   2.088   43.8  0.2061   64.1  0.3838  -56.5
 3.100  0.3349  131.3   2.034   42.4  0.2136   63.5  0.3831  -58.2
 3.200  0.3395  129.3   1.982   40.9  0.2210   62.9  0.3827  -59.9
 3.300  0.3446  127.4   1.931   39.3  0.2285   62.4  0.3827  -61.6
 3.400  0.3500  125.5   1.882   37.6  0.2361   61.9  0.3830  -63.3
 3.500  0.3558  123.7   1.834   35.9  0.2436   61.4  0.3837  -65.0
 3.600  0.3605  122.0   1.795   34.5  0.2514   60.5  0.3812  -66.8
 3.700  0.3654  120.4   1.757   33.1  0.2592   59.7  0.3791  -68.6
 3.800  0.3707  118.8   1.720   31.5  0.2670   59.0  0.3774  -70.5
 3.900  0.3762  117.3   1.684   30.0  0.2750   58.3  0.3760  -72.3
 4.000  0.3820  115.8   1.650   28.3  0.2829   57.6  0.3751  -74.2
 4.100  0.3875  114.3   1.619   26.9  0.2909   56.7  0.3706  -76.3
 4.200  0.3933  112.8   1.590   25.5  0.2990   55.8  0.3666  -78.5
 4.300  0.3994  111.3   1.561   24.0  0.3071   54.9  0.3632  -80.7
 4.400  0.4057  110.0   1.533   22.5  0.3153   54.2  0.3602  -82.9
 4.500  0.4122  108.6   1.507   20.9  0.3236   53.4  0.3579  -85.2
 4.600  0.4188  107.3   1.480   19.7  0.3315   52.5  0.3538  -87.9
 4.700  0.4255  106.0   1.453   18.4  0.3395   51.6  0.3505  -90.6
 4.800  0.4325  104.7   1.428   17.0  0.3475   50.8  0.3480  -93.3
 4.900  0.4397  103.5   1.403   15.6  0.3556   50.0  0.3463  -96.1
 5.000  0.4471  102.3   1.379   14.2  0.3638   49.2  0.3454  -98.9
 5.100  0.4521  101.1   1.359   13.0  0.3719   48.2  0.3450 -101.9
 5.200  0.4573   99.9   1.339   11.8  0.3801   47.3  0.3455 -104.8
 5.300  0.4627   98.7   1.319   10.5  0.3884   46.4  0.3469 -107.8
 5.400  0.4682   97.5   1.301    9.2  0.3968   45.5  0.3493 -110.7
 5.500  0.4740   96.4   1.283    7.9  0.4053   44.7  0.3525 -113.6
 5.600  0.4778   95.2   1.264    6.8  0.4133   43.6  0.3539 -116.3
 5.700  0.4818   94.1   1.246    5.7  0.4215   42.5  0.3561 -119.0
 5.800  0.4859   93.0   1.228    4.6  0.4298   41.5  0.3590 -121.6
 5.900  0.4903   91.9   1.210    3.4  0.4382   40.5  0.3627 -124.2
 6.000  0.4948   90.8   1.193    2.2  0.4468   39.6  0.3671 -126.7
!
!  f       NFmin   Gammaopt  rn/50
! GHz       dB    MAG  ANG    -
 0.450      1.34  0.10   16   0.21
 0.900      1.38  0.10   32   0.21
 1.900      1.82  0.07 -151   0.21
 2.400      2.01  0.08 -113   0.26
!
! (c) 2017  Infineon Technologies AG, Munich