! Infineon Technologies  Discrete & RF Semiconductors
! BFR181W
! VCE =  2.0 V,  IC =  16 mA
! Common Emitter S-Parameters:                            Jan 2017
# GHz  S  MA  R  50
!  f         S11            S21            S12            S22
! GHz     MAG   ANG      MAG   ANG      MAG   ANG      MAG   ANG
 0.010  0.5887   -7.5  29.237  176.0  0.0017   80.8  0.9463   -2.2
 0.020  0.5778  -17.6  28.741  170.5  0.0033   90.1  0.9395   -4.5
 0.030  0.5618  -24.6  27.974  166.3  0.0051   81.3  0.9240   -6.7
 0.040  0.5547  -31.9  27.365  161.9  0.0070   77.2  0.9099   -9.0
 0.050  0.5567  -39.3  26.926  157.3  0.0089   74.8  0.8974  -11.4
 0.060  0.5366  -45.3  25.853  154.2  0.0103   71.3  0.8756  -12.7
 0.070  0.5227  -51.6  24.862  150.8  0.0117   68.7  0.8542  -14.1
 0.080  0.5155  -58.3  23.965  147.2  0.0132   66.7  0.8334  -15.5
 0.090  0.5154  -65.0  23.172  143.3  0.0146   65.0  0.8131  -17.0
 0.100  0.5223  -71.6  22.494  139.1  0.0161   63.7  0.7934  -18.6
 0.110  0.5087  -76.1  21.598  137.0  0.0170   62.8  0.7753  -19.2
 0.120  0.4984  -80.9  20.734  134.7  0.0179   62.0  0.7573  -19.8
 0.130  0.4917  -85.8  19.905  132.3  0.0189   61.3  0.7394  -20.4
 0.140  0.4887  -90.9  19.117  129.6  0.0198   60.7  0.7215  -21.1
 0.150  0.4895  -95.9  18.373  126.7  0.0207   60.1  0.7038  -21.8
 0.200  0.4699 -112.7  15.139  117.6  0.0230   57.4  0.6403  -22.5
 0.250  0.4587 -125.8  12.781  111.1  0.0261   55.7  0.5986  -22.5
 0.300  0.4512 -135.5  10.991  106.1  0.0284   57.4  0.5674  -22.0
 0.350  0.4443 -142.4   9.755  102.9  0.0308   58.7  0.5497  -21.6
 0.400  0.4441 -149.5   8.559   98.8  0.0333   59.8  0.5320  -21.2
 0.450  0.4402 -154.3   7.749   96.5  0.0357   61.6  0.5222  -21.1
 0.500  0.4394 -159.2   6.955   93.6  0.0381   63.1  0.5125  -20.9
 0.600  0.4397 -166.7   5.865   89.2  0.0436   64.6  0.4998  -20.9
 0.700  0.4413 -172.3   5.063   85.4  0.0487   67.2  0.4910  -21.2
 0.800  0.4447 -177.9   4.466   81.9  0.0543   69.1  0.4854  -22.0
 0.900  0.4449  177.7   3.981   78.8  0.0600   70.0  0.4797  -22.9
 1.000  0.4488  173.8   3.613   76.0  0.0661   71.2  0.4755  -23.9
 1.100  0.4518  170.1   3.299   73.3  0.0720   72.0  0.4723  -25.1
 1.200  0.4539  166.5   3.037   70.6  0.0785   72.5  0.4690  -26.4
 1.300  0.4571  163.3   2.812   68.0  0.0847   73.2  0.4659  -27.9
 1.400  0.4608  160.5   2.628   65.6  0.0915   73.7  0.4626  -29.4
 1.500  0.4671  158.0   2.461   63.3  0.0982   74.0  0.4593  -31.0
 1.600  0.4715  155.0   2.320   60.9  0.1054   74.1  0.4581  -32.8
 1.700  0.4752  152.3   2.194   58.7  0.1124   74.4  0.4543  -34.6
 1.800  0.4785  149.8   2.086   56.4  0.1196   74.1  0.4518  -36.4
 1.900  0.4841  147.7   1.987   54.5  0.1269   74.1  0.4501  -38.4
 2.000  0.4890  145.3   1.893   52.2  0.1342   74.0  0.4481  -40.5
 2.100  0.4924  142.8   1.813   50.2  0.1419   73.7  0.4457  -42.6
 2.200  0.4967  140.3   1.736   48.0  0.1496   73.4  0.4440  -44.8
 2.300  0.5024  138.3   1.672   46.1  0.1577   73.0  0.4428  -47.0
 2.400  0.5087  136.3   1.610   44.0  0.1658   72.7  0.4423  -49.2
 2.500  0.5116  134.3   1.552   42.2  0.1739   72.1  0.4414  -51.5
 2.600  0.5152  132.3   1.495   40.3  0.1821   71.6  0.4413  -53.8
 2.700  0.5208  130.3   1.447   38.6  0.1903   71.1  0.4413  -56.0
 2.800  0.5270  128.3   1.400   36.7  0.1985   70.6  0.4419  -58.2
 2.900  0.5296  126.4   1.358   35.0  0.2073   69.9  0.4412  -60.4
 3.000  0.5328  124.5   1.318   33.1  0.2162   69.3  0.4412  -62.7
 3.100  0.5361  122.6   1.283   31.7  0.2253   68.4  0.4398  -64.9
 3.200  0.5400  120.6   1.248   30.2  0.2344   67.6  0.4390  -67.1
 3.300  0.5445  118.8   1.214   28.7  0.2436   66.9  0.4389  -69.2
 3.400  0.5496  116.9   1.182   27.0  0.2528   66.2  0.4394  -71.4
 3.500  0.5552  115.1   1.150   25.3  0.2620   65.6  0.4406  -73.6
 3.600  0.5583  113.4   1.124   24.0  0.2714   64.5  0.4371  -75.9
 3.700  0.5619  111.6   1.099   22.7  0.2808   63.5  0.4344  -78.2
 3.800  0.5661  109.9   1.074   21.4  0.2904   62.6  0.4323  -80.5
 3.900  0.5707  108.2   1.049   19.9  0.3000   61.7  0.4310  -82.8
 4.000  0.5758  106.6   1.026   18.4  0.3097   60.9  0.4304  -85.2
 4.100  0.5787  105.0   1.006   17.3  0.3192   59.7  0.4251  -87.8
 4.200  0.5820  103.4   0.986   16.1  0.3288   58.5  0.4207  -90.5
 4.300  0.5858  101.8   0.966   14.9  0.3386   57.4  0.4173  -93.2
 4.400  0.5900  100.2   0.947   13.6  0.3485   56.4  0.4147  -95.9
 4.500  0.5946   98.7   0.929   12.3  0.3585   55.4  0.4132  -98.7
 4.600  0.5982   97.3   0.912   11.4  0.3677   54.2  0.4087 -101.8
 4.700  0.6022   96.0   0.895   10.5  0.3770   53.0  0.4055 -104.9
 4.800  0.6065   94.7   0.878    9.5  0.3865   51.9  0.4034 -108.0
 4.900  0.6111   93.4   0.861    8.5  0.3961   50.9  0.4026 -111.2
 5.000  0.6160   92.1   0.845    7.4  0.4058   49.9  0.4030 -114.4
 5.100  0.6183   90.8   0.833    6.6  0.4147   48.6  0.4026 -117.6
 5.200  0.6209   89.5   0.821    5.8  0.4238   47.4  0.4034 -120.8
 5.300  0.6239   88.2   0.810    5.0  0.4330   46.2  0.4055 -124.0
 5.400  0.6271   86.9   0.798    4.2  0.4425   45.1  0.4088 -127.1
 5.500  0.6307   85.6   0.787    3.3  0.4521   44.0  0.4133 -130.2
 5.600  0.6304   84.4   0.776    2.7  0.4602   42.7  0.4145 -133.0
 5.700  0.6304   83.2   0.765    2.1  0.4685   41.4  0.4167 -135.8
 5.800  0.6306   82.0   0.754    1.5  0.4771   40.1  0.4199 -138.5
 5.900  0.6312   80.8   0.744    0.9  0.4858   39.0  0.4240 -141.2
 6.000  0.6320   79.6   0.733    0.2  0.4948   37.8  0.4290 -143.8
!
!  f       NFmin   Gammaopt  rn/50
! GHz       dB    MAG  ANG    -
!
! noise parameter not available yet for this operation point!
!
! (c) 2017  Infineon Technologies AG, Munich