! Infineon Technologies  Discrete & RF Semiconductors
! BFR181W
! VCE =  8.0 V,  IC =  14 mA
! Common Emitter S-Parameters:                            Jan 2017
# GHz  S  MA  R  50
!  f         S11            S21            S12            S22
! GHz     MAG   ANG      MAG   ANG      MAG   ANG      MAG   ANG
 0.010  0.6837   -2.7  30.117  176.6  0.0011   97.9  0.9896   -1.6
 0.020  0.6728   -9.0  29.709  173.1  0.0030   89.5  0.9851   -3.3
 0.030  0.6623  -12.2  29.284  170.4  0.0044   85.7  0.9775   -5.1
 0.040  0.6539  -15.5  28.925  167.7  0.0057   83.6  0.9708   -6.9
 0.050  0.6477  -18.9  28.633  164.9  0.0071   82.4  0.9652   -8.8
 0.060  0.6356  -22.3  28.052  162.4  0.0085   80.6  0.9511  -10.2
 0.070  0.6258  -25.8  27.527  159.8  0.0098   79.2  0.9376  -11.6
 0.080  0.6185  -29.4  27.060  157.1  0.0112   78.2  0.9247  -13.1
 0.090  0.6136  -33.1  26.655  154.4  0.0126   77.4  0.9125  -14.6
 0.100  0.6113  -36.8  26.314  151.5  0.0140   76.8  0.9009  -16.2
 0.110  0.5950  -39.7  25.681  149.5  0.0151   74.8  0.8854  -17.2
 0.120  0.5804  -42.8  25.081  147.4  0.0162   73.1  0.8702  -18.2
 0.130  0.5675  -46.0  24.516  145.2  0.0173   71.6  0.8553  -19.3
 0.140  0.5565  -49.3  23.989  142.9  0.0184   70.3  0.8408  -20.4
 0.150  0.5474  -52.8  23.502  140.5  0.0195   69.1  0.8265  -21.6
 0.200  0.4911  -65.3  20.692  131.3  0.0233   66.5  0.7540  -25.0
 0.250  0.4429  -76.9  18.313  124.1  0.0273   65.0  0.6946  -27.1
 0.300  0.4001  -87.1  16.220  118.4  0.0302   63.6  0.6438  -28.2
 0.350  0.3678  -94.3  14.638  114.6  0.0333   64.1  0.6090  -28.5
 0.400  0.3424 -102.8  13.137  109.8  0.0364   64.5  0.5742  -28.8
 0.450  0.3212 -109.0  12.008  107.0  0.0393   64.3  0.5517  -28.8
 0.500  0.3043 -115.9  10.913  103.6  0.0422   64.2  0.5292  -28.7
 0.600  0.2802 -127.0   9.328   98.5  0.0478   65.7  0.4989  -28.2
 0.700  0.2642 -137.2   8.115   94.4  0.0534   66.9  0.4777  -27.9
 0.800  0.2549 -145.7   7.192   90.7  0.0601   68.0  0.4624  -27.9
 0.900  0.2463 -153.1   6.439   87.5  0.0655   68.4  0.4506  -28.0
 1.000  0.2438 -159.8   5.852   84.6  0.0718   69.0  0.4404  -28.2
 1.100  0.2436 -165.9   5.351   82.0  0.0778   69.5  0.4343  -28.6
 1.200  0.2432 -172.2   4.933   79.4  0.0838   69.5  0.4276  -29.1
 1.300  0.2401 -177.3   4.571   76.9  0.0904   69.6  0.4219  -29.9
 1.400  0.2436  178.5   4.273   74.7  0.0968   69.9  0.4169  -30.7
 1.500  0.2478  174.4   4.005   72.5  0.1031   69.7  0.4123  -31.7
 1.600  0.2500  169.9   3.771   70.3  0.1095   69.7  0.4097  -32.8
 1.700  0.2508  166.5   3.566   68.3  0.1163   69.5  0.4051  -34.1
 1.800  0.2554  163.1   3.394   66.2  0.1231   69.2  0.4019  -35.4
 1.900  0.2606  160.4   3.233   64.4  0.1290   69.1  0.3990  -36.8
 2.000  0.2656  156.9   3.083   62.3  0.1358   68.7  0.3964  -38.3
 2.100  0.2684  154.1   2.955   60.5  0.1427   68.3  0.3940  -39.9
 2.200  0.2719  151.3   2.831   58.5  0.1496   67.9  0.3920  -41.5
 2.300  0.2783  148.6   2.727   56.7  0.1567   67.4  0.3900  -43.2
 2.400  0.2852  146.0   2.625   54.8  0.1639   67.0  0.3884  -45.0
 2.500  0.2890  144.0   2.532   53.1  0.1707   66.6  0.3876  -46.8
 2.600  0.2931  142.0   2.442   51.2  0.1776   66.2  0.3872  -48.7
 2.700  0.2987  139.6   2.365   49.6  0.1848   65.6  0.3863  -50.4
 2.800  0.3048  137.3   2.291   47.8  0.1920   65.1  0.3858  -52.1
 2.900  0.3091  135.3   2.226   46.1  0.1992   64.5  0.3852  -54.0
 3.000  0.3138  133.3   2.162   44.4  0.2065   64.0  0.3851  -55.9
 3.100  0.3179  131.2   2.106   43.0  0.2139   63.3  0.3840  -57.6
 3.200  0.3224  129.2   2.051   41.5  0.2213   62.6  0.3833  -59.3
 3.300  0.3273  127.2   1.998   39.9  0.2287   62.0  0.3829  -61.1
 3.400  0.3326  125.3   1.946   38.2  0.2362   61.4  0.3828  -62.8
 3.500  0.3383  123.4   1.896   36.4  0.2437   60.9  0.3831  -64.5
 3.600  0.3428  121.8   1.856   35.0  0.2513   60.1  0.3805  -66.2
 3.700  0.3476  120.3   1.817   33.6  0.2589   59.4  0.3782  -68.0
 3.800  0.3525  118.8   1.779   32.1  0.2666   58.7  0.3762  -69.8
 3.900  0.3578  117.4   1.742   30.6  0.2743   58.0  0.3747  -71.6
 4.000  0.3632  116.0   1.707   29.0  0.2821   57.4  0.3735  -73.4
 4.100  0.3692  114.5   1.676   27.6  0.2902   56.4  0.3693  -75.5
 4.200  0.3756  113.0   1.645   26.2  0.2985   55.5  0.3657  -77.6
 4.300  0.3821  111.5   1.616   24.7  0.3067   54.7  0.3625  -79.7
 4.400  0.3889  110.1   1.588   23.2  0.3151   53.9  0.3598  -81.9
 4.500  0.3959  108.8   1.561   21.6  0.3235   53.1  0.3577  -84.1
 4.600  0.4027  107.5   1.533   20.3  0.3313   52.2  0.3535  -86.7
 4.700  0.4097  106.3   1.506   19.0  0.3392   51.3  0.3501  -89.5
 4.800  0.4168  105.1   1.480   17.7  0.3472   50.5  0.3475  -92.2
 4.900  0.4242  103.9   1.455   16.3  0.3552   49.7  0.3458  -95.0
 5.000  0.4317  102.8   1.431   14.8  0.3633   48.9  0.3448  -97.8
 5.100  0.4368  101.5   1.410   13.6  0.3713   47.9  0.3441 -100.8
 5.200  0.4421  100.3   1.390   12.3  0.3795   46.9  0.3444 -103.8
 5.300  0.4476   99.0   1.370   11.1  0.3877   46.0  0.3456 -106.7
 5.400  0.4533   97.9   1.351    9.8  0.3961   45.1  0.3477 -109.7
 5.500  0.4592   96.7   1.333    8.4  0.4045   44.3  0.3507 -112.6
 5.600  0.4624   95.5   1.314    7.3  0.4122   43.2  0.3523 -115.3
 5.700  0.4657   94.4   1.295    6.2  0.4201   42.1  0.3546 -117.9
 5.800  0.4693   93.2   1.276    5.0  0.4281   41.1  0.3577 -120.5
 5.900  0.4730   92.1   1.258    3.8  0.4362   40.1  0.3616 -123.1
 6.000  0.4769   91.0   1.241    2.6  0.4445   39.1  0.3661 -125.6
!
!  f       NFmin   Gammaopt  rn/50
! GHz       dB    MAG  ANG    -
 0.450      1.43  0.06   16   0.21
 0.900      1.48  0.06   32   0.21
 1.900      1.92  0.11 -141   0.21
 2.400      2.13  0.14 -109   0.27
!
! (c) 2017  Infineon Technologies AG, Munich