! Infineon Technologies  Discrete & RF Semiconductors
! BFR181W
! VCE =  3.0 V,  IC =  16 mA
! Common Emitter S-Parameters:                            Jan 2017
# GHz  S  MA  R  50
!  f         S11            S21            S12            S22
! GHz     MAG   ANG      MAG   ANG      MAG   ANG      MAG   ANG
 0.010  0.6111   -5.3  30.778  176.6  0.0014   82.1  0.9717   -1.9
 0.020  0.6002  -13.4  30.523  171.9  0.0036   96.5  0.9636   -3.9
 0.030  0.5856  -18.6  29.856  168.3  0.0051   86.1  0.9527   -6.0
 0.040  0.5762  -24.1  29.310  164.6  0.0067   80.6  0.9431   -8.1
 0.050  0.5721  -29.7  28.891  160.8  0.0084   77.2  0.9347  -10.2
 0.060  0.5548  -34.6  27.987  157.9  0.0098   74.9  0.9157  -11.6
 0.070  0.5418  -39.7  27.160  154.8  0.0111   73.1  0.8973  -13.1
 0.080  0.5332  -45.0  26.417  151.5  0.0125   71.7  0.8795  -14.6
 0.090  0.5295  -50.5  25.766  148.0  0.0139   70.6  0.8624  -16.2
 0.100  0.5306  -56.0  25.214  144.4  0.0153   69.7  0.8459  -17.8
 0.110  0.5149  -59.9  24.369  142.3  0.0161   68.5  0.8278  -18.6
 0.120  0.5018  -64.1  23.560  140.0  0.0170   67.4  0.8099  -19.4
 0.130  0.4914  -68.5  22.790  137.6  0.0179   66.4  0.7921  -20.2
 0.140  0.4840  -73.0  22.063  135.0  0.0187   65.5  0.7745  -21.1
 0.150  0.4797  -77.6  21.384  132.3  0.0196   64.7  0.7571  -22.0
 0.200  0.4399  -93.8  18.076  123.0  0.0218   62.4  0.6875  -23.8
 0.250  0.4150 -107.6  15.527  116.1  0.0260   60.2  0.6358  -24.5
 0.300  0.3947 -118.4  13.476  110.8  0.0281   61.3  0.5966  -24.4
 0.350  0.3797 -126.2  12.032  107.4  0.0308   62.2  0.5723  -24.1
 0.400  0.3722 -134.5  10.644  103.0  0.0336   62.9  0.5480  -23.8
 0.450  0.3638 -140.3   9.664  100.5  0.0362   64.0  0.5339  -23.6
 0.500  0.3593 -146.4   8.707   97.4  0.0388   64.9  0.5199  -23.4
 0.600  0.3564 -155.5   7.371   92.9  0.0443   65.6  0.5023  -23.0
 0.700  0.3544 -162.8   6.383   89.0  0.0493   67.8  0.4900  -23.0
 0.800  0.3528 -169.3   5.635   85.5  0.0553   70.1  0.4812  -23.4
 0.900  0.3531 -174.8   5.031   82.5  0.0615   69.7  0.4743  -23.9
 1.000  0.3569 -179.5   4.564   79.7  0.0670   70.9  0.4678  -24.6
 1.100  0.3598  176.2   4.170   77.1  0.0733   71.6  0.4642  -25.5
 1.200  0.3602  172.2   3.838   74.4  0.0793   72.0  0.4600  -26.5
 1.300  0.3638  168.4   3.556   71.9  0.0850   72.2  0.4565  -27.7
 1.400  0.3675  165.3   3.324   69.6  0.0921   72.7  0.4522  -29.0
 1.500  0.3725  162.4   3.114   67.4  0.0987   72.9  0.4496  -30.3
 1.600  0.3776  159.0   2.934   65.1  0.1053   72.8  0.4476  -31.8
 1.700  0.3807  156.4   2.775   62.9  0.1117   73.1  0.4438  -33.4
 1.800  0.3843  153.7   2.639   60.8  0.1187   72.8  0.4410  -35.0
 1.900  0.3902  151.4   2.511   58.8  0.1260   72.8  0.4388  -36.7
 2.000  0.3948  148.7   2.394   56.7  0.1332   72.6  0.4373  -38.6
 2.100  0.3984  146.2   2.294   54.7  0.1402   72.3  0.4351  -40.5
 2.200  0.4027  143.8   2.197   52.6  0.1473   72.0  0.4333  -42.4
 2.300  0.4090  141.7   2.116   50.8  0.1548   71.6  0.4319  -44.4
 2.400  0.4159  139.7   2.037   48.8  0.1624   71.3  0.4311  -46.5
 2.500  0.4191  137.7   1.965   47.0  0.1699   70.8  0.4302  -48.5
 2.600  0.4229  135.7   1.895   45.1  0.1775   70.3  0.4299  -50.6
 2.700  0.4286  133.6   1.834   43.4  0.1853   69.8  0.4299  -52.6
 2.800  0.4349  131.5   1.775   41.6  0.1932   69.3  0.4304  -54.6
 2.900  0.4391  129.7   1.723   39.9  0.2014   68.6  0.4296  -56.6
 3.000  0.4438  127.9   1.672   38.0  0.2096   68.0  0.4293  -58.7
 3.100  0.4477  125.9   1.628   36.6  0.2180   67.3  0.4284  -60.7
 3.200  0.4522  124.0   1.586   35.1  0.2264   66.6  0.4280  -62.7
 3.300  0.4572  122.1   1.544   33.5  0.2348   66.0  0.4282  -64.6
 3.400  0.4626  120.3   1.504   31.8  0.2432   65.4  0.4288  -66.6
 3.500  0.4685  118.5   1.465   30.0  0.2517   64.9  0.4300  -68.6
 3.600  0.4723  116.8   1.433   28.7  0.2604   63.9  0.4271  -70.7
 3.700  0.4766  115.2   1.402   27.3  0.2692   63.1  0.4247  -72.7
 3.800  0.4812  113.6   1.371   25.8  0.2781   62.2  0.4229  -74.8
 3.900  0.4862  112.0   1.342   24.3  0.2870   61.4  0.4217  -77.0
 4.000  0.4915  110.5   1.313   22.7  0.2960   60.7  0.4210  -79.1
 4.100  0.4958  108.9   1.288   21.4  0.3050   59.6  0.4162  -81.5
 4.200  0.5004  107.3   1.263   20.0  0.3142   58.6  0.4121  -83.9
 4.300  0.5055  105.8   1.239   18.6  0.3234   57.6  0.4088  -86.4
 4.400  0.5109  104.3   1.215   17.1  0.3327   56.7  0.4063  -88.9
 4.500  0.5166  102.8   1.193   15.6  0.3421   55.8  0.4045  -91.4
 4.600  0.5218  101.5   1.171   14.5  0.3509   54.7  0.4001  -94.3
 4.700  0.5273  100.2   1.149   13.3  0.3597   53.7  0.3968  -97.2
 4.800  0.5331   99.0   1.128   12.1  0.3687   52.7  0.3944 -100.1
 4.900  0.5391   97.8   1.107   10.8  0.3778   51.7  0.3932 -103.1
 5.000  0.5453   96.6   1.087    9.5  0.3870   50.8  0.3930 -106.1
 5.100  0.5493   95.3   1.070    8.5  0.3958   49.6  0.3924 -109.2
 5.200  0.5535   94.0   1.053    7.4  0.4048   48.5  0.3930 -112.2
 5.300  0.5580   92.8   1.037    6.4  0.4139   47.5  0.3947 -115.3
 5.400  0.5628   91.5   1.021    5.2  0.4232   46.5  0.3975 -118.3
 5.500  0.5678   90.3   1.006    4.1  0.4326   45.5  0.4014 -121.3
 5.600  0.5694   89.1   0.991    3.2  0.4410   44.3  0.4026 -124.1
 5.700  0.5712   87.9   0.976    2.3  0.4496   43.1  0.4048 -126.8
 5.800  0.5733   86.7   0.961    1.4  0.4584   41.9  0.4079 -129.5
 5.900  0.5756   85.5   0.947    0.4  0.4674   40.9  0.4119 -132.2
 6.000  0.5782   84.3   0.933   -0.6  0.4765   39.8  0.4168 -134.8
!
!  f       NFmin   Gammaopt  rn/50
! GHz       dB    MAG  ANG    -
!
! noise parameter not available yet for this operation point!
!
! (c) 2017  Infineon Technologies AG, Munich