! Infineon Technologies  Discrete & RF Semiconductors
! BFR181W
! VCE =  5.0 V,  IC =  20 mA
! Common Emitter S-Parameters:                            Jan 2017
# GHz  S  MA  R  50
!  f         S11            S21            S12            S22
! GHz     MAG   ANG      MAG   ANG      MAG   ANG      MAG   ANG
 0.010  0.5779   -5.1  33.917  176.2  0.0013   87.2  0.9731   -1.8
 0.020  0.5651  -13.4  33.403  171.6  0.0033   89.9  0.9752   -3.9
 0.030  0.5515  -18.7  32.715  168.0  0.0046   82.1  0.9608   -6.0
 0.040  0.5427  -24.2  32.161  164.3  0.0059   77.7  0.9477   -8.1
 0.050  0.5391  -29.8  31.749  160.4  0.0073   75.0  0.9360  -10.3
 0.060  0.5224  -34.6  30.725  157.5  0.0086   73.5  0.9163  -11.7
 0.070  0.5097  -39.7  29.788  154.3  0.0099   72.4  0.8972  -13.2
 0.080  0.5011  -45.0  28.945  151.0  0.0111   71.5  0.8787  -14.7
 0.090  0.4969  -50.4  28.206  147.5  0.0124   70.9  0.8608  -16.3
 0.100  0.4973  -55.9  27.578  143.8  0.0137   70.3  0.8436  -17.9
 0.110  0.4819  -59.8  26.638  141.7  0.0145   69.2  0.8256  -18.7
 0.120  0.4690  -64.0  25.737  139.5  0.0154   68.2  0.8079  -19.5
 0.130  0.4586  -68.3  24.877  137.1  0.0162   67.3  0.7902  -20.3
 0.140  0.4509  -72.8  24.063  134.5  0.0171   66.5  0.7728  -21.2
 0.150  0.4462  -77.5  23.301  131.8  0.0179   65.8  0.7555  -22.1
 0.200  0.4081  -93.4  19.629  122.6  0.0204   63.2  0.6848  -23.7
 0.250  0.3810 -107.2  16.843  115.8  0.0243   63.1  0.6337  -24.3
 0.300  0.3623 -118.0  14.592  110.7  0.0266   63.5  0.5949  -24.1
 0.350  0.3468 -125.7  13.024  107.3  0.0293   64.5  0.5712  -23.8
 0.400  0.3381 -134.0  11.512  103.1  0.0320   65.4  0.5475  -23.5
 0.450  0.3303 -139.9  10.447  100.6  0.0348   66.6  0.5337  -23.2
 0.500  0.3261 -146.1   9.406   97.6  0.0377   67.6  0.5200  -22.9
 0.600  0.3224 -155.1   7.964   93.2  0.0432   67.9  0.5026  -22.6
 0.700  0.3214 -162.4   6.891   89.5  0.0484   71.0  0.4899  -22.5
 0.800  0.3213 -169.2   6.090   86.1  0.0550   71.3  0.4816  -22.8
 0.900  0.3215 -174.6   5.438   83.1  0.0604   72.2  0.4751  -23.4
 1.000  0.3241 -179.4   4.933   80.4  0.0666   72.8  0.4687  -24.0
 1.100  0.3277  176.4   4.503   77.9  0.0729   73.1  0.4656  -24.9
 1.200  0.3295  172.0   4.146   75.3  0.0785   73.4  0.4609  -25.8
 1.300  0.3298  168.3   3.842   72.9  0.0848   73.5  0.4573  -26.9
 1.400  0.3353  165.2   3.589   70.7  0.0920   73.7  0.4535  -28.1
 1.500  0.3392  162.4   3.361   68.5  0.0985   74.1  0.4505  -29.4
 1.600  0.3435  159.2   3.167   66.3  0.1049   73.9  0.4486  -30.9
 1.700  0.3466  156.4   2.995   64.3  0.1115   73.9  0.4446  -32.4
 1.800  0.3518  153.7   2.848   62.1  0.1186   73.6  0.4422  -34.0
 1.900  0.3564  151.3   2.713   60.3  0.1250   73.5  0.4396  -35.6
 2.000  0.3603  148.9   2.584   58.2  0.1320   73.2  0.4380  -37.4
 2.100  0.3654  146.4   2.477   56.3  0.1393   72.8  0.4356  -39.2
 2.200  0.3711  143.9   2.373   54.3  0.1467   72.4  0.4336  -41.0
 2.300  0.3759  141.9   2.285   52.5  0.1542   72.0  0.4323  -43.0
 2.400  0.3811  139.9   2.199   50.5  0.1618   71.6  0.4316  -45.0
 2.500  0.3849  137.9   2.122   48.8  0.1690   71.1  0.4307  -46.9
 2.600  0.3891  135.9   2.046   47.0  0.1763   70.6  0.4303  -48.9
 2.700  0.3956  133.9   1.981   45.3  0.1839   70.0  0.4300  -50.8
 2.800  0.4025  131.9   1.918   43.5  0.1915   69.5  0.4302  -52.8
 2.900  0.4061  130.0   1.862   41.8  0.1995   68.9  0.4293  -54.8
 3.000  0.4102  128.1   1.808   40.0  0.2076   68.3  0.4290  -56.8
 3.100  0.4143  126.2   1.761   38.6  0.2158   67.6  0.4282  -58.7
 3.200  0.4188  124.4   1.715   37.1  0.2240   66.9  0.4278  -60.6
 3.300  0.4238  122.6   1.670   35.5  0.2323   66.2  0.4279  -62.4
 3.400  0.4291  120.8   1.627   33.8  0.2406   65.7  0.4285  -64.3
 3.500  0.4349  119.1   1.585   32.0  0.2489   65.1  0.4295  -66.2
 3.600  0.4390  117.5   1.551   30.7  0.2573   64.2  0.4268  -68.2
 3.700  0.4434  115.8   1.517   29.3  0.2659   63.3  0.4245  -70.2
 3.800  0.4481  114.3   1.485   27.8  0.2744   62.5  0.4228  -72.2
 3.900  0.4532  112.7   1.453   26.3  0.2830   61.7  0.4216  -74.3
 4.000  0.4586  111.2   1.423   24.7  0.2917   61.0  0.4210  -76.3
 4.100  0.4634  109.7   1.396   23.4  0.3005   59.9  0.4161  -78.6
 4.200  0.4685  108.2   1.369   22.0  0.3094   58.9  0.4119  -80.9
 4.300  0.4740  106.8   1.344   20.5  0.3183   58.0  0.4084  -83.3
 4.400  0.4797  105.4   1.319   19.0  0.3274   57.1  0.4056  -85.7
 4.500  0.4857  104.0   1.295   17.5  0.3365   56.2  0.4036  -88.2
 4.600  0.4912  102.7   1.271   16.3  0.3451   55.2  0.3992  -90.9
 4.700  0.4969  101.5   1.248   15.1  0.3538   54.2  0.3957  -93.7
 4.800  0.5028  100.3   1.225   13.9  0.3626   53.2  0.3931  -96.6
 4.900  0.5089   99.1   1.203   12.6  0.3715   52.4  0.3916  -99.4
 5.000  0.5153   97.9   1.182   11.2  0.3805   51.5  0.3910 -102.3
 5.100  0.5197   96.6   1.164   10.1  0.3892   50.4  0.3903 -105.3
 5.200  0.5244   95.4   1.147    9.0  0.3981   49.3  0.3907 -108.4
 5.300  0.5294   94.1   1.130    7.8  0.4070   48.2  0.3921 -111.4
 5.400  0.5346   92.9   1.113    6.6  0.4162   47.2  0.3947 -114.4
 5.500  0.5400   91.7   1.097    5.4  0.4254   46.3  0.3983 -117.3
 5.600  0.5421   90.5   1.080    4.5  0.4338   45.1  0.3993 -120.0
 5.700  0.5444   89.4   1.064    3.5  0.4425   43.9  0.4012 -122.7
 5.800  0.5469   88.2   1.048    2.5  0.4513   42.8  0.4039 -125.4
 5.900  0.5497   87.1   1.032    1.5  0.4603   41.7  0.4075 -128.0
 6.000  0.5526   86.0   1.017    0.4  0.4694   40.7  0.4120 -130.6
!
!  f       NFmin   Gammaopt  rn/50
! GHz       dB    MAG  ANG    -
!
! noise parameter not available yet for this operation point!
!
! (c) 2017  Infineon Technologies AG, Munich