! Infineon Technologies  Discrete & RF Semiconductors
! BFR181W
! VCE =  2.0 V,  IC =  10 mA
! Common Emitter S-Parameters:                            Jan 2017
# GHz  S  MA  R  50
!  f         S11            S21            S12            S22
! GHz     MAG   ANG      MAG   ANG      MAG   ANG      MAG   ANG
 0.010  0.7172   -3.4  24.716  177.9  0.0015   83.1  0.9865   -1.6
 0.020  0.7064   -9.6  24.618  173.9  0.0027   91.3  0.9876   -3.2
 0.030  0.6942  -13.0  24.272  171.2  0.0046   84.3  0.9785   -5.0
 0.040  0.6846  -16.6  23.983  168.4  0.0066   81.5  0.9703   -6.8
 0.050  0.6777  -20.2  23.752  165.5  0.0085   79.9  0.9631   -8.6
 0.060  0.6653  -23.8  23.273  163.0  0.0101   78.2  0.9499  -10.0
 0.070  0.6558  -27.6  22.841  160.3  0.0118   77.0  0.9373  -11.4
 0.080  0.6491  -31.4  22.459  157.6  0.0134   76.1  0.9253  -12.9
 0.090  0.6454  -35.4  22.130  154.8  0.0151   75.4  0.9139  -14.4
 0.100  0.6447  -39.3  21.856  151.9  0.0167   74.8  0.9032  -15.9
 0.110  0.6287  -42.4  21.347  149.9  0.0179   72.8  0.8877  -16.9
 0.120  0.6146  -45.7  20.866  147.8  0.0191   71.1  0.8726  -17.9
 0.130  0.6025  -49.1  20.415  145.6  0.0203   69.6  0.8577  -19.0
 0.140  0.5927  -52.6  19.995  143.3  0.0216   68.2  0.8431  -20.1
 0.150  0.5852  -56.2  19.608  140.9  0.0228   67.0  0.8288  -21.2
 0.200  0.5342  -70.1  17.329  131.6  0.0269   63.8  0.7599  -24.6
 0.250  0.4871  -82.7  15.375  124.3  0.0313   61.1  0.7007  -26.8
 0.300  0.4500  -93.4  13.657  118.5  0.0340   60.2  0.6507  -27.9
 0.350  0.4206 -101.4  12.339  114.5  0.0373   59.8  0.6163  -28.3
 0.400  0.4006 -110.4  11.095  109.6  0.0406   59.4  0.5820  -28.7
 0.450  0.3813 -116.8  10.140  106.7  0.0431   59.8  0.5594  -28.7
 0.500  0.3673 -123.8   9.217  103.1  0.0456   60.1  0.5369  -28.8
 0.600  0.3480 -134.9   7.883   97.8  0.0504   60.8  0.5064  -28.5
 0.700  0.3352 -144.3   6.860   93.5  0.0557   62.5  0.4855  -28.2
 0.800  0.3279 -152.5   6.086   89.5  0.0612   64.2  0.4698  -28.3
 0.900  0.3226 -159.4   5.447   86.2  0.0667   64.6  0.4583  -28.6
 1.000  0.3230 -165.4   4.954   83.1  0.0726   65.6  0.4483  -28.9
 1.100  0.3218 -171.0   4.532   80.3  0.0786   66.4  0.4418  -29.5
 1.200  0.3220 -176.5   4.175   77.5  0.0844   66.7  0.4355  -30.2
 1.300  0.3228  179.2   3.873   74.9  0.0904   67.1  0.4300  -31.1
 1.400  0.3243  175.1   3.622   72.4  0.0966   67.7  0.4245  -32.0
 1.500  0.3295  171.4   3.394   70.2  0.1030   67.7  0.4206  -33.1
 1.600  0.3320  167.8   3.199   67.8  0.1094   67.8  0.4174  -34.4
 1.700  0.3351  164.2   3.027   65.6  0.1159   68.0  0.4132  -35.8
 1.800  0.3393  161.0   2.880   63.3  0.1226   68.0  0.4099  -37.2
 1.900  0.3447  158.5   2.746   61.4  0.1290   68.0  0.4072  -38.7
 2.000  0.3482  155.3   2.617   59.2  0.1362   67.9  0.4048  -40.5
 2.100  0.3522  152.6   2.508   57.2  0.1432   67.7  0.4024  -42.2
 2.200  0.3569  149.9   2.403   55.1  0.1502   67.6  0.4003  -43.9
 2.300  0.3631  147.4   2.315   53.2  0.1573   67.2  0.3988  -45.8
 2.400  0.3699  144.9   2.229   51.1  0.1644   66.9  0.3978  -47.8
 2.500  0.3726  142.8   2.150   49.3  0.1716   66.5  0.3968  -49.7
 2.600  0.3758  140.7   2.074   47.4  0.1788   66.2  0.3962  -51.6
 2.700  0.3825  138.5   2.009   45.7  0.1861   65.7  0.3959  -53.5
 2.800  0.3897  136.3   1.945   43.8  0.1934   65.3  0.3961  -55.5
 2.900  0.3938  134.1   1.889   42.1  0.2010   64.8  0.3956  -57.4
 3.000  0.3985  132.0   1.835   40.2  0.2087   64.4  0.3955  -59.3
 3.100  0.4027  130.0   1.787   38.7  0.2167   63.7  0.3946  -61.2
 3.200  0.4074  128.1   1.741   37.2  0.2246   63.1  0.3942  -63.0
 3.300  0.4125  126.2   1.696   35.5  0.2326   62.5  0.3941  -64.9
 3.400  0.4181  124.3   1.652   33.8  0.2407   62.0  0.3945  -66.7
 3.500  0.4241  122.5   1.610   32.0  0.2487   61.5  0.3953  -68.6
 3.600  0.4285  120.7   1.575   30.6  0.2569   60.7  0.3927  -70.6
 3.700  0.4333  119.0   1.541   29.2  0.2652   59.9  0.3906  -72.6
 3.800  0.4385  117.3   1.508   27.6  0.2735   59.1  0.3890  -74.6
 3.900  0.4440  115.7   1.477   26.1  0.2818   58.5  0.3878  -76.7
 4.000  0.4499  114.1   1.446   24.4  0.2902   57.8  0.3872  -78.7
 4.100  0.4549  112.5   1.418   23.0  0.2987   56.8  0.3828  -81.0
 4.200  0.4602  110.9   1.392   21.6  0.3073   55.9  0.3789  -83.3
 4.300  0.4658  109.4   1.366   20.1  0.3160   55.0  0.3758  -85.7
 4.400  0.4718  107.9   1.341   18.5  0.3247   54.2  0.3732  -88.1
 4.500  0.4781  106.4   1.317   16.9  0.3335   53.4  0.3714  -90.6
 4.600  0.4839  105.0   1.293   15.7  0.3419   52.4  0.3675  -93.4
 4.700  0.4900  103.7   1.269   14.4  0.3503   51.5  0.3644  -96.3
 4.800  0.4963  102.4   1.245   13.1  0.3589   50.6  0.3623  -99.2
 4.900  0.5029  101.1   1.223   11.8  0.3675   49.7  0.3612 -102.1
 5.000  0.5097   99.9   1.201   10.4  0.3762   48.9  0.3610 -105.1
 5.100  0.5140   98.6   1.183    9.3  0.3847   47.8  0.3609 -108.2
 5.200  0.5186   97.3   1.165    8.1  0.3933   46.8  0.3619 -111.3
 5.300  0.5234   96.0   1.147    7.0  0.4020   45.8  0.3639 -114.4
 5.400  0.5285   94.7   1.130    5.8  0.4109   44.9  0.3670 -117.4
 5.500  0.5339   93.5   1.114    4.5  0.4198   44.0  0.3711 -120.4
 5.600  0.5360   92.3   1.097    3.5  0.4278   42.8  0.3729 -123.1
 5.700  0.5384   91.1   1.080    2.5  0.4360   41.7  0.3755 -125.9
 5.800  0.5410   89.9   1.064    1.5  0.4444   40.6  0.3790 -128.5
 5.900  0.5438   88.8   1.048    0.4  0.4529   39.5  0.3832 -131.1
 6.000  0.5469   87.6   1.032   -0.7  0.4616   38.5  0.3883 -133.7
!
!  f       NFmin   Gammaopt  rn/50
! GHz       dB    MAG  ANG    -
 0.450      1.24  0.15   16   0.21
 0.900      1.29  0.14   31   0.21
 1.900      1.71  0.03  142   0.20
 2.400      1.88  0.02 -166   0.24
!
! (c) 2017  Infineon Technologies AG, Munich