! Infineon Technologies  Discrete & RF Semiconductors
! BFR181W
! VCE =  4.0 V,  IC =  17 mA
! Common Emitter S-Parameters:                            Jan 2017
# GHz  S  MA  R  50
!  f         S11            S21            S12            S22
! GHz     MAG   ANG      MAG   ANG      MAG   ANG      MAG   ANG
 0.010  0.6050   -4.8  32.294  176.6  0.0014   93.2  0.9777   -1.8
 0.020  0.5935  -12.5  32.028  172.1  0.0028   92.2  0.9689   -3.8
 0.030  0.5799  -17.4  31.377  168.7  0.0044   82.8  0.9590   -5.8
 0.040  0.5708  -22.6  30.844  165.1  0.0060   78.4  0.9503   -7.9
 0.050  0.5664  -27.8  30.435  161.4  0.0077   75.9  0.9429  -10.0
 0.060  0.5500  -32.3  29.529  158.5  0.0090   74.6  0.9242  -11.4
 0.070  0.5371  -37.0  28.701  155.5  0.0102   73.7  0.9061  -12.9
 0.080  0.5281  -42.0  27.959  152.3  0.0115   72.9  0.8886  -14.4
 0.090  0.5232  -47.1  27.308  148.9  0.0127   72.3  0.8717  -16.0
 0.100  0.5224  -52.2  26.757  145.4  0.0140   71.8  0.8556  -17.7
 0.110  0.5067  -55.9  25.903  143.3  0.0149   70.1  0.8379  -18.5
 0.120  0.4932  -59.8  25.085  141.1  0.0159   68.6  0.8204  -19.4
 0.130  0.4822  -64.0  24.308  138.7  0.0169   67.3  0.8030  -20.3
 0.140  0.4738  -68.3  23.575  136.2  0.0178   66.2  0.7859  -21.2
 0.150  0.4682  -72.7  22.891  133.5  0.0188   65.1  0.7690  -22.2
 0.200  0.4258  -88.5  19.449  124.2  0.0217   64.1  0.6972  -24.4
 0.250  0.3966 -101.9  16.786  117.3  0.0254   62.3  0.6430  -25.2
 0.300  0.3734 -113.1  14.609  112.0  0.0278   61.7  0.6010  -25.3
 0.350  0.3553 -120.8  13.062  108.5  0.0305   62.9  0.5749  -25.0
 0.400  0.3442 -129.2  11.577  104.1  0.0332   63.9  0.5489  -24.7
 0.450  0.3342 -135.3  10.517  101.6  0.0361   65.0  0.5334  -24.5
 0.500  0.3282 -141.7   9.482   98.5  0.0391   66.0  0.5179  -24.2
 0.600  0.3220 -151.7   8.042   93.9  0.0443   66.9  0.4980  -23.8
 0.700  0.3193 -158.9   6.962   90.1  0.0496   68.5  0.4845  -23.6
 0.800  0.3175 -166.0   6.155   86.6  0.0564   70.1  0.4748  -23.9
 0.900  0.3167 -172.0   5.496   83.5  0.0618   70.8  0.4669  -24.3
 1.000  0.3183 -177.1   4.989   80.8  0.0677   71.2  0.4601  -24.9
 1.100  0.3222  178.3   4.556   78.3  0.0744   71.8  0.4567  -25.7
 1.200  0.3244  174.1   4.195   75.6  0.0802   72.1  0.4517  -26.5
 1.300  0.3258  170.3   3.885   73.2  0.0859   72.4  0.4482  -27.6
 1.400  0.3292  166.9   3.630   70.9  0.0932   73.0  0.4437  -28.8
 1.500  0.3344  163.8   3.403   68.8  0.0994   72.9  0.4407  -30.0
 1.600  0.3386  160.5   3.204   66.5  0.1059   72.6  0.4389  -31.4
 1.700  0.3419  157.8   3.030   64.4  0.1128   72.6  0.4347  -32.9
 1.800  0.3450  154.6   2.882   62.3  0.1197   72.3  0.4320  -34.5
 1.900  0.3512  152.5   2.745   60.4  0.1265   72.1  0.4300  -36.1
 2.000  0.3558  149.8   2.614   58.3  0.1330   71.8  0.4278  -37.9
 2.100  0.3596  147.4   2.506   56.4  0.1402   71.5  0.4255  -39.7
 2.200  0.3641  145.1   2.401   54.3  0.1475   71.3  0.4237  -41.5
 2.300  0.3707  142.8   2.312   52.5  0.1548   70.9  0.4224  -43.4
 2.400  0.3779  140.6   2.225   50.5  0.1622   70.6  0.4215  -45.4
 2.500  0.3814  138.6   2.146   48.8  0.1696   70.0  0.4208  -47.3
 2.600  0.3853  136.7   2.070   46.9  0.1770   69.5  0.4205  -49.3
 2.700  0.3905  134.6   2.004   45.2  0.1844   69.0  0.4202  -51.2
 2.800  0.3963  132.6   1.939   43.4  0.1918   68.6  0.4204  -53.2
 2.900  0.4012  130.7   1.883   41.7  0.1998   67.9  0.4195  -55.1
 3.000  0.4066  128.8   1.828   39.9  0.2078   67.3  0.4190  -57.1
 3.100  0.4106  126.9   1.780   38.5  0.2158   66.6  0.4182  -59.0
 3.200  0.4151  125.0   1.734   37.0  0.2239   65.9  0.4178  -60.9
 3.300  0.4200  123.1   1.688   35.4  0.2320   65.3  0.4179  -62.7
 3.400  0.4254  121.4   1.644   33.7  0.2401   64.7  0.4184  -64.6
 3.500  0.4311  119.6   1.602   31.9  0.2483   64.2  0.4194  -66.5
 3.600  0.4352  118.0   1.567   30.5  0.2567   63.3  0.4166  -68.5
 3.700  0.4396  116.3   1.533   29.1  0.2652   62.4  0.4143  -70.5
 3.800  0.4443  114.8   1.501   27.7  0.2737   61.7  0.4125  -72.5
 3.900  0.4494  113.2   1.469   26.1  0.2823   60.9  0.4112  -74.6
 4.000  0.4548  111.7   1.438   24.5  0.2909   60.2  0.4105  -76.6
 4.100  0.4596  110.2   1.411   23.1  0.2996   59.1  0.4059  -78.9
 4.200  0.4647  108.6   1.384   21.7  0.3084   58.1  0.4019  -81.2
 4.300  0.4701  107.2   1.359   20.3  0.3173   57.2  0.3986  -83.6
 4.400  0.4758  105.7   1.334   18.8  0.3263   56.3  0.3960  -86.0
 4.500  0.4818  104.3   1.310   17.2  0.3353   55.4  0.3941  -88.4
 4.600  0.4874  103.0   1.286   16.0  0.3439   54.4  0.3898  -91.2
 4.700  0.4933  101.7   1.262   14.8  0.3526   53.4  0.3864  -94.0
 4.800  0.4995  100.5   1.239   13.5  0.3614   52.4  0.3839  -96.9
 4.900  0.5058   99.3   1.217   12.2  0.3703   51.6  0.3825  -99.8
 5.000  0.5124   98.1   1.195   10.8  0.3793   50.7  0.3820 -102.7
 5.100  0.5170   96.8   1.176    9.7  0.3878   49.6  0.3814 -105.8
 5.200  0.5218   95.6   1.158    8.6  0.3965   48.5  0.3819 -108.8
 5.300  0.5269   94.4   1.141    7.4  0.4053   47.5  0.3835 -111.8
 5.400  0.5322   93.2   1.124    6.2  0.4143   46.5  0.3861 -114.8
 5.500  0.5377   92.0   1.107    5.0  0.4233   45.6  0.3898 -117.8
 5.600  0.5395   90.8   1.090    4.0  0.4316   44.4  0.3911 -120.5
 5.700  0.5414   89.7   1.074    3.1  0.4400   43.2  0.3933 -123.2
 5.800  0.5436   88.5   1.058    2.0  0.4486   42.1  0.3964 -125.9
 5.900  0.5461   87.3   1.042    1.0  0.4574   41.0  0.4003 -128.5
 6.000  0.5487   86.2   1.027   -0.1  0.4663   40.0  0.4050 -131.1
!
!  f       NFmin   Gammaopt  rn/50
! GHz       dB    MAG  ANG    -
!
! noise parameter not available yet for this operation point!
!
! (c) 2017  Infineon Technologies AG, Munich