! Infineon Technologies  Discrete & RF Semiconductors
! BFR181W
! VCE =  2.0 V,  IC =  25 mA
! Common Emitter S-Parameters:                            Jan 2017
# GHz  S  MA  R  50
!  f         S11            S21            S12            S22
! GHz     MAG   ANG      MAG   ANG      MAG   ANG      MAG   ANG
 0.010  0.4148  -16.4  29.634  173.6  0.0021   77.6  0.8821   -3.0
 0.020  0.4156  -34.1  28.969  165.9  0.0041   80.4  0.8637   -6.2
 0.030  0.4054  -47.5  27.425  160.4  0.0062   72.2  0.8391   -8.8
 0.040  0.4179  -60.9  26.164  154.3  0.0083   68.2  0.8163  -11.5
 0.050  0.4513  -72.9  25.230  147.6  0.0104   65.8  0.7954  -14.4
 0.060  0.4432  -81.3  23.702  144.4  0.0114   63.3  0.7694  -15.3
 0.070  0.4448  -89.8  22.258  140.8  0.0125   61.2  0.7436  -16.3
 0.080  0.4561  -98.1  20.914  136.7  0.0135   59.5  0.7181  -17.4
 0.090  0.4764 -105.8  19.693  132.0  0.0146   58.0  0.6928  -18.5
 0.100  0.5045 -112.8  18.618  126.8  0.0157   56.7  0.6678  -19.7
 0.110  0.5045 -117.1  17.660  124.9  0.0163   56.1  0.6522  -19.8
 0.120  0.5073 -121.5  16.722  122.9  0.0170   55.5  0.6367  -19.9
 0.130  0.5130 -125.7  15.809  120.6  0.0176   55.0  0.6211  -20.0
 0.140  0.5215 -129.8  14.924  118.0  0.0183   54.5  0.6056  -20.1
 0.150  0.5325 -133.8  14.073  115.1  0.0189   54.0  0.5900  -20.2
 0.200  0.5437 -146.1  11.111  107.2  0.0211   54.5  0.5472  -19.3
 0.250  0.5523 -154.7   9.144  101.7  0.0239   55.3  0.5240  -18.5
 0.300  0.5567 -160.8   7.730   97.5  0.0260   57.3  0.5072  -17.8
 0.350  0.5569 -165.2   6.812   94.8  0.0282   60.2  0.4984  -17.7
 0.400  0.5604 -169.5   5.914   91.2  0.0304   62.6  0.4897  -17.5
 0.450  0.5613 -172.6   5.336   89.1  0.0333   63.8  0.4851  -17.6
 0.500  0.5638 -175.6   4.766   86.5  0.0363   64.8  0.4805  -17.8
 0.600  0.5685  179.6   4.001   82.4  0.0416   68.1  0.4752  -18.4
 0.700  0.5717  175.8   3.444   78.8  0.0476   71.2  0.4702  -19.4
 0.800  0.5765  171.9   3.033   75.2  0.0540   72.9  0.4670  -20.7
 0.900  0.5768  168.5   2.701   72.1  0.0601   73.8  0.4639  -22.3
 1.000  0.5810  165.5   2.449   69.1  0.0661   74.6  0.4597  -23.8
 1.100  0.5851  162.7   2.233   66.3  0.0730   75.7  0.4578  -25.5
 1.200  0.5879  159.8   2.056   63.3  0.0797   76.3  0.4549  -27.2
 1.300  0.5913  157.1   1.903   60.6  0.0865   77.0  0.4523  -29.2
 1.400  0.5954  154.7   1.777   58.0  0.0941   77.1  0.4482  -31.2
 1.500  0.6012  152.3   1.664   55.5  0.1018   77.3  0.4454  -33.2
 1.600  0.6069  149.8   1.568   52.9  0.1090   77.4  0.4443  -35.3
 1.700  0.6075  147.4   1.483   50.6  0.1167   77.5  0.4405  -37.7
 1.800  0.6155  145.0   1.409   48.1  0.1251   77.2  0.4373  -39.9
 1.900  0.6192  142.9   1.340   46.0  0.1329   77.0  0.4353  -42.3
 2.000  0.6234  140.6   1.276   43.5  0.1412   76.6  0.4337  -44.7
 2.100  0.6266  138.3   1.221   41.5  0.1500   76.2  0.4309  -47.2
 2.200  0.6307  136.1   1.167   39.3  0.1589   75.8  0.4290  -49.8
 2.300  0.6358  134.0   1.122   37.4  0.1677   75.2  0.4274  -52.5
 2.400  0.6417  132.0   1.078   35.3  0.1766   74.7  0.4267  -55.2
 2.500  0.6438  130.0   1.037   33.5  0.1859   74.0  0.4255  -57.8
 2.600  0.6466  128.0   0.997   31.6  0.1952   73.4  0.4252  -60.5
 2.700  0.6513  126.0   0.963   30.0  0.2045   72.6  0.4247  -63.1
 2.800  0.6568  124.1   0.930   28.2  0.2139   71.9  0.4251  -65.7
 2.900  0.6594  122.1   0.899   26.7  0.2238   71.0  0.4238  -68.3
 3.000  0.6628  120.1   0.869   25.0  0.2338   70.2  0.4235  -71.0
 3.100  0.6647  118.1   0.844   23.9  0.2438   69.1  0.4213  -73.5
 3.200  0.6673  116.2   0.820   22.7  0.2539   68.1  0.4199  -76.0
 3.300  0.6708  114.2   0.796   21.4  0.2640   67.2  0.4193  -78.5
 3.400  0.6750  112.3   0.773   20.1  0.2742   66.3  0.4195  -81.0
 3.500  0.6799  110.4   0.750   18.7  0.2845   65.5  0.4205  -83.5
 3.600  0.6809  108.6   0.732   17.9  0.2945   64.2  0.4161  -86.1
 3.700  0.6827  106.8   0.715   17.0  0.3046   62.9  0.4125  -88.7
 3.800  0.6851  105.0   0.697   16.1  0.3148   61.8  0.4098  -91.4
 3.900  0.6882  103.2   0.680   15.2  0.3252   60.7  0.4080  -94.1
 4.000  0.6919  101.4   0.663   14.2  0.3357   59.7  0.4071  -96.8
 4.100  0.6917   99.7   0.650   13.6  0.3452   58.3  0.4008  -99.8
 4.200  0.6922   98.0   0.638   13.0  0.3550   56.9  0.3955 -102.9
 4.300  0.6932   96.3   0.626   12.4  0.3649   55.6  0.3915 -106.0
 4.400  0.6949   94.7   0.613   11.8  0.3750   54.4  0.3887 -109.3
 4.500  0.6971   93.0   0.601   11.1  0.3853   53.2  0.3871 -112.5
 4.600  0.6975   91.7   0.592   10.9  0.3941   51.8  0.3824 -115.8
 4.700  0.6984   90.3   0.583   10.6  0.4032   50.6  0.3791 -119.2
 4.800  0.6996   89.0   0.574   10.4  0.4125   49.3  0.3771 -122.7
 4.900  0.7011   87.6   0.565   10.2  0.4219   48.1  0.3765 -126.1
 5.000  0.7031   86.3   0.556    9.9  0.4315   47.0  0.3773 -129.6
 5.100  0.7026   85.0   0.552    9.7  0.4396   45.6  0.3772 -132.9
 5.200  0.7024   83.7   0.548    9.6  0.4480   44.3  0.3783 -136.1
 5.300  0.7026   82.3   0.545    9.4  0.4566   43.1  0.3807 -139.4
 5.400  0.7032   81.0   0.541    9.3  0.4654   41.9  0.3843 -142.6
 5.500  0.7041   79.7   0.537    9.1  0.4744   40.7  0.3890 -145.7
 5.600  0.7017   78.5   0.535    9.0  0.4816   39.3  0.3899 -148.4
 5.700  0.6997   77.4   0.534    8.9  0.4891   38.0  0.3918 -151.2
 5.800  0.6979   76.2   0.532    8.8  0.4969   36.7  0.3945 -153.9
 5.900  0.6965   75.0   0.531    8.7  0.5049   35.5  0.3980 -156.5
 6.000  0.6953   73.8   0.529    8.6  0.5131   34.3  0.4024 -159.1
!
!  f       NFmin   Gammaopt  rn/50
! GHz       dB    MAG  ANG    -
!
! noise parameter not available yet for this operation point!
!
! (c) 2017  Infineon Technologies AG, Munich