! Infineon Technologies  Discrete & RF Semiconductors
! BFR181W
! VCE =  6.0 V,  IC =  29 mA
! Common Emitter S-Parameters:                            Jan 2017
# GHz  S  MA  R  50
!  f         S11            S21            S12            S22
! GHz     MAG   ANG      MAG   ANG      MAG   ANG      MAG   ANG
 0.010  0.4771   -8.5  33.853  175.1  0.0014   86.1  0.9439   -1.7
 0.020  0.4691  -20.1  33.148  169.5  0.0022   92.2  0.9365   -4.1
 0.030  0.4544  -28.3  32.149  165.1  0.0038   79.8  0.9208   -6.3
 0.040  0.4495  -36.9  31.353  160.4  0.0056   75.0  0.9065   -8.5
 0.050  0.4548  -45.5  30.776  155.5  0.0073   72.4  0.8936  -10.8
 0.060  0.4386  -52.2  29.407  152.4  0.0084   71.2  0.8720  -11.9
 0.070  0.4289  -59.3  28.134  148.9  0.0095   70.2  0.8508  -13.1
 0.080  0.4260  -66.6  26.971  145.2  0.0106   69.5  0.8299  -14.3
 0.090  0.4300  -73.9  25.933  141.2  0.0117   68.9  0.8094  -15.6
 0.100  0.4409  -81.0  25.034  136.8  0.0128   68.4  0.7893  -16.9
 0.110  0.4321  -85.8  23.975  134.8  0.0135   66.8  0.7729  -17.3
 0.120  0.4264  -90.7  22.950  132.5  0.0143   65.3  0.7565  -17.7
 0.130  0.4239  -95.7  21.963  130.1  0.0150   64.0  0.7401  -18.1
 0.140  0.4247 -100.8  21.019  127.4  0.0157   62.8  0.7238  -18.5
 0.150  0.4288 -105.8  20.125  124.5  0.0165   61.7  0.7075  -19.0
 0.200  0.4196 -121.8  16.401  115.8  0.0184   62.9  0.6533  -19.2
 0.250  0.4159 -134.1  13.757  109.6  0.0211   62.0  0.6190  -18.9
 0.300  0.4145 -143.0  11.782  105.0  0.0233   62.5  0.5940  -18.4
 0.350  0.4115 -149.3  10.443  102.1  0.0258   64.3  0.5803  -18.1
 0.400  0.4136 -155.6   9.140   98.3  0.0284   65.8  0.5666  -17.8
 0.450  0.4120 -159.9   8.270   96.2  0.0308   67.6  0.5591  -17.8
 0.500  0.4128 -164.3   7.414   93.5  0.0332   69.2  0.5517  -17.8
 0.600  0.4148 -171.2   6.251   89.4  0.0388   70.7  0.5426  -18.1
 0.700  0.4152 -176.5   5.391   86.0  0.0440   73.6  0.5352  -18.7
 0.800  0.4188  178.7   4.758   82.8  0.0498   74.6  0.5304  -19.6
 0.900  0.4189  174.5   4.246   80.0  0.0552   75.5  0.5262  -20.7
 1.000  0.4245  170.9   3.853   77.3  0.0611   76.7  0.5214  -21.8
 1.100  0.4282  167.5   3.518   74.9  0.0672   77.4  0.5195  -23.1
 1.200  0.4301  164.1   3.240   72.3  0.0733   77.9  0.5161  -24.4
 1.300  0.4324  160.9   3.001   69.8  0.0795   78.3  0.5131  -25.9
 1.400  0.4367  158.4   2.806   67.6  0.0862   78.5  0.5094  -27.5
 1.500  0.4435  155.8   2.629   65.4  0.0930   78.5  0.5070  -29.0
 1.600  0.4457  153.1   2.480   63.2  0.1000   78.6  0.5056  -30.8
 1.700  0.4486  150.6   2.343   61.1  0.1065   78.9  0.5018  -32.6
 1.800  0.4539  148.0   2.230   59.0  0.1142   78.6  0.4985  -34.4
 1.900  0.4583  146.0   2.124   57.1  0.1210   78.4  0.4966  -36.2
 2.000  0.4635  143.7   2.024   55.0  0.1286   78.1  0.4950  -38.2
 2.100  0.4669  141.4   1.940   53.1  0.1364   77.7  0.4923  -40.2
 2.200  0.4711  139.2   1.858   51.0  0.1442   77.3  0.4902  -42.3
 2.300  0.4761  137.2   1.791   49.2  0.1521   76.8  0.4889  -44.4
 2.400  0.4817  135.2   1.725   47.2  0.1601   76.4  0.4882  -46.6
 2.500  0.4841  133.3   1.663   45.5  0.1681   75.9  0.4871  -48.7
 2.600  0.4871  131.4   1.603   43.6  0.1761   75.4  0.4867  -50.8
 2.700  0.4929  129.4   1.552   41.9  0.1845   74.8  0.4863  -52.9
 2.800  0.4992  127.5   1.503   40.1  0.1930   74.3  0.4865  -55.0
 2.900  0.5023  125.6   1.458   38.5  0.2017   73.5  0.4852  -57.1
 3.000  0.5059  123.8   1.415   36.7  0.2105   72.8  0.4846  -59.3
 3.100  0.5091  121.9   1.378   35.3  0.2196   72.0  0.4832  -61.3
 3.200  0.5129  120.1   1.343   33.9  0.2288   71.2  0.4824  -63.4
 3.300  0.5172  118.2   1.308   32.4  0.2381   70.5  0.4822  -65.4
 3.400  0.5221  116.5   1.274   30.8  0.2473   69.8  0.4827  -67.5
 3.500  0.5274  114.7   1.241   29.1  0.2566   69.2  0.4837  -69.5
 3.600  0.5304  113.0   1.214   27.9  0.2660   68.1  0.4802  -71.6
 3.700  0.5338  111.4   1.188   26.6  0.2755   67.0  0.4773  -73.8
 3.800  0.5376  109.7   1.162   25.2  0.2850   66.1  0.4752  -76.0
 3.900  0.5419  108.1   1.137   23.8  0.2947   65.2  0.4737  -78.2
 4.000  0.5466  106.5   1.113   22.3  0.3044   64.3  0.4730  -80.4
 4.100  0.5495  104.9   1.092   21.1  0.3139   63.0  0.4673  -82.8
 4.200  0.5528  103.4   1.071   19.8  0.3236   61.9  0.4624  -85.3
 4.300  0.5565  101.9   1.051   18.5  0.3334   60.7  0.4584  -87.9
 4.400  0.5605  100.4   1.032   17.2  0.3433   59.7  0.4554  -90.5
 4.500  0.5650   98.9   1.013   15.8  0.3533   58.7  0.4533  -93.1
 4.600  0.5688   97.6   0.995   14.8  0.3626   57.5  0.4480  -95.9
 4.700  0.5729   96.4   0.977   13.8  0.3720   56.3  0.4438  -98.8
 4.800  0.5773   95.1   0.960   12.8  0.3816   55.2  0.4408 -101.7
 4.900  0.5819   93.9   0.943   11.7  0.3913   54.2  0.4389 -104.7
 5.000  0.5868   92.7   0.926   10.6  0.4011   53.2  0.4382 -107.7
 5.100  0.5894   91.4   0.913    9.7  0.4102   51.9  0.4369 -110.7
 5.200  0.5923   90.1   0.901    8.8  0.4195   50.7  0.4369 -113.7
 5.300  0.5955   88.9   0.888    7.9  0.4290   49.6  0.4381 -116.8
 5.400  0.5989   87.6   0.876    7.0  0.4386   48.5  0.4404 -119.7
 5.500  0.6027   86.4   0.864    6.0  0.4484   47.4  0.4440 -122.7
 5.600  0.6033   85.2   0.852    5.3  0.4570   46.1  0.4443 -125.4
 5.700  0.6042   84.0   0.841    4.6  0.4658   44.8  0.4456 -128.1
 5.800  0.6054   82.8   0.829    3.8  0.4748   43.5  0.4479 -130.8
 5.900  0.6068   81.7   0.818    3.1  0.4841   42.3  0.4512 -133.5
 6.000  0.6085   80.5   0.807    2.3  0.4935   41.2  0.4554 -136.1
!
!  f       NFmin   Gammaopt  rn/50
! GHz       dB    MAG  ANG    -
!
! noise parameter not available yet for this operation point!
!
! (c) 2017  Infineon Technologies AG, Munich