! Infineon Technologies  Discrete & RF Semiconductors
! BFR181W
! VCE =  7.0 V,  IC =  24 mA
! Common Emitter S-Parameters:                            Jan 2017
# GHz  S  MA  R  50
!  f         S11            S21            S12            S22
! GHz     MAG   ANG      MAG   ANG      MAG   ANG      MAG   ANG
 0.010  0.5607   -5.3  35.041  175.8  0.0013   84.9  0.9705   -1.7
 0.020  0.5503  -14.0  34.495  171.2  0.0023   93.3  0.9723   -3.9
 0.030  0.5361  -19.5  33.745  167.5  0.0038   81.8  0.9576   -6.0
 0.040  0.5271  -25.2  33.138  163.7  0.0055   77.0  0.9442   -8.1
 0.050  0.5234  -31.0  32.682  159.8  0.0071   74.4  0.9322  -10.3
 0.060  0.5064  -36.0  31.573  156.8  0.0082   72.2  0.9121  -11.6
 0.070  0.4935  -41.2  30.553  153.7  0.0094   70.6  0.8926  -13.0
 0.080  0.4849  -46.8  29.633  150.3  0.0105   69.3  0.8736  -14.5
 0.090  0.4810  -52.4  28.821  146.8  0.0117   68.3  0.8552  -16.0
 0.100  0.4818  -58.1  28.127  143.0  0.0128   67.4  0.8374  -17.6
 0.110  0.4669  -62.1  27.139  140.9  0.0137   66.9  0.8196  -18.3
 0.120  0.4543  -66.3  26.190  138.7  0.0146   66.5  0.8019  -19.1
 0.130  0.4443  -70.7  25.285  136.3  0.0155   66.1  0.7843  -19.8
 0.140  0.4371  -75.3  24.427  133.7  0.0164   65.8  0.7669  -20.6
 0.150  0.4328  -80.0  23.623  130.9  0.0173   65.5  0.7497  -21.5
 0.200  0.3981  -96.2  19.822  121.7  0.0200   64.9  0.6811  -22.9
 0.250  0.3707 -109.7  16.929  115.1  0.0232   64.1  0.6330  -23.3
 0.300  0.3536 -120.7  14.649  110.0  0.0260   64.0  0.5967  -23.1
 0.350  0.3407 -128.3  13.061  106.7  0.0286   65.4  0.5748  -22.7
 0.400  0.3342 -136.3  11.527  102.6  0.0312   66.6  0.5530  -22.3
 0.450  0.3266 -141.9  10.457  100.2  0.0339   67.2  0.5403  -22.1
 0.500  0.3223 -147.8   9.410   97.3  0.0366   67.7  0.5277  -21.9
 0.600  0.3197 -156.8   7.965   93.0  0.0421   69.2  0.5115  -21.6
 0.700  0.3177 -164.2   6.890   89.4  0.0474   71.6  0.5005  -21.6
 0.800  0.3186 -170.4   6.086   86.0  0.0537   72.5  0.4923  -22.0
 0.900  0.3178 -175.5   5.434   83.2  0.0595   72.9  0.4862  -22.6
 1.000  0.3216  179.4   4.929   80.5  0.0657   74.1  0.4797  -23.3
 1.100  0.3240  175.0   4.503   78.1  0.0716   74.2  0.4772  -24.2
 1.200  0.3269  171.3   4.148   75.5  0.0780   74.2  0.4725  -25.2
 1.300  0.3290  167.5   3.841   73.2  0.0839   74.5  0.4689  -26.4
 1.400  0.3329  164.5   3.591   71.0  0.0911   74.8  0.4646  -27.7
 1.500  0.3380  161.2   3.365   68.9  0.0975   74.9  0.4617  -28.9
 1.600  0.3415  158.5   3.172   66.7  0.1041   74.7  0.4606  -30.4
 1.700  0.3439  155.4   2.997   64.7  0.1106   74.8  0.4565  -32.0
 1.800  0.3503  152.8   2.851   62.6  0.1174   74.4  0.4527  -33.5
 1.900  0.3533  150.7   2.717   60.8  0.1244   74.3  0.4513  -35.1
 2.000  0.3582  148.1   2.589   58.6  0.1316   74.0  0.4492  -36.9
 2.100  0.3619  145.7   2.482   56.8  0.1387   73.7  0.4468  -38.7
 2.200  0.3662  143.4   2.378   54.8  0.1458   73.4  0.4448  -40.5
 2.300  0.3722  141.3   2.290   53.0  0.1533   72.9  0.4434  -42.4
 2.400  0.3787  139.3   2.204   51.1  0.1608   72.5  0.4425  -44.4
 2.500  0.3816  137.4   2.126   49.4  0.1680   71.9  0.4415  -46.4
 2.600  0.3850  135.5   2.051   47.5  0.1753   71.3  0.4411  -48.4
 2.700  0.3911  133.5   1.987   45.9  0.1830   70.8  0.4407  -50.3
 2.800  0.3976  131.6   1.924   44.1  0.1908   70.3  0.4408  -52.2
 2.900  0.4014  129.6   1.868   42.5  0.1987   69.7  0.4398  -54.2
 3.000  0.4057  127.7   1.813   40.7  0.2066   69.1  0.4393  -56.2
 3.100  0.4097  125.9   1.766   39.3  0.2148   68.4  0.4385  -58.0
 3.200  0.4142  124.1   1.721   37.8  0.2231   67.7  0.4381  -59.9
 3.300  0.4190  122.3   1.676   36.2  0.2314   67.0  0.4382  -61.7
 3.400  0.4242  120.6   1.634   34.5  0.2397   66.5  0.4387  -63.6
 3.500  0.4298  118.9   1.592   32.8  0.2481   65.9  0.4397  -65.4
 3.600  0.4338  117.3   1.558   31.4  0.2566   64.9  0.4369  -67.4
 3.700  0.4381  115.6   1.524   30.0  0.2652   64.1  0.4346  -69.3
 3.800  0.4428  114.1   1.492   28.6  0.2738   63.2  0.4329  -71.4
 3.900  0.4479  112.5   1.460   27.0  0.2825   62.4  0.4317  -73.4
 4.000  0.4532  111.0   1.430   25.4  0.2912   61.7  0.4310  -75.4
 4.100  0.4579  109.5   1.403   24.1  0.2999   60.6  0.4260  -77.7
 4.200  0.4628  108.1   1.377   22.7  0.3086   59.6  0.4217  -80.0
 4.300  0.4680  106.7   1.351   21.2  0.3175   58.7  0.4180  -82.3
 4.400  0.4735  105.3   1.327   19.7  0.3264   57.8  0.4151  -84.7
 4.500  0.4793  104.0   1.303   18.2  0.3354   56.9  0.4129  -87.1
 4.600  0.4847  102.7   1.279   17.0  0.3441   55.9  0.4083  -89.8
 4.700  0.4903  101.5   1.256   15.9  0.3529   54.9  0.4046  -92.5
 4.800  0.4962  100.3   1.233   14.6  0.3618   53.9  0.4019  -95.3
 4.900  0.5022   99.1   1.211   13.3  0.3708   53.0  0.4001  -98.1
 5.000  0.5085   97.9   1.189   12.0  0.3799   52.2  0.3993 -100.9
 5.100  0.5128   96.6   1.171   10.9  0.3886   51.1  0.3984 -103.9
 5.200  0.5173   95.4   1.154    9.8  0.3975   50.0  0.3986 -106.9
 5.300  0.5220   94.2   1.137    8.7  0.4065   49.0  0.3999 -109.8
 5.400  0.5270   93.0   1.120    7.5  0.4157   48.0  0.4023 -112.8
 5.500  0.5322   91.8   1.104    6.3  0.4249   47.1  0.4057 -115.7
 5.600  0.5347   90.7   1.087    5.4  0.4334   45.9  0.4065 -118.4
 5.700  0.5374   89.5   1.071    4.4  0.4422   44.7  0.4083 -121.1
 5.800  0.5403   88.4   1.055    3.4  0.4511   43.6  0.4109 -123.7
 5.900  0.5434   87.3   1.039    2.4  0.4602   42.5  0.4144 -126.3
 6.000  0.5467   86.2   1.024    1.3  0.4694   41.5  0.4187 -128.9
!
!  f       NFmin   Gammaopt  rn/50
! GHz       dB    MAG  ANG    -
!
! noise parameter not available yet for this operation point!
!
! (c) 2017  Infineon Technologies AG, Munich