! Infineon Technologies  Discrete & RF Semiconductors
! BFR181W
! VCE =  7.0 V,  IC =  2.0 mA
! Common Emitter S-Parameters:                            Jan 2017
# GHz  S  MA  R  50
!  f         S11            S21            S12            S22
! GHz     MAG   ANG      MAG   ANG      MAG   ANG      MAG   ANG
 0.010  0.9489   -0.3   6.915  179.9  0.0014  100.0  1.0000   -0.6
 0.020  0.9239   -3.5   6.816  178.0  0.0028   84.9  1.0000   -0.9
 0.030  0.9194   -4.2   6.806  177.1  0.0048   85.0  0.9989   -1.6
 0.040  0.9150   -4.8   6.798  176.2  0.0067   85.1  0.9974   -2.2
 0.050  0.9107   -5.5   6.791  175.3  0.0087   85.1  0.9960   -2.9
 0.060  0.9131   -6.7   6.775  174.3  0.0105   84.6  0.9946   -3.5
 0.070  0.9158   -7.8   6.762  173.3  0.0124   84.3  0.9934   -4.1
 0.080  0.9189   -9.0   6.750  172.3  0.0142   84.0  0.9923   -4.7
 0.090  0.9224  -10.2   6.740  171.3  0.0161   83.9  0.9912   -5.3
 0.100  0.9263  -11.3   6.733  170.3  0.0179   83.7  0.9903   -5.9
 0.110  0.9214  -12.5   6.714  169.4  0.0196   82.6  0.9882   -6.5
 0.120  0.9170  -13.7   6.696  168.4  0.0214   81.7  0.9862   -7.0
 0.130  0.9130  -15.0   6.681  167.5  0.0231   80.9  0.9843   -7.6
 0.140  0.9094  -16.2   6.667  166.5  0.0249   80.3  0.9825   -8.1
 0.150  0.9062  -17.5   6.655  165.6  0.0266   79.7  0.9808   -8.7
 0.200  0.8964  -22.6   6.536  160.4  0.0347   77.1  0.9667  -11.5
 0.250  0.8783  -28.4   6.449  155.7  0.0424   72.7  0.9512  -14.1
 0.300  0.8503  -33.7   6.282  151.2  0.0498   70.0  0.9327  -16.6
 0.350  0.8261  -38.5   6.114  147.1  0.0563   67.2  0.9119  -18.8
 0.400  0.8080  -43.5   5.979  142.8  0.0629   64.9  0.8925  -21.1
 0.450  0.7781  -48.1   5.780  139.1  0.0683   62.3  0.8707  -23.0
 0.500  0.7536  -53.1   5.606  135.2  0.0738   60.1  0.8498  -24.9
 0.600  0.7049  -61.9   5.258  128.1  0.0827   56.1  0.8063  -28.0
 0.700  0.6549  -70.3   4.904  121.6  0.0894   53.4  0.7671  -30.6
 0.800  0.6095  -77.9   4.595  115.8  0.0957   51.0  0.7302  -32.8
 0.900  0.5665  -85.2   4.292  110.5  0.1007   48.7  0.6983  -34.7
 1.000  0.5317  -92.1   4.026  105.8  0.1043   47.3  0.6682  -36.4
 1.100  0.5008  -98.9   3.780  101.5  0.1082   46.2  0.6444  -37.6
 1.200  0.4719 -105.2   3.555   97.3  0.1109   44.9  0.6217  -39.0
 1.300  0.4458 -111.3   3.354   93.4  0.1133   44.8  0.6025  -40.2
 1.400  0.4249 -117.1   3.178   89.9  0.1159   44.5  0.5847  -41.4
 1.500  0.4085 -123.3   3.023   86.5  0.1186   44.6  0.5695  -42.5
 1.600  0.3915 -129.0   2.867   83.2  0.1209   44.7  0.5585  -43.7
 1.700  0.3792 -134.7   2.742   80.3  0.1233   45.1  0.5446  -45.0
 1.800  0.3676 -140.0   2.632   77.3  0.1257   45.5  0.5333  -46.1
 1.900  0.3621 -145.6   2.526   74.7  0.1282   46.0  0.5245  -47.3
 2.000  0.3533 -151.0   2.426   71.7  0.1312   46.7  0.5173  -48.6
 2.100  0.3470 -155.9   2.337   69.1  0.1343   47.4  0.5106  -49.9
 2.200  0.3434 -161.0   2.252   66.4  0.1375   48.0  0.5041  -51.3
 2.300  0.3415 -165.9   2.175   64.0  0.1408   48.8  0.4997  -52.8
 2.400  0.3422 -170.8   2.102   61.4  0.1442   49.6  0.4957  -54.3
 2.500  0.3404 -175.0   2.033   59.2  0.1482   50.4  0.4918  -55.7
 2.600  0.3404 -179.3   1.967   56.9  0.1523   51.1  0.4883  -57.2
 2.700  0.3402  176.5   1.910   54.8  0.1566   51.8  0.4865  -58.6
 2.800  0.3417  172.4   1.856   52.5  0.1609   52.4  0.4851  -60.1
 2.900  0.3435  168.7   1.808   50.3  0.1659   53.0  0.4830  -61.5
 3.000  0.3467  165.0   1.762   48.0  0.1710   53.5  0.4813  -63.0
 3.100  0.3477  161.6   1.718   46.3  0.1771   54.0  0.4801  -64.5
 3.200  0.3500  158.2   1.675   44.5  0.1832   54.5  0.4792  -66.0
 3.300  0.3535  154.8   1.634   42.6  0.1893   54.9  0.4786  -67.6
 3.400  0.3582  151.6   1.594   40.7  0.1954   55.3  0.4784  -69.1
 3.500  0.3640  148.4   1.557   38.6  0.2015   55.7  0.4785  -70.6
 3.600  0.3675  145.6   1.525   37.0  0.2088   55.7  0.4760  -72.3
 3.700  0.3718  142.8   1.494   35.3  0.2162   55.7  0.4740  -74.0
 3.800  0.3770  140.1   1.464   33.5  0.2235   55.7  0.4724  -75.7
 3.900  0.3830  137.4   1.436   31.7  0.2309   55.7  0.4712  -77.5
 4.000  0.3898  134.9   1.409   29.8  0.2382   55.7  0.4705  -79.2
 4.100  0.3948  132.4   1.382   28.3  0.2467   55.3  0.4661  -81.3
 4.200  0.4006  130.0   1.357   26.7  0.2552   55.0  0.4624  -83.4
 4.300  0.4071  127.7   1.332   25.0  0.2637   54.6  0.4593  -85.5
 4.400  0.4142  125.4   1.309   23.3  0.2723   54.3  0.4568  -87.7
 4.500  0.4219  123.2   1.287   21.5  0.2808   54.0  0.4550  -89.9
 4.600  0.4282  121.1   1.263   20.1  0.2899   53.4  0.4511  -92.4
 4.700  0.4351  119.1   1.239   18.7  0.2990   52.9  0.4481  -95.0
 4.800  0.4426  117.1   1.217   17.3  0.3081   52.3  0.4460  -97.6
 4.900  0.4505  115.2   1.195   15.8  0.3173   51.9  0.4448 -100.2
 5.000  0.4589  113.4   1.174   14.2  0.3265   51.4  0.4445 -102.8
 5.100  0.4639  111.6   1.155   13.0  0.3361   50.6  0.4443 -105.6
 5.200  0.4694  109.9   1.137   11.8  0.3458   49.8  0.4452 -108.3
 5.300  0.4753  108.2   1.119   10.5  0.3556   49.0  0.4471 -111.1
 5.400  0.4815  106.6   1.102    9.2  0.3654   48.3  0.4501 -113.8
 5.500  0.4882  105.0   1.086    7.8  0.3753   47.6  0.4540 -116.5
 5.600  0.4915  103.4   1.069    6.8  0.3848   46.5  0.4552 -119.1
 5.700  0.4952  101.8   1.052    5.7  0.3944   45.5  0.4573 -121.7
 5.800  0.4992  100.3   1.036    4.7  0.4042   44.5  0.4603 -124.2
 5.900  0.5036   98.8   1.020    3.5  0.4140   43.6  0.4642 -126.7
 6.000  0.5083   97.3   1.005    2.4  0.4240   42.7  0.4690 -129.2
!
!  f       NFmin   Gammaopt  rn/50
! GHz       dB    MAG  ANG    -
 0.450      0.84  0.56   18   0.32
 0.900      0.90  0.51   33   0.30
 1.900      1.35  0.31   81   0.23
 2.400      1.58  0.27   95   0.25
!
! (c) 2017  Infineon Technologies AG, Munich