! Infineon Technologies  Discrete & RF Semiconductors
! BFR181W
! VCE =  9.0 V,  IC =  13 mA
! Common Emitter S-Parameters:                            Jan 2017
# GHz  S  MA  R  50
!  f         S11            S21            S12            S22
! GHz     MAG   ANG      MAG   ANG      MAG   ANG      MAG   ANG
 0.010  0.7135   -2.3  28.347  176.6  0.0011   84.4  0.9902   -1.5
 0.020  0.7013   -8.3  27.907  173.4  0.0027   99.9  0.9810   -3.0
 0.030  0.6909  -11.2  27.541  170.9  0.0042   88.8  0.9758   -4.7
 0.040  0.6823  -14.2  27.228  168.4  0.0059   83.7  0.9714   -6.5
 0.050  0.6757  -17.3  26.970  165.8  0.0075   80.8  0.9680   -8.2
 0.060  0.6648  -20.5  26.467  163.4  0.0090   79.3  0.9557   -9.6
 0.070  0.6561  -23.8  26.011  161.0  0.0104   78.2  0.9439  -11.0
 0.080  0.6496  -27.1  25.605  158.4  0.0119   77.4  0.9327  -12.5
 0.090  0.6453  -30.6  25.251  155.8  0.0133   76.7  0.9222  -14.0
 0.100  0.6434  -34.0  24.951  153.1  0.0148   76.2  0.9123  -15.5
 0.110  0.6274  -36.7  24.411  151.1  0.0158   75.0  0.8974  -16.5
 0.120  0.6129  -39.6  23.902  149.1  0.0168   73.9  0.8829  -17.6
 0.130  0.5999  -42.6  23.424  146.9  0.0178   72.9  0.8686  -18.6
 0.140  0.5887  -45.7  22.981  144.7  0.0189   72.1  0.8546  -19.7
 0.150  0.5793  -48.9  22.573  142.4  0.0199   71.3  0.8410  -20.9
 0.200  0.5225  -60.8  20.075  133.3  0.0245   67.8  0.7727  -24.5
 0.250  0.4704  -72.0  17.911  126.1  0.0283   65.0  0.7125  -26.8
 0.300  0.4265  -81.5  15.960  120.3  0.0317   63.2  0.6614  -28.1
 0.350  0.3915  -88.5  14.449  116.3  0.0344   63.3  0.6252  -28.6
 0.400  0.3633  -96.7  13.022  111.5  0.0371   63.3  0.5890  -29.2
 0.450  0.3381 -102.8  11.926  108.6  0.0403   63.5  0.5647  -29.2
 0.500  0.3173 -109.8  10.866  105.1  0.0436   63.7  0.5405  -29.3
 0.600  0.2878 -120.7   9.312   99.9  0.0490   64.5  0.5084  -28.9
 0.700  0.2675 -130.8   8.112   95.6  0.0542   66.1  0.4845  -28.6
 0.800  0.2542 -139.8   7.204   91.8  0.0604   67.1  0.4677  -28.6
 0.900  0.2442 -148.0   6.454   88.6  0.0663   67.2  0.4547  -28.6
 1.000  0.2398 -154.7   5.867   85.6  0.0725   67.9  0.4435  -28.8
 1.100  0.2364 -161.4   5.371   83.0  0.0783   68.2  0.4366  -29.2
 1.200  0.2344 -167.5   4.947   80.3  0.0841   68.3  0.4290  -29.6
 1.300  0.2320 -173.0   4.587   77.8  0.0900   68.5  0.4232  -30.4
 1.400  0.2346 -177.7   4.287   75.5  0.0968   68.8  0.4172  -31.2
 1.500  0.2371  177.5   4.022   73.3  0.1028   68.9  0.4129  -32.0
 1.600  0.2395  173.0   3.789   71.1  0.1093   68.8  0.4100  -33.1
 1.700  0.2409  169.1   3.583   69.1  0.1155   68.7  0.4053  -34.4
 1.800  0.2434  165.4   3.408   67.0  0.1226   68.6  0.4011  -35.6
 1.900  0.2497  162.6   3.247   65.1  0.1291   68.6  0.3982  -36.8
 2.000  0.2538  159.0   3.095   63.1  0.1358   68.2  0.3962  -38.4
 2.100  0.2569  155.9   2.967   61.3  0.1425   67.8  0.3932  -39.9
 2.200  0.2608  152.8   2.842   59.3  0.1492   67.5  0.3905  -41.5
 2.300  0.2667  150.1   2.737   57.5  0.1560   67.1  0.3888  -43.2
 2.400  0.2731  147.6   2.636   55.5  0.1629   66.7  0.3874  -44.9
 2.500  0.2768  145.3   2.543   53.8  0.1696   66.2  0.3863  -46.6
 2.600  0.2809  143.1   2.453   52.0  0.1764   65.8  0.3855  -48.4
 2.700  0.2866  140.5   2.376   50.4  0.1833   65.3  0.3849  -50.1
 2.800  0.2928  138.1   2.301   48.6  0.1902   64.9  0.3846  -51.8
 2.900  0.2976  136.1   2.235   46.9  0.1974   64.4  0.3838  -53.6
 3.000  0.3027  134.1   2.171   45.2  0.2047   63.9  0.3833  -55.4
 3.100  0.3068  132.0   2.115   43.8  0.2120   63.2  0.3825  -57.0
 3.200  0.3113  130.0   2.061   42.3  0.2194   62.6  0.3820  -58.7
 3.300  0.3162  128.0   2.009   40.7  0.2268   62.0  0.3818  -60.3
 3.400  0.3214  126.1   1.957   39.0  0.2342   61.5  0.3820  -62.0
 3.500  0.3270  124.3   1.908   37.3  0.2416   61.0  0.3824  -63.6
 3.600  0.3318  122.6   1.868   35.9  0.2492   60.2  0.3799  -65.3
 3.700  0.3368  121.0   1.829   34.5  0.2568   59.4  0.3778  -67.1
 3.800  0.3421  119.4   1.791   33.0  0.2645   58.7  0.3760  -68.9
 3.900  0.3476  117.9   1.754   31.4  0.2722   58.0  0.3746  -70.7
 4.000  0.3534  116.4   1.719   29.8  0.2800   57.4  0.3736  -72.5
 4.100  0.3591  114.9   1.687   28.4  0.2878   56.5  0.3691  -74.5
 4.200  0.3650  113.4   1.657   27.0  0.2957   55.6  0.3651  -76.6
 4.300  0.3712  112.0   1.627   25.5  0.3036   54.8  0.3616  -78.7
 4.400  0.3776  110.6   1.598   24.0  0.3116   54.0  0.3586  -80.9
 4.500  0.3842  109.3   1.571   22.4  0.3197   53.3  0.3561  -83.1
 4.600  0.3910  108.0   1.543   21.1  0.3275   52.4  0.3519  -85.7
 4.700  0.3981  106.7   1.516   19.8  0.3353   51.6  0.3484  -88.3
 4.800  0.4053  105.4   1.489   18.5  0.3432   50.8  0.3456  -91.0
 4.900  0.4127  104.3   1.464   17.1  0.3512   50.0  0.3436  -93.7
 5.000  0.4203  103.1   1.439   15.6  0.3592   49.3  0.3424  -96.4
 5.100  0.4254  101.9   1.418   14.4  0.3671   48.3  0.3417  -99.3
 5.200  0.4308  100.7   1.398   13.2  0.3750   47.4  0.3420 -102.2
 5.300  0.4363   99.5   1.378   11.9  0.3831   46.5  0.3431 -105.2
 5.400  0.4420   98.4   1.359   10.6  0.3913   45.7  0.3451 -108.1
 5.500  0.4478   97.3   1.341    9.3  0.3995   44.9  0.3480 -110.9
 5.600  0.4516   96.2   1.321    8.2  0.4073   43.8  0.3493 -113.6
 5.700  0.4556   95.0   1.302    7.1  0.4152   42.8  0.3514 -116.2
 5.800  0.4597   93.9   1.284    6.0  0.4233   41.8  0.3542 -118.8
 5.900  0.4640   92.9   1.266    4.8  0.4315   40.9  0.3578 -121.4
 6.000  0.4685   91.8   1.248    3.6  0.4398   40.0  0.3620 -123.9
!
!  f       NFmin   Gammaopt  rn/50
! GHz       dB    MAG  ANG    -
 0.450      1.39  0.08   17   0.21
 0.900      1.43  0.08   31   0.21
 1.900      1.86  0.09 -144   0.21
 2.400      2.07  0.11 -109   0.26
!
! (c) 2017  Infineon Technologies AG, Munich