! Infineon Technologies  Discrete & RF Semiconductors
! BFR181W
! VCE =  5.0 V,  IC =  16 mA
! Common Emitter S-Parameters:                            Jan 2017
# GHz  S  MA  R  50
!  f         S11            S21            S12            S22
! GHz     MAG   ANG      MAG   ANG      MAG   ANG      MAG   ANG
 0.010  0.6349   -3.8  31.742  176.8  0.0014   81.7  0.9840   -1.7
 0.020  0.6189  -10.7  31.130  172.8  0.0029   88.3  0.9745   -3.5
 0.030  0.6080  -14.8  30.688  169.7  0.0044   83.7  0.9671   -5.5
 0.040  0.6003  -19.0  30.340  166.5  0.0058   81.4  0.9608   -7.5
 0.050  0.5959  -23.3  30.089  163.2  0.0073   80.0  0.9557   -9.5
 0.060  0.5816  -27.2  29.319  160.5  0.0087   77.6  0.9386  -11.0
 0.070  0.5701  -31.3  28.619  157.6  0.0100   75.9  0.9222  -12.5
 0.080  0.5617  -35.5  27.993  154.6  0.0114   74.6  0.9064  -14.0
 0.090  0.5563  -39.8  27.446  151.5  0.0128   73.5  0.8913  -15.6
 0.100  0.5542  -44.2  26.984  148.3  0.0142   72.7  0.8770  -17.3
 0.110  0.5376  -47.6  26.225  146.2  0.0152   71.5  0.8600  -18.2
 0.120  0.5229  -51.1  25.503  144.0  0.0161   70.5  0.8432  -19.2
 0.130  0.5104  -54.9  24.820  141.7  0.0171   69.6  0.8267  -20.2
 0.140  0.5003  -58.8  24.180  139.3  0.0180   68.7  0.8104  -21.2
 0.150  0.4925  -62.9  23.586  136.7  0.0190   68.0  0.7944  -22.3
 0.200  0.4435  -76.9  20.366  127.4  0.0219   66.4  0.7204  -25.1
 0.250  0.4026  -90.0  17.763  120.3  0.0263   64.2  0.6624  -26.5
 0.300  0.3710 -100.7  15.582  114.8  0.0290   63.7  0.6165  -27.0
 0.350  0.3466 -108.6  13.989  111.2  0.0321   64.2  0.5858  -27.0
 0.400  0.3296 -117.4  12.466  106.6  0.0353   64.7  0.5551  -26.9
 0.450  0.3161 -123.6  11.352  104.0  0.0379   65.0  0.5362  -26.7
 0.500  0.3067 -130.3  10.267  100.8  0.0405   65.2  0.5174  -26.5
 0.600  0.2924 -141.4   8.732   96.0  0.0465   66.4  0.4927  -25.9
 0.700  0.2837 -150.2   7.575   92.0  0.0514   67.8  0.4759  -25.6
 0.800  0.2805 -158.0   6.705   88.5  0.0579   69.6  0.4636  -25.6
 0.900  0.2769 -164.3   5.990   85.4  0.0634   69.5  0.4539  -25.9
 1.000  0.2763 -169.9   5.439   82.7  0.0695   70.5  0.4463  -26.3
 1.100  0.2785 -175.4   4.973   80.1  0.0757   70.9  0.4409  -26.8
 1.200  0.2808  179.8   4.579   77.5  0.0821   71.1  0.4359  -27.6
 1.300  0.2809  175.2   4.241   75.0  0.0882   71.4  0.4309  -28.5
 1.400  0.2831  171.6   3.965   72.8  0.0951   71.1  0.4261  -29.5
 1.500  0.2893  168.0   3.717   70.6  0.1016   71.4  0.4229  -30.6
 1.600  0.2916  164.2   3.500   68.4  0.1078   71.4  0.4205  -31.8
 1.700  0.2942  160.9   3.309   66.4  0.1144   71.3  0.4164  -33.3
 1.800  0.2981  158.1   3.147   64.3  0.1210   70.7  0.4134  -34.6
 1.900  0.3042  155.6   2.998   62.4  0.1279   70.8  0.4109  -36.0
 2.000  0.3088  152.7   2.857   60.3  0.1348   70.5  0.4088  -37.8
 2.100  0.3127  150.1   2.738   58.5  0.1418   70.2  0.4062  -39.4
 2.200  0.3172  147.5   2.623   56.5  0.1489   69.9  0.4040  -41.1
 2.300  0.3233  145.3   2.526   54.7  0.1561   69.4  0.4025  -42.9
 2.400  0.3299  143.1   2.431   52.7  0.1634   68.9  0.4015  -44.8
 2.500  0.3331  141.0   2.345   51.0  0.1701   68.4  0.4006  -46.7
 2.600  0.3368  138.9   2.262   49.2  0.1769   67.9  0.4001  -48.6
 2.700  0.3431  136.7   2.190   47.5  0.1842   67.4  0.3998  -50.4
 2.800  0.3498  134.6   2.121   45.7  0.1916   67.0  0.3999  -52.3
 2.900  0.3540  132.6   2.060   44.0  0.1990   66.3  0.3989  -54.2
 3.000  0.3586  130.7   2.001   42.2  0.2065   65.7  0.3984  -56.1
 3.100  0.3628  128.8   1.949   40.8  0.2143   65.0  0.3977  -57.9
 3.200  0.3675  126.9   1.899   39.3  0.2221   64.4  0.3974  -59.6
 3.300  0.3725  125.1   1.850   37.7  0.2300   63.8  0.3975  -61.4
 3.400  0.3779  123.3   1.802   36.0  0.2379   63.3  0.3980  -63.1
 3.500  0.3836  121.6   1.756   34.3  0.2458   62.8  0.3988  -64.9
 3.600  0.3881  120.0   1.718   32.9  0.2538   61.9  0.3962  -66.8
 3.700  0.3930  118.4   1.682   31.5  0.2619   61.1  0.3941  -68.7
 3.800  0.3981  116.8   1.646   30.0  0.2700   60.4  0.3924  -70.6
 3.900  0.4036  115.3   1.612   28.4  0.2781   59.7  0.3911  -72.6
 4.000  0.4093  113.8   1.579   26.8  0.2863   59.0  0.3903  -74.5
 4.100  0.4148  112.3   1.549   25.4  0.2946   58.0  0.3857  -76.7
 4.200  0.4206  110.8   1.520   24.0  0.3029   57.1  0.3818  -78.9
 4.300  0.4266  109.4   1.493   22.5  0.3113   56.2  0.3784  -81.2
 4.400  0.4329  108.0   1.466   21.0  0.3198   55.3  0.3756  -83.5
 4.500  0.4394  106.7   1.440   19.4  0.3284   54.5  0.3734  -85.8
 4.600  0.4457  105.4   1.414   18.2  0.3366   53.6  0.3692  -88.5
 4.700  0.4523  104.1   1.388   16.9  0.3448   52.7  0.3659  -91.2
 4.800  0.4590  102.9   1.363   15.6  0.3532   51.8  0.3633  -94.0
 4.900  0.4660  101.7   1.339   14.2  0.3616   51.0  0.3617  -96.8
 5.000  0.4732  100.5   1.316   12.8  0.3701   50.2  0.3609  -99.6
 5.100  0.4780   99.2   1.296   11.7  0.3784   49.2  0.3603 -102.6
 5.200  0.4830   98.0   1.277   10.5  0.3868   48.2  0.3607 -105.6
 5.300  0.4882   96.8   1.258    9.2  0.3953   47.2  0.3620 -108.6
 5.400  0.4937   95.6   1.240    8.0  0.4039   46.3  0.3644 -111.6
 5.500  0.4993   94.5   1.222    6.7  0.4126   45.4  0.3677 -114.5
 5.600  0.5022   93.3   1.204    5.7  0.4207   44.3  0.3691 -117.2
 5.700  0.5054   92.2   1.186    4.6  0.4290   43.2  0.3713 -119.9
 5.800  0.5087   91.0   1.168    3.6  0.4375   42.2  0.3743 -122.6
 5.900  0.5123   89.9   1.151    2.4  0.4461   41.2  0.3782 -125.2
 6.000  0.5160   88.8   1.134    1.3  0.4548   40.2  0.3828 -127.8
!
!  f       NFmin   Gammaopt  rn/50
! GHz       dB    MAG  ANG    -
!
! noise parameter not available yet for this operation point!
!
! (c) 2017  Infineon Technologies AG, Munich