! Infineon Technologies  Discrete & RF Semiconductors
! BFR181W
! VCE =  2.0 V,  IC =  11 mA
! Common Emitter S-Parameters:                            Jan 2017
# GHz  S  MA  R  50
!  f         S11            S21            S12            S22
! GHz     MAG   ANG      MAG   ANG      MAG   ANG      MAG   ANG
 0.010  0.6952   -3.8  25.961  177.6  0.0015   80.8  0.9823   -1.7
 0.020  0.6844  -10.5  25.805  173.4  0.0037   93.8  0.9847   -3.5
 0.030  0.6709  -14.5  25.407  170.4  0.0056   85.7  0.9743   -5.3
 0.040  0.6607  -18.6  25.080  167.3  0.0075   81.7  0.9649   -7.2
 0.050  0.6540  -22.8  24.827  164.2  0.0094   79.3  0.9565   -9.1
 0.060  0.6402  -26.7  24.258  161.6  0.0108   77.4  0.9411  -10.5
 0.070  0.6296  -30.8  23.743  158.8  0.0122   75.9  0.9262  -11.9
 0.080  0.6223  -35.0  23.286  155.9  0.0136   74.7  0.9119  -13.4
 0.090  0.6183  -39.3  22.888  153.0  0.0150   73.8  0.8983  -14.9
 0.100  0.6179  -43.6  22.555  149.9  0.0164   73.0  0.8853  -16.5
 0.110  0.6012  -47.0  21.963  147.8  0.0175   71.3  0.8694  -17.5
 0.120  0.5866  -50.5  21.401  145.6  0.0186   69.8  0.8538  -18.5
 0.130  0.5744  -54.3  20.872  143.3  0.0197   68.5  0.8384  -19.5
 0.140  0.5648  -58.1  20.378  140.9  0.0209   67.4  0.8233  -20.6
 0.150  0.5578  -62.1  19.922  138.4  0.0220   66.3  0.8085  -21.7
 0.200  0.5081  -76.8  17.373  129.0  0.0259   63.2  0.7375  -24.7
 0.250  0.4677  -89.9  15.273  121.8  0.0299   60.5  0.6788  -26.4
 0.300  0.4355 -100.9  13.460  116.1  0.0325   59.8  0.6309  -27.2
 0.350  0.4094 -108.9  12.113  112.3  0.0354   59.7  0.5997  -27.3
 0.400  0.3922 -117.8  10.834  107.5  0.0383   59.6  0.5685  -27.5
 0.450  0.3773 -124.3   9.879  104.6  0.0409   60.2  0.5483  -27.4
 0.500  0.3675 -131.2   8.953  101.2  0.0436   60.7  0.5282  -27.3
 0.600  0.3530 -141.8   7.631   96.1  0.0490   62.0  0.5015  -26.9
 0.700  0.3461 -150.9   6.630   91.9  0.0542   63.6  0.4835  -26.7
 0.800  0.3398 -158.4   5.871   88.1  0.0600   65.1  0.4707  -26.9
 0.900  0.3365 -164.8   5.250   84.8  0.0652   65.7  0.4602  -27.3
 1.000  0.3365 -170.4   4.772   81.8  0.0714   66.9  0.4516  -27.7
 1.100  0.3404 -175.7   4.363   79.1  0.0774   67.6  0.4465  -28.3
 1.200  0.3405  179.5   4.020   76.3  0.0830   67.7  0.4402  -29.1
 1.300  0.3400  175.3   3.726   73.7  0.0887   68.1  0.4359  -30.1
 1.400  0.3429  171.8   3.484   71.3  0.0956   68.7  0.4309  -31.2
 1.500  0.3483  168.2   3.264   69.0  0.1017   69.1  0.4272  -32.4
 1.600  0.3527  164.7   3.078   66.6  0.1086   69.1  0.4248  -33.7
 1.700  0.3541  161.5   2.910   64.4  0.1148   69.3  0.4207  -35.2
 1.800  0.3588  158.5   2.769   62.2  0.1213   69.3  0.4176  -36.7
 1.900  0.3643  155.8   2.639   60.3  0.1284   69.2  0.4152  -38.2
 2.000  0.3694  153.3   2.513   58.0  0.1355   69.0  0.4130  -40.0
 2.100  0.3727  150.5   2.410   56.0  0.1425   68.8  0.4106  -41.8
 2.200  0.3769  147.7   2.310   53.9  0.1496   68.7  0.4087  -43.7
 2.300  0.3827  145.5   2.224   52.0  0.1568   68.3  0.4073  -45.6
 2.400  0.3890  143.3   2.141   50.0  0.1641   68.0  0.4063  -47.6
 2.500  0.3927  141.2   2.065   48.2  0.1713   67.6  0.4056  -49.6
 2.600  0.3970  139.2   1.992   46.3  0.1786   67.3  0.4054  -51.6
 2.700  0.4029  136.9   1.929   44.5  0.1862   66.9  0.4053  -53.6
 2.800  0.4094  134.6   1.868   42.6  0.1939   66.5  0.4056  -55.5
 2.900  0.4136  132.6   1.814   40.9  0.2018   65.9  0.4048  -57.5
 3.000  0.4183  130.6   1.761   39.0  0.2097   65.3  0.4044  -59.5
 3.100  0.4224  128.6   1.715   37.5  0.2177   64.6  0.4036  -61.4
 3.200  0.4270  126.7   1.670   36.0  0.2258   64.0  0.4032  -63.3
 3.300  0.4320  124.8   1.627   34.4  0.2339   63.4  0.4033  -65.2
 3.400  0.4375  122.9   1.585   32.7  0.2420   62.9  0.4038  -67.1
 3.500  0.4435  121.1   1.544   30.9  0.2501   62.4  0.4048  -69.0
 3.600  0.4478  119.3   1.510   29.5  0.2585   61.5  0.4020  -71.0
 3.700  0.4526  117.6   1.477   28.1  0.2669   60.7  0.3998  -73.1
 3.800  0.4577  115.9   1.445   26.5  0.2755   59.9  0.3981  -75.2
 3.900  0.4632  114.3   1.415   25.0  0.2840   59.2  0.3969  -77.3
 4.000  0.4691  112.7   1.385   23.3  0.2926   58.5  0.3962  -79.4
 4.100  0.4737  111.1   1.358   21.9  0.3014   57.5  0.3917  -81.7
 4.200  0.4787  109.6   1.332   20.5  0.3102   56.5  0.3878  -84.1
 4.300  0.4840  108.0   1.307   19.1  0.3192   55.6  0.3846  -86.5
 4.400  0.4897  106.6   1.283   17.6  0.3282   54.7  0.3821  -89.0
 4.500  0.4957  105.1   1.260   16.0  0.3373   53.9  0.3803  -91.5
 4.600  0.5013  103.8   1.236   14.8  0.3458   52.9  0.3763  -94.4
 4.700  0.5072  102.4   1.213   13.6  0.3544   51.9  0.3732  -97.3
 4.800  0.5134  101.2   1.191   12.4  0.3631   51.0  0.3712 -100.2
 4.900  0.5198   99.9   1.169   11.1  0.3719   50.1  0.3701 -103.2
 5.000  0.5264   98.7   1.148    9.7  0.3808   49.3  0.3700 -106.2
 5.100  0.5308   97.4   1.130    8.6  0.3894   48.2  0.3699 -109.3
 5.200  0.5354   96.0   1.113    7.4  0.3981   47.1  0.3710 -112.4
 5.300  0.5404   94.7   1.096    6.3  0.4069   46.1  0.3731 -115.5
 5.400  0.5456   93.5   1.080    5.1  0.4159   45.1  0.3763 -118.5
 5.500  0.5511   92.2   1.064    3.8  0.4250   44.2  0.3805 -121.5
 5.600  0.5528   91.0   1.048    2.9  0.4332   43.0  0.3822 -124.3
 5.700  0.5547   89.8   1.032    1.9  0.4415   41.8  0.3847 -127.0
 5.800  0.5569   88.6   1.016    0.9  0.4501   40.7  0.3881 -129.7
 5.900  0.5593   87.4   1.001   -0.1  0.4587   39.6  0.3923 -132.3
 6.000  0.5620   86.2   0.986   -1.1  0.4676   38.6  0.3974 -134.9
!
!  f       NFmin   Gammaopt  rn/50
! GHz       dB    MAG  ANG    -
 0.450      1.29  0.12   17   0.21
 0.900      1.33  0.12   31   0.21
 1.900      1.76  0.04 -171   0.20
 2.400      1.95  0.05 -122   0.25
!
! (c) 2017  Infineon Technologies AG, Munich