! Infineon Technologies  Discrete & RF Semiconductors
! BFR181W
! VCE =  9.0 V,  IC =  19 mA
! Common Emitter S-Parameters:                            Jan 2017
# GHz  S  MA  R  50
!  f         S11            S21            S12            S22
! GHz     MAG   ANG      MAG   ANG      MAG   ANG      MAG   ANG
 0.010  0.6408   -3.2  33.344  176.0  0.0011   80.9  0.9831   -1.6
 0.020  0.6317  -10.3  32.915  172.3  0.0029   94.3  0.9734   -3.4
 0.030  0.6188  -14.2  32.345  169.3  0.0044   86.4  0.9658   -5.4
 0.040  0.6087  -18.2  31.864  166.3  0.0059   82.6  0.9594   -7.4
 0.050  0.6018  -22.3  31.478  163.1  0.0075   80.3  0.9543   -9.5
 0.060  0.5873  -26.1  30.672  160.4  0.0087   78.4  0.9379  -10.9
 0.070  0.5754  -30.1  29.938  157.6  0.0099   77.0  0.9220  -12.4
 0.080  0.5664  -34.2  29.280  154.6  0.0111   75.9  0.9068  -14.0
 0.090  0.5605  -38.4  28.704  151.5  0.0123   75.0  0.8923  -15.6
 0.100  0.5576  -42.7  28.215  148.3  0.0135   74.3  0.8785  -17.2
 0.110  0.5407  -45.9  27.421  146.2  0.0145   72.8  0.8612  -18.1
 0.120  0.5255  -49.2  26.664  144.0  0.0156   71.6  0.8442  -19.1
 0.130  0.5122  -52.8  25.949  141.7  0.0166   70.5  0.8274  -20.1
 0.140  0.5011  -56.5  25.279  139.3  0.0176   69.5  0.8109  -21.1
 0.150  0.4921  -60.4  24.657  136.7  0.0187   68.6  0.7946  -22.2
 0.200  0.4400  -74.1  21.288  127.5  0.0219   66.2  0.7201  -24.9
 0.250  0.3962  -86.4  18.562  120.4  0.0260   64.3  0.6628  -26.3
 0.300  0.3611  -97.0  16.293  115.0  0.0282   63.2  0.6166  -26.8
 0.350  0.3352 -104.5  14.618  111.4  0.0313   64.1  0.5864  -26.8
 0.400  0.3158 -113.0  13.016  106.9  0.0345   64.8  0.5563  -26.7
 0.450  0.2989 -119.3  11.861  104.3  0.0370   65.4  0.5373  -26.5
 0.500  0.2860 -126.2  10.737  101.1  0.0396   65.9  0.5184  -26.2
 0.600  0.2696 -137.3   9.136   96.4  0.0458   67.9  0.4938  -25.7
 0.700  0.2605 -146.7   7.925   92.5  0.0509   69.2  0.4763  -25.3
 0.800  0.2544 -154.6   7.015   89.0  0.0580   70.1  0.4646  -25.4
 0.900  0.2504 -161.8   6.271   86.0  0.0633   70.4  0.4551  -25.6
 1.000  0.2491 -167.6   5.693   83.2  0.0691   71.0  0.4468  -25.9
 1.100  0.2506 -173.1   5.202   80.8  0.0758   71.2  0.4417  -26.5
 1.200  0.2516 -178.6   4.790   78.2  0.0818   71.5  0.4361  -27.1
 1.300  0.2512  176.7   4.440   75.8  0.0880   71.6  0.4318  -28.1
 1.400  0.2542  172.9   4.149   73.6  0.0949   71.8  0.4269  -29.0
 1.500  0.2610  169.3   3.888   71.5  0.1011   71.6  0.4233  -30.0
 1.600  0.2627  165.3   3.662   69.3  0.1082   71.6  0.4212  -31.2
 1.700  0.2646  161.9   3.462   67.4  0.1146   71.4  0.4170  -32.5
 1.800  0.2693  158.6   3.293   65.3  0.1215   70.9  0.4137  -33.9
 1.900  0.2749  156.2   3.137   63.5  0.1279   70.8  0.4112  -35.3
 2.000  0.2789  153.4   2.989   61.5  0.1347   70.4  0.4087  -37.0
 2.100  0.2825  150.7   2.865   59.7  0.1415   70.0  0.4062  -38.6
 2.200  0.2868  148.1   2.744   57.7  0.1483   69.7  0.4040  -40.3
 2.300  0.2935  145.7   2.642   55.9  0.1555   69.2  0.4026  -42.1
 2.400  0.3007  143.5   2.543   54.0  0.1627   68.8  0.4015  -43.9
 2.500  0.3041  141.4   2.454   52.3  0.1696   68.3  0.4006  -45.7
 2.600  0.3078  139.4   2.368   50.5  0.1765   67.8  0.4001  -47.5
 2.700  0.3133  137.2   2.293   48.9  0.1836   67.3  0.3996  -49.3
 2.800  0.3193  135.0   2.220   47.1  0.1907   66.8  0.3994  -51.1
 2.900  0.3238  133.1   2.156   45.4  0.1982   66.2  0.3985  -52.9
 3.000  0.3287  131.3   2.094   43.7  0.2058   65.6  0.3980  -54.7
 3.100  0.3330  129.3   2.040   42.3  0.2134   64.9  0.3972  -56.4
 3.200  0.3377  127.4   1.988   40.8  0.2210   64.3  0.3968  -58.2
 3.300  0.3427  125.6   1.937   39.3  0.2286   63.7  0.3968  -59.9
 3.400  0.3481  123.7   1.887   37.6  0.2362   63.1  0.3971  -61.7
 3.500  0.3538  122.0   1.839   35.9  0.2439   62.6  0.3978  -63.4
 3.600  0.3583  120.4   1.800   34.5  0.2517   61.8  0.3952  -65.2
 3.700  0.3630  118.8   1.762   33.1  0.2595   61.0  0.3931  -67.0
 3.800  0.3681  117.3   1.726   31.6  0.2674   60.2  0.3913  -68.8
 3.900  0.3734  115.8   1.690   30.1  0.2753   59.6  0.3899  -70.7
 4.000  0.3789  114.3   1.656   28.5  0.2832   58.9  0.3889  -72.5
 4.100  0.3844  112.8   1.625   27.1  0.2913   57.9  0.3844  -74.6
 4.200  0.3901  111.4   1.595   25.7  0.2994   57.0  0.3803  -76.7
 4.300  0.3961  110.0   1.566   24.2  0.3076   56.1  0.3769  -78.9
 4.400  0.4023  108.7   1.539   22.7  0.3159   55.3  0.3739  -81.1
 4.500  0.4087  107.4   1.512   21.1  0.3242   54.5  0.3716  -83.4
 4.600  0.4153  106.1   1.485   19.9  0.3322   53.6  0.3673  -86.0
 4.700  0.4221  104.9   1.459   18.6  0.3403   52.7  0.3638  -88.6
 4.800  0.4291  103.7   1.433   17.3  0.3484   51.9  0.3610  -91.3
 4.900  0.4363  102.6   1.408   15.9  0.3566   51.1  0.3591  -94.1
 5.000  0.4436  101.5   1.384   14.5  0.3649   50.3  0.3580  -96.8
 5.100  0.4485  100.3   1.363   13.3  0.3730   49.3  0.3573  -99.7
 5.200  0.4537   99.1   1.343   12.1  0.3812   48.3  0.3575 -102.7
 5.300  0.4590   97.9   1.324   10.9  0.3894   47.4  0.3586 -105.6
 5.400  0.4646   96.7   1.305    9.6  0.3978   46.5  0.3607 -108.5
 5.500  0.4703   95.6   1.287    8.3  0.4063   45.7  0.3637 -111.4
 5.600  0.4734   94.5   1.268    7.2  0.4144   44.6  0.3650 -114.1
 5.700  0.4766   93.4   1.249    6.1  0.4226   43.5  0.3671 -116.8
 5.800  0.4801   92.3   1.231    5.0  0.4309   42.5  0.3700 -119.4
 5.900  0.4836   91.2   1.213    3.8  0.4394   41.5  0.3736 -122.0
 6.000  0.4874   90.2   1.196    2.6  0.4480   40.6  0.3780 -124.5
!
!  f       NFmin   Gammaopt  rn/50
! GHz       dB    MAG  ANG    -
!
! noise parameter not available yet for this operation point!
!
! (c) 2017  Infineon Technologies AG, Munich