! Infineon Technologies  Discrete & RF Semiconductors
! BFR181W
! VCE =  5.0 V,  IC =  5.0 mA
! Common Emitter S-Parameters:                            Jan 2017
# GHz  S  MA  R  50
!  f         S11            S21            S12            S22
! GHz     MAG   ANG      MAG   ANG      MAG   ANG      MAG   ANG
 0.010  0.8554   -1.3  15.150  178.9  0.0015   93.2  0.9984   -1.0
 0.020  0.8367   -5.4  14.979  176.4  0.0029   95.6  0.9908   -1.8
 0.030  0.8304   -6.9  14.901  174.8  0.0048   88.4  0.9899   -2.9
 0.040  0.8247   -8.4  14.835  173.1  0.0067   85.3  0.9893   -4.1
 0.050  0.8196  -10.0  14.781  171.5  0.0086   83.6  0.9892   -5.2
 0.060  0.8165  -12.1  14.669  169.9  0.0103   82.3  0.9838   -6.2
 0.070  0.8144  -14.2  14.570  168.2  0.0120   81.4  0.9787   -7.2
 0.080  0.8135  -16.3  14.482  166.6  0.0138   80.7  0.9740   -8.2
 0.090  0.8136  -18.4  14.407  164.9  0.0155   80.2  0.9695   -9.2
 0.100  0.8149  -20.5  14.344  163.2  0.0172   79.8  0.9653  -10.2
 0.110  0.8053  -22.4  14.214  161.7  0.0186   78.5  0.9586  -11.1
 0.120  0.7966  -24.4  14.094  160.2  0.0200   77.4  0.9521  -12.0
 0.130  0.7888  -26.4  13.984  158.6  0.0214   76.5  0.9458  -12.9
 0.140  0.7821  -28.5  13.885  157.0  0.0229   75.6  0.9398  -13.9
 0.150  0.7764  -30.6  13.796  155.4  0.0243   74.9  0.9341  -14.8
 0.200  0.7419  -39.2  13.085  147.9  0.0310   71.1  0.8938  -18.7
 0.250  0.6976  -47.9  12.367  141.2  0.0374   66.8  0.8526  -22.0
 0.300  0.6504  -55.8  11.581  135.3  0.0418   63.4  0.8099  -24.7
 0.350  0.6084  -62.1  10.837  130.7  0.0459   61.6  0.7721  -26.6
 0.400  0.5748  -69.2  10.173  125.5  0.0501   60.1  0.7352  -28.6
 0.450  0.5386  -74.7   9.513  121.8  0.0534   58.6  0.7040  -29.8
 0.500  0.5081  -80.9   8.898  117.6  0.0567   57.2  0.6731  -31.1
 0.600  0.4551  -91.2   7.876  111.0  0.0622   55.9  0.6232  -32.5
 0.700  0.4102 -100.9   7.013  105.4  0.0670   55.8  0.5844  -33.4
 0.800  0.3777 -110.0   6.329  100.6  0.0717   56.3  0.5535  -34.1
 0.900  0.3502 -118.0   5.737   96.4  0.0760   56.1  0.5294  -34.6
 1.000  0.3290 -125.4   5.259   92.6  0.0812   56.7  0.5086  -35.1
 1.100  0.3143 -132.9   4.840   89.3  0.0855   57.0  0.4937  -35.5
 1.200  0.3002 -139.5   4.483   86.0  0.0901   57.4  0.4799  -36.1
 1.300  0.2886 -146.3   4.175   82.9  0.0949   58.0  0.4687  -36.7
 1.400  0.2841 -152.2   3.916   80.2  0.1001   58.6  0.4577  -37.4
 1.500  0.2803 -158.1   3.683   77.6  0.1052   59.1  0.4501  -38.2
 1.600  0.2763 -163.7   3.477   74.9  0.1100   59.6  0.4447  -39.1
 1.700  0.2738 -168.6   3.294   72.6  0.1153   60.1  0.4366  -40.3
 1.800  0.2730 -173.7   3.142   70.2  0.1209   60.4  0.4303  -41.3
 1.900  0.2764 -178.0   2.998   68.1  0.1266   60.5  0.4259  -42.5
 2.000  0.2766  177.4   2.863   65.7  0.1323   60.8  0.4217  -43.8
 2.100  0.2779  173.3   2.748   63.6  0.1380   61.0  0.4178  -45.2
 2.200  0.2806  169.3   2.637   61.4  0.1437   61.1  0.4141  -46.7
 2.300  0.2847  165.6   2.541   59.4  0.1499   61.2  0.4118  -48.2
 2.400  0.2900  162.1   2.449   57.2  0.1561   61.2  0.4098  -49.8
 2.500  0.2923  159.0   2.364   55.3  0.1623   61.2  0.4080  -51.4
 2.600  0.2955  156.0   2.281   53.3  0.1686   61.2  0.4066  -53.1
 2.700  0.3008  152.9   2.211   51.5  0.1751   61.0  0.4058  -54.7
 2.800  0.3069  149.9   2.143   49.6  0.1816   60.9  0.4053  -56.3
 2.900  0.3110  147.0   2.083   47.8  0.1883   60.6  0.4041  -57.9
 3.000  0.3159  144.2   2.026   45.8  0.1951   60.4  0.4032  -59.5
 3.100  0.3197  141.7   1.974   44.3  0.2022   60.1  0.4024  -61.1
 3.200  0.3241  139.2   1.923   42.7  0.2094   59.7  0.4020  -62.7
 3.300  0.3290  136.8   1.875   41.0  0.2165   59.4  0.4018  -64.2
 3.400  0.3346  134.5   1.827   39.2  0.2236   59.2  0.4019  -65.8
 3.500  0.3406  132.3   1.782   37.3  0.2308   58.9  0.4024  -67.4
 3.600  0.3450  130.2   1.745   35.8  0.2384   58.3  0.4000  -69.1
 3.700  0.3499  128.2   1.709   34.3  0.2461   57.7  0.3979  -70.9
 3.800  0.3552  126.2   1.674   32.8  0.2538   57.2  0.3962  -72.6
 3.900  0.3609  124.3   1.641   31.1  0.2615   56.7  0.3948  -74.4
 4.000  0.3670  122.5   1.609   29.4  0.2692   56.2  0.3939  -76.2
 4.100  0.3727  120.6   1.579   28.0  0.2772   55.4  0.3894  -78.3
 4.200  0.3787  118.8   1.550   26.4  0.2852   54.7  0.3855  -80.4
 4.300  0.3852  117.1   1.522   24.9  0.2933   54.0  0.3821  -82.6
 4.400  0.3919  115.4   1.495   23.3  0.3014   53.3  0.3793  -84.8
 4.500  0.3990  113.8   1.470   21.6  0.3096   52.7  0.3770  -87.0
 4.600  0.4059  112.3   1.444   20.3  0.3177   51.9  0.3731  -89.6
 4.700  0.4131  110.8   1.418   19.0  0.3259   51.2  0.3700  -92.2
 4.800  0.4205  109.3   1.393   17.6  0.3342   50.4  0.3677  -94.8
 4.900  0.4282  107.9   1.369   16.2  0.3425   49.8  0.3662  -97.5
 5.000  0.4362  106.6   1.346   14.7  0.3508   49.1  0.3655 -100.2
 5.100  0.4412  105.1   1.326   13.5  0.3591   48.2  0.3653 -103.1
 5.200  0.4465  103.7   1.306   12.3  0.3675   47.3  0.3660 -106.0
 5.300  0.4521  102.3   1.287   11.0  0.3760   46.4  0.3676 -108.9
 5.400  0.4580  100.9   1.269    9.7  0.3846   45.6  0.3702 -111.7
 5.500  0.4641   99.6   1.251    8.3  0.3932   44.8  0.3736 -114.5
 5.600  0.4679   98.4   1.232    7.2  0.4015   43.8  0.3751 -117.2
 5.700  0.4719   97.1   1.214    6.1  0.4099   42.8  0.3774 -119.8
 5.800  0.4761   95.9   1.196    5.0  0.4185   41.8  0.3804 -122.4
 5.900  0.4806   94.8   1.178    3.8  0.4271   40.9  0.3842 -124.9
 6.000  0.4852   93.6   1.161    2.6  0.4359   40.0  0.3888 -127.4
!
!  f       NFmin   Gammaopt  rn/50
! GHz       dB    MAG  ANG    -
 0.450      0.97  0.33   16   0.23
 0.900      1.03  0.30   30   0.23
 1.900      1.44  0.15   80   0.20
 2.400      1.59  0.13   94   0.22
!
! (c) 2017  Infineon Technologies AG, Munich