! Infineon Technologies  Discrete & RF Semiconductors
! BFR181W
! VCE =  12. V,  IC =  11 mA
! Common Emitter S-Parameters:                            Jan 2017
# GHz  S  MA  R  50
!  f         S11            S21            S12            S22
! GHz     MAG   ANG      MAG   ANG      MAG   ANG      MAG   ANG
 0.010  0.7642   -1.8  25.472  176.5  0.0013   69.7  0.9872   -1.3
 0.020  0.7525   -7.2  25.064  173.7  0.0025   91.0  0.9913   -2.8
 0.030  0.7422   -9.7  24.751  171.6  0.0042   84.6  0.9838   -4.3
 0.040  0.7333  -12.3  24.473  169.4  0.0060   82.0  0.9769   -5.8
 0.050  0.7260  -15.0  24.231  167.2  0.0077   80.5  0.9708   -7.4
 0.060  0.7174  -17.8  23.864  165.0  0.0091   79.0  0.9601   -8.7
 0.070  0.7106  -20.7  23.533  162.8  0.0106   77.9  0.9498  -10.0
 0.080  0.7056  -23.6  23.239  160.5  0.0120   77.1  0.9400  -11.3
 0.090  0.7025  -26.6  22.984  158.1  0.0135   76.4  0.9307  -12.6
 0.100  0.7013  -29.6  22.768  155.7  0.0149   75.9  0.9220  -14.0
 0.110  0.6863  -32.1  22.357  153.8  0.0162   74.6  0.9096  -15.0
 0.120  0.6727  -34.7  21.970  151.9  0.0176   73.4  0.8975  -16.1
 0.130  0.6605  -37.4  21.609  149.9  0.0190   72.5  0.8858  -17.2
 0.140  0.6499  -40.2  21.275  147.8  0.0203   71.6  0.8743  -18.3
 0.150  0.6408  -43.1  20.970  145.7  0.0217   70.9  0.8632  -19.4
 0.200  0.5865  -53.9  18.955  136.9  0.0251   67.9  0.8011  -23.2
 0.250  0.5309  -64.3  17.159  129.7  0.0302   65.2  0.7441  -26.0
 0.300  0.4805  -73.2  15.463  123.8  0.0330   63.8  0.6930  -27.7
 0.350  0.4408  -79.9  14.089  119.6  0.0365   62.9  0.6552  -28.5
 0.400  0.4082  -87.7  12.808  114.5  0.0401   62.2  0.6176  -29.4
 0.450  0.3786  -93.5  11.775  111.4  0.0428   61.9  0.5910  -29.7
 0.500  0.3535 -100.1  10.783  107.8  0.0456   61.6  0.5644  -30.0
 0.600  0.3163 -111.0   9.294  102.3  0.0514   62.4  0.5281  -30.0
 0.700  0.2880 -120.5   8.128   97.7  0.0561   63.8  0.5006  -29.8
 0.800  0.2676 -129.8   7.234   93.7  0.0625   64.7  0.4808  -29.9
 0.900  0.2535 -137.8   6.492   90.3  0.0679   64.7  0.4656  -29.9
 1.000  0.2444 -145.6   5.911   87.3  0.0732   65.8  0.4526  -30.0
 1.100  0.2365 -152.3   5.414   84.5  0.0796   66.4  0.4442  -30.3
 1.200  0.2322 -159.0   4.992   81.7  0.0852   66.4  0.4359  -30.7
 1.300  0.2278 -165.1   4.633   79.2  0.0906   66.8  0.4289  -31.4
 1.400  0.2282 -170.4   4.333   76.8  0.0976   67.0  0.4219  -32.1
 1.500  0.2303 -175.4   4.065   74.6  0.1034   67.3  0.4171  -32.9
 1.600  0.2315  179.5   3.831   72.3  0.1099   67.3  0.4138  -33.9
 1.700  0.2317  175.1   3.622   70.3  0.1161   67.2  0.4088  -35.1
 1.800  0.2337  171.4   3.448   68.1  0.1224   67.1  0.4044  -36.3
 1.900  0.2383  167.6   3.285   66.3  0.1287   66.8  0.4013  -37.5
 2.000  0.2419  163.9   3.132   64.2  0.1350   66.7  0.3982  -38.9
 2.100  0.2446  160.5   3.004   62.3  0.1416   66.4  0.3952  -40.4
 2.200  0.2481  157.1   2.879   60.3  0.1483   66.1  0.3925  -42.0
 2.300  0.2537  154.1   2.772   58.5  0.1551   65.8  0.3906  -43.6
 2.400  0.2599  151.3   2.669   56.5  0.1620   65.5  0.3891  -45.3
 2.500  0.2633  148.9   2.575   54.8  0.1687   65.1  0.3877  -47.0
 2.600  0.2671  146.5   2.484   53.0  0.1755   64.7  0.3867  -48.7
 2.700  0.2725  143.8   2.406   51.3  0.1823   64.3  0.3861  -50.3
 2.800  0.2785  141.2   2.331   49.5  0.1892   63.9  0.3859  -52.0
 2.900  0.2835  139.0   2.265   47.8  0.1961   63.4  0.3849  -53.7
 3.000  0.2890  136.8   2.201   46.1  0.2030   62.9  0.3842  -55.4
 3.100  0.2930  134.6   2.145   44.7  0.2104   62.3  0.3835  -57.0
 3.200  0.2975  132.4   2.090   43.2  0.2177   61.8  0.3830  -58.6
 3.300  0.3024  130.4   2.037   41.6  0.2252   61.3  0.3829  -60.2
 3.400  0.3077  128.3   1.985   39.9  0.2326   60.8  0.3830  -61.8
 3.500  0.3133  126.4   1.935   38.2  0.2400   60.4  0.3835  -63.4
 3.600  0.3178  124.6   1.894   36.8  0.2474   59.6  0.3809  -65.1
 3.700  0.3227  122.9   1.855   35.4  0.2548   58.9  0.3787  -66.8
 3.800  0.3278  121.3   1.817   33.9  0.2623   58.2  0.3768  -68.5
 3.900  0.3332  119.7   1.780   32.3  0.2698   57.5  0.3753  -70.2
 4.000  0.3388  118.1   1.744   30.7  0.2773   56.9  0.3741  -72.0
 4.100  0.3447  116.6   1.712   29.3  0.2850   56.0  0.3697  -74.0
 4.200  0.3509  115.1   1.681   27.9  0.2927   55.2  0.3657  -76.0
 4.300  0.3573  113.7   1.651   26.4  0.3005   54.4  0.3622  -78.1
 4.400  0.3639  112.3   1.622   24.8  0.3083   53.7  0.3592  -80.2
 4.500  0.3707  111.0   1.595   23.2  0.3162   53.0  0.3567  -82.4
 4.600  0.3774  109.6   1.567   21.9  0.3240   52.1  0.3526  -84.9
 4.700  0.3843  108.3   1.539   20.6  0.3318   51.3  0.3491  -87.5
 4.800  0.3915  107.0   1.513   19.3  0.3397   50.6  0.3464  -90.1
 4.900  0.3988  105.7   1.487   17.9  0.3476   49.8  0.3444  -92.7
 5.000  0.4063  104.5   1.462   16.4  0.3556   49.1  0.3431  -95.4
 5.100  0.4116  103.3   1.441   15.2  0.3634   48.2  0.3424  -98.3
 5.200  0.4171  102.1   1.420   14.0  0.3713   47.3  0.3425 -101.2
 5.300  0.4228  100.9   1.401   12.7  0.3793   46.4  0.3435 -104.1
 5.400  0.4286   99.8   1.381   11.4  0.3874   45.6  0.3454 -107.0
 5.500  0.4346   98.7   1.363   10.1  0.3955   44.8  0.3481 -109.8
 5.600  0.4384   97.5   1.343    9.0  0.4033   43.8  0.3493 -112.4
 5.700  0.4424   96.4   1.324    7.9  0.4112   42.8  0.3511 -115.0
 5.800  0.4466   95.3   1.305    6.7  0.4193   41.8  0.3537 -117.6
 5.900  0.4510   94.2   1.287    5.5  0.4274   40.9  0.3570 -120.1
 6.000  0.4555   93.1   1.269    4.3  0.4357   40.0  0.3610 -122.6
!
!  f       NFmin   Gammaopt  rn/50
! GHz       dB    MAG  ANG    -
 0.450      1.29  0.12   17   0.21
 0.900      1.33  0.12   31   0.21
 1.900      1.76  0.04 -171   0.20
 2.400      1.95  0.05 -122   0.25
!
! (c) 2017  Infineon Technologies AG, Munich