! Infineon Technologies  Discrete & RF Semiconductors
! BFR181W
! VCE =  5.0 V,  IC =  10 mA
! Common Emitter S-Parameters:                            Jan 2017
# GHz  S  MA  R  50
!  f         S11            S21            S12            S22
! GHz     MAG   ANG      MAG   ANG      MAG   ANG      MAG   ANG
 0.010  0.7395   -2.5  24.797  177.8  0.0017   94.1  0.9926   -1.4
 0.020  0.7206   -7.8  24.392  174.4  0.0029   88.7  0.9926   -2.9
 0.030  0.7126  -10.5  24.175  172.0  0.0046   83.7  0.9857   -4.5
 0.040  0.7062  -13.4  24.001  169.6  0.0064   81.5  0.9796   -6.1
 0.050  0.7016  -16.2  23.871  167.1  0.0081   80.2  0.9743   -7.7
 0.060  0.6920  -19.2  23.487  164.8  0.0095   79.0  0.9632   -9.0
 0.070  0.6843  -22.3  23.140  162.5  0.0109   78.1  0.9526  -10.4
 0.080  0.6786  -25.4  22.834  160.1  0.0123   77.4  0.9426  -11.8
 0.090  0.6750  -28.6  22.569  157.6  0.0137   76.8  0.9331  -13.2
 0.100  0.6735  -31.8  22.346  155.1  0.0151   76.4  0.9242  -14.6
 0.110  0.6587  -34.4  21.919  153.2  0.0164   74.9  0.9109  -15.6
 0.120  0.6453  -37.2  21.517  151.2  0.0177   73.6  0.8979  -16.7
 0.130  0.6336  -40.1  21.143  149.1  0.0190   72.5  0.8851  -17.7
 0.140  0.6234  -43.0  20.797  147.0  0.0203   71.5  0.8728  -18.9
 0.150  0.6150  -46.1  20.480  144.8  0.0216   70.7  0.8607  -20.0
 0.200  0.5627  -57.7  18.426  135.9  0.0261   66.8  0.7957  -23.9
 0.250  0.5107  -68.8  16.614  128.6  0.0304   63.6  0.7380  -26.6
 0.300  0.4634  -78.4  14.933  122.6  0.0337   62.3  0.6861  -28.2
 0.350  0.4273  -85.5  13.580  118.4  0.0370   61.8  0.6479  -29.0
 0.400  0.3990  -93.8  12.314  113.4  0.0403   61.4  0.6098  -29.8
 0.450  0.3729 -100.0  11.310  110.3  0.0429   61.5  0.5836  -30.0
 0.500  0.3517 -107.0  10.344  106.7  0.0456   61.5  0.5574  -30.3
 0.600  0.3185 -117.9   8.899  101.2  0.0511   62.4  0.5211  -30.3
 0.700  0.2960 -128.1   7.771   96.7  0.0562   63.5  0.4945  -30.1
 0.800  0.2813 -137.0   6.913   92.8  0.0621   64.6  0.4757  -30.1
 0.900  0.2680 -145.0   6.202   89.3  0.0676   64.6  0.4605  -30.2
 1.000  0.2635 -152.4   5.642   86.2  0.0736   65.6  0.4484  -30.4
 1.100  0.2594 -159.0   5.167   83.5  0.0790   66.3  0.4399  -30.7
 1.200  0.2566 -165.3   4.766   80.7  0.0846   66.2  0.4318  -31.1
 1.300  0.2531 -170.9   4.420   78.0  0.0906   66.8  0.4256  -31.9
 1.400  0.2549 -175.7   4.134   75.7  0.0972   67.0  0.4186  -32.7
 1.500  0.2583  179.8   3.878   73.4  0.1034   67.3  0.4138  -33.5
 1.600  0.2608  175.3   3.655   71.1  0.1097   67.4  0.4107  -34.5
 1.700  0.2612  171.2   3.456   69.0  0.1165   67.3  0.4053  -35.8
 1.800  0.2650  167.4   3.290   66.9  0.1219   67.2  0.4012  -37.0
 1.900  0.2692  164.3   3.135   65.0  0.1290   67.1  0.3981  -38.3
 2.000  0.2734  160.7   2.989   62.8  0.1355   66.9  0.3956  -39.9
 2.100  0.2765  157.6   2.866   60.9  0.1422   66.6  0.3928  -41.4
 2.200  0.2804  154.6   2.746   58.9  0.1489   66.4  0.3903  -43.0
 2.300  0.2857  151.9   2.645   57.0  0.1557   66.1  0.3884  -44.7
 2.400  0.2917  149.3   2.547   55.0  0.1625   65.9  0.3868  -46.5
 2.500  0.2957  146.9   2.457   53.3  0.1692   65.5  0.3855  -48.2
 2.600  0.3002  144.5   2.370   51.5  0.1760   65.1  0.3846  -49.9
 2.700  0.3062  142.0   2.296   49.8  0.1831   64.7  0.3844  -51.6
 2.800  0.3127  139.6   2.224   48.0  0.1902   64.3  0.3845  -53.4
 2.900  0.3168  137.4   2.160   46.3  0.1975   63.7  0.3833  -55.2
 3.000  0.3214  135.3   2.099   44.4  0.2049   63.2  0.3824  -57.0
 3.100  0.3257  133.2   2.045   43.0  0.2123   62.6  0.3816  -58.7
 3.200  0.3303  131.1   1.993   41.4  0.2197   62.1  0.3812  -60.4
 3.300  0.3355  129.1   1.942   39.8  0.2271   61.6  0.3811  -62.0
 3.400  0.3410  127.1   1.893   38.2  0.2345   61.1  0.3813  -63.7
 3.500  0.3469  125.2   1.845   36.4  0.2420   60.7  0.3818  -65.4
 3.600  0.3515  123.4   1.806   35.0  0.2497   59.9  0.3793  -67.2
 3.700  0.3565  121.7   1.768   33.5  0.2574   59.1  0.3772  -68.9
 3.800  0.3617  120.1   1.731   32.0  0.2652   58.4  0.3755  -70.8
 3.900  0.3673  118.5   1.696   30.4  0.2730   57.7  0.3742  -72.6
 4.000  0.3731  116.9   1.662   28.8  0.2809   57.1  0.3732  -74.4
 4.100  0.3787  115.3   1.631   27.4  0.2888   56.2  0.3688  -76.5
 4.200  0.3846  113.8   1.601   26.0  0.2968   55.3  0.3648  -78.7
 4.300  0.3908  112.3   1.572   24.5  0.3049   54.5  0.3614  -80.9
 4.400  0.3972  110.9   1.545   22.9  0.3130   53.7  0.3586  -83.1
 4.500  0.4039  109.5   1.518   21.3  0.3212   53.0  0.3563  -85.4
 4.600  0.4107  108.1   1.491   20.0  0.3290   52.1  0.3522  -88.0
 4.700  0.4176  106.8   1.464   18.7  0.3369   51.2  0.3489  -90.7
 4.800  0.4249  105.5   1.439   17.4  0.3449   50.4  0.3463  -93.4
 4.900  0.4323  104.2   1.414   16.0  0.3530   49.6  0.3445  -96.1
 5.000  0.4399  103.0   1.390   14.5  0.3611   48.9  0.3435  -98.9
 5.100  0.4450  101.8   1.369   13.3  0.3692   47.9  0.3431 -101.9
 5.200  0.4502  100.6   1.349   12.1  0.3773   47.0  0.3437 -104.8
 5.300  0.4557   99.4   1.330   10.9  0.3856   46.1  0.3451 -107.8
 5.400  0.4614   98.2   1.311    9.6  0.3940   45.3  0.3475 -110.7
 5.500  0.4672   97.1   1.293    8.3  0.4024   44.5  0.3508 -113.6
 5.600  0.4707   95.9   1.274    7.2  0.4104   43.4  0.3523 -116.3
 5.700  0.4744   94.8   1.255    6.1  0.4186   42.4  0.3545 -119.0
 5.800  0.4782   93.6   1.237    4.9  0.4269   41.4  0.3575 -121.6
 5.900  0.4823   92.5   1.219    3.7  0.4353   40.4  0.3612 -124.2
 6.000  0.4865   91.4   1.202    2.5  0.4438   39.5  0.3657 -126.7
!
!  f       NFmin   Gammaopt  rn/50
! GHz       dB    MAG  ANG    -
 0.450      1.24  0.15   16   0.21
 0.900      1.29  0.14   31   0.21
 1.900      1.71  0.03  142   0.20
 2.400      1.88  0.02 -166   0.24
!
! (c) 2017  Infineon Technologies AG, Munich