! Infineon Technologies  Discrete & RF Semiconductors
! BFR181W
! VCE =  6.0 V,  IC =  23 mA
! Common Emitter S-Parameters:                            Jan 2017
# GHz  S  MA  R  50
!  f         S11            S21            S12            S22
! GHz     MAG   ANG      MAG   ANG      MAG   ANG      MAG   ANG
 0.010  0.5571   -5.6  34.678  175.9  0.0012   92.2  0.9686   -1.7
 0.020  0.5484  -14.4  34.306  171.1  0.0032   90.2  0.9682   -4.0
 0.030  0.5337  -20.0  33.487  167.4  0.0044   84.5  0.9541   -6.1
 0.040  0.5245  -26.0  32.814  163.5  0.0056   81.3  0.9412   -8.2
 0.050  0.5210  -32.0  32.298  159.5  0.0068   79.2  0.9297  -10.4
 0.060  0.5038  -37.1  31.188  156.5  0.0081   76.3  0.9097  -11.8
 0.070  0.4908  -42.5  30.169  153.3  0.0094   74.3  0.8902  -13.2
 0.080  0.4824  -48.2  29.250  149.9  0.0107   72.7  0.8713  -14.6
 0.090  0.4788  -54.0  28.441  146.3  0.0120   71.5  0.8530  -16.2
 0.100  0.4802  -59.8  27.751  142.5  0.0133   70.5  0.8354  -17.8
 0.110  0.4653  -63.9  26.754  140.4  0.0141   69.2  0.8173  -18.5
 0.120  0.4530  -68.2  25.795  138.2  0.0150   68.0  0.7993  -19.2
 0.130  0.4433  -72.8  24.879  135.8  0.0159   66.9  0.7814  -19.9
 0.140  0.4366  -77.5  24.010  133.2  0.0167   66.0  0.7636  -20.7
 0.150  0.4329  -82.3  23.194  130.4  0.0176   65.1  0.7460  -21.5
 0.200  0.3989  -98.8  19.409  121.3  0.0199   65.0  0.6780  -22.8
 0.250  0.3774 -112.4  16.564  114.6  0.0234   63.9  0.6301  -23.1
 0.300  0.3631 -123.0  14.321  109.6  0.0258   63.4  0.5944  -22.9
 0.350  0.3505 -130.5  12.762  106.3  0.0285   64.8  0.5730  -22.5
 0.400  0.3443 -138.5  11.255  102.2  0.0313   66.0  0.5517  -22.1
 0.450  0.3375 -144.1  10.212   99.8  0.0337   66.8  0.5396  -21.9
 0.500  0.3341 -149.9   9.190   96.9  0.0361   67.5  0.5275  -21.6
 0.600  0.3309 -158.5   7.770   92.6  0.0418   69.4  0.5114  -21.4
 0.700  0.3302 -165.7   6.718   88.9  0.0474   71.2  0.5008  -21.5
 0.800  0.3329 -171.4   5.931   85.6  0.0537   73.1  0.4929  -21.9
 0.900  0.3307 -176.7   5.296   82.7  0.0591   73.0  0.4870  -22.6
 1.000  0.3359  178.7   4.805   80.1  0.0654   73.8  0.4808  -23.3
 1.100  0.3385  174.6   4.390   77.6  0.0716   74.5  0.4784  -24.2
 1.200  0.3406  170.3   4.041   75.1  0.0776   74.5  0.4739  -25.1
 1.300  0.3430  166.7   3.743   72.6  0.0840   74.7  0.4703  -26.4
 1.400  0.3466  163.9   3.497   70.4  0.0903   75.0  0.4668  -27.7
 1.500  0.3525  161.1   3.277   68.3  0.0973   75.0  0.4637  -29.0
 1.600  0.3557  158.0   3.089   66.1  0.1038   74.9  0.4623  -30.5
 1.700  0.3600  155.2   2.918   64.1  0.1102   74.8  0.4583  -32.1
 1.800  0.3636  152.5   2.776   62.0  0.1173   74.5  0.4547  -33.6
 1.900  0.3684  150.5   2.645   60.2  0.1244   74.5  0.4532  -35.3
 2.000  0.3731  147.8   2.520   58.0  0.1315   74.1  0.4516  -37.2
 2.100  0.3771  145.4   2.416   56.1  0.1388   73.8  0.4489  -39.0
 2.200  0.3818  143.1   2.314   54.1  0.1461   73.5  0.4466  -40.8
 2.300  0.3873  141.1   2.228   52.3  0.1534   73.0  0.4452  -42.8
 2.400  0.3933  139.1   2.145   50.4  0.1607   72.6  0.4444  -44.8
 2.500  0.3966  137.1   2.069   48.7  0.1681   72.1  0.4435  -46.7
 2.600  0.4003  135.2   1.996   46.8  0.1756   71.6  0.4432  -48.7
 2.700  0.4060  133.1   1.933   45.2  0.1834   71.1  0.4428  -50.6
 2.800  0.4123  131.1   1.871   43.4  0.1913   70.6  0.4430  -52.6
 2.900  0.4163  129.3   1.817   41.7  0.1993   70.0  0.4420  -54.6
 3.000  0.4207  127.5   1.764   39.9  0.2073   69.4  0.4415  -56.6
 3.100  0.4246  125.6   1.718   38.5  0.2157   68.6  0.4406  -58.5
 3.200  0.4289  123.8   1.673   37.0  0.2240   67.9  0.4402  -60.4
 3.300  0.4337  122.0   1.630   35.4  0.2325   67.3  0.4403  -62.3
 3.400  0.4388  120.3   1.588   33.8  0.2409   66.7  0.4408  -64.2
 3.500  0.4444  118.6   1.547   32.0  0.2494   66.1  0.4419  -66.1
 3.600  0.4484  117.0   1.514   30.7  0.2580   65.1  0.4391  -68.1
 3.700  0.4528  115.3   1.481   29.3  0.2666   64.3  0.4369  -70.1
 3.800  0.4575  113.8   1.449   27.8  0.2753   63.4  0.4352  -72.1
 3.900  0.4626  112.2   1.419   26.3  0.2841   62.6  0.4340  -74.2
 4.000  0.4680  110.7   1.389   24.7  0.2929   61.9  0.4334  -76.2
 4.100  0.4722  109.2   1.363   23.4  0.3017   60.8  0.4284  -78.5
 4.200  0.4767  107.7   1.337   22.0  0.3107   59.8  0.4240  -80.8
 4.300  0.4815  106.2   1.312   20.6  0.3197   58.8  0.4204  -83.2
 4.400  0.4867  104.8   1.288   19.1  0.3289   57.9  0.4175  -85.6
 4.500  0.4921  103.4   1.265   17.6  0.3381   57.0  0.4153  -88.0
 4.600  0.4976  102.1   1.242   16.5  0.3469   55.9  0.4105  -90.7
 4.700  0.5033  100.9   1.219   15.3  0.3557   54.9  0.4067  -93.5
 4.800  0.5093   99.7   1.196   14.0  0.3647   53.9  0.4039  -96.3
 4.900  0.5155   98.5   1.174   12.7  0.3738   53.0  0.4021  -99.2
 5.000  0.5219   97.3   1.153   11.4  0.3830   52.1  0.4013 -102.1
 5.100  0.5260   96.0   1.136   10.3  0.3917   51.0  0.4006 -105.1
 5.200  0.5303   94.8   1.119    9.3  0.4006   49.9  0.4009 -108.1
 5.300  0.5348   93.6   1.103    8.1  0.4096   48.9  0.4023 -111.1
 5.400  0.5396   92.4   1.087    7.0  0.4188   47.9  0.4048 -114.0
 5.500  0.5446   91.2   1.071    5.8  0.4280   47.0  0.4084 -116.9
 5.600  0.5464   90.0   1.055    4.9  0.4366   45.8  0.4092 -119.6
 5.700  0.5485   88.8   1.039    3.9  0.4453   44.6  0.4110 -122.3
 5.800  0.5508   87.6   1.023    2.9  0.4543   43.4  0.4136 -125.0
 5.900  0.5533   86.5   1.008    1.9  0.4634   42.4  0.4172 -127.6
 6.000  0.5561   85.3   0.993    0.9  0.4727   41.3  0.4216 -130.2
!
!  f       NFmin   Gammaopt  rn/50
! GHz       dB    MAG  ANG    -
!
! noise parameter not available yet for this operation point!
!
! (c) 2017  Infineon Technologies AG, Munich