! Infineon Technologies  Discrete & RF Semiconductors
! BFR181W
! VCE =  11. V,  IC =  5.0 mA
! Common Emitter S-Parameters:                            Jan 2017
# GHz  S  MA  R  50
!  f         S11            S21            S12            S22
! GHz     MAG   ANG      MAG   ANG      MAG   ANG      MAG   ANG
 0.010  0.8702   -1.0  14.948  178.3  0.0014   91.6  0.9972   -1.0
 0.020  0.8578   -5.1  14.797  176.0  0.0029   93.5  0.9887   -1.7
 0.030  0.8495   -6.5  14.682  174.6  0.0047   86.8  0.9879   -2.8
 0.040  0.8416   -7.9  14.576  173.2  0.0066   83.8  0.9875   -3.8
 0.050  0.8343   -9.3  14.479  171.7  0.0085   82.2  0.9874   -4.9
 0.060  0.8322  -11.2  14.381  170.2  0.0101   81.4  0.9826   -5.8
 0.070  0.8310  -13.2  14.294  168.6  0.0118   80.8  0.9781   -6.8
 0.080  0.8307  -15.1  14.217  167.1  0.0134   80.4  0.9739   -7.8
 0.090  0.8314  -17.1  14.150  165.5  0.0151   80.1  0.9700   -8.7
 0.100  0.8331  -19.0  14.095  163.9  0.0167   79.8  0.9663   -9.7
 0.110  0.8235  -20.8  13.974  162.5  0.0181   78.8  0.9604  -10.6
 0.120  0.8148  -22.7  13.863  161.0  0.0194   77.9  0.9547  -11.4
 0.130  0.8069  -24.6  13.760  159.5  0.0208   77.1  0.9493  -12.3
 0.140  0.7999  -26.5  13.667  158.0  0.0221   76.4  0.9441  -13.2
 0.150  0.7939  -28.5  13.583  156.5  0.0235   75.8  0.9391  -14.1
 0.200  0.7603  -36.5  12.928  149.2  0.0304   72.9  0.9025  -17.8
 0.250  0.7200  -44.8  12.289  142.7  0.0364   68.2  0.8638  -21.1
 0.300  0.6730  -52.2  11.545  136.9  0.0410   64.9  0.8229  -23.7
 0.350  0.6306  -58.2  10.845  132.3  0.0454   62.6  0.7861  -25.7
 0.400  0.5961  -65.0  10.225  127.1  0.0499   60.7  0.7504  -27.8
 0.450  0.5588  -70.3   9.589  123.4  0.0529   59.4  0.7191  -29.0
 0.500  0.5270  -76.3   8.997  119.3  0.0559   58.3  0.6882  -30.4
 0.600  0.4694  -86.2   7.995  112.6  0.0621   56.7  0.6386  -32.0
 0.700  0.4215  -95.3   7.140  106.9  0.0666   56.0  0.5989  -33.0
 0.800  0.3839 -103.9   6.458  102.0  0.0720   56.6  0.5675  -33.8
 0.900  0.3537 -111.5   5.863   97.7  0.0762   56.3  0.5423  -34.3
 1.000  0.3299 -119.0   5.382   94.0  0.0809   56.4  0.5205  -34.9
 1.100  0.3112 -126.1   4.961   90.6  0.0857   57.1  0.5051  -35.2
 1.200  0.2945 -133.1   4.597   87.3  0.0896   57.3  0.4907  -35.8
 1.300  0.2799 -139.7   4.282   84.2  0.0945   57.7  0.4784  -36.5
 1.400  0.2718 -145.7   4.019   81.4  0.0995   58.5  0.4679  -37.2
 1.500  0.2671 -151.9   3.782   78.8  0.1044   58.9  0.4590  -37.9
 1.600  0.2608 -157.8   3.569   76.2  0.1093   59.4  0.4533  -38.8
 1.700  0.2577 -163.3   3.384   73.9  0.1147   59.8  0.4450  -39.8
 1.800  0.2565 -168.3   3.228   71.4  0.1199   60.2  0.4385  -40.9
 1.900  0.2571 -173.2   3.081   69.4  0.1250   60.5  0.4337  -41.9
 2.000  0.2570 -177.9   2.944   67.0  0.1311   60.6  0.4298  -43.2
 2.100  0.2569  177.6   2.826   64.9  0.1366   60.8  0.4258  -44.6
 2.200  0.2584  173.2   2.712   62.7  0.1422   60.9  0.4221  -46.0
 2.300  0.2622  169.3   2.613   60.7  0.1482   61.0  0.4193  -47.5
 2.400  0.2671  165.5   2.517   58.5  0.1543   61.1  0.4167  -49.0
 2.500  0.2696  162.3   2.430   56.7  0.1602   61.0  0.4149  -50.5
 2.600  0.2729  159.1   2.346   54.7  0.1662   61.0  0.4135  -52.1
 2.700  0.2775  155.5   2.273   52.9  0.1726   60.9  0.4126  -53.6
 2.800  0.2831  152.1   2.203   50.9  0.1791   60.8  0.4120  -55.2
 2.900  0.2865  149.4   2.142   49.1  0.1857   60.5  0.4106  -56.7
 3.000  0.2905  146.8   2.084   47.1  0.1923   60.3  0.4096  -58.3
 3.100  0.2943  144.1   2.031   45.6  0.1993   60.0  0.4088  -59.8
 3.200  0.2988  141.4   1.979   44.0  0.2062   59.7  0.4083  -61.4
 3.300  0.3039  138.8   1.929   42.3  0.2132   59.4  0.4081  -62.9
 3.400  0.3096  136.3   1.881   40.6  0.2202   59.1  0.4082  -64.5
 3.500  0.3159  133.9   1.834   38.7  0.2272   58.9  0.4086  -66.0
 3.600  0.3205  131.8   1.796   37.2  0.2346   58.3  0.4061  -67.6
 3.700  0.3256  129.7   1.759   35.7  0.2421   57.8  0.4039  -69.3
 3.800  0.3311  127.7   1.723   34.2  0.2495   57.2  0.4021  -71.0
 3.900  0.3370  125.8   1.689   32.5  0.2570   56.8  0.4006  -72.7
 4.000  0.3432  123.9   1.656   30.8  0.2645   56.3  0.3995  -74.4
 4.100  0.3490  122.0   1.626   29.4  0.2723   55.6  0.3951  -76.4
 4.200  0.3552  120.1   1.596   27.9  0.2802   54.9  0.3912  -78.4
 4.300  0.3617  118.4   1.568   26.3  0.2881   54.2  0.3878  -80.5
 4.400  0.3686  116.7   1.541   24.8  0.2961   53.6  0.3849  -82.6
 4.500  0.3758  115.0   1.515   23.1  0.3041   53.0  0.3825  -84.7
 4.600  0.3826  113.4   1.488   21.8  0.3121   52.2  0.3785  -87.2
 4.700  0.3896  111.9   1.462   20.4  0.3202   51.5  0.3753  -89.7
 4.800  0.3969  110.5   1.436   19.0  0.3283   50.8  0.3727  -92.3
 4.900  0.4044  109.1   1.412   17.6  0.3365   50.1  0.3710  -94.9
 5.000  0.4122  107.7   1.388   16.1  0.3447   49.5  0.3700  -97.5
 5.100  0.4178  106.2   1.367   14.9  0.3529   48.6  0.3696 -100.3
 5.200  0.4237  104.8   1.347   13.6  0.3612   47.7  0.3700 -103.2
 5.300  0.4299  103.4   1.327   12.3  0.3696   46.9  0.3714 -106.0
 5.400  0.4363  102.0   1.308   11.0  0.3781   46.1  0.3736 -108.8
 5.500  0.4430  100.7   1.290    9.6  0.3866   45.4  0.3767 -111.5
 5.600  0.4466   99.4   1.271    8.5  0.3948   44.4  0.3780 -114.1
 5.700  0.4505   98.2   1.252    7.4  0.4031   43.4  0.3800 -116.7
 5.800  0.4545   97.0   1.234    6.2  0.4115   42.4  0.3828 -119.2
 5.900  0.4588   95.8   1.216    5.0  0.4200   41.5  0.3864 -121.7
 6.000  0.4632   94.6   1.199    3.8  0.4286   40.6  0.3907 -124.2
!
!  f       NFmin   Gammaopt  rn/50
! GHz       dB    MAG  ANG    -
 0.450      0.97  0.33   16   0.23
 0.900      1.03  0.30   30   0.23
 1.900      1.44  0.15   80   0.20
 2.400      1.59  0.13   94   0.22
!
! (c) 2017  Infineon Technologies AG, Munich