! Infineon Technologies  Discrete & RF Semiconductors
! BFR181W
! VCE =  8.0 V,  IC =  15 mA
! Common Emitter S-Parameters:                            Jan 2017
# GHz  S  MA  R  50
!  f         S11            S21            S12            S22
! GHz     MAG   ANG      MAG   ANG      MAG   ANG      MAG   ANG
 0.010  0.6706   -2.9  31.165  176.5  0.0010   87.4  0.9879   -1.6
 0.020  0.6599   -9.2  30.667  172.8  0.0026   97.1  0.9797   -3.4
 0.030  0.6488  -12.6  30.237  170.1  0.0043   88.5  0.9730   -5.2
 0.040  0.6400  -16.2  29.877  167.3  0.0060   84.8  0.9673   -7.1
 0.050  0.6338  -19.8  29.591  164.4  0.0077   82.7  0.9627   -9.0
 0.060  0.6206  -23.3  28.938  161.9  0.0090   80.4  0.9479  -10.4
 0.070  0.6097  -26.9  28.345  159.2  0.0104   78.6  0.9337  -11.9
 0.080  0.6013  -30.6  27.815  156.4  0.0118   77.3  0.9202  -13.4
 0.090  0.5956  -34.4  27.353  153.6  0.0131   76.3  0.9073  -15.0
 0.100  0.5925  -38.3  26.961  150.6  0.0145   75.4  0.8951  -16.6
 0.110  0.5762  -41.3  26.291  148.6  0.0155   73.6  0.8789  -17.6
 0.120  0.5616  -44.5  25.655  146.4  0.0165   72.0  0.8631  -18.6
 0.130  0.5488  -47.9  25.057  144.2  0.0175   70.6  0.8475  -19.7
 0.140  0.5380  -51.4  24.498  141.9  0.0185   69.3  0.8322  -20.8
 0.150  0.5293  -55.0  23.983  139.4  0.0195   68.2  0.8173  -22.0
 0.200  0.4738  -67.7  20.984  130.2  0.0231   67.8  0.7446  -25.2
 0.250  0.4265  -79.7  18.507  123.0  0.0268   64.9  0.6843  -27.1
 0.300  0.3877  -89.9  16.338  117.4  0.0298   64.8  0.6349  -28.0
 0.350  0.3572  -97.2  14.720  113.6  0.0329   65.0  0.6009  -28.2
 0.400  0.3335 -105.8  13.182  108.9  0.0360   65.1  0.5670  -28.4
 0.450  0.3132 -111.9  12.035  106.1  0.0386   65.3  0.5455  -28.3
 0.500  0.2968 -118.7  10.921  102.8  0.0413   65.4  0.5240  -28.2
 0.600  0.2762 -130.0   9.318   97.9  0.0471   65.7  0.4951  -27.7
 0.700  0.2617 -139.7   8.100   93.8  0.0528   67.9  0.4750  -27.3
 0.800  0.2534 -148.5   7.177   90.2  0.0597   68.9  0.4602  -27.3
 0.900  0.2471 -155.5   6.419   87.0  0.0651   68.9  0.4494  -27.4
 1.000  0.2439 -162.1   5.833   84.2  0.0710   69.3  0.4401  -27.7
 1.100  0.2437 -168.0   5.334   81.6  0.0775   70.2  0.4342  -28.1
 1.200  0.2449 -174.1   4.915   79.0  0.0838   69.9  0.4280  -28.6
 1.300  0.2432 -178.8   4.555   76.6  0.0898   70.2  0.4225  -29.4
 1.400  0.2459  176.7   4.256   74.3  0.0967   70.2  0.4177  -30.4
 1.500  0.2504  173.0   3.989   72.2  0.1032   70.4  0.4133  -31.4
 1.600  0.2534  168.8   3.759   69.9  0.1097   70.1  0.4104  -32.5
 1.700  0.2552  165.2   3.553   68.0  0.1160   70.0  0.4057  -33.7
 1.800  0.2586  161.7   3.380   65.9  0.1227   69.7  0.4033  -35.0
 1.900  0.2643  159.0   3.220   64.1  0.1291   69.4  0.4004  -36.5
 2.000  0.2687  156.2   3.068   62.0  0.1365   69.0  0.3975  -38.1
 2.100  0.2724  153.3   2.941   60.2  0.1431   68.6  0.3953  -39.7
 2.200  0.2768  150.5   2.818   58.2  0.1498   68.3  0.3935  -41.3
 2.300  0.2833  147.9   2.715   56.4  0.1570   67.9  0.3915  -43.0
 2.400  0.2904  145.4   2.614   54.5  0.1642   67.5  0.3898  -44.8
 2.500  0.2931  143.4   2.522   52.8  0.1710   67.0  0.3890  -46.6
 2.600  0.2961  141.4   2.432   51.0  0.1779   66.6  0.3887  -48.5
 2.700  0.3023  138.9   2.356   49.4  0.1850   66.0  0.3880  -50.2
 2.800  0.3091  136.5   2.282   47.6  0.1921   65.4  0.3877  -52.0
 2.900  0.3133  134.7   2.216   45.9  0.1994   64.8  0.3870  -53.8
 3.000  0.3178  132.9   2.152   44.1  0.2067   64.3  0.3867  -55.7
 3.100  0.3219  130.8   2.096   42.7  0.2141   63.6  0.3857  -57.4
 3.200  0.3264  128.8   2.041   41.2  0.2215   62.9  0.3850  -59.1
 3.300  0.3313  126.9   1.988   39.6  0.2290   62.3  0.3847  -60.9
 3.400  0.3366  125.0   1.937   37.9  0.2365   61.7  0.3847  -62.6
 3.500  0.3422  123.2   1.887   36.1  0.2440   61.2  0.3851  -64.3
 3.600  0.3469  121.6   1.847   34.7  0.2517   60.4  0.3824  -66.1
 3.700  0.3520  120.0   1.808   33.3  0.2595   59.6  0.3801  -67.9
 3.800  0.3572  118.5   1.771   31.8  0.2673   58.9  0.3782  -69.7
 3.900  0.3628  117.0   1.734   30.3  0.2752   58.2  0.3766  -71.5
 4.000  0.3685  115.6   1.699   28.7  0.2831   57.6  0.3755  -73.4
 4.100  0.3739  114.1   1.668   27.3  0.2911   56.7  0.3713  -75.5
 4.200  0.3796  112.6   1.638   25.9  0.2992   55.8  0.3675  -77.6
 4.300  0.3856  111.2   1.609   24.5  0.3073   54.9  0.3643  -79.8
 4.400  0.3917  109.8   1.581   23.0  0.3155   54.2  0.3616  -82.0
 4.500  0.3981  108.5   1.554   21.4  0.3238   53.4  0.3595  -84.2
 4.600  0.4051  107.2   1.527   20.1  0.3317   52.4  0.3553  -86.8
 4.700  0.4123  106.0   1.500   18.8  0.3397   51.5  0.3519  -89.5
 4.800  0.4197  104.8   1.474   17.5  0.3478   50.6  0.3492  -92.2
 4.900  0.4273  103.6   1.449   16.1  0.3560   49.8  0.3474  -95.0
 5.000  0.4350  102.5   1.425   14.6  0.3642   49.0  0.3464  -97.8
 5.100  0.4401  101.2   1.404   13.4  0.3723   48.0  0.3458 -100.8
 5.200  0.4455  100.0   1.383   12.2  0.3805   47.0  0.3461 -103.8
 5.300  0.4510   98.8   1.364   10.9  0.3887   46.1  0.3474 -106.8
 5.400  0.4568   97.6   1.344    9.6  0.3971   45.2  0.3496 -109.7
 5.500  0.4627   96.5   1.326    8.3  0.4056   44.4  0.3527 -112.6
 5.600  0.4659   95.3   1.307    7.2  0.4134   43.3  0.3543 -115.3
 5.700  0.4693   94.2   1.288    6.1  0.4213   42.2  0.3567 -117.9
 5.800  0.4728   93.0   1.270    4.9  0.4294   41.2  0.3599 -120.5
 5.900  0.4766   91.9   1.252    3.7  0.4376   40.2  0.3638 -123.1
 6.000  0.4805   90.8   1.235    2.5  0.4459   39.2  0.3684 -125.6
!
!  f       NFmin   Gammaopt  rn/50
! GHz       dB    MAG  ANG    -
 0.450      1.47  0.04   14   0.21
 0.900      1.52  0.04   31   0.21
 1.900      1.95  0.13 -139   0.22
 2.400      2.20  0.16 -109   0.28
!
! (c) 2017  Infineon Technologies AG, Munich