! Infineon Technologies  Discrete & RF Semiconductors
! BFR181W
! VCE =  11. V,  IC =  11 mA
! Common Emitter S-Parameters:                            Jan 2017
# GHz  S  MA  R  50
!  f         S11            S21            S12            S22
! GHz     MAG   ANG      MAG   ANG      MAG   ANG      MAG   ANG
 0.010  0.7560   -1.9  25.575  176.7  0.0013   79.3  0.9897   -1.3
 0.020  0.7388   -7.3  25.028  173.8  0.0028   76.3  0.9916   -2.8
 0.030  0.7306   -9.9  24.764  171.6  0.0045   78.3  0.9844   -4.3
 0.040  0.7239  -12.5  24.537  169.4  0.0062   79.2  0.9779   -5.9
 0.050  0.7187  -15.2  24.348  167.1  0.0079   79.7  0.9722   -7.5
 0.060  0.7099  -18.0  23.976  164.9  0.0093   78.7  0.9614   -8.8
 0.070  0.7028  -20.9  23.640  162.6  0.0106   78.0  0.9511  -10.1
 0.080  0.6976  -23.9  23.343  160.3  0.0120   77.5  0.9414  -11.4
 0.090  0.6943  -26.9  23.085  157.9  0.0133   77.1  0.9321  -12.8
 0.100  0.6929  -29.9  22.867  155.5  0.0147   76.7  0.9234  -14.2
 0.110  0.6780  -32.4  22.446  153.6  0.0160   75.3  0.9108  -15.2
 0.120  0.6645  -35.1  22.050  151.7  0.0172   74.1  0.8985  -16.3
 0.130  0.6524  -37.8  21.680  149.7  0.0185   73.1  0.8865  -17.4
 0.140  0.6420  -40.7  21.337  147.6  0.0198   72.2  0.8748  -18.5
 0.150  0.6331  -43.6  21.023  145.5  0.0211   71.4  0.8635  -19.6
 0.200  0.5759  -54.5  18.990  136.6  0.0250   68.3  0.8001  -23.4
 0.250  0.5227  -65.0  17.164  129.3  0.0302   64.8  0.7428  -26.1
 0.300  0.4728  -74.0  15.454  123.4  0.0330   63.7  0.6915  -27.8
 0.350  0.4339  -80.8  14.072  119.2  0.0364   63.0  0.6532  -28.6
 0.400  0.4022  -88.7  12.780  114.2  0.0398   62.5  0.6151  -29.5
 0.450  0.3734  -94.4  11.746  111.1  0.0424   62.3  0.5887  -29.8
 0.500  0.3489 -100.9  10.751  107.5  0.0451   62.1  0.5624  -30.1
 0.600  0.3115 -111.9   9.260  102.0  0.0506   62.4  0.5258  -30.1
 0.700  0.2828 -122.0   8.093   97.5  0.0557   63.9  0.4987  -29.9
 0.800  0.2645 -130.9   7.205   93.6  0.0620   64.8  0.4794  -29.9
 0.900  0.2505 -138.9   6.463   90.1  0.0673   64.9  0.4642  -29.9
 1.000  0.2418 -146.5   5.883   87.1  0.0732   66.1  0.4517  -30.0
 1.100  0.2368 -153.6   5.387   84.3  0.0792   66.2  0.4430  -30.4
 1.200  0.2312 -160.0   4.968   81.6  0.0853   66.4  0.4346  -30.8
 1.300  0.2262 -166.6   4.608   79.0  0.0907   67.0  0.4278  -31.4
 1.400  0.2273 -171.4   4.312   76.6  0.0972   67.4  0.4209  -32.2
 1.500  0.2317 -176.3   4.043   74.4  0.1030   67.3  0.4158  -33.0
 1.600  0.2298  178.5   3.811   72.1  0.1094   67.3  0.4130  -34.0
 1.700  0.2303  174.2   3.604   70.1  0.1157   67.3  0.4074  -35.1
 1.800  0.2336  170.2   3.430   67.9  0.1221   67.1  0.4032  -36.3
 1.900  0.2382  166.7   3.268   66.1  0.1288   67.2  0.3999  -37.6
 2.000  0.2419  162.9   3.116   64.0  0.1349   67.0  0.3974  -39.0
 2.100  0.2445  159.6   2.988   62.1  0.1416   66.6  0.3943  -40.5
 2.200  0.2478  156.4   2.863   60.1  0.1483   66.3  0.3915  -42.0
 2.300  0.2541  153.3   2.758   58.3  0.1551   65.9  0.3898  -43.7
 2.400  0.2610  150.4   2.655   56.4  0.1619   65.6  0.3885  -45.4
 2.500  0.2644  148.0   2.562   54.7  0.1684   65.2  0.3870  -47.0
 2.600  0.2682  145.7   2.471   52.8  0.1749   64.9  0.3858  -48.7
 2.700  0.2735  142.9   2.394   51.2  0.1818   64.5  0.3853  -50.4
 2.800  0.2794  140.3   2.319   49.4  0.1888   64.1  0.3852  -52.1
 2.900  0.2839  138.1   2.252   47.7  0.1960   63.5  0.3841  -53.8
 3.000  0.2889  135.9   2.188   45.9  0.2033   62.9  0.3834  -55.5
 3.100  0.2933  133.7   2.132   44.5  0.2105   62.3  0.3826  -57.1
 3.200  0.2980  131.7   2.078   43.0  0.2176   61.8  0.3821  -58.7
 3.300  0.3031  129.6   2.025   41.4  0.2249   61.3  0.3819  -60.4
 3.400  0.3087  127.7   1.974   39.7  0.2321   60.8  0.3821  -62.0
 3.500  0.3145  125.8   1.924   38.0  0.2393   60.4  0.3825  -63.6
 3.600  0.3192  124.0   1.884   36.6  0.2468   59.6  0.3800  -65.3
 3.700  0.3242  122.3   1.844   35.2  0.2543   58.9  0.3778  -67.0
 3.800  0.3295  120.7   1.806   33.7  0.2619   58.2  0.3760  -68.8
 3.900  0.3350  119.1   1.769   32.1  0.2695   57.6  0.3745  -70.5
 4.000  0.3408  117.5   1.734   30.5  0.2771   57.0  0.3734  -72.3
 4.100  0.3466  115.9   1.702   29.1  0.2847   56.1  0.3689  -74.3
 4.200  0.3526  114.4   1.671   27.7  0.2924   55.3  0.3649  -76.3
 4.300  0.3589  113.0   1.642   26.2  0.3002   54.5  0.3613  -78.4
 4.400  0.3654  111.6   1.613   24.6  0.3080   53.7  0.3583  -80.5
 4.500  0.3721  110.2   1.586   23.0  0.3159   53.0  0.3557  -82.7
 4.600  0.3789  108.9   1.558   21.8  0.3237   52.1  0.3515  -85.2
 4.700  0.3860  107.6   1.530   20.5  0.3315   51.3  0.3480  -87.8
 4.800  0.3932  106.3   1.504   19.1  0.3394   50.6  0.3452  -90.4
 4.900  0.4006  105.1   1.478   17.7  0.3473   49.8  0.3431  -93.0
 5.000  0.4082  104.0   1.453   16.3  0.3553   49.1  0.3418  -95.7
 5.100  0.4135  102.8   1.432   15.1  0.3631   48.2  0.3411  -98.6
 5.200  0.4189  101.5   1.411   13.8  0.3710   47.3  0.3414 -101.5
 5.300  0.4246  100.4   1.391   12.6  0.3789   46.4  0.3425 -104.5
 5.400  0.4304   99.2   1.372   11.3  0.3870   45.6  0.3444 -107.4
 5.500  0.4364   98.1   1.354    9.9  0.3951   44.8  0.3473 -110.2
 5.600  0.4402   96.9   1.334    8.8  0.4030   43.8  0.3486 -112.8
 5.700  0.4441   95.8   1.315    7.7  0.4110   42.8  0.3507 -115.4
 5.800  0.4483   94.7   1.296    6.5  0.4191   41.8  0.3535 -118.0
 5.900  0.4525   93.6   1.278    5.3  0.4274   40.9  0.3569 -120.5
 6.000  0.4570   92.5   1.260    4.1  0.4357   40.0  0.3611 -123.0
!
!  f       NFmin   Gammaopt  rn/50
! GHz       dB    MAG  ANG    -
 0.450      1.29  0.12   17   0.21
 0.900      1.33  0.12   31   0.21
 1.900      1.76  0.04 -171   0.20
 2.400      1.95  0.05 -122   0.25
!
! (c) 2017  Infineon Technologies AG, Munich