! Infineon Technologies  Discrete & RF Semiconductors
! BFR181W
! VCE =  4.0 V,  IC =  5.0 mA
! Common Emitter S-Parameters:                            Jan 2017
# GHz  S  MA  R  50
!  f         S11            S21            S12            S22
! GHz     MAG   ANG      MAG   ANG      MAG   ANG      MAG   ANG
 0.010  0.8527   -1.3  15.238  179.0  0.0013   93.0  0.9975   -1.0
 0.020  0.8323   -5.5  15.032  176.4  0.0032  103.1  0.9902   -1.9
 0.030  0.8262   -7.1  14.968  174.7  0.0050   90.9  0.9891   -3.0
 0.040  0.8207   -8.7  14.916  173.1  0.0069   85.2  0.9885   -4.2
 0.050  0.8159  -10.4  14.877  171.4  0.0088   82.0  0.9882   -5.3
 0.060  0.8128  -12.5  14.760  169.7  0.0105   81.2  0.9826   -6.3
 0.070  0.8107  -14.6  14.656  168.0  0.0122   80.6  0.9774   -7.3
 0.080  0.8098  -16.7  14.565  166.3  0.0138   80.2  0.9725   -8.3
 0.090  0.8100  -18.8  14.487  164.6  0.0155   79.9  0.9678   -9.4
 0.100  0.8112  -20.9  14.423  162.8  0.0172   79.6  0.9635  -10.4
 0.110  0.8012  -22.9  14.289  161.3  0.0187   78.2  0.9567  -11.3
 0.120  0.7922  -24.9  14.164  159.8  0.0202   77.1  0.9502  -12.2
 0.130  0.7841  -27.0  14.050  158.3  0.0217   76.0  0.9439  -13.1
 0.140  0.7771  -29.1  13.946  156.7  0.0233   75.2  0.9379  -14.1
 0.150  0.7712  -31.2  13.852  155.1  0.0248   74.4  0.9321  -15.0
 0.200  0.7351  -40.0  13.099  147.4  0.0312   71.4  0.8912  -18.9
 0.250  0.6904  -49.0  12.387  140.7  0.0375   66.4  0.8492  -22.3
 0.300  0.6450  -57.1  11.573  134.8  0.0423   63.1  0.8054  -25.0
 0.350  0.6031  -63.5  10.816  130.2  0.0464   61.2  0.7671  -26.8
 0.400  0.5698  -70.7  10.140  124.9  0.0505   59.7  0.7296  -28.8
 0.450  0.5332  -76.3   9.474  121.3  0.0538   58.4  0.6980  -30.0
 0.500  0.5023  -82.6   8.852  117.1  0.0571   57.2  0.6668  -31.3
 0.600  0.4511  -93.2   7.829  110.5  0.0626   55.6  0.6178  -32.7
 0.700  0.4086 -102.9   6.962  104.9  0.0667   55.9  0.5789  -33.5
 0.800  0.3768 -111.9   6.278  100.0  0.0719   55.7  0.5485  -34.2
 0.900  0.3499 -119.8   5.684   95.8  0.0768   55.5  0.5245  -34.8
 1.000  0.3297 -127.4   5.209   92.1  0.0808   56.3  0.5047  -35.2
 1.100  0.3164 -135.1   4.797   88.8  0.0858   57.0  0.4895  -35.6
 1.200  0.3040 -141.8   4.442   85.5  0.0904   57.1  0.4757  -36.2
 1.300  0.2918 -148.2   4.132   82.5  0.0949   57.8  0.4648  -36.9
 1.400  0.2869 -154.0   3.877   79.7  0.1004   58.5  0.4547  -37.6
 1.500  0.2847 -159.9   3.647   77.1  0.1056   59.1  0.4462  -38.4
 1.600  0.2815 -165.5   3.441   74.5  0.1106   59.3  0.4407  -39.3
 1.700  0.2802 -170.5   3.262   72.1  0.1154   59.8  0.4332  -40.4
 1.800  0.2787 -175.5   3.112   69.7  0.1211   60.3  0.4269  -41.5
 1.900  0.2831 -179.5   2.968   67.6  0.1271   60.5  0.4222  -42.7
 2.000  0.2826  175.8   2.834   65.2  0.1325   60.7  0.4190  -44.1
 2.100  0.2847  171.9   2.720   63.1  0.1385   60.9  0.4150  -45.5
 2.200  0.2880  168.1   2.609   60.9  0.1445   61.0  0.4112  -46.9
 2.300  0.2923  164.5   2.514   58.9  0.1507   61.1  0.4088  -48.5
 2.400  0.2977  161.1   2.423   56.7  0.1570   61.1  0.4067  -50.1
 2.500  0.3005  158.1   2.339   54.8  0.1632   61.0  0.4050  -51.7
 2.600  0.3041  155.1   2.257   52.8  0.1694   61.0  0.4037  -53.4
 2.700  0.3091  152.0   2.187   51.0  0.1759   60.8  0.4028  -55.0
 2.800  0.3150  149.0   2.120   49.0  0.1825   60.7  0.4023  -56.6
 2.900  0.3188  146.4   2.061   47.2  0.1892   60.4  0.4010  -58.2
 3.000  0.3232  143.9   2.004   45.2  0.1960   60.1  0.4000  -59.9
 3.100  0.3269  141.3   1.952   43.7  0.2031   59.8  0.3992  -61.5
 3.200  0.3313  138.8   1.902   42.1  0.2103   59.5  0.3987  -63.1
 3.300  0.3364  136.3   1.854   40.4  0.2175   59.2  0.3986  -64.7
 3.400  0.3420  133.9   1.807   38.7  0.2246   58.9  0.3987  -66.3
 3.500  0.3482  131.6   1.762   36.8  0.2318   58.7  0.3992  -67.9
 3.600  0.3528  129.5   1.725   35.3  0.2395   58.1  0.3967  -69.7
 3.700  0.3578  127.5   1.689   33.8  0.2471   57.5  0.3946  -71.5
 3.800  0.3633  125.6   1.655   32.3  0.2548   57.0  0.3928  -73.3
 3.900  0.3692  123.7   1.622   30.6  0.2626   56.5  0.3915  -75.1
 4.000  0.3754  121.9   1.590   28.9  0.2703   56.0  0.3905  -76.9
 4.100  0.3808  120.1   1.560   27.5  0.2783   55.2  0.3862  -79.0
 4.200  0.3866  118.3   1.532   25.9  0.2864   54.4  0.3825  -81.1
 4.300  0.3928  116.5   1.504   24.4  0.2945   53.7  0.3793  -83.3
 4.400  0.3993  114.8   1.478   22.8  0.3027   53.0  0.3766  -85.5
 4.500  0.4062  113.2   1.453   21.1  0.3109   52.3  0.3745  -87.7
 4.600  0.4132  111.7   1.427   19.8  0.3191   51.5  0.3706  -90.3
 4.700  0.4204  110.2   1.401   18.5  0.3273   50.7  0.3674  -93.0
 4.800  0.4279  108.8   1.376   17.1  0.3356   50.0  0.3651  -95.6
 4.900  0.4357  107.4   1.352   15.7  0.3439   49.3  0.3635  -98.4
 5.000  0.4437  106.1   1.329   14.2  0.3523   48.6  0.3628 -101.1
 5.100  0.4490  104.7   1.309   13.0  0.3606   47.7  0.3626 -104.0
 5.200  0.4545  103.2   1.290   11.8  0.3690   46.8  0.3633 -106.9
 5.300  0.4603  101.9   1.272   10.5  0.3775   46.0  0.3649 -109.8
 5.400  0.4664  100.5   1.254    9.2  0.3861   45.2  0.3675 -112.7
 5.500  0.4727   99.2   1.237    7.8  0.3947   44.4  0.3710 -115.5
 5.600  0.4757   97.9   1.218    6.7  0.4029   43.3  0.3727 -118.2
 5.700  0.4790   96.6   1.200    5.6  0.4112   42.3  0.3751 -120.8
 5.800  0.4826   95.4   1.182    4.4  0.4196   41.3  0.3784 -123.4
 5.900  0.4863   94.1   1.165    3.2  0.4281   40.4  0.3824 -125.9
 6.000  0.4903   92.9   1.148    2.0  0.4368   39.5  0.3871 -128.4
!
!  f       NFmin   Gammaopt  rn/50
! GHz       dB    MAG  ANG    -
 0.450      0.97  0.33   16   0.23
 0.900      1.03  0.30   30   0.23
 1.900      1.44  0.15   80   0.20
 2.400      1.59  0.13   94   0.22
!
! (c) 2017  Infineon Technologies AG, Munich