! Infineon Technologies  Discrete & RF Semiconductors
! BFR181W
! VCE =  9.0 V,  IC =  14 mA
! Common Emitter S-Parameters:                            Jan 2017
# GHz  S  MA  R  50
!  f         S11            S21            S12            S22
! GHz     MAG   ANG      MAG   ANG      MAG   ANG      MAG   ANG
 0.010  0.6988   -2.5  29.423  176.5  0.0013  100.6  0.9890   -1.5
 0.020  0.6821   -8.4  28.776  173.2  0.0031   87.9  0.9875   -3.1
 0.030  0.6736  -11.6  28.448  170.6  0.0047   82.6  0.9795   -4.9
 0.040  0.6673  -14.8  28.178  168.0  0.0063   80.0  0.9725   -6.7
 0.050  0.6631  -18.1  27.970  165.3  0.0079   78.5  0.9664   -8.5
 0.060  0.6512  -21.4  27.412  162.9  0.0093   77.4  0.9526   -9.9
 0.070  0.6415  -24.8  26.905  160.3  0.0107   76.7  0.9393  -11.3
 0.080  0.6342  -28.3  26.453  157.7  0.0120   76.1  0.9267  -12.8
 0.090  0.6292  -31.9  26.058  155.0  0.0134   75.6  0.9147  -14.3
 0.100  0.6268  -35.5  25.724  152.2  0.0148   75.2  0.9034  -15.9
 0.110  0.6105  -38.3  25.136  150.2  0.0157   74.0  0.8886  -16.9
 0.120  0.5956  -41.2  24.580  148.1  0.0167   72.9  0.8742  -18.0
 0.130  0.5825  -44.3  24.058  145.9  0.0176   71.9  0.8600  -19.0
 0.140  0.5711  -47.6  23.573  143.7  0.0186   71.1  0.8461  -20.1
 0.150  0.5616  -50.9  23.126  141.3  0.0195   70.3  0.8326  -21.3
 0.200  0.5059  -63.1  20.442  132.1  0.0238   67.3  0.7617  -24.7
 0.250  0.4546  -74.4  18.156  125.0  0.0278   64.8  0.7021  -26.9
 0.300  0.4109  -84.3  16.128  119.2  0.0307   63.5  0.6512  -28.1
 0.350  0.3773  -91.3  14.570  115.3  0.0337   63.9  0.6158  -28.5
 0.400  0.3504  -99.6  13.095  110.5  0.0368   64.2  0.5805  -28.9
 0.450  0.3274 -105.6  11.982  107.7  0.0396   63.9  0.5573  -28.9
 0.500  0.3084 -112.4  10.904  104.3  0.0424   63.6  0.5341  -28.8
 0.600  0.2814 -123.8   9.328   99.1  0.0478   65.2  0.5029  -28.5
 0.700  0.2636 -133.8   8.120   94.9  0.0537   66.5  0.4804  -28.1
 0.800  0.2517 -142.2   7.202   91.2  0.0602   67.5  0.4647  -28.0
 0.900  0.2433 -150.4   6.453   88.0  0.0657   67.8  0.4530  -28.1
 1.000  0.2413 -157.5   5.861   85.1  0.0719   68.5  0.4420  -28.3
 1.100  0.2386 -163.7   5.361   82.5  0.0777   68.8  0.4357  -28.6
 1.200  0.2349 -170.0   4.939   79.9  0.0836   68.9  0.4283  -29.1
 1.300  0.2341 -175.3   4.581   77.4  0.0898   69.2  0.4230  -29.9
 1.400  0.2363 -179.8   4.282   75.1  0.0968   69.5  0.4172  -30.7
 1.500  0.2401  176.0   4.013   73.0  0.1028   69.4  0.4129  -31.6
 1.600  0.2425  171.3   3.782   70.7  0.1094   69.2  0.4106  -32.7
 1.700  0.2430  167.8   3.575   68.8  0.1158   69.2  0.4053  -33.9
 1.800  0.2473  164.1   3.401   66.7  0.1225   68.9  0.4016  -35.2
 1.900  0.2526  161.1   3.241   64.9  0.1289   68.8  0.3990  -36.5
 2.000  0.2559  157.8   3.089   62.8  0.1357   68.5  0.3967  -38.0
 2.100  0.2596  154.8   2.961   61.0  0.1424   68.2  0.3936  -39.6
 2.200  0.2640  151.9   2.837   59.0  0.1491   67.9  0.3909  -41.2
 2.300  0.2701  149.3   2.732   57.2  0.1561   67.5  0.3895  -42.9
 2.400  0.2768  146.9   2.630   55.3  0.1631   67.1  0.3884  -44.7
 2.500  0.2805  144.7   2.537   53.6  0.1698   66.6  0.3872  -46.4
 2.600  0.2846  142.5   2.447   51.8  0.1766   66.2  0.3864  -48.1
 2.700  0.2900  140.1   2.370   50.2  0.1836   65.6  0.3860  -49.8
 2.800  0.2960  137.7   2.296   48.4  0.1906   65.1  0.3859  -51.6
 2.900  0.3001  135.6   2.230   46.7  0.1978   64.5  0.3847  -53.4
 3.000  0.3046  133.6   2.166   45.0  0.2050   64.0  0.3838  -55.2
 3.100  0.3090  131.5   2.110   43.6  0.2124   63.4  0.3831  -56.9
 3.200  0.3138  129.5   2.056   42.1  0.2197   62.8  0.3827  -58.5
 3.300  0.3189  127.6   2.004   40.5  0.2271   62.3  0.3827  -60.2
 3.400  0.3245  125.7   1.952   38.8  0.2346   61.8  0.3829  -61.8
 3.500  0.3303  123.9   1.903   37.1  0.2420   61.3  0.3835  -63.5
 3.600  0.3351  122.2   1.863   35.7  0.2496   60.5  0.3810  -65.2
 3.700  0.3402  120.6   1.824   34.3  0.2573   59.7  0.3788  -67.0
 3.800  0.3455  119.0   1.786   32.8  0.2650   59.0  0.3770  -68.8
 3.900  0.3511  117.5   1.749   31.2  0.2728   58.3  0.3756  -70.6
 4.000  0.3569  116.0   1.714   29.6  0.2806   57.6  0.3745  -72.4
 4.100  0.3624  114.5   1.682   28.2  0.2884   56.7  0.3701  -74.4
 4.200  0.3682  113.1   1.652   26.8  0.2962   55.8  0.3662  -76.5
 4.300  0.3742  111.7   1.622   25.3  0.3041   55.0  0.3627  -78.6
 4.400  0.3804  110.4   1.594   23.8  0.3121   54.2  0.3598  -80.8
 4.500  0.3868  109.1   1.567   22.2  0.3201   53.5  0.3574  -83.0
 4.600  0.3936  107.8   1.539   21.0  0.3279   52.6  0.3531  -85.6
 4.700  0.4006  106.5   1.511   19.7  0.3357   51.7  0.3495  -88.2
 4.800  0.4079  105.3   1.485   18.3  0.3436   50.9  0.3467  -90.9
 4.900  0.4152  104.1   1.459   16.9  0.3516   50.1  0.3446  -93.6
 5.000  0.4228  103.0   1.434   15.5  0.3596   49.4  0.3433  -96.3
 5.100  0.4282  101.8   1.413   14.3  0.3676   48.4  0.3427  -99.2
 5.200  0.4337  100.6   1.394   13.1  0.3756   47.5  0.3430 -102.2
 5.300  0.4394   99.4   1.374   11.8  0.3838   46.6  0.3442 -105.1
 5.400  0.4453   98.3   1.356   10.5  0.3921   45.8  0.3462 -108.0
 5.500  0.4514   97.2   1.338    9.2  0.4004   45.0  0.3492 -110.9
 5.600  0.4550   96.0   1.318    8.1  0.4083   43.9  0.3505 -113.6
 5.700  0.4587   94.9   1.298    7.0  0.4164   42.9  0.3525 -116.2
 5.800  0.4627   93.7   1.279    5.9  0.4246   41.9  0.3552 -118.8
 5.900  0.4668   92.6   1.261    4.7  0.4330   41.0  0.3587 -121.4
 6.000  0.4711   91.5   1.243    3.5  0.4414   40.1  0.3629 -123.9
!
!  f       NFmin   Gammaopt  rn/50
! GHz       dB    MAG  ANG    -
 0.450      1.43  0.06   16   0.21
 0.900      1.48  0.06   32   0.21
 1.900      1.92  0.11 -141   0.21
 2.400      2.13  0.14 -109   0.27
!
! (c) 2017  Infineon Technologies AG, Munich