! Infineon Technologies  Discrete & RF Semiconductors
! BFR181W
! VCE =  1.0 V,  IC =  23 mA
! Common Emitter S-Parameters:                            Jan 2017
# GHz  S  MA  R  50
!  f         S11            S21            S12            S22
! GHz     MAG   ANG      MAG   ANG      MAG   ANG      MAG   ANG
 0.010  0.3960  -23.9  26.657  171.5  0.0037   67.5  0.8066   -5.4
 0.020  0.4146  -47.5  25.728  161.9  0.0066   74.7  0.7809  -10.6
 0.030  0.4105  -64.2  23.782  155.7  0.0096   66.6  0.7402  -14.1
 0.040  0.4404  -79.9  22.162  148.5  0.0127   62.4  0.7025  -18.0
 0.050  0.4981  -92.8  20.944  140.3  0.0159   59.9  0.6684  -22.3
 0.060  0.4962 -101.0  19.424  137.3  0.0171   56.8  0.6364  -23.3
 0.070  0.5044 -109.0  17.967  133.8  0.0183   54.0  0.6045  -24.4
 0.080  0.5221 -116.7  16.590  129.6  0.0196   51.6  0.5729  -25.6
 0.090  0.5484 -123.7  15.315  124.8  0.0209   49.5  0.5416  -26.9
 0.100  0.5822 -130.0  14.168  119.1  0.0222   47.7  0.5106  -28.4
 0.110  0.5848 -133.5  13.365  117.4  0.0229   47.3  0.4949  -28.3
 0.120  0.5896 -137.0  12.574  115.5  0.0236   46.9  0.4792  -28.3
 0.130  0.5966 -140.4  11.800  113.4  0.0242   46.5  0.4636  -28.2
 0.140  0.6056 -143.8  11.044  110.9  0.0249   46.1  0.4479  -28.2
 0.150  0.6166 -147.0  10.312  108.1  0.0256   45.8  0.4322  -28.1
 0.200  0.6293 -156.9   7.981  100.8  0.0278   47.7  0.3912  -26.5
 0.250  0.6385 -163.5   6.500   95.7  0.0310   50.0  0.3691  -25.3
 0.300  0.6426 -168.2   5.463   91.7  0.0331   52.0  0.3539  -24.3
 0.350  0.6429 -171.7   4.802   89.0  0.0361   54.7  0.3463  -24.0
 0.400  0.6455 -175.1   4.155   85.5  0.0391   57.0  0.3387  -23.7
 0.450  0.6462 -177.7   3.743   83.3  0.0425   59.0  0.3342  -23.9
 0.500  0.6483  179.7   3.339   80.5  0.0459   60.7  0.3298  -24.2
 0.600  0.6530  175.7   2.799   76.0  0.0526   63.6  0.3237  -25.3
 0.700  0.6554  172.3   2.409   72.0  0.0590   66.5  0.3197  -26.8
 0.800  0.6591  168.9   2.116   67.9  0.0670   68.1  0.3157  -28.6
 0.900  0.6582  165.8   1.884   64.3  0.0742   69.1  0.3120  -30.8
 1.000  0.6644  163.2   1.709   60.9  0.0822   70.2  0.3073  -33.1
 1.100  0.6695  160.4   1.559   57.7  0.0906   71.1  0.3046  -35.5
 1.200  0.6736  157.7   1.435   54.3  0.0982   71.0  0.3010  -38.1
 1.300  0.6747  155.1   1.326   51.2  0.1067   71.3  0.2974  -41.0
 1.400  0.6804  152.8   1.239   48.2  0.1157   71.5  0.2926  -43.9
 1.500  0.6870  150.4   1.158   45.4  0.1246   71.6  0.2890  -46.9
 1.600  0.6921  148.0   1.089   42.6  0.1337   71.3  0.2870  -50.2
 1.700  0.6949  145.6   1.030   40.1  0.1427   71.1  0.2825  -53.5
 1.800  0.7000  143.0   0.977   37.4  0.1521   70.6  0.2795  -57.1
 1.900  0.7046  141.0   0.927   35.2  0.1615   70.4  0.2770  -60.5
 2.000  0.7089  138.7   0.879   32.8  0.1714   69.5  0.2759  -64.3
 2.100  0.7120  136.3   0.839   30.8  0.1811   68.8  0.2734  -68.1
 2.200  0.7163  134.0   0.800   28.5  0.1909   68.2  0.2721  -72.0
 2.300  0.7197  131.9   0.766   26.7  0.2009   67.3  0.2709  -75.8
 2.400  0.7241  129.8   0.733   24.8  0.2110   66.4  0.2709  -79.6
 2.500  0.7259  127.6   0.703   23.4  0.2210   65.5  0.2706  -83.4
 2.600  0.7287  125.5   0.673   21.9  0.2311   64.6  0.2714  -87.1
 2.700  0.7317  123.5   0.648   20.7  0.2411   63.6  0.2718  -90.6
 2.800  0.7356  121.5   0.623   19.4  0.2512   62.6  0.2732  -94.1
 2.900  0.7364  119.4   0.601   18.4  0.2613   61.5  0.2729  -97.7
 3.000  0.7382  117.4   0.579   17.3  0.2715   60.4  0.2737 -101.2
 3.100  0.7382  115.4   0.564   16.8  0.2811   59.1  0.2718 -104.4
 3.200  0.7391  113.4   0.548   16.3  0.2908   57.9  0.2708 -107.5
 3.300  0.7410  111.4   0.533   15.8  0.3006   56.8  0.2706 -110.7
 3.400  0.7437  109.4   0.517   15.2  0.3106   55.8  0.2712 -113.9
 3.500  0.7473  107.4   0.502   14.6  0.3206   54.8  0.2727 -117.1
 3.600  0.7458  105.6   0.493   14.6  0.3295   53.4  0.2693 -120.4
 3.700  0.7451  103.7   0.484   14.6  0.3385   52.0  0.2669 -123.8
 3.800  0.7452  101.9   0.475   14.5  0.3478   50.8  0.2654 -127.3
 3.900  0.7461  100.0   0.466   14.5  0.3572   49.5  0.2649 -130.7
 4.000  0.7477   98.2   0.457   14.5  0.3667   48.4  0.2654 -134.2
 4.100  0.7453   96.5   0.454   14.6  0.3745   46.9  0.2623 -138.0
 4.200  0.7435   94.9   0.450   14.6  0.3825   45.5  0.2604 -141.8
 4.300  0.7424   93.2   0.447   14.7  0.3907   44.2  0.2597 -145.7
 4.400  0.7419   91.5   0.443   14.7  0.3992   42.9  0.2602 -149.6
 4.500  0.7421   89.8   0.440   14.8  0.4078   41.7  0.2619 -153.5
 4.600  0.7399   88.6   0.439   15.0  0.4144   40.4  0.2622 -157.2
 4.700  0.7381   87.3   0.439   15.2  0.4211   39.2  0.2636 -161.0
 4.800  0.7366   86.0   0.438   15.4  0.4281   38.0  0.2661 -164.6
 4.900  0.7355   84.8   0.438   15.6  0.4352   36.9  0.2697 -168.2
 5.000  0.7347   83.5   0.437   15.8  0.4425   35.8  0.2743 -171.7
 5.100  0.7331   82.3   0.441   15.7  0.4484   34.6  0.2784 -174.5
 5.200  0.7318   81.0   0.444   15.5  0.4545   33.4  0.2833 -177.3
 5.300  0.7308   79.8   0.448   15.4  0.4608   32.3  0.2887 -179.9
 5.400  0.7302   78.5   0.451   15.2  0.4673   31.2  0.2947  177.5
 5.500  0.7299   77.3   0.455   15.1  0.4739   30.1  0.3013  175.1
 5.600  0.7260   76.2   0.459   14.9  0.4789   28.9  0.3044  173.2
 5.700  0.7223   75.1   0.462   14.6  0.4841   27.7  0.3079  171.2
 5.800  0.7189   73.9   0.466   14.4  0.4895   26.6  0.3117  169.4
 5.900  0.7158   72.8   0.469   14.1  0.4951   25.5  0.3159  167.6
 6.000  0.7130   71.6   0.473   13.9  0.5009   24.4  0.3203  165.8
!
!  f       NFmin   Gammaopt  rn/50
! GHz       dB    MAG  ANG    -
!
! noise parameter not available yet for this operation point!
!
! (c) 2017  Infineon Technologies AG, Munich