! Infineon Technologies  Discrete & RF Semiconductors
! BFR181W
! VCE =  11. V,  IC =  12 mA
! Common Emitter S-Parameters:                            Jan 2017
# GHz  S  MA  R  50
!  f         S11            S21            S12            S22
! GHz     MAG   ANG      MAG   ANG      MAG   ANG      MAG   ANG
 0.010  0.7422   -2.0  26.842  176.5  0.0013   83.6  0.9892   -1.4
 0.020  0.7240   -7.5  26.155  173.5  0.0030   95.3  0.9918   -2.9
 0.030  0.7155  -10.2  25.901  171.2  0.0046   86.7  0.9835   -4.5
 0.040  0.7088  -13.0  25.689  168.9  0.0063   82.7  0.9760   -6.1
 0.050  0.7037  -15.9  25.518  166.6  0.0080   80.3  0.9693   -7.8
 0.060  0.6941  -18.9  25.096  164.3  0.0094   78.7  0.9580   -9.1
 0.070  0.6864  -21.9  24.715  162.0  0.0108   77.6  0.9472  -10.5
 0.080  0.6807  -25.0  24.377  159.5  0.0121   76.7  0.9370  -11.9
 0.090  0.6770  -28.1  24.084  157.0  0.0135   76.0  0.9273  -13.3
 0.100  0.6754  -31.3  23.837  154.5  0.0149   75.4  0.9182  -14.7
 0.110  0.6597  -33.9  23.365  152.6  0.0160   74.0  0.9047  -15.7
 0.120  0.6455  -36.6  22.920  150.6  0.0171   72.7  0.8915  -16.8
 0.130  0.6328  -39.5  22.504  148.5  0.0182   71.6  0.8786  -17.8
 0.140  0.6218  -42.4  22.117  146.4  0.0194   70.7  0.8660  -19.0
 0.150  0.6124  -45.5  21.763  144.2  0.0205   69.8  0.8538  -20.1
 0.200  0.5581  -57.0  19.530  135.2  0.0253   67.5  0.7878  -23.9
 0.250  0.5019  -67.5  17.541  128.0  0.0294   65.2  0.7292  -26.4
 0.300  0.4541  -76.7  15.732  122.1  0.0320   63.5  0.6785  -27.9
 0.350  0.4164  -83.4  14.292  118.0  0.0355   62.7  0.6409  -28.6
 0.400  0.3853  -91.2  12.940  113.1  0.0391   62.1  0.6034  -29.4
 0.450  0.3572  -97.2  11.875  110.1  0.0419   62.4  0.5779  -29.5
 0.500  0.3337 -104.1  10.849  106.5  0.0448   62.7  0.5524  -29.7
 0.600  0.2994 -114.9   9.317  101.1  0.0498   63.4  0.5174  -29.6
 0.700  0.2748 -124.7   8.135   96.7  0.0549   65.1  0.4918  -29.3
 0.800  0.2575 -133.8   7.231   92.8  0.0615   65.7  0.4739  -29.2
 0.900  0.2447 -141.8   6.485   89.5  0.0666   65.7  0.4597  -29.3
 1.000  0.2386 -149.4   5.902   86.5  0.0729   66.8  0.4475  -29.5
 1.100  0.2336 -156.2   5.401   83.8  0.0786   67.2  0.4397  -29.7
 1.200  0.2295 -163.2   4.977   81.0  0.0839   67.5  0.4319  -30.2
 1.300  0.2264 -168.7   4.618   78.5  0.0903   67.6  0.4259  -30.9
 1.400  0.2265 -173.7   4.318   76.2  0.0967   67.7  0.4193  -31.6
 1.500  0.2311 -179.0   4.051   74.0  0.1035   67.9  0.4145  -32.5
 1.600  0.2300  176.4   3.815   71.7  0.1092   68.1  0.4116  -33.5
 1.700  0.2319  172.1   3.608   69.7  0.1155   68.1  0.4063  -34.7
 1.800  0.2355  168.4   3.432   67.6  0.1222   67.8  0.4022  -35.9
 1.900  0.2391  165.3   3.272   65.8  0.1290   67.7  0.3992  -37.2
 2.000  0.2429  161.4   3.119   63.7  0.1353   67.3  0.3964  -38.6
 2.100  0.2468  158.0   2.990   61.9  0.1420   67.0  0.3934  -40.1
 2.200  0.2516  154.8   2.865   59.9  0.1487   66.8  0.3907  -41.6
 2.300  0.2567  152.0   2.759   58.1  0.1555   66.4  0.3890  -43.3
 2.400  0.2623  149.4   2.657   56.1  0.1623   66.0  0.3877  -45.0
 2.500  0.2657  146.9   2.564   54.4  0.1689   65.6  0.3863  -46.7
 2.600  0.2697  144.4   2.473   52.6  0.1755   65.2  0.3853  -48.5
 2.700  0.2755  141.9   2.395   51.0  0.1823   64.8  0.3848  -50.1
 2.800  0.2817  139.6   2.320   49.2  0.1892   64.4  0.3846  -51.8
 2.900  0.2864  137.3   2.254   47.5  0.1963   63.8  0.3836  -53.5
 3.000  0.2915  135.1   2.190   45.7  0.2034   63.3  0.3829  -55.3
 3.100  0.2958  133.0   2.134   44.3  0.2108   62.7  0.3821  -56.9
 3.200  0.3005  130.9   2.079   42.8  0.2181   62.2  0.3817  -58.5
 3.300  0.3056  128.9   2.026   41.2  0.2255   61.6  0.3815  -60.1
 3.400  0.3110  127.0   1.974   39.5  0.2330   61.2  0.3817  -61.7
 3.500  0.3168  125.1   1.924   37.8  0.2404   60.7  0.3821  -63.3
 3.600  0.3214  123.4   1.884   36.4  0.2478   59.9  0.3796  -65.0
 3.700  0.3262  121.8   1.844   35.0  0.2553   59.1  0.3774  -66.8
 3.800  0.3313  120.2   1.806   33.5  0.2628   58.4  0.3756  -68.5
 3.900  0.3367  118.6   1.769   31.9  0.2703   57.7  0.3742  -70.3
 4.000  0.3423  117.1   1.734   30.3  0.2779   57.1  0.3731  -72.1
 4.100  0.3480  115.5   1.702   28.9  0.2856   56.2  0.3687  -74.1
 4.200  0.3540  114.0   1.672   27.5  0.2933   55.4  0.3647  -76.1
 4.300  0.3603  112.6   1.642   26.0  0.3011   54.6  0.3612  -78.2
 4.400  0.3667  111.2   1.614   24.5  0.3090   53.8  0.3581  -80.3
 4.500  0.3734  109.8   1.587   22.9  0.3169   53.1  0.3556  -82.5
 4.600  0.3803  108.5   1.559   21.7  0.3246   52.2  0.3513  -85.0
 4.700  0.3874  107.2   1.531   20.4  0.3324   51.4  0.3478  -87.6
 4.800  0.3947  106.0   1.504   19.0  0.3402   50.7  0.3449  -90.2
 4.900  0.4022  104.8   1.478   17.6  0.3481   49.9  0.3428  -92.9
 5.000  0.4098  103.7   1.453   16.2  0.3561   49.2  0.3415  -95.6
 5.100  0.4151  102.5   1.432   15.0  0.3640   48.3  0.3408  -98.5
 5.200  0.4206  101.2   1.411   13.8  0.3719   47.4  0.3409 -101.4
 5.300  0.4262  100.1   1.392   12.5  0.3800   46.5  0.3420 -104.4
 5.400  0.4321   98.9   1.372   11.2  0.3881   45.7  0.3439 -107.2
 5.500  0.4381   97.8   1.354    9.9  0.3963   44.9  0.3467 -110.1
 5.600  0.4420   96.7   1.334    8.8  0.4041   43.8  0.3480 -112.8
 5.700  0.4461   95.5   1.315    7.6  0.4121   42.8  0.3501 -115.4
 5.800  0.4503   94.4   1.296    6.5  0.4202   41.8  0.3528 -118.0
 5.900  0.4547   93.4   1.278    5.2  0.4284   40.9  0.3563 -120.5
 6.000  0.4593   92.3   1.260    4.0  0.4367   40.0  0.3605 -123.0
!
!  f       NFmin   Gammaopt  rn/50
! GHz       dB    MAG  ANG    -
 0.450      1.34  0.10   16   0.21
 0.900      1.38  0.10   32   0.21
 1.900      1.82  0.07 -151   0.21
 2.400      2.01  0.08 -113   0.26
!
! (c) 2017  Infineon Technologies AG, Munich