! Infineon Technologies  Discrete & RF Semiconductors
! BFR181W
! VCE =  2.0 V,  IC =  27 mA
! Common Emitter S-Parameters:                            Jan 2017
# GHz  S  MA  R  50
!  f         S11            S21            S12            S22
! GHz     MAG   ANG      MAG   ANG      MAG   ANG      MAG   ANG
 0.010  0.3765  -18.8  29.487  173.1  0.0022   79.0  0.8697   -3.3
 0.020  0.3848  -38.6  28.622  165.1  0.0045   82.2  0.8518   -6.7
 0.030  0.3785  -53.4  27.001  159.4  0.0065   72.9  0.8247   -9.3
 0.040  0.3975  -67.8  25.683  153.0  0.0086   68.0  0.7993  -12.1
 0.050  0.4383  -80.1  24.715  146.0  0.0108   65.1  0.7760  -15.0
 0.060  0.4347  -88.6  23.142  142.8  0.0118   62.9  0.7496  -15.8
 0.070  0.4407  -97.1  21.649  139.2  0.0127   61.0  0.7235  -16.7
 0.080  0.4560 -105.2  20.254  135.1  0.0137   59.3  0.6975  -17.7
 0.090  0.4796 -112.6  18.978  130.4  0.0147   57.9  0.6717  -18.8
 0.100  0.5105 -119.2  17.848  125.1  0.0157   56.7  0.6462  -19.9
 0.110  0.5128 -123.3  16.906  123.3  0.0164   55.7  0.6314  -19.9
 0.120  0.5177 -127.4  15.983  121.2  0.0171   54.8  0.6166  -19.9
 0.130  0.5252 -131.3  15.083  119.0  0.0178   54.0  0.6017  -20.0
 0.140  0.5350 -135.1  14.209  116.4  0.0185   53.2  0.5869  -20.0
 0.150  0.5472 -138.8  13.368  113.5  0.0192   52.5  0.5721  -20.0
 0.200  0.5610 -150.0  10.506  105.7  0.0203   54.2  0.5322  -18.9
 0.250  0.5697 -158.0   8.618  100.4  0.0236   55.7  0.5106  -18.2
 0.300  0.5763 -163.4   7.279   96.4  0.0258   58.3  0.4956  -17.5
 0.350  0.5768 -167.5   6.411   93.7  0.0283   60.7  0.4881  -17.4
 0.400  0.5803 -171.6   5.561   90.2  0.0308   62.7  0.4806  -17.2
 0.450  0.5816 -174.5   5.014   88.1  0.0334   64.6  0.4763  -17.4
 0.500  0.5843 -177.3   4.475   85.4  0.0361   66.3  0.4720  -17.7
 0.600  0.5877  178.2   3.754   81.3  0.0421   68.9  0.4665  -18.4
 0.700  0.5924  174.4   3.232   77.6  0.0477   71.7  0.4628  -19.5
 0.800  0.5943  170.8   2.844   74.1  0.0540   73.6  0.4590  -21.0
 0.900  0.5957  167.5   2.532   70.9  0.0603   73.9  0.4560  -22.7
 1.000  0.6007  164.6   2.298   67.8  0.0669   75.5  0.4516  -24.2
 1.100  0.6053  161.8   2.095   65.0  0.0739   76.0  0.4501  -26.0
 1.200  0.6097  159.1   1.927   61.9  0.0806   76.7  0.4472  -27.8
 1.300  0.6122  156.4   1.784   59.2  0.0872   77.0  0.4443  -29.9
 1.400  0.6153  154.0   1.668   56.5  0.0955   77.4  0.4404  -31.9
 1.500  0.6214  151.7   1.559   54.0  0.1025   77.7  0.4375  -34.1
 1.600  0.6258  149.2   1.470   51.4  0.1106   77.5  0.4356  -36.2
 1.700  0.6300  146.9   1.390   49.0  0.1189   77.5  0.4323  -38.7
 1.800  0.6348  144.4   1.321   46.4  0.1269   77.4  0.4286  -41.0
 1.900  0.6395  142.5   1.255   44.4  0.1354   77.2  0.4267  -43.5
 2.000  0.6423  140.0   1.193   41.9  0.1438   76.8  0.4250  -46.1
 2.100  0.6465  137.8   1.141   39.8  0.1525   76.3  0.4219  -48.7
 2.200  0.6517  135.6   1.090   37.6  0.1613   75.8  0.4198  -51.4
 2.300  0.6562  133.5   1.047   35.7  0.1706   75.2  0.4183  -54.1
 2.400  0.6615  131.5   1.005   33.6  0.1799   74.7  0.4178  -56.9
 2.500  0.6634  129.5   0.967   31.9  0.1893   73.9  0.4164  -59.6
 2.600  0.6661  127.5   0.930   30.0  0.1987   73.2  0.4160  -62.4
 2.700  0.6707  125.5   0.897   28.4  0.2083   72.4  0.4153  -65.0
 2.800  0.6762  123.5   0.865   26.7  0.2179   71.6  0.4155  -67.7
 2.900  0.6781  121.5   0.836   25.3  0.2278   70.7  0.4141  -70.4
 3.000  0.6808  119.5   0.808   23.7  0.2378   69.8  0.4136  -73.1
 3.100  0.6826  117.5   0.785   22.7  0.2479   68.7  0.4111  -75.6
 3.200  0.6852  115.6   0.762   21.6  0.2582   67.6  0.4095  -78.2
 3.300  0.6886  113.6   0.739   20.4  0.2685   66.6  0.4086  -80.8
 3.400  0.6928  111.7   0.717   19.1  0.2789   65.7  0.4086  -83.4
 3.500  0.6978  109.8   0.695   17.8  0.2893   64.9  0.4095  -86.0
 3.600  0.6984  108.0   0.679   17.1  0.2992   63.5  0.4049  -88.7
 3.700  0.6996  106.1   0.662   16.4  0.3093   62.3  0.4011  -91.4
 3.800  0.7016  104.3   0.646   15.6  0.3195   61.1  0.3983  -94.2
 3.900  0.7043  102.5   0.630   14.8  0.3298   60.0  0.3964  -97.0
 4.000  0.7077  100.7   0.614   14.0  0.3403   58.9  0.3955  -99.8
 4.100  0.7072   99.0   0.603   13.6  0.3499   57.4  0.3891 -102.8
 4.200  0.7072   97.3   0.592   13.2  0.3596   56.0  0.3838 -105.9
 4.300  0.7079   95.6   0.581   12.7  0.3696   54.7  0.3797 -109.1
 4.400  0.7093   93.9   0.571   12.3  0.3798   53.5  0.3768 -112.4
 4.500  0.7112   92.2   0.560   11.8  0.3901   52.3  0.3751 -115.7
 4.600  0.7108   90.9   0.552   11.7  0.3986   50.9  0.3706 -119.1
 4.700  0.7109   89.5   0.545   11.5  0.4074   49.6  0.3674 -122.6
 4.800  0.7113   88.2   0.537   11.4  0.4164   48.4  0.3656 -126.1
 4.900  0.7121   86.8   0.530   11.2  0.4256   47.2  0.3651 -129.7
 5.000  0.7133   85.5   0.522   11.1  0.4349   46.0  0.3661 -133.2
 5.100  0.7124   84.2   0.520   11.0  0.4428   44.6  0.3663 -136.5
 5.200  0.7119   82.9   0.518   10.9  0.4509   43.3  0.3676 -139.8
 5.300  0.7118   81.6   0.517   10.9  0.4593   42.1  0.3702 -143.0
 5.400  0.7120   80.3   0.515   10.8  0.4678   40.9  0.3739 -146.2
 5.500  0.7126   79.0   0.513   10.7  0.4766   39.7  0.3787 -149.3
 5.600  0.7096   77.8   0.513   10.6  0.4835   38.3  0.3798 -152.0
 5.700  0.7070   76.7   0.512   10.6  0.4907   37.0  0.3817 -154.6
 5.800  0.7046   75.5   0.512   10.5  0.4981   35.7  0.3845 -157.3
 5.900  0.7026   74.3   0.511   10.5  0.5058   34.5  0.3880 -159.9
 6.000  0.7008   73.1   0.511   10.4  0.5137   33.3  0.3923 -162.4
!
!  f       NFmin   Gammaopt  rn/50
! GHz       dB    MAG  ANG    -
!
! noise parameter not available yet for this operation point!
!
! (c) 2017  Infineon Technologies AG, Munich