! Infineon Technologies  Discrete & RF Semiconductors
! BFR181W
! VCE =  3.0 V,  IC =  3.0 mA
! Common Emitter S-Parameters:                            Jan 2017
# GHz  S  MA  R  50
!  f         S11            S21            S12            S22
! GHz     MAG   ANG      MAG   ANG      MAG   ANG      MAG   ANG
 0.010  0.9119   -0.7   9.962  179.8  0.0014   87.9  0.9997   -0.8
 0.020  0.8951   -4.2   9.895  177.5  0.0036   97.9  0.9976   -1.4
 0.030  0.8883   -5.3   9.854  176.3  0.0054   90.4  0.9962   -2.2
 0.040  0.8818   -6.4   9.818  175.0  0.0073   86.8  0.9950   -3.1
 0.050  0.8756   -7.5   9.786  173.8  0.0092   84.6  0.9940   -3.9
 0.060  0.8758   -9.1   9.743  172.5  0.0111   84.0  0.9912   -4.7
 0.070  0.8767  -10.6   9.705  171.2  0.0129   83.6  0.9886   -5.4
 0.080  0.8783  -12.2   9.673  169.9  0.0148   83.2  0.9861   -6.2
 0.090  0.8805  -13.8   9.645  168.6  0.0166   83.0  0.9839   -7.0
 0.100  0.8833  -15.3   9.622  167.3  0.0185   82.8  0.9818   -7.8
 0.110  0.8765  -16.8   9.575  166.1  0.0202   81.3  0.9779   -8.5
 0.120  0.8704  -18.4   9.532  164.9  0.0218   80.0  0.9741   -9.3
 0.130  0.8649  -20.0   9.494  163.7  0.0235   79.0  0.9705  -10.0
 0.140  0.8601  -21.6   9.460  162.4  0.0252   78.0  0.9671  -10.7
 0.150  0.8560  -23.2   9.430  161.2  0.0269   77.2  0.9638  -11.5
 0.200  0.8357  -30.1   9.139  154.9  0.0351   74.1  0.9393  -15.0
 0.250  0.8042  -37.4   8.866  149.2  0.0425   69.8  0.9127  -18.1
 0.300  0.7680  -44.1   8.502  143.9  0.0489   66.3  0.8819  -20.9
 0.350  0.7334  -49.8   8.127  139.4  0.0542   63.5  0.8512  -23.2
 0.400  0.7066  -55.9   7.808  134.4  0.0596   61.2  0.8220  -25.6
 0.450  0.6709  -61.1   7.427  130.5  0.0640   58.7  0.7932  -27.3
 0.500  0.6414  -66.9   7.084  126.3  0.0685   56.6  0.7652  -29.1
 0.600  0.5855  -76.9   6.451  119.1  0.0754   54.0  0.7143  -31.7
 0.700  0.5350  -86.0   5.869  112.9  0.0806   52.2  0.6705  -33.7
 0.800  0.4920  -94.5   5.386  107.4  0.0858   50.6  0.6335  -35.2
 0.900  0.4569 -102.3   4.943  102.5  0.0898   49.9  0.6035  -36.5
 1.000  0.4259 -109.8   4.573   98.3  0.0934   49.5  0.5762  -37.5
 1.100  0.4037 -116.8   4.245   94.4  0.0977   49.4  0.5560  -38.4
 1.200  0.3809 -123.7   3.957   90.6  0.1009   49.2  0.5364  -39.2
 1.300  0.3626 -130.0   3.703   87.1  0.1044   49.5  0.5210  -40.1
 1.400  0.3495 -136.0   3.486   83.9  0.1083   50.1  0.5067  -41.1
 1.500  0.3420 -142.5   3.295   80.9  0.1116   50.4  0.4954  -42.0
 1.600  0.3318 -148.2   3.116   77.9  0.1155   51.1  0.4865  -42.9
 1.700  0.3261 -153.9   2.964   75.3  0.1192   51.7  0.4757  -44.1
 1.800  0.3216 -159.1   2.833   72.6  0.1236   52.0  0.4674  -45.2
 1.900  0.3211 -164.1   2.710   70.2  0.1275   52.8  0.4607  -46.4
 2.000  0.3182 -169.4   2.593   67.6  0.1320   53.2  0.4556  -47.7
 2.100  0.3166 -173.9   2.492   65.3  0.1369   53.8  0.4503  -49.0
 2.200  0.3169 -178.4   2.396   62.8  0.1418   54.4  0.4453  -50.4
 2.300  0.3184  177.3   2.311   60.5  0.1467   54.9  0.4420  -51.9
 2.400  0.3216  173.1   2.229   58.1  0.1516   55.3  0.4391  -53.5
 2.500  0.3231  169.6   2.154   56.1  0.1570   55.7  0.4364  -55.0
 2.600  0.3257  166.2   2.081   53.9  0.1625   56.0  0.4340  -56.6
 2.700  0.3294  162.5   2.018   51.9  0.1679   56.3  0.4330  -58.2
 2.800  0.3344  158.8   1.958   49.8  0.1733   56.5  0.4324  -59.8
 2.900  0.3366  155.7   1.906   47.8  0.1796   56.6  0.4309  -61.3
 3.000  0.3397  152.7   1.856   45.7  0.1860   56.7  0.4296  -62.8
 3.100  0.3430  149.7   1.809   44.1  0.1929   56.7  0.4287  -64.4
 3.200  0.3473  146.9   1.763   42.4  0.1997   56.7  0.4280  -66.0
 3.300  0.3524  144.1   1.718   40.6  0.2066   56.7  0.4278  -67.6
 3.400  0.3583  141.3   1.676   38.8  0.2134   56.7  0.4278  -69.2
 3.500  0.3650  138.7   1.635   36.8  0.2203   56.7  0.4282  -70.8
 3.600  0.3693  136.3   1.601   35.3  0.2279   56.3  0.4258  -72.5
 3.700  0.3743  133.9   1.568   33.7  0.2355   56.0  0.4238  -74.3
 3.800  0.3798  131.7   1.536   32.0  0.2431   55.7  0.4222  -76.1
 3.900  0.3860  129.4   1.505   30.3  0.2508   55.4  0.4210  -77.9
 4.000  0.3927  127.3   1.476   28.5  0.2584   55.1  0.4202  -79.7
 4.100  0.3980  125.2   1.448   27.0  0.2667   54.5  0.4159  -81.8
 4.200  0.4039  123.1   1.421   25.4  0.2750   53.9  0.4121  -84.0
 4.300  0.4102  121.1   1.396   23.8  0.2833   53.3  0.4089  -86.1
 4.400  0.4171  119.2   1.371   22.1  0.2917   52.8  0.4064  -88.4
 4.500  0.4244  117.3   1.348   20.4  0.3001   52.3  0.4044  -90.6
 4.600  0.4309  115.5   1.323   19.1  0.3086   51.6  0.4006  -93.2
 4.700  0.4378  113.8   1.299   17.8  0.3172   50.9  0.3977  -95.9
 4.800  0.4451  112.1   1.275   16.4  0.3258   50.2  0.3957  -98.6
 4.900  0.4528  110.5   1.252   14.9  0.3345   49.6  0.3945 -101.3
 5.000  0.4608  108.9   1.230   13.4  0.3432   49.0  0.3942 -104.0
 5.100  0.4657  107.3   1.211   12.2  0.3520   48.1  0.3942 -106.9
 5.200  0.4710  105.8   1.193   10.9  0.3610   47.3  0.3953 -109.8
 5.300  0.4766  104.3   1.175    9.6  0.3699   46.5  0.3973 -112.6
 5.400  0.4826  102.8   1.158    8.3  0.3790   45.8  0.4003 -115.4
 5.500  0.4888  101.4   1.142    6.9  0.3881   45.1  0.4043 -118.2
 5.600  0.4922  100.0   1.124    5.9  0.3970   44.0  0.4059 -120.8
 5.700  0.4958   98.6   1.106    4.8  0.4059   43.0  0.4083 -123.4
 5.800  0.4997   97.3   1.089    3.7  0.4150   42.0  0.4116 -126.0
 5.900  0.5039   95.9   1.072    2.6  0.4243   41.1  0.4157 -128.5
 6.000  0.5084   94.6   1.056    1.4  0.4336   40.2  0.4206 -131.0
!
!  f       NFmin   Gammaopt  rn/50
! GHz       dB    MAG  ANG    -
 0.450      0.87  0.47   17   0.27
 0.900      0.93  0.42   32   0.26
 1.900      1.34  0.24   80   0.21
 2.400      1.55  0.21   94   0.23
!
! (c) 2017  Infineon Technologies AG, Munich