! Infineon Technologies  Discrete & RF Semiconductors
! BFR181W
! VCE =  6.0 V,  IC =  21 mA
! Common Emitter S-Parameters:                            Jan 2017
# GHz  S  MA  R  50
!  f         S11            S21            S12            S22
! GHz     MAG   ANG      MAG   ANG      MAG   ANG      MAG   ANG
 0.010  0.5823   -4.8  34.332  176.1  0.0012   96.9  0.9747   -1.7
 0.020  0.5710  -12.9  33.709  171.7  0.0029   83.0  0.9745   -3.9
 0.030  0.5574  -17.9  33.074  168.2  0.0043   79.3  0.9620   -5.9
 0.040  0.5482  -23.1  32.568  164.5  0.0058   77.5  0.9507   -8.1
 0.050  0.5438  -28.5  32.198  160.8  0.0072   76.4  0.9407  -10.2
 0.060  0.5275  -33.1  31.187  157.9  0.0084   74.9  0.9217  -11.6
 0.070  0.5148  -38.0  30.261  154.8  0.0097   73.8  0.9032  -13.1
 0.080  0.5059  -43.0  29.428  151.6  0.0109   72.9  0.8853  -14.6
 0.090  0.5012  -48.2  28.695  148.1  0.0122   72.3  0.8681  -16.2
 0.100  0.5006  -53.5  28.072  144.5  0.0134   71.7  0.8516  -17.8
 0.110  0.4852  -57.3  27.143  142.4  0.0142   70.4  0.8333  -18.6
 0.120  0.4720  -61.3  26.252  140.2  0.0151   69.3  0.8152  -19.4
 0.130  0.4612  -65.5  25.404  137.8  0.0159   68.3  0.7973  -20.2
 0.140  0.4531  -70.0  24.602  135.3  0.0168   67.4  0.7795  -21.1
 0.150  0.4478  -74.5  23.851  132.6  0.0176   66.6  0.7619  -22.0
 0.200  0.4070  -90.5  20.171  123.3  0.0208   65.3  0.6903  -23.9
 0.250  0.3769 -104.0  17.344  116.5  0.0240   63.1  0.6386  -24.5
 0.300  0.3545 -114.9  15.045  111.3  0.0266   63.7  0.5985  -24.5
 0.350  0.3384 -122.7  13.439  107.9  0.0295   64.9  0.5738  -24.2
 0.400  0.3292 -131.2  11.891  103.7  0.0324   65.8  0.5491  -23.9
 0.450  0.3203 -137.1  10.800  101.2  0.0349   66.4  0.5349  -23.6
 0.500  0.3149 -143.2   9.734   98.2  0.0374   67.0  0.5208  -23.3
 0.600  0.3101 -152.9   8.248   93.8  0.0436   68.0  0.5021  -22.8
 0.700  0.3067 -160.4   7.136   90.0  0.0483   70.3  0.4891  -22.7
 0.800  0.3057 -167.3   6.308   86.6  0.0553   71.9  0.4803  -23.0
 0.900  0.3058 -172.9   5.630   83.7  0.0609   72.1  0.4735  -23.5
 1.000  0.3079 -177.7   5.111   81.0  0.0668   72.6  0.4667  -24.1
 1.100  0.3112  177.8   4.668   78.5  0.0735   73.2  0.4631  -24.9
 1.200  0.3128  173.4   4.299   76.0  0.0793   73.1  0.4583  -25.8
 1.300  0.3148  169.5   3.983   73.6  0.0857   73.5  0.4550  -26.8
 1.400  0.3179  166.6   3.720   71.4  0.0920   73.8  0.4503  -28.0
 1.500  0.3243  163.2   3.486   69.3  0.0985   73.7  0.4476  -29.2
 1.600  0.3268  160.0   3.284   67.0  0.1053   73.6  0.4461  -30.6
 1.700  0.3317  157.2   3.105   65.0  0.1118   73.7  0.4419  -32.2
 1.800  0.3356  154.3   2.954   62.9  0.1187   73.2  0.4388  -33.6
 1.900  0.3398  152.4   2.812   61.1  0.1256   73.2  0.4366  -35.2
 2.000  0.3448  149.4   2.680   59.0  0.1326   72.8  0.4347  -37.0
 2.100  0.3488  147.1   2.569   57.2  0.1398   72.4  0.4324  -38.7
 2.200  0.3533  144.8   2.460   55.2  0.1470   72.1  0.4305  -40.5
 2.300  0.3592  142.7   2.369   53.4  0.1542   71.6  0.4292  -42.4
 2.400  0.3656  140.6   2.281   51.4  0.1615   71.2  0.4284  -44.4
 2.500  0.3688  138.6   2.200   49.7  0.1689   70.7  0.4273  -46.3
 2.600  0.3725  136.6   2.121   47.9  0.1763   70.3  0.4266  -48.2
 2.700  0.3782  134.6   2.054   46.2  0.1838   69.8  0.4264  -50.1
 2.800  0.3844  132.7   1.989   44.4  0.1914   69.3  0.4266  -52.1
 2.900  0.3885  130.8   1.931   42.8  0.1991   68.7  0.4257  -54.0
 3.000  0.3930  128.9   1.874   41.0  0.2068   68.1  0.4253  -55.9
 3.100  0.3973  127.0   1.826   39.6  0.2149   67.4  0.4246  -57.7
 3.200  0.4020  125.2   1.779   38.1  0.2230   66.7  0.4243  -59.6
 3.300  0.4071  123.4   1.733   36.5  0.2312   66.1  0.4245  -61.4
 3.400  0.4126  121.7   1.689   34.8  0.2394   65.5  0.4251  -63.3
 3.500  0.4184  120.0   1.646   33.1  0.2476   65.0  0.4261  -65.1
 3.600  0.4224  118.4   1.611   31.7  0.2559   64.1  0.4234  -67.0
 3.700  0.4267  116.7   1.577   30.3  0.2643   63.2  0.4212  -69.0
 3.800  0.4313  115.2   1.543   28.8  0.2728   62.4  0.4195  -71.0
 3.900  0.4363  113.6   1.511   27.3  0.2813   61.6  0.4183  -73.0
 4.000  0.4416  112.1   1.480   25.7  0.2898   60.9  0.4176  -75.0
 4.100  0.4464  110.6   1.452   24.3  0.2983   59.9  0.4127  -77.2
 4.200  0.4516  109.2   1.424   22.9  0.3069   58.9  0.4085  -79.5
 4.300  0.4570  107.7   1.397   21.5  0.3157   57.9  0.4049  -81.8
 4.400  0.4627  106.4   1.372   20.0  0.3244   57.0  0.4020  -84.1
 4.500  0.4686  105.0   1.347   18.4  0.3333   56.2  0.3998  -86.5
 4.600  0.4742  103.7   1.322   17.2  0.3419   55.2  0.3953  -89.2
 4.700  0.4801  102.4   1.297   16.0  0.3505   54.2  0.3917  -91.9
 4.800  0.4862  101.2   1.274   14.7  0.3592   53.3  0.3890  -94.7
 4.900  0.4926  100.0   1.250   13.4  0.3681   52.4  0.3872  -97.6
 5.000  0.4991   98.8   1.228   12.0  0.3770   51.6  0.3864 -100.4
 5.100  0.5036   97.6   1.210   10.9  0.3856   50.5  0.3857 -103.4
 5.200  0.5083   96.3   1.192    9.8  0.3943   49.5  0.3861 -106.4
 5.300  0.5132   95.1   1.174    8.7  0.4032   48.5  0.3875 -109.4
 5.400  0.5183   94.0   1.157    7.5  0.4121   47.6  0.3900 -112.3
 5.500  0.5237   92.8   1.141    6.3  0.4212   46.7  0.3935 -115.2
 5.600  0.5261   91.6   1.123    5.3  0.4295   45.5  0.3945 -117.9
 5.700  0.5287   90.5   1.106    4.3  0.4380   44.3  0.3963 -120.6
 5.800  0.5315   89.3   1.089    3.2  0.4467   43.2  0.3991 -123.3
 5.900  0.5346   88.2   1.073    2.1  0.4555   42.1  0.4027 -125.9
 6.000  0.5378   87.1   1.057    1.0  0.4645   41.1  0.4071 -128.5
!
!  f       NFmin   Gammaopt  rn/50
! GHz       dB    MAG  ANG    -
!
! noise parameter not available yet for this operation point!
!
! (c) 2017  Infineon Technologies AG, Munich