! Infineon Technologies  Discrete & RF Semiconductors
! BFR181W
! VCE =  5.0 V,  IC =  21 mA
! Common Emitter S-Parameters:                            Jan 2017
# GHz  S  MA  R  50
!  f         S11            S21            S12            S22
! GHz     MAG   ANG      MAG   ANG      MAG   ANG      MAG   ANG
 0.010  0.5670   -5.6  33.903  176.1  0.0015   88.5  0.9702   -1.8
 0.020  0.5560  -14.0  33.445  171.3  0.0031   94.5  0.9631   -3.9
 0.030  0.5413  -19.7  32.699  167.6  0.0045   84.1  0.9509   -6.0
 0.040  0.5323  -25.6  32.094  163.8  0.0059   78.7  0.9399   -8.2
 0.050  0.5291  -31.7  31.638  159.8  0.0074   75.4  0.9304  -10.4
 0.060  0.5121  -36.7  30.564  156.8  0.0087   74.0  0.9107  -11.8
 0.070  0.4994  -42.1  29.577  153.7  0.0100   72.9  0.8915  -13.2
 0.080  0.4912  -47.7  28.688  150.3  0.0114   72.1  0.8729  -14.7
 0.090  0.4877  -53.4  27.905  146.7  0.0127   71.5  0.8549  -16.2
 0.100  0.4892  -59.1  27.237  142.9  0.0140   71.0  0.8376  -17.8
 0.110  0.4744  -63.2  26.279  140.8  0.0147   69.6  0.8194  -18.5
 0.120  0.4622  -67.5  25.359  138.6  0.0155   68.3  0.8012  -19.3
 0.130  0.4527  -72.0  24.480  136.2  0.0162   67.2  0.7833  -20.0
 0.140  0.4462  -76.7  23.648  133.6  0.0169   66.2  0.7655  -20.8
 0.150  0.4427  -81.5  22.868  130.8  0.0177   65.2  0.7478  -21.7
 0.200  0.4080  -97.6  19.175  121.6  0.0207   63.1  0.6795  -23.1
 0.250  0.3835 -111.4  16.385  114.9  0.0239   62.7  0.6309  -23.5
 0.300  0.3692 -122.1  14.173  109.8  0.0260   62.9  0.5945  -23.3
 0.350  0.3567 -129.6  12.633  106.5  0.0288   63.9  0.5724  -23.0
 0.400  0.3507 -137.5  11.146  102.3  0.0317   64.8  0.5503  -22.6
 0.450  0.3436 -143.2  10.114   99.9  0.0343   66.2  0.5374  -22.4
 0.500  0.3401 -149.1   9.104   97.0  0.0369   67.4  0.5245  -22.1
 0.600  0.3380 -158.0   7.700   92.6  0.0424   68.5  0.5082  -21.8
 0.700  0.3357 -165.1   6.658   88.9  0.0481   70.5  0.4971  -21.8
 0.800  0.3377 -171.3   5.880   85.5  0.0540   71.7  0.4896  -22.2
 0.900  0.3371 -176.5   5.249   82.6  0.0595   72.5  0.4830  -22.9
 1.000  0.3414  179.0   4.761   79.9  0.0657   73.3  0.4771  -23.5
 1.100  0.3445  174.9   4.350   77.4  0.0723   74.0  0.4744  -24.4
 1.200  0.3476  170.9   4.005   74.9  0.0782   73.8  0.4697  -25.4
 1.300  0.3486  167.4   3.707   72.4  0.0840   74.1  0.4665  -26.6
 1.400  0.3520  164.3   3.465   70.2  0.0909   74.5  0.4624  -27.9
 1.500  0.3587  161.4   3.246   68.1  0.0978   74.5  0.4592  -29.2
 1.600  0.3636  158.1   3.059   65.8  0.1044   74.5  0.4584  -30.6
 1.700  0.3654  155.4   2.893   63.8  0.1111   74.4  0.4545  -32.3
 1.800  0.3693  152.6   2.750   61.6  0.1181   74.4  0.4510  -33.9
 1.900  0.3739  150.6   2.619   59.8  0.1248   74.0  0.4490  -35.5
 2.000  0.3796  148.4   2.495   57.6  0.1319   73.9  0.4473  -37.4
 2.100  0.3834  145.8   2.392   55.8  0.1390   73.4  0.4450  -39.2
 2.200  0.3879  143.3   2.291   53.8  0.1462   73.0  0.4432  -41.1
 2.300  0.3938  141.2   2.206   51.9  0.1537   72.6  0.4419  -43.1
 2.400  0.4002  139.2   2.123   49.9  0.1613   72.3  0.4411  -45.1
 2.500  0.4034  137.3   2.048   48.2  0.1687   71.8  0.4402  -47.0
 2.600  0.4070  135.4   1.975   46.4  0.1762   71.4  0.4398  -49.0
 2.700  0.4128  133.4   1.913   44.7  0.1839   70.8  0.4395  -51.0
 2.800  0.4190  131.5   1.852   42.9  0.1917   70.3  0.4398  -53.0
 2.900  0.4225  129.6   1.797   41.2  0.1999   69.7  0.4388  -55.0
 3.000  0.4264  127.7   1.744   39.4  0.2081   69.1  0.4383  -57.0
 3.100  0.4306  125.8   1.699   38.0  0.2164   68.4  0.4375  -58.9
 3.200  0.4353  123.9   1.655   36.5  0.2248   67.7  0.4371  -60.8
 3.300  0.4405  122.1   1.612   35.0  0.2332   67.0  0.4372  -62.7
 3.400  0.4461  120.3   1.570   33.3  0.2416   66.5  0.4378  -64.6
 3.500  0.4521  118.6   1.530   31.6  0.2500   65.9  0.4389  -66.5
 3.600  0.4557  117.0   1.497   30.2  0.2586   64.9  0.4361  -68.5
 3.700  0.4597  115.4   1.465   28.8  0.2672   64.1  0.4339  -70.6
 3.800  0.4641  113.8   1.433   27.4  0.2759   63.2  0.4322  -72.6
 3.900  0.4688  112.2   1.403   25.8  0.2847   62.4  0.4311  -74.7
 4.000  0.4738  110.7   1.374   24.2  0.2935   61.7  0.4306  -76.8
 4.100  0.4782  109.2   1.347   22.9  0.3024   60.6  0.4255  -79.1
 4.200  0.4829  107.7   1.321   21.5  0.3115   59.5  0.4211  -81.4
 4.300  0.4880  106.2   1.296   20.1  0.3206   58.5  0.4174  -83.8
 4.400  0.4933  104.8   1.272   18.6  0.3299   57.6  0.4145  -86.2
 4.500  0.4990  103.4   1.248   17.1  0.3392   56.7  0.4123  -88.7
 4.600  0.5042  102.1   1.225   16.0  0.3479   55.6  0.4078  -91.5
 4.700  0.5096  100.8   1.202   14.8  0.3567   54.6  0.4042  -94.3
 4.800  0.5153   99.6   1.180   13.5  0.3656   53.7  0.4016  -97.1
 4.900  0.5212   98.4   1.159   12.2  0.3746   52.8  0.4001 -100.0
 5.000  0.5274   97.2   1.138   10.9  0.3837   51.9  0.3995 -102.9
 5.100  0.5315   95.9   1.121    9.9  0.3925   50.8  0.3987 -105.9
 5.200  0.5359   94.7   1.104    8.8  0.4014   49.7  0.3990 -108.9
 5.300  0.5405   93.5   1.088    7.7  0.4105   48.7  0.4003 -111.9
 5.400  0.5453   92.3   1.072    6.6  0.4197   47.7  0.4028 -114.9
 5.500  0.5504   91.1   1.056    5.4  0.4290   46.8  0.4063 -117.8
 5.600  0.5524   89.9   1.040    4.5  0.4375   45.6  0.4072 -120.5
 5.700  0.5547   88.7   1.025    3.5  0.4462   44.4  0.4090 -123.3
 5.800  0.5573   87.5   1.010    2.5  0.4551   43.2  0.4118 -126.0
 5.900  0.5600   86.4   0.995    1.5  0.4642   42.2  0.4154 -128.6
 6.000  0.5630   85.2   0.980    0.5  0.4734   41.1  0.4199 -131.2
!
!  f       NFmin   Gammaopt  rn/50
! GHz       dB    MAG  ANG    -
!
! noise parameter not available yet for this operation point!
!
! (c) 2017  Infineon Technologies AG, Munich