! Infineon Technologies  Discrete & RF Semiconductors
! BFR181W
! VCE =  12. V,  IC =  14 mA
! Common Emitter S-Parameters:                            Jan 2017
# GHz  S  MA  R  50
!  f         S11            S21            S12            S22
! GHz     MAG   ANG      MAG   ANG      MAG   ANG      MAG   ANG
 0.010  0.7276   -2.1  28.930  176.0  0.0012   75.9  0.9831   -1.4
 0.020  0.7127   -7.9  28.244  173.1  0.0027   81.5  0.9774   -2.9
 0.030  0.7029  -11.0  27.904  170.7  0.0043   81.2  0.9714   -4.6
 0.040  0.6952  -14.1  27.614  168.2  0.0058   81.1  0.9664   -6.4
 0.050  0.6896  -17.3  27.377  165.7  0.0074   81.0  0.9623   -8.2
 0.060  0.6783  -20.4  26.872  163.3  0.0088   79.1  0.9498   -9.6
 0.070  0.6691  -23.6  26.415  160.9  0.0103   77.7  0.9378  -11.0
 0.080  0.6621  -26.9  26.008  158.3  0.0117   76.7  0.9264  -12.4
 0.090  0.6572  -30.2  25.654  155.7  0.0132   75.9  0.9157  -13.9
 0.100  0.6546  -33.6  25.356  153.0  0.0146   75.2  0.9055  -15.4
 0.110  0.6387  -36.3  24.802  151.0  0.0157   73.7  0.8910  -16.4
 0.120  0.6244  -39.2  24.279  149.0  0.0168   72.5  0.8767  -17.5
 0.130  0.6117  -42.2  23.788  146.8  0.0179   71.4  0.8628  -18.5
 0.140  0.6007  -45.3  23.332  144.6  0.0190   70.4  0.8492  -19.7
 0.150  0.5915  -48.5  22.912  142.3  0.0201   69.5  0.8359  -20.8
 0.200  0.5316  -60.3  20.366  133.2  0.0242   67.4  0.7672  -24.3
 0.250  0.4764  -71.2  18.144  125.9  0.0282   63.9  0.7083  -26.5
 0.300  0.4295  -80.8  16.162  120.2  0.0312   63.4  0.6580  -27.8
 0.350  0.3938  -87.5  14.630  116.2  0.0346   63.2  0.6223  -28.3
 0.400  0.3645  -95.4  13.183  111.4  0.0381   63.1  0.5866  -28.8
 0.450  0.3393 -101.5  12.073  108.5  0.0405   63.2  0.5634  -28.8
 0.500  0.3186 -108.5  11.000  105.0  0.0430   63.2  0.5402  -28.8
 0.600  0.2886 -119.5   9.425   99.9  0.0492   64.2  0.5072  -28.5
 0.700  0.2656 -129.3   8.207   95.6  0.0537   65.9  0.4845  -28.2
 0.800  0.2523 -138.3   7.287   91.8  0.0607   66.7  0.4679  -28.1
 0.900  0.2399 -146.3   6.528   88.6  0.0664   66.8  0.4554  -28.2
 1.000  0.2359 -153.5   5.939   85.7  0.0722   67.9  0.4446  -28.4
 1.100  0.2322 -159.7   5.434   83.1  0.0786   68.5  0.4377  -28.7
 1.200  0.2303 -166.1   5.006   80.4  0.0844   68.4  0.4307  -29.1
 1.300  0.2270 -172.1   4.640   77.9  0.0904   68.8  0.4248  -29.9
 1.400  0.2297 -177.0   4.336   75.6  0.0970   68.9  0.4187  -30.7
 1.500  0.2331  178.5   4.067   73.5  0.1034   68.9  0.4143  -31.6
 1.600  0.2337  174.2   3.831   71.3  0.1098   68.7  0.4119  -32.6
 1.700  0.2363  169.9   3.625   69.3  0.1158   68.7  0.4067  -33.8
 1.800  0.2381  166.2   3.446   67.2  0.1227   68.3  0.4029  -35.0
 1.900  0.2415  163.3   3.283   65.4  0.1293   68.2  0.4004  -36.4
 2.000  0.2463  160.1   3.130   63.3  0.1360   67.9  0.3979  -37.9
 2.100  0.2503  156.8   3.001   61.5  0.1425   67.5  0.3951  -39.4
 2.200  0.2551  153.7   2.876   59.5  0.1490   67.2  0.3926  -41.0
 2.300  0.2602  150.9   2.770   57.7  0.1560   66.9  0.3908  -42.6
 2.400  0.2658  148.2   2.666   55.8  0.1631   66.6  0.3893  -44.3
 2.500  0.2696  146.0   2.572   54.1  0.1697   66.1  0.3882  -46.1
 2.600  0.2737  143.9   2.480   52.3  0.1763   65.6  0.3874  -47.9
 2.700  0.2795  141.3   2.402   50.7  0.1833   65.1  0.3868  -49.6
 2.800  0.2858  138.8   2.327   48.9  0.1904   64.7  0.3866  -51.3
 2.900  0.2900  136.7   2.262   47.2  0.1976   64.2  0.3855  -53.0
 3.000  0.2946  134.7   2.198   45.5  0.2049   63.7  0.3847  -54.8
 3.100  0.2990  132.6   2.142   44.1  0.2122   63.1  0.3840  -56.4
 3.200  0.3037  130.6   2.087   42.6  0.2196   62.5  0.3836  -58.0
 3.300  0.3088  128.7   2.033   41.1  0.2270   61.9  0.3835  -59.7
 3.400  0.3142  126.8   1.981   39.4  0.2344   61.4  0.3838  -61.3
 3.500  0.3200  125.0   1.931   37.7  0.2418   60.9  0.3843  -62.9
 3.600  0.3246  123.3   1.891   36.3  0.2493   60.1  0.3818  -64.6
 3.700  0.3295  121.6   1.851   34.9  0.2568   59.4  0.3797  -66.4
 3.800  0.3347  120.0   1.813   33.4  0.2643   58.7  0.3779  -68.1
 3.900  0.3401  118.4   1.776   31.9  0.2719   58.0  0.3765  -69.9
 4.000  0.3458  116.9   1.741   30.3  0.2795   57.4  0.3755  -71.7
 4.100  0.3515  115.4   1.709   28.9  0.2873   56.5  0.3710  -73.7
 4.200  0.3575  114.0   1.678   27.5  0.2951   55.6  0.3670  -75.7
 4.300  0.3636  112.6   1.648   26.0  0.3030   54.8  0.3635  -77.8
 4.400  0.3700  111.2   1.620   24.5  0.3109   54.0  0.3604  -79.9
 4.500  0.3766  109.9   1.592   22.9  0.3189   53.3  0.3579  -82.1
 4.600  0.3835  108.6   1.564   21.7  0.3266   52.4  0.3536  -84.6
 4.700  0.3905  107.3   1.536   20.4  0.3343   51.6  0.3500  -87.2
 4.800  0.3978  106.0   1.510   19.0  0.3422   50.8  0.3471  -89.8
 4.900  0.4052  104.9   1.484   17.6  0.3501   50.0  0.3450  -92.5
 5.000  0.4128  103.7   1.459   16.2  0.3580   49.3  0.3436  -95.2
 5.100  0.4177  102.5   1.438   15.0  0.3659   48.4  0.3429  -98.1
 5.200  0.4227  101.3   1.417   13.7  0.3738   47.5  0.3431 -101.0
 5.300  0.4279  100.1   1.397   12.5  0.3819   46.6  0.3442 -103.9
 5.400  0.4333   99.0   1.378   11.2  0.3900   45.8  0.3462 -106.8
 5.500  0.4389   97.9   1.359    9.8  0.3982   45.0  0.3490 -109.6
 5.600  0.4429   96.8   1.339    8.7  0.4060   43.9  0.3503 -112.2
 5.700  0.4471   95.7   1.320    7.6  0.4140   42.9  0.3523 -114.9
 5.800  0.4515   94.6   1.301    6.4  0.4221   41.9  0.3550 -117.5
 5.900  0.4560   93.5   1.283    5.2  0.4303   41.0  0.3585 -120.0
 6.000  0.4607   92.5   1.265    4.0  0.4386   40.1  0.3626 -122.5
!
!  f       NFmin   Gammaopt  rn/50
! GHz       dB    MAG  ANG    -
 0.450      1.43  0.06   16   0.21
 0.900      1.48  0.06   32   0.21
 1.900      1.92  0.11 -141   0.21
 2.400      2.13  0.14 -109   0.27
!
! (c) 2017  Infineon Technologies AG, Munich