! Infineon Technologies  Discrete & RF Semiconductors
! BFR181W
! VCE =  6.0 V,  IC =  4.0 mA
! Common Emitter S-Parameters:                            Jan 2017
# GHz  S  MA  R  50
!  f         S11            S21            S12            S22
! GHz     MAG   ANG      MAG   ANG      MAG   ANG      MAG   ANG
 0.010  0.8847   -0.9  12.688  179.2  0.0011   92.7  0.9989   -0.9
 0.020  0.8615   -4.7  12.450  176.9  0.0036  105.7  0.9901   -1.6
 0.030  0.8566   -6.0  12.419  175.5  0.0054   93.6  0.9905   -2.5
 0.040  0.8521   -7.2  12.395  174.1  0.0073   87.7  0.9911   -3.5
 0.050  0.8481   -8.5  12.379  172.7  0.0093   84.3  0.9920   -4.4
 0.060  0.8470  -10.3  12.311  171.3  0.0108   82.9  0.9880   -5.3
 0.070  0.8468  -12.1  12.250  169.8  0.0124   81.9  0.9842   -6.2
 0.080  0.8474  -14.0  12.198  168.4  0.0139   81.1  0.9806   -7.1
 0.090  0.8489  -15.8  12.153  166.9  0.0155   80.4  0.9773   -8.0
 0.100  0.8512  -17.6  12.117  165.4  0.0170   79.9  0.9742   -8.9
 0.110  0.8427  -19.3  12.034  164.1  0.0186   78.9  0.9692   -9.7
 0.120  0.8350  -21.1  11.957  162.7  0.0202   78.1  0.9645  -10.5
 0.130  0.8281  -22.9  11.888  161.3  0.0218   77.4  0.9599  -11.3
 0.140  0.8220  -24.7  11.825  159.9  0.0234   76.7  0.9556  -12.2
 0.150  0.8167  -26.5  11.770  158.5  0.0250   76.2  0.9514  -13.0
 0.200  0.7895  -34.0  11.301  151.6  0.0318   72.7  0.9199  -16.6
 0.250  0.7523  -41.9  10.832  145.4  0.0389   68.1  0.8861  -19.9
 0.300  0.7107  -49.2  10.268  139.8  0.0440   65.1  0.8494  -22.6
 0.350  0.6715  -55.2   9.713  135.2  0.0487   62.6  0.8150  -24.7
 0.400  0.6404  -61.8   9.229  130.0  0.0535   60.5  0.7818  -26.9
 0.450  0.6036  -67.1   8.702  126.2  0.0571   58.7  0.7507  -28.4
 0.500  0.5725  -73.0   8.217  122.0  0.0608   57.1  0.7201  -30.0
 0.600  0.5147  -83.1   7.372  115.1  0.0664   55.2  0.6697  -32.0
 0.700  0.4662  -92.3   6.631  109.1  0.0713   54.0  0.6278  -33.4
 0.800  0.4286 -100.8   6.027  104.0  0.0764   53.8  0.5939  -34.5
 0.900  0.3933 -108.6   5.492   99.5  0.0808   53.3  0.5666  -35.3
 1.000  0.3690 -116.2   5.057   95.5  0.0850   53.5  0.5434  -35.9
 1.100  0.3487 -123.3   4.672   91.9  0.0888   53.8  0.5250  -36.6
 1.200  0.3297 -130.4   4.339   88.4  0.0927   53.9  0.5090  -37.2
 1.300  0.3140 -136.5   4.049   85.2  0.0972   54.6  0.4958  -38.0
 1.400  0.3036 -142.6   3.804   82.2  0.1019   55.3  0.4836  -38.8
 1.500  0.2991 -149.0   3.584   79.5  0.1058   55.7  0.4741  -39.5
 1.600  0.2911 -154.8   3.384   76.7  0.1104   56.2  0.4668  -40.5
 1.700  0.2869 -159.9   3.213   74.3  0.1154   56.7  0.4574  -41.6
 1.800  0.2838 -165.3   3.067   71.7  0.1206   57.4  0.4508  -42.6
 1.900  0.2843 -170.0   2.929   69.5  0.1251   57.8  0.4455  -43.7
 2.000  0.2833 -175.1   2.801   67.0  0.1307   58.0  0.4409  -45.0
 2.100  0.2835 -179.5   2.689   64.8  0.1360   58.3  0.4365  -46.3
 2.200  0.2853  176.1   2.582   62.5  0.1413   58.6  0.4323  -47.7
 2.300  0.2883  172.0   2.489   60.4  0.1469   58.8  0.4294  -49.2
 2.400  0.2927  168.1   2.400   58.1  0.1526   59.0  0.4268  -50.8
 2.500  0.2950  164.8   2.317   56.2  0.1584   59.2  0.4249  -52.4
 2.600  0.2982  161.5   2.237   54.1  0.1642   59.4  0.4233  -54.0
 2.700  0.3020  157.9   2.169   52.2  0.1705   59.5  0.4223  -55.5
 2.800  0.3069  154.5   2.103   50.2  0.1769   59.5  0.4216  -57.0
 2.900  0.3105  151.6   2.045   48.3  0.1833   59.3  0.4202  -58.5
 3.000  0.3148  148.8   1.989   46.3  0.1897   59.2  0.4192  -60.1
 3.100  0.3183  146.0   1.938   44.8  0.1967   59.0  0.4182  -61.7
 3.200  0.3225  143.3   1.889   43.1  0.2038   58.8  0.4176  -63.3
 3.300  0.3274  140.6   1.841   41.4  0.2108   58.6  0.4172  -64.8
 3.400  0.3330  138.1   1.795   39.6  0.2179   58.5  0.4172  -66.4
 3.500  0.3393  135.6   1.751   37.7  0.2249   58.3  0.4175  -68.0
 3.600  0.3436  133.3   1.714   36.2  0.2323   57.8  0.4150  -69.7
 3.700  0.3484  131.1   1.679   34.7  0.2398   57.3  0.4129  -71.4
 3.800  0.3537  129.0   1.644   33.0  0.2472   56.8  0.4112  -73.1
 3.900  0.3595  126.9   1.611   31.4  0.2547   56.4  0.4099  -74.9
 4.000  0.3658  124.9   1.580   29.6  0.2622   56.0  0.4089  -76.6
 4.100  0.3713  122.9   1.551   28.1  0.2704   55.3  0.4047  -78.6
 4.200  0.3773  121.0   1.522   26.6  0.2787   54.6  0.4010  -80.7
 4.300  0.3836  119.2   1.495   25.0  0.2869   54.0  0.3978  -82.9
 4.400  0.3903  117.4   1.469   23.4  0.2953   53.4  0.3952  -85.0
 4.500  0.3974  115.7   1.444   21.7  0.3036   52.8  0.3932  -87.2
 4.600  0.4044  114.0   1.418   20.4  0.3118   52.0  0.3892  -89.8
 4.700  0.4117  112.4   1.393   19.0  0.3201   51.3  0.3860  -92.4
 4.800  0.4193  110.8   1.368   17.6  0.3285   50.6  0.3836  -95.0
 4.900  0.4273  109.3   1.345   16.1  0.3369   49.9  0.3821  -97.7
 5.000  0.4355  107.9   1.322   14.6  0.3453   49.3  0.3814 -100.4
 5.100  0.4406  106.4   1.302   13.4  0.3537   48.4  0.3812 -103.3
 5.200  0.4461  104.9   1.283   12.1  0.3622   47.5  0.3820 -106.1
 5.300  0.4519  103.4   1.264   10.8  0.3708   46.7  0.3836 -108.9
 5.400  0.4579  102.0   1.246    9.5  0.3795   45.9  0.3863 -111.7
 5.500  0.4642  100.6   1.229    8.1  0.3882   45.2  0.3898 -114.5
 5.600  0.4674   99.3   1.210    7.0  0.3967   44.1  0.3913 -117.1
 5.700  0.4708   98.0   1.192    5.9  0.4052   43.1  0.3936 -119.7
 5.800  0.4745   96.7   1.175    4.7  0.4139   42.1  0.3966 -122.2
 5.900  0.4784   95.4   1.158    3.5  0.4228   41.2  0.4005 -124.7
 6.000  0.4825   94.2   1.141    2.3  0.4317   40.3  0.4051 -127.2
!
!  f       NFmin   Gammaopt  rn/50
! GHz       dB    MAG  ANG    -
 0.450      0.92  0.39   16   0.24
 0.900      0.97  0.36   31   0.24
 1.900      1.40  0.20   79   0.20
 2.400      1.56  0.17   94   0.22
!
! (c) 2017  Infineon Technologies AG, Munich