! Infineon Technologies  Discrete & RF Semiconductors
! BFR181W
! VCE =  10. V,  IC =  1.0 mA
! Common Emitter S-Parameters:                            Jan 2017
# GHz  S  MA  R  50
!  f         S11            S21            S12            S22
! GHz     MAG   ANG      MAG   ANG      MAG   ANG      MAG   ANG
 0.010  0.9849    0.1   3.599 -179.6  0.0014   95.4  1.0000   -0.4
 0.020  0.9691   -3.0   3.579  178.6  0.0032   98.0  0.9984   -0.7
 0.030  0.9621   -3.2   3.567  178.0  0.0051   92.6  0.9986   -1.1
 0.040  0.9550   -3.4   3.556  177.3  0.0071   90.2  0.9989   -1.6
 0.050  0.9480   -3.6   3.545  176.7  0.0090   88.8  0.9993   -2.0
 0.060  0.9513   -4.5   3.539  176.0  0.0108   87.1  0.9982   -2.4
 0.070  0.9549   -5.3   3.533  175.3  0.0126   85.8  0.9971   -2.8
 0.080  0.9586   -6.1   3.528  174.6  0.0144   84.9  0.9961   -3.2
 0.090  0.9626   -7.0   3.524  173.9  0.0162   84.2  0.9951   -3.6
 0.100  0.9667   -7.8   3.520  173.2  0.0180   83.6  0.9942   -4.0
 0.110  0.9638   -8.7   3.518  172.5  0.0198   83.3  0.9938   -4.4
 0.120  0.9611   -9.5   3.517  171.8  0.0217   83.0  0.9934   -4.8
 0.130  0.9586  -10.4   3.516  171.2  0.0235   82.8  0.9931   -5.3
 0.140  0.9563  -11.3   3.515  170.5  0.0254   82.6  0.9928   -5.7
 0.150  0.9543  -12.2   3.515  169.8  0.0272   82.4  0.9926   -6.1
 0.200  0.9543  -15.7   3.486  165.8  0.0350   80.5  0.9869   -8.1
 0.250  0.9429  -19.9   3.482  162.3  0.0439   77.1  0.9816  -10.0
 0.300  0.9274  -23.8   3.443  158.8  0.0522   74.3  0.9718  -11.9
 0.350  0.9170  -27.4   3.405  155.5  0.0600   71.6  0.9626  -13.8
 0.400  0.9104  -31.1   3.378  152.1  0.0678   69.6  0.9544  -15.7
 0.450  0.8916  -34.8   3.322  148.9  0.0748   67.2  0.9424  -17.4
 0.500  0.8768  -38.7   3.277  145.7  0.0820   65.2  0.9313  -19.2
 0.600  0.8483  -45.9   3.180  139.3  0.0943   60.6  0.9060  -22.3
 0.700  0.8113  -53.1   3.065  133.0  0.1047   57.0  0.8792  -25.3
 0.800  0.7783  -59.7   2.967  127.4  0.1139   53.4  0.8524  -28.1
 0.900  0.7441  -66.2   2.849  121.8  0.1213   49.9  0.8256  -30.6
 1.000  0.7083  -72.5   2.739  116.9  0.1276   47.1  0.7997  -32.8
 1.100  0.6774  -78.8   2.629  112.1  0.1329   44.7  0.7776  -34.9
 1.200  0.6471  -84.7   2.521  107.5  0.1367   42.2  0.7530  -36.9
 1.300  0.6177  -90.3   2.420  103.0  0.1400   40.3  0.7323  -38.7
 1.400  0.5937  -96.0   2.324   99.1  0.1426   38.6  0.7120  -40.6
 1.500  0.5712 -101.8   2.247   95.1  0.1448   37.2  0.6953  -42.2
 1.600  0.5461 -107.1   2.150   91.3  0.1456   36.1  0.6805  -43.8
 1.700  0.5291 -112.4   2.081   87.9  0.1462   35.3  0.6631  -45.5
 1.800  0.5105 -117.9   2.022   84.3  0.1470   34.7  0.6489  -46.9
 1.900  0.4977 -123.4   1.958   81.3  0.1464   34.3  0.6363  -48.4
 2.000  0.4810 -128.9   1.898   77.6  0.1469   34.2  0.6269  -49.9
 2.100  0.4676 -133.8   1.840   74.6  0.1470   34.2  0.6176  -51.4
 2.200  0.4578 -138.9   1.787   71.4  0.1471   34.2  0.6087  -53.0
 2.300  0.4495 -143.9   1.731   68.6  0.1469   34.7  0.6017  -54.6
 2.400  0.4448 -149.0   1.680   65.7  0.1467   35.3  0.5952  -56.2
 2.500  0.4386 -153.6   1.631   63.1  0.1466   36.3  0.5894  -57.7
 2.600  0.4352 -158.3   1.585   60.4  0.1466   37.4  0.5841  -59.3
 2.700  0.4291 -163.0   1.544   57.9  0.1474   38.6  0.5810  -60.8
 2.800  0.4260 -167.8   1.507   55.2  0.1483   39.7  0.5783  -62.4
 2.900  0.4229 -172.1   1.472   52.7  0.1504   41.0  0.5750  -63.8
 3.000  0.4222 -176.4   1.440   50.0  0.1526   42.2  0.5720  -65.3
 3.100  0.4190  179.6   1.405   48.1  0.1560   43.8  0.5699  -66.9
 3.200  0.4177  175.7   1.371   46.1  0.1594   45.4  0.5682  -68.4
 3.300  0.4185  171.7   1.340   44.0  0.1630   46.9  0.5670  -70.0
 3.400  0.4214  167.7   1.310   41.8  0.1667   48.3  0.5662  -71.6
 3.500  0.4262  163.8   1.282   39.5  0.1705   49.7  0.5658  -73.2
 3.600  0.4269  160.4   1.256   37.7  0.1768   50.8  0.5630  -75.0
 3.700  0.4290  157.0   1.230   35.9  0.1832   51.8  0.5607  -76.8
 3.800  0.4327  153.6   1.207   34.0  0.1897   52.7  0.5590  -78.6
 3.900  0.4379  150.3   1.184   32.0  0.1962   53.6  0.5579  -80.4
 4.000  0.4444  147.1   1.163   30.0  0.2027   54.4  0.5573  -82.2
 4.100  0.4472  144.0   1.141   28.4  0.2118   54.7  0.5525  -84.3
 4.200  0.4513  140.9   1.120   26.7  0.2209   55.0  0.5485  -86.5
 4.300  0.4567  137.8   1.100   25.0  0.2300   55.3  0.5453  -88.7
 4.400  0.4634  134.9   1.081   23.2  0.2391   55.6  0.5429  -91.0
 4.500  0.4712  132.0   1.063   21.4  0.2482   55.8  0.5413  -93.2
 4.600  0.4760  129.4   1.042   20.1  0.2588   55.5  0.5370  -95.7
 4.700  0.4817  126.9   1.022   18.6  0.2695   55.2  0.5337  -98.3
 4.800  0.4883  124.4   1.003   17.2  0.2801   55.0  0.5316 -100.9
 4.900  0.4958  122.0   0.984   15.7  0.2907   54.7  0.5305 -103.6
 5.000  0.5041  119.7   0.966   14.1  0.3014   54.5  0.5306 -106.2
 5.100  0.5078  117.5   0.950   13.0  0.3126   53.7  0.5297 -109.0
 5.200  0.5123  115.4   0.935   11.9  0.3239   52.9  0.5301 -111.8
 5.300  0.5174  113.3   0.920   10.7  0.3352   52.2  0.5317 -114.5
 5.400  0.5232  111.3   0.906    9.5  0.3466   51.5  0.5346 -117.3
 5.500  0.5297  109.3   0.892    8.3  0.3580   50.9  0.5387 -120.0
 5.600  0.5321  107.4   0.878    7.5  0.3693   49.7  0.5392 -122.6
 5.700  0.5351  105.6   0.864    6.6  0.3808   48.6  0.5408 -125.2
 5.800  0.5386  103.8   0.850    5.7  0.3924   47.6  0.5435 -127.7
 5.900  0.5427  102.0   0.836    4.8  0.4041   46.6  0.5473 -130.2
 6.000  0.5473  100.2   0.823    3.8  0.4159   45.7  0.5521 -132.7
!
!  f       NFmin   Gammaopt  rn/50
! GHz       dB    MAG  ANG    -
 0.450      0.87  0.69   18   0.51
 0.900      0.95  0.64   36   0.47
 1.900      1.56  0.44   83   0.32
 2.400      1.81  0.38   99   0.34
!
! (c) 2017  Infineon Technologies AG, Munich