! Infineon Technologies  Discrete & RF Semiconductors
! BFR181W
! VCE =  9.0 V,  IC =  16 mA
! Common Emitter S-Parameters:                            Jan 2017
# GHz  S  MA  R  50
!  f         S11            S21            S12            S22
! GHz     MAG   ANG      MAG   ANG      MAG   ANG      MAG   ANG
 0.010  0.6748   -2.8  31.275  176.3  0.0013   97.1  0.9868   -1.5
 0.020  0.6568   -9.2  30.554  172.8  0.0021   81.6  0.9776   -3.3
 0.030  0.6475  -12.7  30.179  170.1  0.0039   81.5  0.9713   -5.2
 0.040  0.6407  -16.2  29.874  167.3  0.0058   81.4  0.9661   -7.1
 0.050  0.6363  -19.8  29.642  164.4  0.0076   81.4  0.9619   -9.0
 0.060  0.6235  -23.3  28.987  161.8  0.0089   79.8  0.9474  -10.4
 0.070  0.6131  -26.9  28.394  159.2  0.0102   78.6  0.9334  -11.9
 0.080  0.6052  -30.6  27.865  156.4  0.0116   77.7  0.9201  -13.4
 0.090  0.6000  -34.4  27.404  153.5  0.0129   77.0  0.9075  -15.0
 0.100  0.5974  -38.3  27.015  150.5  0.0142   76.4  0.8956  -16.6
 0.110  0.5807  -41.3  26.335  148.5  0.0152   74.8  0.8792  -17.6
 0.120  0.5655  -44.4  25.690  146.4  0.0163   73.3  0.8630  -18.6
 0.130  0.5522  -47.7  25.081  144.2  0.0173   72.1  0.8470  -19.6
 0.140  0.5408  -51.1  24.511  141.8  0.0183   71.0  0.8314  -20.7
 0.150  0.5314  -54.7  23.984  139.4  0.0194   70.0  0.8161  -21.8
 0.200  0.4750  -67.6  20.987  130.1  0.0230   65.9  0.7428  -25.0
 0.250  0.4263  -79.2  18.492  123.0  0.0271   64.5  0.6839  -26.9
 0.300  0.3865  -89.2  16.320  117.3  0.0293   64.3  0.6339  -27.7
 0.350  0.3553  -96.5  14.703  113.6  0.0325   64.4  0.6008  -27.9
 0.400  0.3309 -105.0  13.165  108.9  0.0357   64.4  0.5677  -28.2
 0.450  0.3109 -111.2  12.021  106.1  0.0385   64.7  0.5460  -28.1
 0.500  0.2950 -118.2  10.910  102.8  0.0413   64.9  0.5244  -27.9
 0.600  0.2724 -129.3   9.312   97.9  0.0473   66.0  0.4958  -27.4
 0.700  0.2577 -139.1   8.090   93.9  0.0522   68.3  0.4763  -27.0
 0.800  0.2495 -147.9   7.169   90.3  0.0591   69.2  0.4622  -26.9
 0.900  0.2427 -154.9   6.413   87.1  0.0648   69.1  0.4510  -27.1
 1.000  0.2402 -161.8   5.827   84.3  0.0711   69.9  0.4418  -27.3
 1.100  0.2387 -167.6   5.329   81.8  0.0773   70.1  0.4354  -27.7
 1.200  0.2399 -173.5   4.905   79.1  0.0833   70.3  0.4293  -28.2
 1.300  0.2384 -179.0   4.549   76.7  0.0895   70.1  0.4241  -29.1
 1.400  0.2405  176.8   4.250   74.5  0.0963   70.4  0.4189  -29.9
 1.500  0.2459  173.1   3.985   72.4  0.1021   70.2  0.4148  -30.9
 1.600  0.2484  168.7   3.754   70.2  0.1088   70.2  0.4124  -32.0
 1.700  0.2510  165.3   3.548   68.2  0.1151   70.1  0.4080  -33.3
 1.800  0.2546  161.6   3.375   66.1  0.1222   69.7  0.4043  -34.5
 1.900  0.2594  158.9   3.215   64.3  0.1289   69.6  0.4014  -35.9
 2.000  0.2632  156.1   3.063   62.3  0.1359   69.2  0.3996  -37.5
 2.100  0.2664  153.2   2.937   60.5  0.1425   68.9  0.3967  -39.1
 2.200  0.2702  150.3   2.814   58.5  0.1491   68.6  0.3942  -40.7
 2.300  0.2767  147.8   2.710   56.7  0.1561   68.2  0.3927  -42.5
 2.400  0.2838  145.4   2.608   54.8  0.1632   67.8  0.3915  -44.3
 2.500  0.2879  143.1   2.517   53.1  0.1700   67.3  0.3904  -46.0
 2.600  0.2924  140.9   2.428   51.3  0.1769   66.8  0.3896  -47.8
 2.700  0.2978  138.7   2.351   49.7  0.1840   66.2  0.3891  -49.6
 2.800  0.3037  136.6   2.277   47.9  0.1911   65.7  0.3890  -51.4
 2.900  0.3081  134.5   2.212   46.2  0.1983   65.1  0.3880  -53.1
 3.000  0.3128  132.5   2.148   44.5  0.2055   64.6  0.3874  -54.9
 3.100  0.3171  130.5   2.093   43.1  0.2130   63.9  0.3866  -56.6
 3.200  0.3217  128.6   2.039   41.6  0.2205   63.3  0.3862  -58.3
 3.300  0.3268  126.7   1.986   40.1  0.2281   62.7  0.3860  -59.9
 3.400  0.3321  124.9   1.935   38.4  0.2356   62.2  0.3863  -61.6
 3.500  0.3378  123.1   1.886   36.7  0.2432   61.7  0.3868  -63.3
 3.600  0.3423  121.5   1.846   35.3  0.2508   60.9  0.3844  -65.1
 3.700  0.3471  119.8   1.808   33.9  0.2585   60.1  0.3823  -66.9
 3.800  0.3521  118.3   1.770   32.4  0.2662   59.4  0.3806  -68.7
 3.900  0.3574  116.8   1.734   30.8  0.2739   58.7  0.3792  -70.5
 4.000  0.3629  115.3   1.699   29.2  0.2817   58.0  0.3783  -72.3
 4.100  0.3688  113.8   1.667   27.8  0.2896   57.1  0.3738  -74.4
 4.200  0.3748  112.4   1.637   26.4  0.2975   56.2  0.3698  -76.5
 4.300  0.3811  111.0   1.608   24.9  0.3055   55.3  0.3664  -78.6
 4.400  0.3877  109.7   1.579   23.4  0.3136   54.6  0.3634  -80.8
 4.500  0.3944  108.4   1.552   21.8  0.3217   53.8  0.3610  -83.0
 4.600  0.4009  107.1   1.524   20.6  0.3295   52.9  0.3568  -85.6
 4.700  0.4077  105.9   1.498   19.3  0.3374   52.0  0.3532  -88.2
 4.800  0.4146  104.7   1.472   17.9  0.3454   51.2  0.3505  -90.9
 4.900  0.4216  103.5   1.446   16.5  0.3535   50.4  0.3486  -93.6
 5.000  0.4289  102.4   1.422   15.1  0.3616   49.7  0.3474  -96.4
 5.100  0.4344  101.2   1.401   13.9  0.3696   48.7  0.3467  -99.3
 5.200  0.4401   99.9   1.381   12.7  0.3776   47.8  0.3469 -102.3
 5.300  0.4459   98.8   1.361   11.5  0.3858   46.9  0.3480 -105.2
 5.400  0.4520   97.6   1.342   10.2  0.3940   46.1  0.3501 -108.1
 5.500  0.4582   96.5   1.324    8.9  0.4023   45.3  0.3530 -111.0
 5.600  0.4617   95.4   1.304    7.8  0.4103   44.2  0.3542 -113.7
 5.700  0.4653   94.3   1.285    6.7  0.4184   43.1  0.3561 -116.4
 5.800  0.4691   93.3   1.267    5.6  0.4266   42.1  0.3588 -119.0
 5.900  0.4731   92.2   1.249    4.4  0.4350   41.1  0.3622 -121.6
 6.000  0.4772   91.2   1.231    3.2  0.4435   40.2  0.3664 -124.1
!
!  f       NFmin   Gammaopt  rn/50
! GHz       dB    MAG  ANG    -
!
! noise parameter not available yet for this operation point!
!
! (c) 2017  Infineon Technologies AG, Munich