! Infineon Technologies  Discrete & RF Semiconductors
! BFR181W
! VCE =  1.0 V,  IC =  26 mA
! Common Emitter S-Parameters:                            Jan 2017
# GHz  S  MA  R  50
!  f         S11            S21            S12            S22
! GHz     MAG   ANG      MAG   ANG      MAG   ANG      MAG   ANG
 0.010  0.3349  -30.2  26.480  170.6  0.0040   67.8  0.7813   -6.1
 0.020  0.3693  -57.4  25.267  160.3  0.0075   71.6  0.7555  -12.0
 0.030  0.3801  -75.9  23.166  153.9  0.0105   63.1  0.7095  -15.7
 0.040  0.4263  -91.8  21.412  146.3  0.0137   58.4  0.6667  -19.8
 0.050  0.4982 -103.9  20.097  137.5  0.0169   55.5  0.6279  -24.5
 0.060  0.5032 -111.6  18.568  134.6  0.0179   53.3  0.5957  -25.4
 0.070  0.5169 -119.0  17.095  131.1  0.0188   51.3  0.5637  -26.4
 0.080  0.5387 -125.9  15.695  127.1  0.0198   49.6  0.5319  -27.5
 0.090  0.5677 -132.2  14.390  122.2  0.0209   48.0  0.5003  -28.7
 0.100  0.6029 -137.8  13.206  116.5  0.0219   46.5  0.4689  -30.1
 0.110  0.6072 -140.9  12.438  114.9  0.0226   46.4  0.4540  -30.0
 0.120  0.6132 -143.9  11.681  113.1  0.0233   46.3  0.4390  -29.8
 0.130  0.6209 -146.8  10.936  111.0  0.0241   46.2  0.4241  -29.7
 0.140  0.6302 -149.7  10.208  108.7  0.0248   46.1  0.4091  -29.6
 0.150  0.6410 -152.5   9.500  106.0  0.0255   46.0  0.3942  -29.4
 0.200  0.6531 -161.0   7.314   98.9  0.0277   47.9  0.3572  -27.7
 0.250  0.6612 -166.9   5.942   93.9  0.0307   50.7  0.3372  -26.4
 0.300  0.6645 -171.2   4.989   90.0  0.0337   52.9  0.3238  -25.4
 0.350  0.6654 -174.2   4.381   87.3  0.0365   55.8  0.3168  -25.3
 0.400  0.6681 -177.2   3.786   83.7  0.0394   58.3  0.3099  -25.2
 0.450  0.6696 -179.6   3.411   81.4  0.0428   60.4  0.3060  -25.6
 0.500  0.6723  178.0   3.042   78.6  0.0463   62.2  0.3021  -26.0
 0.600  0.6755  174.1   2.549   74.1  0.0536   64.6  0.2967  -27.4
 0.700  0.6800  171.1   2.194   69.9  0.0610   67.4  0.2921  -29.1
 0.800  0.6811  167.8   1.927   65.8  0.0694   68.9  0.2883  -31.5
 0.900  0.6823  164.9   1.715   62.1  0.0768   69.9  0.2846  -34.0
 1.000  0.6902  162.2   1.555   58.5  0.0854   71.0  0.2797  -36.7
 1.100  0.6928  159.5   1.420   55.2  0.0942   71.4  0.2770  -39.6
 1.200  0.6963  156.9   1.303   51.7  0.1023   71.6  0.2729  -42.5
 1.300  0.6984  154.5   1.205   48.6  0.1108   71.8  0.2697  -45.8
 1.400  0.7046  152.0   1.125   45.5  0.1206   71.8  0.2648  -49.3
 1.500  0.7095  149.8   1.052   42.7  0.1299   71.5  0.2612  -52.7
 1.600  0.7161  147.3   0.990   39.7  0.1397   71.3  0.2592  -56.3
 1.700  0.7188  144.9   0.932   37.2  0.1494   71.0  0.2553  -60.5
 1.800  0.7239  142.4   0.884   34.6  0.1593   70.3  0.2519  -64.4
 1.900  0.7280  140.3   0.838   32.5  0.1685   69.8  0.2504  -68.3
 2.000  0.7309  137.9   0.794   30.0  0.1792   69.0  0.2496  -72.6
 2.100  0.7342  135.5   0.756   28.1  0.1894   68.1  0.2477  -76.9
 2.200  0.7388  133.2   0.719   25.9  0.1997   67.2  0.2471  -81.2
 2.300  0.7422  131.1   0.688   24.3  0.2101   66.3  0.2466  -85.4
 2.400  0.7465  129.0   0.658   22.6  0.2205   65.4  0.2474  -89.6
 2.500  0.7477  126.9   0.631   21.4  0.2308   64.4  0.2477  -93.7
 2.600  0.7498  124.9   0.604   20.0  0.2411   63.4  0.2493  -97.8
 2.700  0.7524  122.8   0.581   19.0  0.2513   62.2  0.2504 -101.5
 2.800  0.7560  120.7   0.559   18.0  0.2617   61.1  0.2525 -105.2
 2.900  0.7557  118.6   0.540   17.3  0.2716   59.9  0.2530 -108.9
 3.000  0.7564  116.5   0.521   16.6  0.2817   58.7  0.2546 -112.6
 3.100  0.7555  114.5   0.508   16.4  0.2912   57.3  0.2531 -115.9
 3.200  0.7556  112.5   0.495   16.2  0.3009   56.1  0.2524 -119.2
 3.300  0.7565  110.5   0.481   15.9  0.3106   54.9  0.2525 -122.6
 3.400  0.7584  108.6   0.468   15.7  0.3206   53.8  0.2535 -125.9
 3.500  0.7611  106.6   0.455   15.4  0.3306   52.7  0.2554 -129.2
 3.600  0.7593  104.8   0.449   15.6  0.3391   51.3  0.2528 -132.6
 3.700  0.7583  103.0   0.443   15.8  0.3477   49.9  0.2512 -136.1
 3.800  0.7580  101.1   0.437   16.0  0.3566   48.6  0.2505 -139.7
 3.900  0.7585   99.3   0.431   16.3  0.3656   47.4  0.2507 -143.2
 4.000  0.7598   97.5   0.425   16.5  0.3748   46.2  0.2519 -146.7
 4.100  0.7567   95.9   0.424   16.6  0.3822   44.8  0.2500 -150.5
 4.200  0.7543   94.2   0.423   16.7  0.3897   43.4  0.2491 -154.4
 4.300  0.7524   92.6   0.422   16.9  0.3976   42.0  0.2495 -158.3
 4.400  0.7512   91.0   0.421   17.0  0.4056   40.7  0.2510 -162.2
 4.500  0.7506   89.3   0.420   17.1  0.4138   39.5  0.2536 -166.0
 4.600  0.7483   88.0   0.421   17.2  0.4199   38.2  0.2553 -169.5
 4.700  0.7464   86.8   0.422   17.3  0.4263   37.0  0.2579 -173.0
 4.800  0.7449   85.5   0.424   17.4  0.4328   35.9  0.2614 -176.4
 4.900  0.7437   84.2   0.425   17.5  0.4395   34.7  0.2659 -179.7
 5.000  0.7429   82.9   0.426   17.6  0.4464   33.6  0.2712  177.1
 5.100  0.7407   81.7   0.431   17.4  0.4517   32.4  0.2759  174.6
 5.200  0.7387   80.5   0.436   17.1  0.4571   31.2  0.2811  172.3
 5.300  0.7371   79.3   0.440   16.9  0.4628   30.1  0.2867  170.0
 5.400  0.7358   78.1   0.445   16.7  0.4686   29.0  0.2928  167.8
 5.500  0.7349   76.9   0.450   16.5  0.4746   27.9  0.2993  165.7
 5.600  0.7309   75.8   0.454   16.1  0.4792   26.8  0.3025  164.0
 5.700  0.7273   74.7   0.458   15.8  0.4841   25.7  0.3060  162.3
 5.800  0.7238   73.6   0.463   15.4  0.4891   24.6  0.3098  160.7
 5.900  0.7207   72.5   0.467   15.0  0.4943   23.5  0.3138  159.1
 6.000  0.7178   71.4   0.471   14.7  0.4996   22.5  0.3180  157.6
!
!  f       NFmin   Gammaopt  rn/50
! GHz       dB    MAG  ANG    -
!
! noise parameter not available yet for this operation point!
!
! (c) 2017  Infineon Technologies AG, Munich