! Infineon Technologies  Discrete & RF Semiconductors
! BFR181W
! VCE =  4.0 V,  IC =  11 mA
! Common Emitter S-Parameters:                            Jan 2017
# GHz  S  MA  R  50
!  f         S11            S21            S12            S22
! GHz     MAG   ANG      MAG   ANG      MAG   ANG      MAG   ANG
 0.010  0.7102   -2.9  26.427  177.7  0.0013   83.2  0.9904   -1.5
 0.020  0.6977   -8.6  26.185  174.0  0.0027   94.6  0.9911   -3.1
 0.030  0.6869  -11.7  25.864  171.4  0.0044   85.4  0.9830   -4.8
 0.040  0.6781  -14.9  25.597  168.8  0.0062   81.4  0.9757   -6.5
 0.050  0.6714  -18.1  25.385  166.1  0.0080   79.2  0.9694   -8.3
 0.060  0.6604  -21.4  24.915  163.7  0.0095   78.0  0.9568   -9.7
 0.070  0.6516  -24.8  24.492  161.1  0.0110   77.1  0.9447  -11.1
 0.080  0.6452  -28.2  24.118  158.5  0.0126   76.4  0.9332  -12.5
 0.090  0.6411  -31.7  23.796  155.9  0.0141   75.9  0.9223  -14.0
 0.100  0.6395  -35.3  23.527  153.1  0.0156   75.5  0.9120  -15.5
 0.110  0.6241  -38.2  23.015  151.1  0.0166   73.7  0.8974  -16.5
 0.120  0.6104  -41.2  22.531  149.1  0.0177   72.1  0.8832  -17.6
 0.130  0.5986  -44.4  22.077  146.9  0.0187   70.6  0.8692  -18.7
 0.140  0.5886  -47.7  21.656  144.7  0.0198   69.3  0.8556  -19.8
 0.150  0.5806  -51.1  21.268  142.4  0.0209   68.2  0.8423  -21.0
 0.200  0.5263  -63.6  18.914  133.2  0.0251   67.0  0.7729  -24.5
 0.250  0.4783  -75.4  16.885  126.0  0.0295   63.5  0.7134  -26.9
 0.300  0.4349  -85.4  15.042  120.1  0.0323   62.2  0.6619  -28.3
 0.350  0.4019  -93.0  13.622  116.1  0.0354   61.9  0.6256  -28.8
 0.400  0.3771 -101.7  12.283  111.2  0.0386   61.7  0.5894  -29.4
 0.450  0.3550 -107.9  11.248  108.2  0.0416   61.9  0.5650  -29.4
 0.500  0.3375 -114.8  10.249  104.7  0.0446   62.0  0.5407  -29.5
 0.600  0.3107 -126.0   8.783   99.4  0.0497   63.1  0.5085  -29.3
 0.700  0.2937 -135.9   7.653   95.1  0.0552   64.7  0.4847  -29.0
 0.800  0.2838 -145.0   6.795   91.2  0.0612   65.3  0.4675  -29.1
 0.900  0.2748 -152.1   6.087   87.9  0.0664   66.0  0.4546  -29.1
 1.000  0.2714 -159.4   5.536   84.9  0.0726   66.8  0.4438  -29.3
 1.100  0.2707 -165.0   5.065   82.1  0.0783   67.2  0.4367  -29.7
 1.200  0.2692 -171.2   4.668   79.4  0.0843   67.2  0.4294  -30.2
 1.300  0.2669 -176.3   4.328   76.8  0.0902   67.9  0.4234  -31.0
 1.400  0.2699  179.3   4.045   74.5  0.0969   67.9  0.4176  -31.9
 1.500  0.2742  175.3   3.795   72.3  0.1031   68.4  0.4127  -32.8
 1.600  0.2765  170.9   3.574   69.9  0.1097   68.3  0.4104  -34.0
 1.700  0.2788  167.3   3.381   67.9  0.1157   68.2  0.4049  -35.3
 1.800  0.2813  164.0   3.217   65.7  0.1224   68.1  0.4016  -36.5
 1.900  0.2876  161.0   3.065   63.9  0.1294   68.1  0.3989  -37.9
 2.000  0.2920  157.8   2.922   61.7  0.1355   67.8  0.3964  -39.5
 2.100  0.2950  154.9   2.801   59.8  0.1423   67.5  0.3936  -41.1
 2.200  0.2987  152.0   2.684   57.7  0.1492   67.3  0.3911  -42.7
 2.300  0.3048  149.3   2.585   55.9  0.1563   66.8  0.3895  -44.5
 2.400  0.3115  146.8   2.488   53.9  0.1635   66.4  0.3882  -46.3
 2.500  0.3151  144.6   2.401   52.2  0.1704   66.1  0.3871  -48.1
 2.600  0.3191  142.4   2.316   50.3  0.1774   65.8  0.3864  -49.9
 2.700  0.3250  140.0   2.243   48.6  0.1845   65.3  0.3859  -51.7
 2.800  0.3314  137.7   2.173   46.8  0.1916   64.8  0.3857  -53.5
 2.900  0.3357  135.7   2.111   45.1  0.1990   64.3  0.3847  -55.3
 3.000  0.3403  133.8   2.050   43.3  0.2065   63.8  0.3840  -57.1
 3.100  0.3445  131.7   1.997   41.8  0.2140   63.2  0.3832  -58.8
 3.200  0.3491  129.6   1.946   40.3  0.2214   62.6  0.3828  -60.5
 3.300  0.3542  127.6   1.896   38.7  0.2289   62.0  0.3827  -62.3
 3.400  0.3597  125.7   1.848   37.0  0.2365   61.5  0.3830  -64.0
 3.500  0.3656  123.8   1.801   35.2  0.2440   61.0  0.3836  -65.7
 3.600  0.3701  122.1   1.763   33.8  0.2518   60.2  0.3811  -67.5
 3.700  0.3750  120.4   1.726   32.4  0.2596   59.4  0.3789  -69.4
 3.800  0.3801  118.8   1.689   30.9  0.2675   58.7  0.3772  -71.3
 3.900  0.3856  117.2   1.655   29.3  0.2754   58.0  0.3758  -73.2
 4.000  0.3913  115.7   1.621   27.7  0.2833   57.4  0.3749  -75.1
 4.100  0.3967  114.1   1.591   26.3  0.2914   56.4  0.3705  -77.2
 4.200  0.4024  112.6   1.561   24.9  0.2996   55.5  0.3667  -79.4
 4.300  0.4084  111.1   1.533   23.4  0.3078   54.7  0.3633  -81.6
 4.400  0.4146  109.7   1.506   21.8  0.3161   53.9  0.3606  -83.9
 4.500  0.4211  108.3   1.480   20.2  0.3245   53.1  0.3584  -86.2
 4.600  0.4278  107.0   1.453   19.0  0.3325   52.2  0.3543  -88.9
 4.700  0.4348  105.7   1.427   17.7  0.3406   51.3  0.3510  -91.6
 4.800  0.4419  104.4   1.401   16.3  0.3488   50.5  0.3486  -94.4
 4.900  0.4493  103.2   1.377   14.9  0.3571   49.7  0.3469  -97.2
 5.000  0.4569  102.0   1.353   13.5  0.3654   48.9  0.3461 -100.0
 5.100  0.4617  100.7   1.333   12.3  0.3735   47.9  0.3457 -103.0
 5.200  0.4667   99.5   1.314   11.1  0.3816   46.9  0.3463 -106.0
 5.300  0.4719   98.3   1.295    9.9  0.3899   46.0  0.3478 -109.0
 5.400  0.4774   97.1   1.277    8.6  0.3982   45.1  0.3503 -111.9
 5.500  0.4830   95.9   1.259    7.3  0.4067   44.3  0.3536 -114.8
 5.600  0.4864   94.7   1.240    6.2  0.4146   43.2  0.3551 -117.5
 5.700  0.4900   93.5   1.222    5.1  0.4226   42.1  0.3574 -120.2
 5.800  0.4939   92.4   1.204    3.9  0.4308   41.1  0.3604 -122.9
 5.900  0.4979   91.2   1.187    2.7  0.4391   40.1  0.3642 -125.5
 6.000  0.5021   90.1   1.170    1.5  0.4475   39.1  0.3688 -128.0
!
!  f       NFmin   Gammaopt  rn/50
! GHz       dB    MAG  ANG    -
 0.450      1.29  0.12   17   0.21
 0.900      1.33  0.12   31   0.21
 1.900      1.76  0.04 -171   0.20
 2.400      1.95  0.05 -122   0.25
!
! (c) 2017  Infineon Technologies AG, Munich