! Infineon Technologies  Discrete & RF Semiconductors
! BFR181W
! VCE =  3.0 V,  IC =  14 mA
! Common Emitter S-Parameters:                            Jan 2017
# GHz  S  MA  R  50
!  f         S11            S21            S12            S22
! GHz     MAG   ANG      MAG   ANG      MAG   ANG      MAG   ANG
 0.010  0.6467   -4.4  29.490  177.1  0.0015   98.9  0.9806   -1.7
 0.020  0.6341  -11.4  29.217  172.8  0.0032   93.9  0.9815   -3.7
 0.030  0.6214  -15.8  28.712  169.6  0.0047   86.0  0.9699   -5.6
 0.040  0.6125  -20.3  28.299  166.3  0.0063   82.0  0.9594   -7.6
 0.050  0.6074  -24.9  27.983  162.9  0.0079   79.6  0.9500   -9.6
 0.060  0.5922  -29.1  27.241  160.1  0.0093   76.8  0.9331  -11.0
 0.070  0.5804  -33.5  26.565  157.2  0.0107   74.8  0.9169  -12.5
 0.080  0.5721  -38.1  25.960  154.2  0.0121   73.2  0.9013  -14.1
 0.090  0.5676  -42.8  25.433  151.0  0.0135   72.0  0.8863  -15.7
 0.100  0.5669  -47.5  24.987  147.7  0.0149   71.0  0.8721  -17.3
 0.110  0.5505  -51.0  24.263  145.6  0.0159   69.7  0.8549  -18.2
 0.120  0.5362  -54.8  23.574  143.4  0.0169   68.5  0.8378  -19.1
 0.130  0.5244  -58.7  22.922  141.0  0.0179   67.5  0.8211  -20.1
 0.140  0.5151  -62.8  22.312  138.5  0.0190   66.5  0.8045  -21.1
 0.150  0.5086  -67.0  21.746  135.9  0.0200   65.7  0.7882  -22.1
 0.200  0.4617  -82.0  18.717  126.5  0.0235   64.0  0.7153  -24.7
 0.250  0.4233  -95.4  16.287  119.4  0.0269   60.5  0.6594  -26.0
 0.300  0.3953 -106.3  14.265  113.9  0.0296   61.5  0.6136  -26.4
 0.350  0.3742 -114.4  12.791  110.3  0.0327   61.9  0.5848  -26.3
 0.400  0.3612 -123.2  11.380  105.8  0.0358   62.2  0.5560  -26.2
 0.450  0.3483 -129.4  10.355  103.1  0.0384   62.9  0.5384  -26.0
 0.500  0.3396 -135.9   9.358   99.8  0.0410   63.6  0.5208  -25.8
 0.600  0.3305 -146.3   7.961   95.0  0.0462   64.5  0.4981  -25.4
 0.700  0.3240 -154.9   6.899   91.0  0.0514   66.6  0.4817  -25.2
 0.800  0.3216 -162.2   6.104   87.4  0.0582   68.3  0.4706  -25.4
 0.900  0.3193 -168.1   5.455   84.3  0.0630   68.4  0.4622  -25.7
 1.000  0.3216 -173.5   4.952   81.4  0.0695   69.5  0.4541  -26.1
 1.100  0.3233 -178.3   4.525   78.8  0.0752   69.8  0.4498  -26.8
 1.200  0.3248  176.9   4.171   76.1  0.0809   70.6  0.4448  -27.6
 1.300  0.3256  172.7   3.863   73.6  0.0871   70.8  0.4402  -28.7
 1.400  0.3296  169.3   3.610   71.3  0.0943   71.1  0.4354  -29.8
 1.500  0.3342  166.2   3.383   69.1  0.1003   71.2  0.4321  -31.0
 1.600  0.3363  162.7   3.186   66.8  0.1070   71.2  0.4305  -32.3
 1.700  0.3411  159.8   3.014   64.7  0.1136   71.2  0.4263  -33.9
 1.800  0.3460  156.7   2.867   62.5  0.1206   71.1  0.4230  -35.3
 1.900  0.3509  154.4   2.731   60.6  0.1273   71.0  0.4206  -36.9
 2.000  0.3545  151.6   2.602   58.4  0.1343   70.7  0.4191  -38.7
 2.100  0.3591  149.1   2.494   56.5  0.1415   70.4  0.4166  -40.5
 2.200  0.3643  146.7   2.389   54.4  0.1487   70.1  0.4145  -42.3
 2.300  0.3700  144.3   2.301   52.6  0.1559   69.8  0.4133  -44.2
 2.400  0.3763  142.0   2.215   50.6  0.1632   69.5  0.4125  -46.2
 2.500  0.3805  139.9   2.136   48.9  0.1702   69.0  0.4116  -48.1
 2.600  0.3851  137.9   2.060   47.0  0.1773   68.5  0.4112  -50.1
 2.700  0.3906  135.8   1.995   45.3  0.1851   68.0  0.4110  -52.1
 2.800  0.3967  133.8   1.932   43.4  0.1929   67.6  0.4113  -54.0
 2.900  0.4007  131.8   1.876   41.7  0.2005   67.0  0.4105  -56.0
 3.000  0.4051  129.9   1.821   39.9  0.2082   66.5  0.4102  -58.0
 3.100  0.4095  127.9   1.773   38.4  0.2163   65.8  0.4095  -59.9
 3.200  0.4143  126.0   1.727   36.9  0.2245   65.2  0.4093  -61.7
 3.300  0.4196  124.1   1.682   35.3  0.2327   64.6  0.4095  -63.6
 3.400  0.4253  122.3   1.638   33.6  0.2409   64.0  0.4101  -65.4
 3.500  0.4315  120.5   1.596   31.8  0.2491   63.5  0.4112  -67.3
 3.600  0.4357  118.8   1.561   30.4  0.2574   62.6  0.4085  -69.3
 3.700  0.4402  117.2   1.528   29.0  0.2657   61.7  0.4062  -71.3
 3.800  0.4451  115.5   1.495   27.5  0.2741   61.0  0.4045  -73.3
 3.900  0.4503  113.9   1.463   25.9  0.2826   60.2  0.4032  -75.4
 4.000  0.4559  112.4   1.433   24.3  0.2911   59.5  0.4025  -77.4
 4.100  0.4610  110.9   1.406   22.9  0.2998   58.5  0.3979  -79.7
 4.200  0.4663  109.4   1.379   21.5  0.3086   57.5  0.3940  -82.1
 4.300  0.4720  107.9   1.354   20.1  0.3174   56.6  0.3908  -84.5
 4.400  0.4780  106.5   1.329   18.6  0.3264   55.7  0.3882  -86.9
 4.500  0.4843  105.1   1.305   17.0  0.3354   54.9  0.3864  -89.4
 4.600  0.4899  103.8   1.281   15.8  0.3439   53.9  0.3822  -92.2
 4.700  0.4958  102.5   1.257   14.6  0.3525   52.9  0.3788  -95.0
 4.800  0.5019  101.2   1.234   13.3  0.3612   51.9  0.3765  -97.9
 4.900  0.5082  100.0   1.211   12.0  0.3700   51.1  0.3751 -100.9
 5.000  0.5148   98.8   1.189   10.6  0.3789   50.2  0.3747 -103.8
 5.100  0.5189   97.5   1.171    9.5  0.3874   49.1  0.3744 -106.9
 5.200  0.5233   96.3   1.153    8.3  0.3961   48.1  0.3751 -109.9
 5.300  0.5279   95.0   1.136    7.2  0.4049   47.1  0.3770 -113.0
 5.400  0.5327   93.8   1.119    6.0  0.4138   46.2  0.3798 -116.0
 5.500  0.5378   92.6   1.103    4.7  0.4228   45.3  0.3837 -118.9
 5.600  0.5405   91.4   1.086    3.7  0.4311   44.1  0.3851 -121.7
 5.700  0.5434   90.2   1.070    2.8  0.4396   42.9  0.3874 -124.4
 5.800  0.5466   89.0   1.053    1.7  0.4483   41.8  0.3906 -127.1
 5.900  0.5500   87.9   1.038    0.7  0.4572   40.7  0.3946 -129.7
 6.000  0.5536   86.7   1.022   -0.4  0.4662   39.7  0.3994 -132.3
!
!  f       NFmin   Gammaopt  rn/50
! GHz       dB    MAG  ANG    -
 0.450      1.43  0.06   16   0.21
 0.900      1.48  0.06   32   0.21
 1.900      1.92  0.11 -141   0.21
 2.400      2.13  0.14 -109   0.27
!
! (c) 2017  Infineon Technologies AG, Munich