! Infineon Technologies  Discrete & RF Semiconductors
! BFR181W
! VCE =  5.0 V,  IC =  25 mA
! Common Emitter S-Parameters:                            Jan 2017
# GHz  S  MA  R  50
!  f         S11            S21            S12            S22
! GHz     MAG   ANG      MAG   ANG      MAG   ANG      MAG   ANG
 0.010  0.5108   -7.6  33.873  175.5  0.0016   83.7  0.9512   -1.9
 0.020  0.4995  -18.1  33.294  170.0  0.0034   89.5  0.9518   -4.2
 0.030  0.4847  -25.6  32.353  165.8  0.0048   81.4  0.9344   -6.3
 0.040  0.4786  -33.4  31.598  161.3  0.0062   77.0  0.9184   -8.5
 0.050  0.4815  -41.2  31.042  156.7  0.0076   74.2  0.9038  -10.8
 0.060  0.4641  -47.3  29.756  153.6  0.0087   71.7  0.8821  -12.0
 0.070  0.4524  -53.9  28.566  150.2  0.0099   69.8  0.8608  -13.3
 0.080  0.4468  -60.7  27.484  146.6  0.0111   68.2  0.8399  -14.6
 0.090  0.4477  -67.6  26.522  142.6  0.0122   67.0  0.8196  -16.0
 0.100  0.4549  -74.3  25.695  138.4  0.0134   66.0  0.7997  -17.5
 0.110  0.4438  -78.9  24.654  136.3  0.0141   65.1  0.7826  -18.0
 0.120  0.4356  -83.7  23.648  134.1  0.0149   64.3  0.7656  -18.5
 0.130  0.4306  -88.6  22.680  131.7  0.0156   63.6  0.7486  -19.0
 0.140  0.4288  -93.6  21.756  129.1  0.0164   62.9  0.7317  -19.5
 0.150  0.4303  -98.6  20.883  126.2  0.0171   62.3  0.7148  -20.1
 0.200  0.4163 -115.4  17.146  117.3  0.0191   62.5  0.6556  -20.6
 0.250  0.4078 -128.3  14.454  111.0  0.0223   61.9  0.6157  -20.4
 0.300  0.4028 -137.9  12.396  106.2  0.0243   62.1  0.5882  -19.9
 0.350  0.3969 -144.4  11.004  103.1  0.0270   64.0  0.5723  -19.6
 0.400  0.3962 -151.0   9.653   99.2  0.0297   65.5  0.5565  -19.2
 0.450  0.3937 -155.7   8.738   97.0  0.0323   67.2  0.5477  -19.1
 0.500  0.3940 -160.5   7.840   94.2  0.0350   68.6  0.5390  -19.0
 0.600  0.3967 -167.6   6.614   90.1  0.0403   69.9  0.5287  -19.1
 0.700  0.3984 -173.7   5.710   86.5  0.0445   72.6  0.5210  -19.5
 0.800  0.4015 -178.9   5.039   83.3  0.0511   73.7  0.5148  -20.3
 0.900  0.4016  177.0   4.493   80.4  0.0567   74.1  0.5102  -21.3
 1.000  0.4042  172.9   4.072   77.8  0.0629   75.2  0.5053  -22.3
 1.100  0.4094  169.3   3.722   75.2  0.0687   76.0  0.5030  -23.4
 1.200  0.4128  165.8   3.425   72.7  0.0747   76.3  0.4991  -24.7
 1.300  0.4150  162.7   3.171   70.2  0.0812   76.7  0.4963  -26.1
 1.400  0.4191  159.8   2.965   68.0  0.0881   77.3  0.4926  -27.6
 1.500  0.4242  157.3   2.778   65.8  0.0946   77.2  0.4897  -29.1
 1.600  0.4279  154.5   2.618   63.6  0.1014   77.4  0.4889  -30.8
 1.700  0.4304  151.9   2.475   61.5  0.1084   77.0  0.4851  -32.6
 1.800  0.4372  149.4   2.354   59.3  0.1154   77.1  0.4817  -34.3
 1.900  0.4410  147.3   2.242   57.4  0.1223   76.8  0.4803  -36.1
 2.000  0.4446  144.9   2.136   55.3  0.1299   76.7  0.4784  -38.1
 2.100  0.4484  142.5   2.047   53.4  0.1376   76.4  0.4761  -40.0
 2.200  0.4530  140.2   1.961   51.3  0.1454   76.1  0.4743  -42.0
 2.300  0.4582  138.2   1.888   49.5  0.1530   75.6  0.4727  -44.1
 2.400  0.4639  136.3   1.818   47.5  0.1607   75.1  0.4718  -46.3
 2.500  0.4671  134.3   1.753   45.8  0.1686   74.6  0.4708  -48.4
 2.600  0.4708  132.4   1.690   43.9  0.1765   74.2  0.4704  -50.5
 2.700  0.4760  130.5   1.636   42.2  0.1848   73.6  0.4703  -52.6
 2.800  0.4818  128.6   1.584   40.4  0.1931   73.1  0.4708  -54.7
 2.900  0.4855  126.7   1.537   38.8  0.2016   72.4  0.4695  -56.8
 3.000  0.4898  124.9   1.492   37.0  0.2101   71.7  0.4689  -58.9
 3.100  0.4931  123.0   1.453   35.6  0.2191   70.9  0.4677  -60.9
 3.200  0.4970  121.2   1.415   34.1  0.2281   70.1  0.4671  -62.9
 3.300  0.5014  119.3   1.378   32.6  0.2371   69.4  0.4671  -65.0
 3.400  0.5062  117.6   1.342   30.9  0.2462   68.7  0.4677  -67.0
 3.500  0.5116  115.8   1.307   29.2  0.2553   68.1  0.4688  -69.0
 3.600  0.5149  114.1   1.279   27.9  0.2644   67.0  0.4655  -71.1
 3.700  0.5187  112.4   1.251   26.6  0.2737   66.0  0.4628  -73.3
 3.800  0.5229  110.7   1.224   25.2  0.2830   65.1  0.4608  -75.4
 3.900  0.5275  109.1   1.197   23.7  0.2924   64.2  0.4595  -77.6
 4.000  0.5326  107.5   1.172   22.2  0.3018   63.4  0.4588  -79.8
 4.100  0.5359  106.0   1.149   21.0  0.3112   62.2  0.4532  -82.2
 4.200  0.5397  104.4   1.127   19.7  0.3208   61.0  0.4485  -84.7
 4.300  0.5438  102.9   1.106   18.4  0.3304   60.0  0.4446  -87.3
 4.400  0.5483  101.5   1.085   17.0  0.3402   59.0  0.4417  -89.9
 4.500  0.5531  100.0   1.065   15.6  0.3501   58.0  0.4396  -92.5
 4.600  0.5571   98.7   1.046   14.6  0.3593   56.8  0.4346  -95.3
 4.700  0.5614   97.5   1.027   13.5  0.3686   55.7  0.4307  -98.2
 4.800  0.5659   96.2   1.008   12.4  0.3780   54.7  0.4279 -101.1
 4.900  0.5707   95.0   0.990   11.3  0.3876   53.7  0.4262 -104.0
 5.000  0.5758   93.8   0.972   10.1  0.3973   52.7  0.4256 -107.0
 5.100  0.5787   92.5   0.958    9.2  0.4063   51.5  0.4245 -110.0
 5.200  0.5819   91.3   0.944    8.3  0.4156   50.3  0.4246 -113.1
 5.300  0.5853   90.0   0.930    7.4  0.4249   49.1  0.4259 -116.1
 5.400  0.5890   88.8   0.917    6.4  0.4345   48.0  0.4284 -119.1
 5.500  0.5930   87.6   0.904    5.4  0.4442   47.0  0.4321 -122.1
 5.600  0.5939   86.4   0.891    4.6  0.4527   45.7  0.4325 -124.8
 5.700  0.5951   85.3   0.879    3.9  0.4615   44.4  0.4340 -127.6
 5.800  0.5965   84.1   0.867    3.1  0.4705   43.2  0.4364 -130.3
 5.900  0.5981   82.9   0.855    2.2  0.4797   42.0  0.4398 -133.0
 6.000  0.6000   81.8   0.843    1.4  0.4891   40.9  0.4441 -135.6
!
!  f       NFmin   Gammaopt  rn/50
! GHz       dB    MAG  ANG    -
!
! noise parameter not available yet for this operation point!
!
! (c) 2017  Infineon Technologies AG, Munich