! Infineon Technologies  Discrete & RF Semiconductors
! BFP183W
! VCE =  6.0 V,  IC =  30 mA
! Common Emitter S-Parameters:                            Jan 2017
# GHz  S  MA  R  50
!  f         S11            S21            S12            S22
! GHz     MAG   ANG      MAG   ANG      MAG   ANG      MAG   ANG
 0.010  0.4308  -10.5  57.706  175.5  0.0013   91.0  0.9731   -3.8
 0.020  0.4304  -24.1  57.100  170.2  0.0029   90.4  0.9643   -8.1
 0.030  0.4264  -34.3  55.442  166.1  0.0044   79.4  0.9411  -11.8
 0.040  0.4360  -44.4  54.086  161.7  0.0060   74.2  0.9221  -15.7
 0.050  0.4583  -53.8  53.056  157.2  0.0076   71.1  0.9075  -19.8
 0.060  0.4529  -61.8  50.954  154.1  0.0087   68.4  0.8747  -22.4
 0.070  0.4563  -69.8  49.013  150.8  0.0098   66.3  0.8439  -25.1
 0.080  0.4685  -77.5  47.251  147.2  0.0109   64.6  0.8152  -28.1
 0.090  0.4886  -84.7  45.690  143.3  0.0120   63.2  0.7888  -31.3
 0.100  0.5159  -91.3  44.350  139.2  0.0131   62.1  0.7650  -34.7
 0.110  0.5165  -96.2  42.587  137.1  0.0138   59.9  0.7366  -36.3
 0.120  0.5209 -101.1  40.886  134.9  0.0145   58.0  0.7087  -38.0
 0.130  0.5289 -105.9  39.253  132.4  0.0153   56.2  0.6816  -39.9
 0.140  0.5405 -110.4  37.697  129.8  0.0160   54.6  0.6553  -41.9
 0.150  0.5554 -114.8  36.229  126.9  0.0168   53.1  0.6298  -44.1
 0.200  0.5807 -129.4  29.837  118.1  0.0183   49.4  0.5287  -49.6
 0.250  0.5940 -140.0  25.153  111.7  0.0205   48.1  0.4539  -52.9
 0.300  0.6054 -147.5  21.582  107.1  0.0217   48.3  0.3988  -54.9
 0.350  0.6082 -152.8  19.138  104.1  0.0229   48.8  0.3623  -55.7
 0.400  0.6162 -158.0  16.762  100.2  0.0241   49.2  0.3258  -56.6
 0.450  0.6169 -161.5  15.163   98.1  0.0255   50.6  0.3040  -56.8
 0.500  0.6198 -164.9  13.590   95.4  0.0270   51.8  0.2823  -57.0
 0.600  0.6222 -170.4  11.455   91.5  0.0299   52.4  0.2532  -57.1
 0.700  0.6262 -174.4   9.851   88.3  0.0323   56.1  0.2335  -56.9
 0.800  0.6281 -178.3   8.664   85.3  0.0360   58.6  0.2214  -56.9
 0.900  0.6278  178.7   7.696   82.7  0.0388   57.9  0.2113  -57.3
 1.000  0.6327  175.8   6.962   80.3  0.0423   59.6  0.2033  -57.6
 1.100  0.6339  173.3   6.338   78.1  0.0459   60.7  0.1994  -58.2
 1.200  0.6356  170.7   5.810   75.7  0.0490   60.8  0.1951  -58.9
 1.300  0.6361  168.3   5.367   73.7  0.0519   60.8  0.1927  -60.0
 1.400  0.6382  166.3   5.004   71.6  0.0556   61.6  0.1891  -61.0
 1.500  0.6434  164.2   4.665   69.7  0.0588   61.8  0.1873  -62.5
 1.600  0.6450  162.0   4.384   67.6  0.0628   62.0  0.1861  -63.9
 1.700  0.6462  160.1   4.134   65.7  0.0660   62.2  0.1845  -65.9
 1.800  0.6510  158.1   3.921   63.8  0.0695   61.6  0.1837  -67.9
 1.900  0.6546  156.4   3.712   62.1  0.0725   62.0  0.1829  -69.8
 2.000  0.6560  154.4   3.527   60.0  0.0766   61.4  0.1831  -72.1
 2.100  0.6590  152.5   3.367   58.2  0.0800   61.3  0.1825  -74.4
 2.200  0.6626  150.7   3.211   56.3  0.0834   61.2  0.1823  -76.8
 2.300  0.6670  149.0   3.076   54.5  0.0870   60.8  0.1830  -79.5
 2.400  0.6720  147.3   2.945   52.6  0.0907   60.4  0.1841  -82.1
 2.500  0.6746  145.8   2.830   51.0  0.0939   59.8  0.1850  -84.8
 2.600  0.6777  144.3   2.717   49.2  0.0972   59.3  0.1863  -87.5
 2.700  0.6820  142.6   2.618   47.6  0.1008   58.9  0.1878  -90.1
 2.800  0.6869  141.0   2.521   45.8  0.1044   58.5  0.1897  -92.7
 2.900  0.6896  139.4   2.434   44.1  0.1076   58.0  0.1909  -95.5
 3.000  0.6928  137.9   2.349   42.3  0.1109   57.5  0.1926  -98.2
 3.100  0.6960  136.4   2.278   40.9  0.1143   57.0  0.1940 -100.8
 3.200  0.6997  135.0   2.209   39.4  0.1177   56.5  0.1957 -103.4
 3.300  0.7039  133.5   2.141   37.7  0.1211   56.0  0.1979 -106.0
 3.400  0.7085  132.1   2.075   36.0  0.1246   55.5  0.2005 -108.5
 3.500  0.7135  130.7   2.011   34.2  0.1280   55.1  0.2034 -110.9
 3.600  0.7164  129.3   1.957   32.8  0.1314   54.4  0.2051 -113.7
 3.700  0.7197  128.0   1.904   31.3  0.1348   53.7  0.2072 -116.4
 3.800  0.7234  126.6   1.853   29.8  0.1382   53.1  0.2099 -119.1
 3.900  0.7275  125.3   1.803   28.1  0.1416   52.5  0.2129 -121.7
 4.000  0.7320  124.0   1.755   26.4  0.1451   51.9  0.2164 -124.2
 4.100  0.7350  122.8   1.711   25.0  0.1484   51.2  0.2192 -127.2
 4.200  0.7384  121.6   1.668   23.6  0.1517   50.5  0.2225 -130.0
 4.300  0.7421  120.4   1.625   22.1  0.1550   49.8  0.2264 -132.8
 4.400  0.7462  119.2   1.585   20.5  0.1583   49.1  0.2308 -135.5
 4.500  0.7505  118.0   1.545   18.8  0.1617   48.5  0.2357 -138.1
 4.600  0.7535  117.0   1.508   17.6  0.1649   47.9  0.2411 -140.8
 4.700  0.7568  116.0   1.472   16.3  0.1682   47.3  0.2471 -143.4
 4.800  0.7602  115.0   1.436   15.0  0.1714   46.7  0.2535 -145.9
 4.900  0.7639  114.1   1.402   13.6  0.1747   46.1  0.2604 -148.2
 5.000  0.7678  113.1   1.368   12.1  0.1780   45.6  0.2677 -150.4
 5.100  0.7703  112.2   1.341   11.0  0.1814   44.9  0.2758 -152.4
 5.200  0.7729  111.4   1.314    9.8  0.1849   44.3  0.2841 -154.3
 5.300  0.7757  110.6   1.288    8.6  0.1884   43.7  0.2928 -156.1
 5.400  0.7787  109.7   1.263    7.3  0.1919   43.1  0.3017 -157.7
 5.500  0.7818  108.9   1.238    6.0  0.1954   42.5  0.3109 -159.3
 5.600  0.7824  108.0   1.213    4.9  0.1988   41.7  0.3185 -160.6
 5.700  0.7832  107.1   1.189    3.8  0.2022   40.9  0.3263 -161.9
 5.800  0.7843  106.1   1.166    2.6  0.2057   40.2  0.3342 -163.1
 5.900  0.7855  105.2   1.143    1.4  0.2092   39.5  0.3423 -164.3
 6.000  0.7869  104.3   1.120    0.1  0.2127   38.8  0.3505 -165.4
!
!  f       NFmin   Gammaopt  rn/50
! GHz       dB    MAG  ANG    -
 0.450      1.39  0.27  180   0.10
 0.900      1.43  0.30 -178   0.09
 1.900      1.92  0.45 -156   0.10
 2.400      2.17  0.50 -152   0.15
!
! (c) 2017  Infineon Technologies AG, Munich