! Infineon Technologies  Discrete & RF Semiconductors
! BFP183W
! VCE =  3.0 V,  IC =  59 mA
! Common Emitter S-Parameters:                            Jan 2017
# GHz  S  MA  R  50
!  f         S11            S21            S12            S22
! GHz     MAG   ANG      MAG   ANG      MAG   ANG      MAG   ANG
 0.010  0.1616  -62.1  61.668  171.2  0.0017   81.1  0.8304   -6.9
 0.020  0.2632  -88.6  59.294  161.7  0.0037   82.5  0.7995  -14.7
 0.030  0.3275 -104.7  54.672  155.4  0.0051   67.8  0.7460  -19.7
 0.040  0.4088 -115.1  50.815  148.1  0.0066   59.7  0.6991  -25.5
 0.050  0.4988 -121.8  47.908  139.8  0.0083   54.7  0.6603  -32.0
 0.060  0.5222 -127.9  44.378  136.9  0.0088   53.5  0.6182  -33.8
 0.070  0.5511 -133.5  40.980  133.6  0.0093   52.4  0.5769  -36.0
 0.080  0.5845 -138.4  37.748  129.6  0.0099   51.4  0.5365  -38.4
 0.090  0.6219 -142.8  34.730  124.9  0.0104   50.5  0.4972  -41.2
 0.100  0.6625 -146.7  31.985  119.4  0.0109   49.7  0.4593  -44.5
 0.110  0.6713 -149.1  30.141  117.9  0.0113   48.5  0.4375  -45.0
 0.120  0.6812 -151.4  28.321  116.1  0.0117   47.5  0.4158  -45.5
 0.130  0.6922 -153.6  26.532  114.2  0.0121   46.4  0.3941  -46.1
 0.140  0.7042 -155.8  24.778  111.9  0.0125   45.5  0.3725  -46.8
 0.150  0.7172 -157.9  23.068  109.3  0.0129   44.6  0.3509  -47.5
 0.200  0.7368 -164.6  17.794  102.9  0.0132   47.1  0.2926  -47.2
 0.250  0.7488 -169.3  14.440   98.5  0.0155   49.3  0.2575  -46.1
 0.300  0.7527 -172.4  12.131   95.5  0.0164   51.4  0.2351  -44.8
 0.350  0.7559 -174.9  10.656   93.4  0.0176   54.1  0.2228  -44.0
 0.400  0.7605 -177.3   9.201   90.6  0.0189   56.5  0.2105  -43.1
 0.450  0.7599 -179.0   8.284   89.0  0.0204   58.2  0.2045  -42.8
 0.500  0.7601  179.2   7.374   87.1  0.0220   59.7  0.1985  -42.5
 0.600  0.7632  176.3   6.167   84.0  0.0255   61.9  0.1917  -42.7
 0.700  0.7634  173.9   5.286   81.3  0.0284   64.0  0.1878  -43.0
 0.800  0.7652  171.4   4.633   78.6  0.0329   66.7  0.1873  -44.3
 0.900  0.7636  169.2   4.112   76.2  0.0360   67.0  0.1862  -46.1
 1.000  0.7666  167.3   3.717   73.9  0.0391   68.3  0.1856  -47.8
 1.100  0.7699  165.3   3.381   71.7  0.0432   68.7  0.1872  -49.8
 1.200  0.7686  163.3   3.099   69.4  0.0462   68.5  0.1878  -51.8
 1.300  0.7703  161.4   2.862   67.3  0.0498   69.1  0.1888  -54.1
 1.400  0.7729  159.6   2.669   65.2  0.0543   68.9  0.1891  -56.6
 1.500  0.7754  158.0   2.488   63.1  0.0579   69.0  0.1902  -59.1
 1.600  0.7781  156.1   2.339   61.0  0.0617   68.7  0.1921  -61.6
 1.700  0.7789  154.2   2.207   59.0  0.0654   68.8  0.1928  -64.6
 1.800  0.7824  152.5   2.091   56.8  0.0690   68.7  0.1941  -67.3
 1.900  0.7845  150.9   1.981   55.0  0.0731   68.5  0.1955  -70.1
 2.000  0.7856  149.1   1.882   52.8  0.0770   67.8  0.1979  -73.2
 2.100  0.7873  147.3   1.797   50.9  0.0808   67.4  0.1996  -76.3
 2.200  0.7898  145.5   1.714   48.8  0.0847   67.1  0.2018  -79.4
 2.300  0.7926  143.9   1.643   47.0  0.0885   66.6  0.2044  -82.6
 2.400  0.7960  142.3   1.573   45.0  0.0924   66.1  0.2076  -85.8
 2.500  0.7974  140.7   1.511   43.3  0.0961   65.5  0.2106  -88.9
 2.600  0.7994  139.2   1.450   41.4  0.0999   65.0  0.2143  -92.0
 2.700  0.8024  137.6   1.397   39.7  0.1038   64.4  0.2178  -95.1
 2.800  0.8060  136.1   1.346   37.8  0.1077   63.9  0.2219  -98.0
 2.900  0.8070  134.6   1.299   36.1  0.1115   63.1  0.2253 -101.0
 3.000  0.8085  133.2   1.254   34.2  0.1153   62.3  0.2294 -104.0
 3.100  0.8105  131.8   1.216   32.7  0.1192   61.7  0.2326 -107.0
 3.200  0.8130  130.3   1.178   31.2  0.1232   61.1  0.2363 -109.8
 3.300  0.8159  128.9   1.142   29.5  0.1271   60.5  0.2406 -112.6
 3.400  0.8194  127.5   1.106   27.8  0.1311   60.0  0.2455 -115.2
 3.500  0.8234  126.1   1.072   25.9  0.1351   59.5  0.2509 -117.8
 3.600  0.8249  124.7   1.043   24.5  0.1389   58.7  0.2543 -120.7
 3.700  0.8270  123.4   1.015   23.1  0.1427   57.9  0.2582 -123.6
 3.800  0.8294  122.1   0.988   21.6  0.1465   57.1  0.2629 -126.3
 3.900  0.8323  120.7   0.961   20.0  0.1503   56.4  0.2681 -129.0
 4.000  0.8357  119.4   0.935   18.3  0.1542   55.7  0.2738 -131.5
 4.100  0.8364  118.2   0.911   17.0  0.1580   54.8  0.2784 -134.5
 4.200  0.8375  117.0   0.887   15.6  0.1618   53.9  0.2838 -137.4
 4.300  0.8389  115.8   0.864   14.2  0.1656   53.1  0.2898 -140.1
 4.400  0.8407  114.6   0.842   12.7  0.1695   52.3  0.2965 -142.8
 4.500  0.8429  113.4   0.820   11.1  0.1734   51.5  0.3038 -145.3
 4.600  0.8443  112.5   0.800   10.1  0.1771   50.7  0.3108 -147.9
 4.700  0.8459  111.5   0.780    9.0  0.1809   50.0  0.3184 -150.4
 4.800  0.8477  110.6   0.760    7.9  0.1847   49.3  0.3266 -152.8
 4.900  0.8497  109.6   0.741    6.7  0.1885   48.6  0.3354 -155.1
 5.000  0.8520  108.7   0.722    5.5  0.1923   47.9  0.3446 -157.2
 5.100  0.8529  107.8   0.708    4.6  0.1961   47.1  0.3537 -159.2
 5.200  0.8541  107.0   0.695    3.6  0.1999   46.3  0.3632 -161.1
 5.300  0.8554  106.1   0.681    2.6  0.2037   45.5  0.3730 -162.9
 5.400  0.8569  105.3   0.668    1.5  0.2076   44.8  0.3833 -164.6
 5.500  0.8586  104.4   0.655    0.4  0.2115   44.1  0.3938 -166.2
 5.600  0.8584  103.5   0.642   -0.4  0.2153   43.2  0.4017 -167.6
 5.700  0.8584  102.6   0.629   -1.2  0.2192   42.2  0.4099 -169.0
 5.800  0.8586  101.8   0.616   -2.1  0.2232   41.4  0.4182 -170.3
 5.900  0.8590  100.9   0.604   -3.0  0.2272   40.5  0.4268 -171.6
 6.000  0.8596  100.0   0.591   -3.9  0.2312   39.7  0.4356 -172.8
!
!  f       NFmin   Gammaopt  rn/50
! GHz       dB    MAG  ANG    -
!
! noise parameter not available yet for this operation point!
!
! (c) 2017  Infineon Technologies AG, Munich