! Infineon Technologies  Discrete & RF Semiconductors
! BFP183W
! VCE =  4.0 V,  IC =  33 mA
! Common Emitter S-Parameters:                            Jan 2017
# GHz  S  MA  R  50
!  f         S11            S21            S12            S22
! GHz     MAG   ANG      MAG   ANG      MAG   ANG      MAG   ANG
 0.010  0.3617  -14.1  60.720  175.2  0.0014   89.5  0.9656   -4.3
 0.020  0.3676  -30.2  59.704  169.3  0.0027   83.5  0.9549   -9.2
 0.030  0.3690  -42.8  57.743  164.7  0.0044   76.3  0.9268  -13.3
 0.040  0.3876  -54.8  56.172  159.9  0.0061   73.1  0.9039  -17.7
 0.050  0.4212  -65.2  55.024  154.8  0.0078   71.3  0.8865  -22.3
 0.060  0.4216  -73.9  52.537  151.6  0.0087   67.8  0.8492  -25.0
 0.070  0.4315  -82.4  50.225  148.2  0.0097   65.0  0.8138  -27.8
 0.080  0.4503  -90.3  48.112  144.4  0.0107   62.7  0.7808  -31.0
 0.090  0.4771  -97.5  46.227  140.3  0.0117   60.8  0.7502  -34.4
 0.100  0.5104 -103.8  44.597  135.9  0.0127   59.2  0.7226  -38.1
 0.110  0.5155 -108.4  42.650  133.9  0.0133   57.4  0.6933  -39.7
 0.120  0.5240 -112.9  40.761  131.6  0.0139   55.8  0.6646  -41.4
 0.130  0.5355 -117.3  38.940  129.2  0.0145   54.4  0.6366  -43.2
 0.140  0.5500 -121.4  37.196  126.5  0.0152   53.0  0.6093  -45.3
 0.150  0.5672 -125.3  35.541  123.6  0.0158   51.8  0.5828  -47.5
 0.200  0.5960 -138.4  28.871  115.1  0.0170   49.2  0.4827  -52.7
 0.250  0.6147 -147.5  24.110  109.1  0.0196   48.3  0.4114  -55.8
 0.300  0.6258 -154.0  20.562  104.7  0.0208   49.2  0.3595  -57.5
 0.350  0.6289 -158.5  18.194  101.9  0.0220   50.0  0.3263  -58.2
 0.400  0.6359 -163.0  15.881   98.3  0.0232   50.7  0.2931  -59.0
 0.450  0.6371 -166.1  14.351   96.3  0.0245   52.1  0.2734  -59.2
 0.500  0.6401 -169.1  12.843   93.8  0.0259   53.3  0.2537  -59.4
 0.600  0.6458 -173.7  10.801   90.1  0.0295   55.0  0.2278  -59.4
 0.700  0.6469 -177.5   9.280   87.0  0.0320   58.1  0.2105  -59.0
 0.800  0.6514  179.2   8.153   84.0  0.0361   60.0  0.1996  -59.3
 0.900  0.6507  176.2   7.240   81.5  0.0393   60.0  0.1912  -59.9
 1.000  0.6540  173.8   6.546   79.2  0.0422   61.4  0.1844  -60.4
 1.100  0.6558  171.2   5.959   77.0  0.0457   62.2  0.1815  -61.0
 1.200  0.6570  168.9   5.461   74.7  0.0491   62.5  0.1780  -61.9
 1.300  0.6578  166.6   5.045   72.7  0.0522   62.7  0.1758  -63.1
 1.400  0.6602  164.6   4.701   70.6  0.0560   63.3  0.1734  -64.5
 1.500  0.6649  162.8   4.386   68.7  0.0597   63.1  0.1719  -66.1
 1.600  0.6670  160.7   4.120   66.6  0.0634   63.2  0.1716  -67.6
 1.700  0.6677  158.8   3.887   64.7  0.0669   63.0  0.1704  -69.7
 1.800  0.6714  156.9   3.685   62.7  0.0703   62.9  0.1695  -71.9
 1.900  0.6754  155.2   3.490   61.0  0.0737   63.0  0.1694  -74.1
 2.000  0.6770  153.3   3.313   58.9  0.0776   62.5  0.1703  -76.4
 2.100  0.6799  151.4   3.163   57.1  0.0812   62.2  0.1704  -79.0
 2.200  0.6835  149.6   3.016   55.2  0.0849   61.9  0.1709  -81.6
 2.300  0.6872  147.9   2.891   53.5  0.0885   61.5  0.1721  -84.4
 2.400  0.6915  146.3   2.768   51.6  0.0921   61.1  0.1738  -87.2
 2.500  0.6944  144.7   2.658   49.9  0.0955   60.5  0.1753  -90.0
 2.600  0.6978  143.2   2.551   48.0  0.0990   60.0  0.1773  -92.7
 2.700  0.7014  141.6   2.457   46.4  0.1026   59.5  0.1794  -95.4
 2.800  0.7055  140.1   2.366   44.7  0.1062   59.0  0.1818  -98.0
 2.900  0.7087  138.5   2.285   43.0  0.1095   58.3  0.1837 -100.8
 3.000  0.7124  137.0   2.207   41.2  0.1129   57.7  0.1860 -103.6
 3.100  0.7152  135.5   2.140   39.8  0.1164   57.2  0.1879 -106.3
 3.200  0.7185  134.1   2.074   38.3  0.1199   56.7  0.1903 -108.9
 3.300  0.7223  132.6   2.010   36.6  0.1234   56.2  0.1930 -111.5
 3.400  0.7265  131.2   1.948   34.9  0.1270   55.7  0.1961 -114.0
 3.500  0.7312  129.8   1.887   33.1  0.1305   55.3  0.1996 -116.4
 3.600  0.7341  128.5   1.836   31.7  0.1339   54.5  0.2019 -119.2
 3.700  0.7375  127.1   1.787   30.2  0.1374   53.8  0.2047 -122.0
 3.800  0.7412  125.8   1.739   28.6  0.1409   53.2  0.2079 -124.7
 3.900  0.7454  124.5   1.692   27.0  0.1444   52.5  0.2116 -127.3
 4.000  0.7499  123.2   1.647   25.2  0.1479   51.9  0.2157 -129.8
 4.100  0.7524  122.0   1.605   23.8  0.1512   51.1  0.2192 -132.7
 4.200  0.7553  120.8   1.565   22.4  0.1546   50.4  0.2232 -135.5
 4.300  0.7584  119.6   1.525   20.8  0.1580   49.7  0.2277 -138.2
 4.400  0.7620  118.4   1.486   19.2  0.1614   49.0  0.2327 -140.7
 4.500  0.7658  117.2   1.449   17.5  0.1648   48.4  0.2382 -143.2
 4.600  0.7689  116.2   1.414   16.3  0.1681   47.8  0.2443 -145.8
 4.700  0.7722  115.3   1.380   15.1  0.1714   47.1  0.2509 -148.2
 4.800  0.7757  114.4   1.347   13.8  0.1748   46.5  0.2579 -150.5
 4.900  0.7795  113.4   1.314   12.4  0.1781   46.0  0.2653 -152.7
 5.000  0.7834  112.5   1.282   11.0  0.1815   45.4  0.2731 -154.8
 5.100  0.7856  111.6   1.257    9.9  0.1849   44.7  0.2815 -156.7
 5.200  0.7879  110.7   1.232    8.7  0.1884   44.0  0.2902 -158.5
 5.300  0.7905  109.8   1.207    7.5  0.1919   43.3  0.2992 -160.2
 5.400  0.7933  108.9   1.183    6.2  0.1954   42.7  0.3084 -161.8
 5.500  0.7962  108.0   1.160    4.9  0.1989   42.1  0.3178 -163.3
 5.600  0.7967  107.1   1.137    3.8  0.2023   41.3  0.3255 -164.6
 5.700  0.7973  106.3   1.115    2.8  0.2058   40.5  0.3333 -165.7
 5.800  0.7982  105.4   1.093    1.6  0.2093   39.8  0.3412 -166.9
 5.900  0.7992  104.6   1.071    0.4  0.2128   39.1  0.3493 -168.0
 6.000  0.8004  103.7   1.050   -0.8  0.2164   38.4  0.3575 -169.0
!
!  f       NFmin   Gammaopt  rn/50
! GHz       dB    MAG  ANG    -
 0.450      1.47  0.28 -179   0.10
 0.900      1.51  0.31 -177   0.10
 1.900      2.00  0.46 -156   0.11
 2.400      2.24  0.51 -151   0.16
!
! (c) 2017  Infineon Technologies AG, Munich