! Infineon Technologies  Discrete & RF Semiconductors
! BFP183W
! VCE =  8.0 V,  IC =  7.0 mA
! Common Emitter S-Parameters:                            Jan 2017
# GHz  S  MA  R  50
!  f         S11            S21            S12            S22
! GHz     MAG   ANG      MAG   ANG      MAG   ANG      MAG   ANG
 0.010  0.8081   -2.9  21.918  178.6  0.0015   80.2  0.9964   -1.7
 0.020  0.7876   -8.6  21.568  175.6  0.0035   90.6  0.9928   -3.5
 0.030  0.7835  -11.8  21.452  173.6  0.0056   84.4  0.9879   -5.1
 0.040  0.7818  -15.0  21.364  171.5  0.0077   81.6  0.9838   -6.7
 0.050  0.7825  -18.2  21.304  169.4  0.0098   80.0  0.9805   -8.3
 0.060  0.7760  -21.7  21.072  167.4  0.0117   77.6  0.9718   -9.8
 0.070  0.7725  -25.3  20.866  165.4  0.0136   75.9  0.9637  -11.3
 0.080  0.7720  -28.9  20.686  163.4  0.0155   74.5  0.9563  -12.9
 0.090  0.7745  -32.5  20.533  161.3  0.0174   73.5  0.9497  -14.4
 0.100  0.7800  -36.0  20.407  159.2  0.0193   72.7  0.9437  -16.0
 0.110  0.7706  -39.3  20.122  157.4  0.0208   70.7  0.9317  -17.3
 0.120  0.7638  -42.6  19.856  155.6  0.0222   68.9  0.9201  -18.7
 0.130  0.7596  -46.0  19.612  153.7  0.0238   67.4  0.9091  -20.0
 0.140  0.7580  -49.4  19.389  151.8  0.0253   66.0  0.8986  -21.5
 0.150  0.7592  -52.8  19.189  149.8  0.0268   64.8  0.8887  -22.9
 0.200  0.7445  -67.0  17.770  141.3  0.0332   59.0  0.8293  -28.6
 0.250  0.7251  -80.3  16.364  133.9  0.0383   53.5  0.7694  -33.2
 0.300  0.7059  -91.4  14.981  127.9  0.0418   48.6  0.7124  -36.8
 0.350  0.6870 -100.2  13.782  123.3  0.0443   46.0  0.6649  -39.2
 0.400  0.6850 -109.3  12.688  117.9  0.0469   43.6  0.6187  -42.0
 0.450  0.6709 -116.0  11.718  114.5  0.0486   41.2  0.5836  -43.5
 0.500  0.6664 -122.9  10.797  110.5  0.0503   39.0  0.5489  -45.1
 0.600  0.6578 -133.6   9.366  104.4  0.0527   36.3  0.4967  -47.0
 0.700  0.6494 -142.2   8.204   99.4  0.0541   34.8  0.4573  -48.2
 0.800  0.6469 -149.4   7.314   94.9  0.0564   34.5  0.4294  -49.2
 0.900  0.6403 -155.5   6.559   91.1  0.0577   33.8  0.4066  -50.1
 1.000  0.6413 -160.7   5.970   87.8  0.0586   34.3  0.3891  -50.8
 1.100  0.6415 -165.3   5.459   84.8  0.0602   34.4  0.3765  -51.5
 1.200  0.6398 -169.6   5.023   81.7  0.0613   34.4  0.3652  -52.3
 1.300  0.6387 -173.3   4.655   79.0  0.0622   35.5  0.3564  -53.2
 1.400  0.6419 -176.7   4.347   76.4  0.0641   36.2  0.3486  -54.3
 1.500  0.6459 -179.9   4.066   74.0  0.0654   36.6  0.3427  -55.4
 1.600  0.6468  177.1   3.823   71.5  0.0668   37.3  0.3381  -56.5
 1.700  0.6500  174.1   3.613   69.3  0.0681   38.6  0.3333  -58.0
 1.800  0.6541  171.4   3.431   67.0  0.0703   39.2  0.3288  -59.4
 1.900  0.6573  168.8   3.255   64.9  0.0716   39.6  0.3260  -60.9
 2.000  0.6600  166.2   3.096   62.5  0.0734   40.5  0.3236  -62.5
 2.100  0.6629  163.6   2.958   60.4  0.0754   41.3  0.3213  -64.2
 2.200  0.6671  161.1   2.825   58.2  0.0774   42.1  0.3193  -66.0
 2.300  0.6705  158.9   2.709   56.2  0.0794   42.7  0.3180  -68.0
 2.400  0.6748  156.8   2.596   54.0  0.0815   43.3  0.3170  -70.0
 2.500  0.6777  154.7   2.494   52.1  0.0836   43.9  0.3161  -72.1
 2.600  0.6815  152.7   2.394   50.1  0.0857   44.4  0.3156  -74.2
 2.700  0.6851  150.7   2.308   48.3  0.0878   45.0  0.3155  -76.2
 2.800  0.6896  148.7   2.225   46.3  0.0900   45.6  0.3158  -78.2
 2.900  0.6930  146.8   2.151   44.4  0.0925   45.8  0.3151  -80.3
 3.000  0.6971  145.0   2.079   42.3  0.0950   45.9  0.3148  -82.5
 3.100  0.6999  143.2   2.015   40.7  0.0977   46.3  0.3147  -84.7
 3.200  0.7033  141.4   1.954   39.1  0.1003   46.7  0.3150  -87.0
 3.300  0.7075  139.7   1.893   37.3  0.1030   47.1  0.3158  -89.2
 3.400  0.7123  137.9   1.835   35.4  0.1057   47.5  0.3171  -91.4
 3.500  0.7177  136.2   1.779   33.4  0.1084   47.8  0.3189  -93.6
 3.600  0.7207  134.6   1.731   31.9  0.1114   47.7  0.3190  -96.0
 3.700  0.7243  133.1   1.684   30.3  0.1145   47.6  0.3197  -98.4
 3.800  0.7284  131.5   1.638   28.6  0.1175   47.5  0.3210 -100.7
 3.900  0.7331  130.0   1.594   26.8  0.1206   47.5  0.3228 -103.1
 4.000  0.7382  128.5   1.552   24.9  0.1236   47.4  0.3251 -105.4
 4.100  0.7408  127.1   1.512   23.4  0.1268   47.2  0.3261 -108.1
 4.200  0.7439  125.7   1.473   21.9  0.1300   47.0  0.3278 -110.8
 4.300  0.7474  124.3   1.436   20.2  0.1333   46.8  0.3303 -113.4
 4.400  0.7513  123.0   1.399   18.5  0.1365   46.7  0.3334 -116.0
 4.500  0.7557  121.6   1.364   16.7  0.1397   46.5  0.3372 -118.6
 4.600  0.7586  120.5   1.330   15.4  0.1431   46.2  0.3407 -121.3
 4.700  0.7618  119.5   1.296   14.0  0.1464   45.9  0.3450 -123.9
 4.800  0.7652  118.4   1.263   12.6  0.1498   45.7  0.3500 -126.5
 4.900  0.7689  117.3   1.231   11.1  0.1531   45.4  0.3557 -129.0
 5.000  0.7728  116.3   1.200    9.5  0.1565   45.2  0.3620 -131.4
 5.100  0.7753  115.3   1.175    8.3  0.1602   44.8  0.3689 -133.8
 5.200  0.7780  114.4   1.150    7.1  0.1639   44.3  0.3765 -136.1
 5.300  0.7809  113.4   1.126    5.8  0.1676   43.9  0.3846 -138.3
 5.400  0.7840  112.4   1.103    4.5  0.1714   43.6  0.3933 -140.4
 5.500  0.7874  111.5   1.080    3.1  0.1751   43.2  0.4025 -142.4
 5.600  0.7883  110.5   1.057    2.0  0.1790   42.6  0.4097 -144.3
 5.700  0.7895  109.5   1.035    0.9  0.1828   42.0  0.4173 -146.0
 5.800  0.7909  108.5   1.013   -0.3  0.1867   41.4  0.4254 -147.8
 5.900  0.7925  107.6   0.992   -1.6  0.1907   40.8  0.4338 -149.4
 6.000  0.7944  106.6   0.971   -2.9  0.1946   40.3  0.4425 -151.0
!
!  f       NFmin   Gammaopt  rn/50
! GHz       dB    MAG  ANG    -
 0.450      0.82  0.16   68   0.11
 0.900      0.91  0.21  112   0.10
 1.900      1.45  0.39  172   0.07
 2.400      1.71  0.45 -173   0.09
!
! (c) 2017  Infineon Technologies AG, Munich