! Infineon Technologies  Discrete & RF Semiconductors
! BFP183W
! VCE =  12. V,  IC =  20 mA
! Common Emitter S-Parameters:                            Jan 2017
# GHz  S  MA  R  50
!  f         S11            S21            S12            S22
! GHz     MAG   ANG      MAG   ANG      MAG   ANG      MAG   ANG
 0.010  0.6135   -5.7  44.618  176.1  0.0017   59.3  0.9657   -2.8
 0.020  0.6043  -14.7  43.711  172.1  0.0034   73.4  0.9573   -5.8
 0.030  0.5961  -21.0  42.961  169.0  0.0049   73.3  0.9454   -8.6
 0.040  0.5953  -27.4  42.344  165.7  0.0064   73.2  0.9359  -11.5
 0.050  0.6018  -33.7  41.866  162.4  0.0079   73.2  0.9287  -14.4
 0.060  0.5899  -39.5  40.772  159.7  0.0093   70.5  0.9069  -16.6
 0.070  0.5842  -45.4  39.774  156.8  0.0107   68.5  0.8865  -18.9
 0.080  0.5848  -51.4  38.882  153.8  0.0121   66.9  0.8677  -21.4
 0.090  0.5917  -57.3  38.101  150.7  0.0136   65.7  0.8504  -23.9
 0.100  0.6048  -63.0  37.439  147.4  0.0150   64.7  0.8349  -26.5
 0.110  0.5966  -67.6  36.325  145.3  0.0159   62.5  0.8125  -28.1
 0.120  0.5922  -72.2  35.263  143.1  0.0167   60.5  0.7909  -29.8
 0.130  0.5919  -76.9  34.257  140.7  0.0177   58.7  0.7699  -31.6
 0.140  0.5955  -81.6  33.313  138.2  0.0186   57.1  0.7498  -33.5
 0.150  0.6030  -86.2  32.435  135.6  0.0195   55.7  0.7305  -35.5
 0.200  0.6030 -103.3  27.903  126.3  0.0221   50.4  0.6383  -41.4
 0.250  0.6028 -116.7  24.202  119.2  0.0254   48.6  0.5616  -45.5
 0.300  0.6008 -126.9  21.155  113.8  0.0268   45.1  0.5008  -48.2
 0.350  0.5977 -134.1  18.941  110.3  0.0280   44.3  0.4585  -49.5
 0.400  0.6041 -141.3  16.819  105.8  0.0292   43.6  0.4165  -51.1
 0.450  0.6010 -146.1  15.286  103.2  0.0307   44.3  0.3890  -51.6
 0.500  0.6022 -150.9  13.790  100.1  0.0322   45.0  0.3616  -52.2
 0.600  0.6028 -158.3  11.699   95.5  0.0345   45.5  0.3245  -52.7
 0.700  0.6039 -164.2  10.105   91.8  0.0363   47.3  0.2984  -52.8
 0.800  0.6057 -169.2   8.914   88.4  0.0394   49.9  0.2817  -52.9
 0.900  0.6044 -173.3   7.936   85.5  0.0414   50.4  0.2678  -53.3
 1.000  0.6092 -177.0   7.188   82.8  0.0449   51.8  0.2575  -53.6
 1.100  0.6098  179.9   6.548   80.5  0.0469   52.8  0.2515  -54.0
 1.200  0.6103  176.6   6.008   78.0  0.0496   52.8  0.2444  -54.5
 1.300  0.6123  173.9   5.553   75.7  0.0525   53.8  0.2400  -55.4
 1.400  0.6147  171.5   5.179   73.6  0.0559   55.0  0.2354  -56.4
 1.500  0.6194  169.2   4.832   71.5  0.0586   55.0  0.2325  -57.5
 1.600  0.6197  166.7   4.541   69.4  0.0611   55.8  0.2306  -58.7
 1.700  0.6225  164.3   4.283   67.4  0.0647   56.5  0.2278  -60.4
 1.800  0.6274  162.2   4.063   65.4  0.0680   56.4  0.2261  -61.9
 1.900  0.6309  160.3   3.850   63.6  0.0703   56.4  0.2239  -63.6
 2.000  0.6327  158.0   3.657   61.5  0.0739   57.0  0.2229  -65.6
 2.100  0.6355  156.0   3.493   59.7  0.0771   56.9  0.2217  -67.6
 2.200  0.6391  154.0   3.333   57.7  0.0804   56.9  0.2208  -69.7
 2.300  0.6437  152.1   3.194   55.9  0.0836   56.8  0.2205  -72.0
 2.400  0.6490  150.3   3.059   54.0  0.0869   56.7  0.2205  -74.3
 2.500  0.6518  148.6   2.938   52.3  0.0899   56.4  0.2204  -76.7
 2.600  0.6551  147.0   2.820   50.5  0.0929   56.1  0.2207  -79.0
 2.700  0.6594  145.2   2.718   48.8  0.0962   55.8  0.2214  -81.4
 2.800  0.6643  143.5   2.619   47.0  0.0995   55.6  0.2224  -83.8
 2.900  0.6670  141.8   2.530   45.3  0.1024   55.3  0.2225  -86.3
 3.000  0.6703  140.2   2.444   43.5  0.1054   55.0  0.2230  -88.7
 3.100  0.6739  138.6   2.370   42.1  0.1087   54.6  0.2234  -91.1
 3.200  0.6779  137.1   2.297   40.5  0.1119   54.3  0.2242  -93.6
 3.300  0.6824  135.6   2.227   38.9  0.1152   54.0  0.2254  -96.0
 3.400  0.6874  134.1   2.158   37.2  0.1185   53.7  0.2270  -98.4
 3.500  0.6929  132.6   2.091   35.3  0.1218   53.4  0.2290 -100.7
 3.600  0.6962  131.2   2.035   33.9  0.1251   52.8  0.2297 -103.4
 3.700  0.6999  129.8   1.981   32.4  0.1284   52.3  0.2308 -106.0
 3.800  0.7040  128.4   1.928   30.8  0.1317   51.8  0.2325 -108.6
 3.900  0.7085  127.0   1.877   29.1  0.1350   51.4  0.2346 -111.2
 4.000  0.7134  125.7   1.827   27.3  0.1383   50.9  0.2372 -113.7
 4.100  0.7165  124.4   1.781   25.9  0.1415   50.3  0.2388 -116.6
 4.200  0.7199  123.1   1.736   24.4  0.1447   49.7  0.2410 -119.4
 4.300  0.7238  121.9   1.692   22.9  0.1480   49.1  0.2438 -122.2
 4.400  0.7279  120.6   1.650   21.2  0.1512   48.6  0.2471 -125.0
 4.500  0.7324  119.4   1.609   19.5  0.1545   48.1  0.2510 -127.6
 4.600  0.7358  118.4   1.570   18.3  0.1578   47.6  0.2552 -130.4
 4.700  0.7395  117.4   1.533   17.0  0.1612   47.0  0.2601 -133.1
 4.800  0.7434  116.4   1.495   15.7  0.1645   46.5  0.2655 -135.7
 4.900  0.7475  115.5   1.459   14.3  0.1679   46.1  0.2714 -138.2
 5.000  0.7518  114.5   1.424   12.8  0.1713   45.6  0.2778 -140.6
 5.100  0.7544  113.6   1.396   11.6  0.1747   44.9  0.2853 -142.8
 5.200  0.7572  112.7   1.368   10.4  0.1780   44.3  0.2932 -145.0
 5.300  0.7601  111.8   1.341    9.2  0.1814   43.7  0.3015 -147.0
 5.400  0.7633  110.9   1.315    7.9  0.1849   43.1  0.3102 -148.9
 5.500  0.7666  110.0   1.289    6.5  0.1883   42.5  0.3192 -150.7
 5.600  0.7676  109.1   1.264    5.4  0.1917   41.8  0.3268 -152.2
 5.700  0.7687  108.2   1.239    4.2  0.1951   41.1  0.3346 -153.7
 5.800  0.7701  107.3   1.214    3.0  0.1985   40.4  0.3426 -155.1
 5.900  0.7717  106.4   1.190    1.8  0.2020   39.7  0.3508 -156.4
 6.000  0.7734  105.5   1.167    0.5  0.2055   39.1  0.3592 -157.7
!
!  f       NFmin   Gammaopt  rn/50
! GHz       dB    MAG  ANG    -
 0.450      1.17  0.20  171   0.10
 0.900      1.20  0.25  174   0.09
 1.900      1.68  0.41 -163   0.08
 2.400      1.92  0.45 -157   0.12
!
! (c) 2017  Infineon Technologies AG, Munich