! Infineon Technologies  Discrete & RF Semiconductors
! BFP183W
! VCE =  10. V,  IC =  24 mA
! Common Emitter S-Parameters:                            Jan 2017
# GHz  S  MA  R  50
!  f         S11            S21            S12            S22
! GHz     MAG   ANG      MAG   ANG      MAG   ANG      MAG   ANG
 0.010  0.5484   -7.0  50.175  175.8  0.0012   82.1  0.9753   -3.1
 0.020  0.5425  -17.4  49.096  171.4  0.0028   88.7  0.9619   -6.6
 0.030  0.5347  -24.9  48.140  167.9  0.0043   80.0  0.9477   -9.8
 0.040  0.5361  -32.4  47.373  164.2  0.0058   75.8  0.9365  -13.0
 0.050  0.5467  -39.8  46.802  160.5  0.0073   73.4  0.9283  -16.3
 0.060  0.5354  -46.4  45.350  157.6  0.0086   70.6  0.9024  -18.7
 0.070  0.5313  -53.1  44.019  154.6  0.0099   68.5  0.8781  -21.2
 0.080  0.5347  -59.9  42.819  151.4  0.0112   66.9  0.8556  -23.8
 0.090  0.5454  -66.4  41.763  148.0  0.0125   65.6  0.8350  -26.6
 0.100  0.5629  -72.7  40.861  144.4  0.0138   64.6  0.8165  -29.5
 0.110  0.5575  -77.6  39.497  142.3  0.0146   62.4  0.7910  -31.1
 0.120  0.5562  -82.5  38.191  140.0  0.0155   60.4  0.7663  -32.9
 0.130  0.5589  -87.4  36.950  137.6  0.0163   58.6  0.7423  -34.7
 0.140  0.5658  -92.2  35.780  135.0  0.0172   57.0  0.7191  -36.7
 0.150  0.5765  -96.9  34.688  132.2  0.0181   55.6  0.6968  -38.8
 0.200  0.5855 -113.6  29.322  123.0  0.0209   51.0  0.5993  -44.6
 0.250  0.5914 -126.3  25.119  116.1  0.0229   48.3  0.5216  -48.4
 0.300  0.5968 -135.4  21.775  111.0  0.0241   46.8  0.4618  -50.7
 0.350  0.5958 -141.9  19.413  107.7  0.0254   47.0  0.4214  -51.8
 0.400  0.6023 -148.3  17.136  103.4  0.0267   47.2  0.3812  -53.1
 0.450  0.6010 -152.7  15.539  101.0  0.0282   47.1  0.3556  -53.4
 0.500  0.6031 -157.0  13.974   98.1  0.0297   47.1  0.3301  -53.8
 0.600  0.6064 -163.4  11.819   93.9  0.0325   49.0  0.2965  -54.0
 0.700  0.6069 -168.7  10.186   90.4  0.0345   50.6  0.2736  -53.9
 0.800  0.6090 -173.0   8.972   87.1  0.0378   53.3  0.2581  -53.9
 0.900  0.6088 -176.8   7.978   84.4  0.0401   54.2  0.2459  -54.2
 1.000  0.6106 -179.8   7.219   81.8  0.0427   55.4  0.2364  -54.6
 1.100  0.6130  176.9   6.577   79.5  0.0459   56.3  0.2313  -54.9
 1.200  0.6151  174.2   6.032   77.1  0.0488   57.1  0.2257  -55.5
 1.300  0.6156  171.6   5.575   75.0  0.0517   57.6  0.2223  -56.4
 1.400  0.6189  169.2   5.197   72.8  0.0556   58.0  0.2181  -57.4
 1.500  0.6228  167.0   4.847   70.8  0.0583   58.4  0.2151  -58.7
 1.600  0.6254  164.7   4.554   68.8  0.0616   59.0  0.2140  -59.9
 1.700  0.6268  162.5   4.295   66.9  0.0649   59.7  0.2114  -61.7
 1.800  0.6312  160.4   4.077   64.9  0.0684   59.0  0.2096  -63.3
 1.900  0.6362  158.6   3.861   63.1  0.0710   59.4  0.2084  -65.3
 2.000  0.6376  156.4   3.667   61.1  0.0747   59.2  0.2079  -67.1
 2.100  0.6402  154.5   3.502   59.3  0.0779   59.1  0.2067  -69.3
 2.200  0.6436  152.6   3.340   57.3  0.0812   59.0  0.2059  -71.5
 2.300  0.6479  150.8   3.201   55.5  0.0846   58.7  0.2059  -73.9
 2.400  0.6528  149.1   3.066   53.6  0.0881   58.4  0.2062  -76.3
 2.500  0.6555  147.4   2.945   51.9  0.0912   58.1  0.2066  -78.8
 2.600  0.6587  145.7   2.826   50.1  0.0944   57.8  0.2073  -81.3
 2.700  0.6632  144.0   2.724   48.5  0.0977   57.5  0.2080  -83.8
 2.800  0.6683  142.4   2.624   46.7  0.1010   57.3  0.2090  -86.2
 2.900  0.6713  140.8   2.534   45.1  0.1043   56.8  0.2095  -88.7
 3.000  0.6748  139.3   2.447   43.3  0.1077   56.3  0.2104  -91.2
 3.100  0.6781  137.8   2.373   41.9  0.1110   55.9  0.2111  -93.8
 3.200  0.6818  136.2   2.301   40.3  0.1144   55.5  0.2122  -96.3
 3.300  0.6860  134.7   2.230   38.7  0.1177   55.1  0.2137  -98.8
 3.400  0.6907  133.3   2.162   37.0  0.1211   54.7  0.2156 -101.3
 3.500  0.6958  131.8   2.095   35.1  0.1244   54.4  0.2179 -103.7
 3.600  0.6992  130.4   2.039   33.7  0.1277   53.8  0.2188 -106.4
 3.700  0.7030  129.0   1.985   32.2  0.1311   53.2  0.2201 -109.1
 3.800  0.7073  127.7   1.931   30.6  0.1344   52.6  0.2220 -111.7
 3.900  0.7119  126.3   1.880   29.0  0.1378   52.0  0.2243 -114.3
 4.000  0.7169  125.0   1.830   27.2  0.1412   51.5  0.2270 -116.8
 4.100  0.7200  123.8   1.784   25.8  0.1444   50.8  0.2290 -119.7
 4.200  0.7235  122.6   1.739   24.4  0.1475   50.2  0.2316 -122.6
 4.300  0.7272  121.4   1.695   22.8  0.1507   49.6  0.2347 -125.4
 4.400  0.7313  120.2   1.653   21.2  0.1540   49.0  0.2384 -128.2
 4.500  0.7357  119.0   1.612   19.5  0.1572   48.4  0.2426 -130.8
 4.600  0.7392  118.0   1.573   18.3  0.1605   47.8  0.2472 -133.6
 4.700  0.7429  117.0   1.536   17.0  0.1638   47.2  0.2523 -136.3
 4.800  0.7469  116.0   1.498   15.7  0.1671   46.7  0.2580 -138.8
 4.900  0.7511  115.0   1.462   14.3  0.1704   46.1  0.2642 -141.3
 5.000  0.7555  114.0   1.427   12.8  0.1738   45.6  0.2708 -143.6
 5.100  0.7578  113.1   1.399   11.6  0.1772   45.0  0.2785 -145.8
 5.200  0.7604  112.2   1.371   10.4  0.1807   44.4  0.2866 -147.9
 5.300  0.7631  111.3   1.345    9.2  0.1841   43.8  0.2950 -149.8
 5.400  0.7660  110.4   1.318    7.9  0.1876   43.2  0.3037 -151.7
 5.500  0.7691  109.5   1.293    6.5  0.1911   42.7  0.3128 -153.4
 5.600  0.7701  108.6   1.267    5.4  0.1945   41.9  0.3203 -154.9
 5.700  0.7712  107.7   1.241    4.3  0.1979   41.2  0.3280 -156.3
 5.800  0.7725  106.9   1.216    3.1  0.2014   40.5  0.3360 -157.6
 5.900  0.7740  106.0   1.192    1.9  0.2049   39.8  0.3441 -158.9
 6.000  0.7757  105.1   1.168    0.6  0.2084   39.1  0.3523 -160.1
!
!  f       NFmin   Gammaopt  rn/50
! GHz       dB    MAG  ANG    -
 0.450      1.27  0.23  176   0.10
 0.900      1.29  0.27  178   0.09
 1.900      1.78  0.43 -159   0.09
 2.400      2.01  0.47 -154   0.13
!
! (c) 2017  Infineon Technologies AG, Munich