! Infineon Technologies  Discrete & RF Semiconductors
! BFP183W
! VCE =  9.0 V,  IC =  33 mA
! Common Emitter S-Parameters:                            Jan 2017
# GHz  S  MA  R  50
!  f         S11            S21            S12            S22
! GHz     MAG   ANG      MAG   ANG      MAG   ANG      MAG   ANG
 0.010  0.4551   -9.6  58.541  175.1  0.0015   87.0  0.9693   -3.6
 0.020  0.4548  -22.5  57.777  170.1  0.0028   83.5  0.9523   -7.7
 0.030  0.4494  -32.2  56.138  166.1  0.0042   77.2  0.9334  -11.3
 0.040  0.4569  -41.8  54.787  161.9  0.0056   74.1  0.9184  -15.1
 0.050  0.4768  -50.9  53.746  157.5  0.0070   72.2  0.9074  -18.9
 0.060  0.4693  -58.6  51.677  154.4  0.0082   69.5  0.8756  -21.4
 0.070  0.4704  -66.3  49.768  151.1  0.0094   67.4  0.8456  -24.0
 0.080  0.4801  -73.9  48.039  147.6  0.0106   65.9  0.8176  -26.9
 0.090  0.4977  -81.1  46.508  143.8  0.0118   64.6  0.7917  -30.0
 0.100  0.5226  -87.7  45.196  139.7  0.0130   63.6  0.7682  -33.2
 0.110  0.5214  -92.7  43.421  137.6  0.0136   61.4  0.7405  -34.8
 0.120  0.5241  -97.6  41.708  135.4  0.0143   59.4  0.7134  -36.4
 0.130  0.5307 -102.5  40.065  132.9  0.0149   57.6  0.6869  -38.2
 0.140  0.5410 -107.2  38.501  130.3  0.0156   55.9  0.6612  -40.2
 0.150  0.5548 -111.7  37.027  127.4  0.0163   54.4  0.6363  -42.3
 0.200  0.5739 -126.8  30.588  118.6  0.0177   51.5  0.5377  -47.4
 0.250  0.5887 -137.8  25.826  112.2  0.0198   49.0  0.4634  -50.4
 0.300  0.5956 -145.7  22.167  107.5  0.0209   48.3  0.4081  -52.1
 0.350  0.5974 -151.1  19.673  104.4  0.0224   49.0  0.3724  -52.7
 0.400  0.6044 -156.4  17.251  100.5  0.0240   49.7  0.3367  -53.4
 0.450  0.6051 -160.1  15.605   98.4  0.0253   51.1  0.3150  -53.4
 0.500  0.6082 -163.7  13.986   95.7  0.0266   52.4  0.2933  -53.4
 0.600  0.6097 -169.3  11.787   91.8  0.0297   53.0  0.2650  -53.3
 0.700  0.6150 -173.6  10.142   88.6  0.0320   56.3  0.2462  -52.7
 0.800  0.6163 -177.5   8.917   85.5  0.0356   58.1  0.2341  -52.8
 0.900  0.6145  179.4   7.923   82.9  0.0387   59.3  0.2249  -53.0
 1.000  0.6208  176.5   7.165   80.5  0.0415   60.4  0.2175  -53.3
 1.100  0.6235  173.8   6.524   78.3  0.0451   60.5  0.2141  -53.7
 1.200  0.6224  171.1   5.982   76.0  0.0481   60.9  0.2096  -54.4
 1.300  0.6234  168.8   5.529   73.9  0.0508   61.7  0.2068  -55.4
 1.400  0.6268  166.7   5.152   71.9  0.0550   62.3  0.2037  -56.5
 1.500  0.6316  164.7   4.804   69.9  0.0583   62.0  0.2012  -57.8
 1.600  0.6329  162.7   4.514   67.9  0.0617   62.3  0.2010  -59.2
 1.700  0.6350  160.5   4.255   66.1  0.0652   62.6  0.1994  -61.1
 1.800  0.6389  158.4   4.037   64.1  0.0686   62.1  0.1977  -62.9
 1.900  0.6424  156.7   3.822   62.4  0.0714   62.0  0.1968  -64.7
 2.000  0.6447  154.8   3.630   60.4  0.0753   62.1  0.1964  -66.9
 2.100  0.6475  152.9   3.467   58.6  0.0786   61.8  0.1957  -69.2
 2.200  0.6509  151.1   3.307   56.6  0.0820   61.5  0.1953  -71.5
 2.300  0.6553  149.4   3.168   54.9  0.0856   61.1  0.1957  -74.1
 2.400  0.6602  147.7   3.033   53.0  0.0893   60.7  0.1964  -76.6
 2.500  0.6629  146.1   2.913   51.3  0.0924   60.3  0.1971  -79.3
 2.600  0.6661  144.5   2.796   49.5  0.0955   59.9  0.1982  -81.9
 2.700  0.6698  142.9   2.695   47.9  0.0990   59.4  0.1991  -84.4
 2.800  0.6740  141.3   2.596   46.2  0.1026   59.0  0.2004  -86.9
 2.900  0.6775  139.7   2.507   44.6  0.1059   58.4  0.2013  -89.6
 3.000  0.6814  138.2   2.421   42.8  0.1093   57.9  0.2027  -92.2
 3.100  0.6848  136.7   2.348   41.4  0.1127   57.4  0.2035  -94.8
 3.200  0.6886  135.2   2.276   39.9  0.1160   56.9  0.2048  -97.4
 3.300  0.6928  133.8   2.206   38.2  0.1194   56.5  0.2065 -100.0
 3.400  0.6976  132.3   2.138   36.5  0.1228   56.1  0.2086 -102.5
 3.500  0.7027  130.9   2.072   34.7  0.1262   55.7  0.2111 -105.0
 3.600  0.7059  129.6   2.017   33.3  0.1295   55.0  0.2122 -107.7
 3.700  0.7094  128.2   1.962   31.8  0.1329   54.3  0.2137 -110.5
 3.800  0.7133  126.9   1.910   30.2  0.1363   53.7  0.2158 -113.1
 3.900  0.7176  125.6   1.859   28.6  0.1397   53.1  0.2183 -115.7
 4.000  0.7223  124.3   1.809   26.8  0.1431   52.5  0.2212 -118.3
 4.100  0.7255  123.1   1.764   25.4  0.1464   51.8  0.2234 -121.3
 4.200  0.7291  121.9   1.719   24.0  0.1497   51.1  0.2262 -124.2
 4.300  0.7329  120.7   1.676   22.5  0.1531   50.4  0.2296 -127.1
 4.400  0.7371  119.5   1.634   20.9  0.1564   49.8  0.2335 -129.8
 4.500  0.7416  118.3   1.593   19.2  0.1598   49.2  0.2380 -132.5
 4.600  0.7449  117.3   1.555   18.0  0.1630   48.6  0.2428 -135.3
 4.700  0.7484  116.3   1.518   16.7  0.1663   47.9  0.2482 -138.0
 4.800  0.7522  115.3   1.481   15.4  0.1695   47.3  0.2541 -140.5
 4.900  0.7561  114.4   1.446   14.0  0.1728   46.8  0.2605 -143.0
 5.000  0.7603  113.4   1.411   12.5  0.1761   46.2  0.2673 -145.3
 5.100  0.7627  112.5   1.383   11.4  0.1795   45.5  0.2751 -147.5
 5.200  0.7652  111.7   1.356   10.2  0.1829   44.9  0.2833 -149.5
 5.300  0.7679  110.8   1.329    8.9  0.1864   44.3  0.2918 -151.4
 5.400  0.7708  109.9   1.303    7.6  0.1898   43.7  0.3006 -153.2
 5.500  0.7739  109.1   1.277    6.3  0.1933   43.1  0.3097 -154.9
 5.600  0.7749  108.2   1.252    5.2  0.1968   42.3  0.3173 -156.3
 5.700  0.7762  107.3   1.227    4.1  0.2003   41.5  0.3252 -157.7
 5.800  0.7776  106.4   1.203    2.9  0.2039   40.8  0.3332 -159.0
 5.900  0.7792  105.5   1.180    1.7  0.2075   40.1  0.3414 -160.2
 6.000  0.7810  104.6   1.157    0.4  0.2111   39.4  0.3497 -161.4
!
!  f       NFmin   Gammaopt  rn/50
! GHz       dB    MAG  ANG    -
 0.450      1.47  0.28 -179   0.10
 0.900      1.51  0.31 -177   0.10
 1.900      2.00  0.46 -156   0.11
 2.400      2.24  0.51 -151   0.16
!
! (c) 2017  Infineon Technologies AG, Munich