! Infineon Technologies  Discrete & RF Semiconductors
! BFP183W
! VCE =  2.0 V,  IC =  50 mA
! Common Emitter S-Parameters:                            Jan 2017
# GHz  S  MA  R  50
!  f         S11            S21            S12            S22
! GHz     MAG   ANG      MAG   ANG      MAG   ANG      MAG   ANG
 0.010  0.1885  -56.6  59.044  170.8  0.0021   76.7  0.8155   -8.3
 0.020  0.2894  -86.2  56.779  160.7  0.0048   72.0  0.7831  -16.9
 0.030  0.3509 -103.0  51.983  154.4  0.0062   63.7  0.7238  -22.4
 0.040  0.4329 -114.1  47.935  147.0  0.0077   58.5  0.6723  -28.8
 0.050  0.5258 -121.5  44.836  138.3  0.0093   55.1  0.6305  -36.2
 0.060  0.5473 -127.7  41.432  135.5  0.0099   52.7  0.5871  -38.3
 0.070  0.5748 -133.4  38.148  132.1  0.0105   50.5  0.5447  -40.7
 0.080  0.6075 -138.6  35.017  128.2  0.0112   48.6  0.5034  -43.5
 0.090  0.6445 -143.1  32.084  123.5  0.0118   46.9  0.4635  -46.9
 0.100  0.6851 -147.2  29.408  117.9  0.0125   45.4  0.4255  -50.8
 0.110  0.6933 -149.6  27.685  116.4  0.0128   44.8  0.4033  -51.6
 0.120  0.7026 -151.9  25.983  114.7  0.0130   44.3  0.3812  -52.4
 0.130  0.7130 -154.1  24.307  112.8  0.0133   43.7  0.3592  -53.3
 0.140  0.7245 -156.3  22.661  110.6  0.0135   43.2  0.3374  -54.4
 0.150  0.7370 -158.4  21.054  108.1  0.0138   42.7  0.3156  -55.6
 0.200  0.7546 -165.0  16.193  101.9  0.0143   44.2  0.2569  -56.5
 0.250  0.7670 -169.6  13.114   97.6  0.0164   45.9  0.2210  -56.3
 0.300  0.7697 -172.9  11.012   94.6  0.0177   48.4  0.1972  -55.7
 0.350  0.7718 -175.3   9.670   92.5  0.0191   51.0  0.1841  -55.1
 0.400  0.7751 -177.6   8.344   89.8  0.0206   53.3  0.1710  -54.4
 0.450  0.7748 -179.4   7.510   88.2  0.0223   55.4  0.1646  -54.3
 0.500  0.7752  178.9   6.684   86.2  0.0240   57.2  0.1583  -54.1
 0.600  0.7773  176.1   5.586   83.1  0.0274   59.3  0.1502  -54.6
 0.700  0.7795  173.8   4.787   80.4  0.0306   63.3  0.1463  -55.0
 0.800  0.7806  171.3   4.196   77.6  0.0348   65.2  0.1457  -56.4
 0.900  0.7794  169.1   3.723   75.2  0.0380   64.1  0.1451  -58.5
 1.000  0.7813  167.2   3.364   72.8  0.0420   65.9  0.1449  -60.2
 1.100  0.7840  165.1   3.060   70.6  0.0456   67.0  0.1470  -62.2
 1.200  0.7823  163.1   2.806   68.2  0.0494   66.5  0.1482  -64.4
 1.300  0.7843  161.3   2.591   66.0  0.0530   66.8  0.1496  -66.9
 1.400  0.7874  159.6   2.416   63.9  0.0569   67.2  0.1512  -69.6
 1.500  0.7900  157.9   2.253   61.8  0.0607   66.7  0.1528  -72.3
 1.600  0.7936  155.9   2.119   59.6  0.0646   67.0  0.1552  -74.9
 1.700  0.7931  154.0   1.998   57.5  0.0689   67.0  0.1577  -78.0
 1.800  0.7973  152.3   1.894   55.3  0.0724   66.8  0.1599  -81.0
 1.900  0.8000  150.7   1.794   53.5  0.0764   66.4  0.1626  -84.0
 2.000  0.8011  148.9   1.704   51.2  0.0802   65.6  0.1666  -87.1
 2.100  0.8027  147.1   1.627   49.2  0.0844   65.2  0.1694  -90.4
 2.200  0.8050  145.3   1.552   47.1  0.0886   64.9  0.1728  -93.6
 2.300  0.8073  143.7   1.488   45.2  0.0924   64.5  0.1770  -96.8
 2.400  0.8103  142.1   1.425   43.2  0.0963   64.2  0.1817  -99.9
 2.500  0.8116  140.5   1.368   41.4  0.1001   63.6  0.1861 -103.1
 2.600  0.8134  139.0   1.312   39.5  0.1040   63.0  0.1911 -106.1
 2.700  0.8159  137.4   1.264   37.8  0.1078   62.3  0.1962 -109.0
 2.800  0.8189  135.9   1.217   35.9  0.1117   61.7  0.2017 -111.7
 2.900  0.8201  134.4   1.175   34.2  0.1158   61.0  0.2064 -114.6
 3.000  0.8218  132.9   1.135   32.3  0.1199   60.3  0.2116 -117.4
 3.100  0.8236  131.5   1.100   30.8  0.1237   59.6  0.2161 -120.2
 3.200  0.8259  130.0   1.066   29.3  0.1276   59.0  0.2210 -123.0
 3.300  0.8287  128.6   1.033   27.6  0.1314   58.4  0.2265 -125.6
 3.400  0.8320  127.2   1.001   25.9  0.1353   57.8  0.2324 -128.1
 3.500  0.8358  125.8   0.970   24.0  0.1392   57.3  0.2387 -130.4
 3.600  0.8370  124.4   0.944   22.6  0.1430   56.5  0.2436 -133.2
 3.700  0.8386  123.1   0.918   21.2  0.1469   55.7  0.2490 -135.8
 3.800  0.8407  121.8   0.892   19.7  0.1508   54.9  0.2549 -138.4
 3.900  0.8432  120.4   0.868   18.1  0.1547   54.2  0.2613 -140.8
 4.000  0.8462  119.1   0.844   16.4  0.1587   53.5  0.2681 -143.1
 4.100  0.8466  117.9   0.822   15.1  0.1625   52.6  0.2740 -145.9
 4.200  0.8474  116.7   0.801   13.8  0.1663   51.8  0.2805 -148.5
 4.300  0.8485  115.4   0.780   12.4  0.1701   51.0  0.2876 -151.0
 4.400  0.8501  114.2   0.760   11.0  0.1740   50.2  0.2952 -153.4
 4.500  0.8520  113.0   0.740    9.4  0.1779   49.5  0.3033 -155.7
 4.600  0.8533  112.1   0.722    8.4  0.1815   48.7  0.3112 -158.0
 4.700  0.8549  111.1   0.704    7.4  0.1852   47.9  0.3197 -160.2
 4.800  0.8566  110.2   0.686    6.3  0.1888   47.2  0.3285 -162.3
 4.900  0.8587  109.2   0.669    5.1  0.1926   46.5  0.3378 -164.3
 5.000  0.8609  108.3   0.652    3.9  0.1963   45.8  0.3475 -166.2
 5.100  0.8618  107.4   0.639    3.1  0.2001   45.0  0.3569 -167.9
 5.200  0.8628  106.5   0.627    2.2  0.2039   44.2  0.3667 -169.6
 5.300  0.8641  105.7   0.614    1.3  0.2077   43.4  0.3767 -171.1
 5.400  0.8656  104.8   0.602    0.3  0.2116   42.7  0.3870 -172.6
 5.500  0.8673  103.9   0.590   -0.7  0.2155   42.0  0.3975 -174.0
 5.600  0.8663  103.0   0.579   -1.4  0.2192   41.1  0.4053 -175.3
 5.700  0.8656  102.1   0.567   -2.1  0.2229   40.2  0.4133 -176.5
 5.800  0.8650  101.3   0.556   -2.8  0.2266   39.3  0.4215 -177.7
 5.900  0.8647  100.4   0.545   -3.6  0.2304   38.4  0.4299 -178.8
 6.000  0.8645   99.5   0.534   -4.4  0.2343   37.6  0.4384 -179.9
!
!  f       NFmin   Gammaopt  rn/50
! GHz       dB    MAG  ANG    -
!
! noise parameter not available yet for this operation point!
!
! (c) 2017  Infineon Technologies AG, Munich