! Infineon Technologies  Discrete & RF Semiconductors
! BFP183W
! VCE =  3.0 V,  IC =  52 mA
! Common Emitter S-Parameters:                            Jan 2017
# GHz  S  MA  R  50
!  f         S11            S21            S12            S22
! GHz     MAG   ANG      MAG   ANG      MAG   ANG      MAG   ANG
 0.010  0.1902  -42.8  63.907  172.4  0.0018   85.7  0.8767   -6.3
 0.020  0.2584  -72.3  62.303  163.7  0.0031   86.0  0.8492  -13.3
 0.030  0.3062  -90.2  58.116  157.8  0.0046   70.6  0.8012  -18.3
 0.040  0.3751 -102.5  54.638  151.0  0.0063   63.1  0.7599  -23.8
 0.050  0.4556 -110.7  52.013  143.5  0.0080   58.8  0.7264  -29.9
 0.060  0.4763 -117.9  48.457  140.5  0.0086   56.4  0.6827  -32.0
 0.070  0.5039 -124.3  45.057  137.0  0.0091   54.2  0.6401  -34.4
 0.080  0.5371 -130.1  41.852  132.9  0.0097   52.4  0.5987  -37.1
 0.090  0.5751 -135.1  38.891  128.2  0.0103   50.7  0.5588  -40.2
 0.100  0.6170 -139.5  36.232  122.8  0.0109   49.2  0.5209  -43.8
 0.110  0.6267 -142.3  34.232  121.1  0.0114   48.3  0.4964  -44.6
 0.120  0.6380 -145.1  32.265  119.3  0.0119   47.5  0.4719  -45.4
 0.130  0.6506 -147.7  30.336  117.2  0.0124   46.7  0.4476  -46.4
 0.140  0.6646 -150.3  28.453  114.8  0.0129   46.0  0.4234  -47.4
 0.150  0.6798 -152.7  26.626  112.1  0.0134   45.4  0.3994  -48.6
 0.200  0.7036 -160.5  20.714  105.2  0.0140   49.7  0.3297  -49.6
 0.250  0.7169 -166.0  16.878  100.5  0.0161   49.7  0.2854  -49.2
 0.300  0.7231 -169.7  14.196   97.2  0.0170   50.4  0.2573  -48.3
 0.350  0.7260 -172.5  12.487   95.0  0.0183   53.0  0.2409  -47.5
 0.400  0.7306 -175.2  10.802   92.1  0.0196   55.2  0.2246  -46.6
 0.450  0.7312 -177.1   9.729   90.5  0.0211   57.0  0.2164  -46.1
 0.500  0.7326 -178.9   8.666   88.4  0.0227   58.5  0.2083  -45.6
 0.600  0.7344  177.9   7.250   85.2  0.0259   60.0  0.1974  -45.5
 0.700  0.7366  175.3   6.222   82.5  0.0295   63.9  0.1919  -45.4
 0.800  0.7396  172.7   5.455   79.7  0.0331   65.3  0.1899  -46.4
 0.900  0.7384  170.4   4.838   77.4  0.0362   66.2  0.1875  -47.8
 1.000  0.7408  168.3   4.374   75.1  0.0395   66.8  0.1861  -49.2
 1.100  0.7430  166.4   3.979   72.9  0.0434   67.8  0.1869  -50.7
 1.200  0.7435  164.2   3.649   70.7  0.0472   67.5  0.1871  -52.5
 1.300  0.7447  162.4   3.367   68.6  0.0501   67.8  0.1873  -54.6
 1.400  0.7471  160.5   3.138   66.5  0.0539   68.3  0.1871  -56.8
 1.500  0.7502  158.8   2.926   64.5  0.0584   68.0  0.1876  -59.1
 1.600  0.7527  156.9   2.751   62.4  0.0619   67.8  0.1895  -61.3
 1.700  0.7539  155.1   2.593   60.4  0.0659   67.8  0.1897  -64.2
 1.800  0.7581  153.2   2.460   58.3  0.0693   67.8  0.1905  -66.7
 1.900  0.7603  151.6   2.330   56.5  0.0729   67.2  0.1918  -69.4
 2.000  0.7609  149.9   2.211   54.4  0.0767   66.9  0.1940  -72.3
 2.100  0.7633  148.1   2.111   52.5  0.0805   66.5  0.1953  -75.3
 2.200  0.7664  146.3   2.014   50.5  0.0844   66.1  0.1971  -78.3
 2.300  0.7692  144.7   1.930   48.7  0.0882   65.7  0.1992  -81.4
 2.400  0.7725  143.1   1.848   46.7  0.0921   65.3  0.2019  -84.5
 2.500  0.7745  141.6   1.775   44.9  0.0957   64.7  0.2045  -87.5
 2.600  0.7770  140.1   1.704   43.0  0.0993   64.2  0.2076  -90.5
 2.700  0.7797  138.5   1.642   41.3  0.1031   63.6  0.2109  -93.4
 2.800  0.7829  137.0   1.581   39.5  0.1069   63.1  0.2147  -96.3
 2.900  0.7847  135.5   1.526   37.8  0.1106   62.3  0.2177  -99.3
 3.000  0.7870  134.0   1.472   36.0  0.1144   61.6  0.2212 -102.3
 3.100  0.7892  132.6   1.427   34.5  0.1182   61.0  0.2240 -105.2
 3.200  0.7918  131.1   1.384   33.0  0.1220   60.4  0.2273 -108.0
 3.300  0.7950  129.7   1.341   31.3  0.1258   59.8  0.2312 -110.7
 3.400  0.7986  128.3   1.300   29.6  0.1297   59.3  0.2355 -113.4
 3.500  0.8027  126.9   1.260   27.7  0.1335   58.8  0.2404 -115.9
 3.600  0.8044  125.5   1.226   26.3  0.1373   58.0  0.2435 -118.8
 3.700  0.8066  124.2   1.192   24.8  0.1411   57.2  0.2472 -121.7
 3.800  0.8092  122.9   1.159   23.3  0.1449   56.5  0.2515 -124.5
 3.900  0.8123  121.5   1.127   21.6  0.1487   55.8  0.2563 -127.1
 4.000  0.8158  120.2   1.096   19.9  0.1526   55.1  0.2617 -129.7
 4.100  0.8171  119.0   1.068   18.5  0.1562   54.2  0.2660 -132.7
 4.200  0.8187  117.8   1.042   17.1  0.1598   53.4  0.2711 -135.5
 4.300  0.8207  116.6   1.015   15.6  0.1635   52.6  0.2768 -138.3
 4.400  0.8231  115.4   0.990   14.1  0.1672   51.8  0.2830 -140.9
 4.500  0.8258  114.2   0.965   12.4  0.1709   51.1  0.2899 -143.4
 4.600  0.8277  113.2   0.941   11.3  0.1746   50.3  0.2966 -146.0
 4.700  0.8299  112.3   0.918   10.2  0.1783   49.6  0.3039 -148.6
 4.800  0.8323  111.4   0.895    9.0  0.1821   48.9  0.3117 -151.0
 4.900  0.8349  110.4   0.872    7.7  0.1859   48.2  0.3201 -153.2
 5.000  0.8377  109.5   0.850    6.4  0.1897   47.6  0.3289 -155.4
 5.100  0.8392  108.6   0.833    5.4  0.1934   46.8  0.3379 -157.4
 5.200  0.8408  107.8   0.816    4.4  0.1971   46.1  0.3473 -159.3
 5.300  0.8427  106.9   0.800    3.3  0.2009   45.4  0.3571 -161.1
 5.400  0.8447  106.1   0.784    2.2  0.2047   44.7  0.3672 -162.8
 5.500  0.8469  105.2   0.768    1.0  0.2085   44.0  0.3776 -164.4
 5.600  0.8469  104.3   0.753    0.1  0.2123   43.1  0.3856 -165.9
 5.700  0.8471  103.4   0.738   -0.8  0.2161   42.2  0.3938 -167.3
 5.800  0.8474  102.6   0.723   -1.8  0.2199   41.4  0.4022 -168.6
 5.900  0.8480  101.7   0.708   -2.8  0.2238   40.6  0.4109 -169.9
 6.000  0.8488  100.8   0.694   -3.9  0.2278   39.8  0.4197 -171.1
!
!  f       NFmin   Gammaopt  rn/50
! GHz       dB    MAG  ANG    -
!
! noise parameter not available yet for this operation point!
!
! (c) 2017  Infineon Technologies AG, Munich