! Infineon Technologies  Discrete & RF Semiconductors
! BFP183W
! VCE =  11. V,  IC =  2.0 mA
! Common Emitter S-Parameters:                            Jan 2017
# GHz  S  MA  R  50
!  f         S11            S21            S12            S22
! GHz     MAG   ANG      MAG   ANG      MAG   ANG      MAG   ANG
 0.010  0.9594   -1.0   7.044  179.9  0.0015   84.2  1.0000   -0.7
 0.020  0.9437   -4.9   7.019  177.7  0.0040   91.3  0.9857   -1.4
 0.030  0.9383   -6.2   6.991  176.6  0.0062   86.1  0.9889   -2.1
 0.040  0.9334   -7.4   6.965  175.6  0.0085   83.6  0.9922   -2.8
 0.050  0.9289   -8.7   6.941  174.5  0.0107   82.2  0.9956   -3.5
 0.060  0.9292  -10.5   6.923  173.3  0.0128   81.5  0.9935   -4.2
 0.070  0.9305  -12.3   6.909  172.2  0.0149   80.9  0.9916   -4.9
 0.080  0.9327  -14.1   6.896  171.0  0.0170   80.6  0.9898   -5.5
 0.090  0.9358  -15.9   6.887  169.9  0.0191   80.2  0.9881   -6.2
 0.100  0.9398  -17.7   6.881  168.7  0.0212   80.0  0.9866   -6.9
 0.110  0.9345  -19.6   6.852  167.6  0.0232   78.5  0.9839   -7.6
 0.120  0.9302  -21.5   6.826  166.4  0.0251   77.2  0.9813   -8.2
 0.130  0.9269  -23.4   6.803  165.3  0.0271   76.1  0.9789   -8.9
 0.140  0.9247  -25.4   6.782  164.2  0.0291   75.1  0.9766   -9.6
 0.150  0.9236  -27.3   6.764  163.0  0.0311   74.3  0.9745  -10.3
 0.200  0.9202  -35.6   6.615  157.1  0.0399   70.7  0.9587  -13.4
 0.250  0.9078  -44.1   6.477  151.6  0.0485   64.9  0.9396  -16.4
 0.300  0.8884  -52.1   6.261  146.5  0.0562   61.1  0.9157  -19.1
 0.350  0.8696  -59.3   6.035  142.0  0.0624   56.6  0.8925  -21.5
 0.400  0.8649  -66.6   5.850  137.1  0.0690   53.0  0.8709  -24.0
 0.450  0.8438  -73.1   5.600  133.2  0.0738   49.3  0.8471  -25.8
 0.500  0.8342  -79.9   5.378  128.9  0.0788   46.0  0.8242  -27.8
 0.600  0.8097  -91.7   4.952  121.4  0.0861   40.3  0.7818  -30.9
 0.700  0.7877 -102.3   4.537  114.7  0.0911   35.6  0.7445  -33.5
 0.800  0.7699 -111.4   4.189  108.9  0.0953   31.9  0.7137  -35.6
 0.900  0.7541 -119.8   3.858  103.6  0.0979   28.0  0.6872  -37.5
 1.000  0.7454 -127.0   3.579   99.0  0.0995   25.0  0.6652  -39.3
 1.100  0.7372 -133.7   3.326   94.8  0.1005   22.7  0.6481  -40.7
 1.200  0.7273 -139.9   3.099   90.6  0.1008   20.1  0.6322  -42.3
 1.300  0.7222 -145.4   2.900   86.8  0.1011   18.4  0.6192  -43.7
 1.400  0.7202 -150.4   2.729   83.3  0.1004   16.8  0.6074  -45.3
 1.500  0.7220 -155.3   2.576   80.1  0.1000   15.7  0.5979  -46.8
 1.600  0.7182 -159.6   2.431   76.8  0.0991   14.4  0.5915  -48.2
 1.700  0.7190 -163.9   2.311   74.0  0.0979   13.5  0.5826  -49.9
 1.800  0.7204 -167.9   2.210   71.0  0.0968   12.7  0.5757  -51.4
 1.900  0.7228 -171.6   2.103   68.3  0.0951   12.0  0.5701  -53.1
 2.000  0.7243 -175.4   2.012   65.3  0.0941   11.8  0.5665  -54.5
 2.100  0.7245 -178.8   1.928   62.7  0.0927   11.8  0.5626  -56.3
 2.200  0.7273  177.8   1.848   59.8  0.0913   11.8  0.5592  -58.1
 2.300  0.7296  174.7   1.774   57.4  0.0897   11.9  0.5569  -60.0
 2.400  0.7340  171.6   1.704   54.7  0.0882   12.1  0.5553  -62.0
 2.500  0.7355  168.8   1.638   52.4  0.0867   12.8  0.5532  -63.9
 2.600  0.7387  166.1   1.575   49.9  0.0852   13.6  0.5517  -65.8
 2.700  0.7409  163.4   1.522   47.6  0.0837   14.6  0.5513  -67.8
 2.800  0.7447  160.7   1.471   45.2  0.0823   15.7  0.5515  -69.8
 2.900  0.7467  158.3   1.423   42.9  0.0815   17.0  0.5504  -71.7
 3.000  0.7500  155.9   1.378   40.5  0.0807   18.3  0.5500  -73.7
 3.100  0.7512  153.6   1.335   38.7  0.0803   20.3  0.5492  -75.8
 3.200  0.7536  151.4   1.292   36.8  0.0799   22.2  0.5492  -78.0
 3.300  0.7572  149.1   1.252   34.8  0.0797   24.2  0.5500  -80.1
 3.400  0.7619  146.9   1.213   32.6  0.0795   26.2  0.5515  -82.2
 3.500  0.7678  144.7   1.176   30.3  0.0795   28.2  0.5537  -84.3
 3.600  0.7700  142.7   1.143   28.6  0.0809   30.2  0.5529  -86.6
 3.700  0.7731  140.8   1.111   26.8  0.0824   32.0  0.5529  -88.9
 3.800  0.7771  138.9   1.080   24.9  0.0839   33.9  0.5538  -91.2
 3.900  0.7819  137.0   1.050   22.8  0.0856   35.6  0.5556  -93.4
 4.000  0.7876  135.1   1.022   20.7  0.0873   37.3  0.5583  -95.7
 4.100  0.7890  133.4   0.994   19.1  0.0901   38.8  0.5576  -98.2
 4.200  0.7912  131.7   0.968   17.5  0.0929   40.2  0.5580 -100.8
 4.300  0.7940  130.0   0.942   15.7  0.0958   41.6  0.5595 -103.3
 4.400  0.7975  128.4   0.917   13.9  0.0988   42.8  0.5621 -105.8
 4.500  0.8017  126.7   0.893   11.9  0.1018   44.0  0.5657 -108.3
 4.600  0.8039  125.4   0.868   10.6  0.1058   44.8  0.5670 -110.9
 4.700  0.8066  124.0   0.844    9.2  0.1099   45.6  0.5694 -113.6
 4.800  0.8097  122.7   0.821    7.7  0.1139   46.3  0.5730 -116.1
 4.900  0.8132  121.4   0.797    6.2  0.1180   47.0  0.5778 -118.7
 5.000  0.8171  120.1   0.775    4.5  0.1221   47.6  0.5837 -121.2
 5.100  0.8189  119.0   0.757    3.4  0.1268   47.7  0.5886 -123.7
 5.200  0.8211  117.8   0.739    2.3  0.1315   47.8  0.5946 -126.1
 5.300  0.8236  116.7   0.721    1.1  0.1361   47.9  0.6017 -128.5
 5.400  0.8264  115.6   0.704   -0.2  0.1408   48.0  0.6097 -130.8
 5.500  0.8295  114.5   0.687   -1.5  0.1455   48.1  0.6188 -133.1
 5.600  0.8297  113.4   0.670   -2.4  0.1505   47.6  0.6243 -135.2
 5.700  0.8301  112.3   0.654   -3.4  0.1556   47.2  0.6306 -137.3
 5.800  0.8309  111.1   0.638   -4.3  0.1606   46.8  0.6377 -139.3
 5.900  0.8321  110.0   0.622   -5.4  0.1656   46.5  0.6456 -141.3
 6.000  0.8335  108.9   0.606   -6.5  0.1707   46.1  0.6542 -143.2
!
!  f       NFmin   Gammaopt  rn/50
! GHz       dB    MAG  ANG    -
 0.450      0.76  0.48   45   0.22
 0.900      0.95  0.41   86   0.19
 1.900      1.77  0.52  156   0.09
 2.400      2.08  0.55  173   0.09
!
! (c) 2017  Infineon Technologies AG, Munich