! Infineon Technologies  Discrete & RF Semiconductors
! BFP183W
! VCE =  12. V,  IC =  9.0 mA
! Common Emitter S-Parameters:                            Jan 2017
# GHz  S  MA  R  50
!  f         S11            S21            S12            S22
! GHz     MAG   ANG      MAG   ANG      MAG   ANG      MAG   ANG
 0.010  0.7863   -3.3  26.483  177.9  0.0016   73.8  0.9869   -1.9
 0.020  0.7718   -9.5  26.165  174.8  0.0035   85.6  0.9717   -3.7
 0.030  0.7653  -13.1  25.922  172.6  0.0052   80.1  0.9694   -5.6
 0.040  0.7618  -16.7  25.716  170.4  0.0070   77.4  0.9682   -7.4
 0.050  0.7615  -20.4  25.549  168.2  0.0087   75.7  0.9680   -9.3
 0.060  0.7537  -24.2  25.211  166.1  0.0105   73.8  0.9570  -11.0
 0.070  0.7494  -28.2  24.909  163.9  0.0124   72.4  0.9469  -12.6
 0.080  0.7486  -32.1  24.644  161.6  0.0143   71.4  0.9376  -14.4
 0.090  0.7513  -36.0  24.418  159.3  0.0161   70.6  0.9292  -16.1
 0.100  0.7575  -39.9  24.232  157.0  0.0180   70.0  0.9216  -17.9
 0.110  0.7469  -43.4  23.826  155.1  0.0194   67.9  0.9078  -19.3
 0.120  0.7393  -47.0  23.446  153.2  0.0207   66.0  0.8946  -20.7
 0.130  0.7345  -50.6  23.093  151.2  0.0221   64.4  0.8820  -22.2
 0.140  0.7328  -54.3  22.769  149.2  0.0236   63.0  0.8700  -23.7
 0.150  0.7341  -58.0  22.474  147.1  0.0250   61.7  0.8586  -25.3
 0.200  0.7173  -73.2  20.530  138.3  0.0297   56.5  0.7913  -31.1
 0.250  0.6985  -86.8  18.680  130.8  0.0344   51.1  0.7260  -35.7
 0.300  0.6800  -98.1  16.917  124.8  0.0376   47.1  0.6661  -39.2
 0.350  0.6626 -106.7  15.453  120.4  0.0397   44.7  0.6183  -41.4
 0.400  0.6607 -115.5  14.100  115.1  0.0419   42.6  0.5715  -43.9
 0.450  0.6478 -122.0  12.968  111.9  0.0434   40.6  0.5376  -45.1
 0.500  0.6436 -128.7  11.884  108.1  0.0450   38.8  0.5039  -46.5
 0.600  0.6361 -138.8  10.239  102.3  0.0470   37.7  0.4543  -48.2
 0.700  0.6308 -147.0   8.937   97.7  0.0482   37.3  0.4182  -49.0
 0.800  0.6283 -153.7   7.939   93.5  0.0504   37.5  0.3922  -49.8
 0.900  0.6241 -159.4   7.106   89.9  0.0520   37.7  0.3720  -50.5
 1.000  0.6246 -164.2   6.456   86.8  0.0533   37.9  0.3563  -51.1
 1.100  0.6252 -168.5   5.899   83.9  0.0552   38.9  0.3448  -51.6
 1.200  0.6256 -172.5   5.426   81.0  0.0567   39.0  0.3349  -52.2
 1.300  0.6238 -176.1   5.022   78.4  0.0583   40.3  0.3274  -53.1
 1.400  0.6276 -179.3   4.687   76.0  0.0605   41.4  0.3203  -54.1
 1.500  0.6316  177.7   4.381   73.7  0.0624   41.6  0.3145  -55.1
 1.600  0.6334  174.7   4.118   71.3  0.0640   42.4  0.3113  -56.2
 1.700  0.6332  171.8   3.889   69.2  0.0661   43.4  0.3069  -57.7
 1.800  0.6391  169.3   3.694   66.9  0.0683   44.3  0.3028  -59.1
 1.900  0.6423  166.9   3.502   64.9  0.0701   45.0  0.3000  -60.5
 2.000  0.6441  164.3   3.329   62.7  0.0727   45.3  0.2981  -62.2
 2.100  0.6476  161.9   3.181   60.7  0.0749   45.9  0.2957  -64.0
 2.200  0.6522  159.6   3.038   58.5  0.0771   46.5  0.2935  -65.8
 2.300  0.6557  157.4   2.913   56.5  0.0795   47.0  0.2926  -67.8
 2.400  0.6601  155.3   2.791   54.4  0.0820   47.4  0.2921  -69.8
 2.500  0.6630  153.4   2.681   52.6  0.0844   47.8  0.2914  -71.9
 2.600  0.6666  151.5   2.574   50.7  0.0868   48.2  0.2910  -74.0
 2.700  0.6712  149.5   2.482   48.9  0.0894   48.5  0.2910  -76.1
 2.800  0.6765  147.6   2.392   47.0  0.0920   48.7  0.2913  -78.1
 2.900  0.6783  145.7   2.311   45.2  0.0948   48.9  0.2907  -80.3
 3.000  0.6808  143.9   2.233   43.2  0.0977   49.0  0.2906  -82.5
 3.100  0.6842  142.2   2.165   41.7  0.1005   49.1  0.2905  -84.7
 3.200  0.6882  140.5   2.099   40.0  0.1032   49.2  0.2909  -87.0
 3.300  0.6928  138.8   2.035   38.3  0.1060   49.3  0.2917  -89.2
 3.400  0.6979  137.1   1.972   36.5  0.1087   49.4  0.2929  -91.4
 3.500  0.7037  135.5   1.912   34.5  0.1115   49.5  0.2946  -93.6
 3.600  0.7069  134.0   1.860   33.0  0.1147   49.3  0.2946  -96.0
 3.700  0.7106  132.4   1.810   31.4  0.1178   49.1  0.2952  -98.4
 3.800  0.7148  130.9   1.761   29.8  0.1210   48.9  0.2963 -100.9
 3.900  0.7195  129.5   1.714   28.0  0.1241   48.7  0.2979 -103.2
 4.000  0.7246  128.0   1.668   26.2  0.1273   48.5  0.3000 -105.6
 4.100  0.7275  126.6   1.626   24.7  0.1305   48.2  0.3009 -108.3
 4.200  0.7308  125.3   1.585   23.2  0.1337   47.9  0.3024 -111.0
 4.300  0.7345  123.9   1.545   21.6  0.1370   47.6  0.3045 -113.6
 4.400  0.7386  122.6   1.506   19.9  0.1402   47.4  0.3074 -116.2
 4.500  0.7431  121.3   1.469   18.1  0.1434   47.1  0.3108 -118.8
 4.600  0.7465  120.2   1.433   16.8  0.1467   46.7  0.3143 -121.5
 4.700  0.7502  119.1   1.397   15.5  0.1499   46.4  0.3184 -124.2
 4.800  0.7541  118.1   1.363   14.1  0.1532   46.0  0.3233 -126.8
 4.900  0.7583  117.0   1.329   12.6  0.1565   45.7  0.3287 -129.3
 5.000  0.7628  116.0   1.296   11.0  0.1598   45.4  0.3348 -131.7
 5.100  0.7652  115.0   1.269    9.8  0.1634   44.9  0.3418 -134.1
 5.200  0.7679  114.1   1.243    8.6  0.1670   44.5  0.3493 -136.4
 5.300  0.7707  113.1   1.218    7.3  0.1706   44.0  0.3574 -138.7
 5.400  0.7738  112.1   1.193    5.9  0.1743   43.6  0.3660 -140.8
 5.500  0.7771  111.2   1.169    4.5  0.1779   43.2  0.3751 -142.8
 5.600  0.7781  110.3   1.145    3.4  0.1816   42.6  0.3825 -144.6
 5.700  0.7793  109.3   1.122    2.2  0.1853   41.9  0.3902 -146.3
 5.800  0.7807  108.4   1.099    1.1  0.1891   41.3  0.3983 -147.9
 5.900  0.7823  107.4   1.076   -0.2  0.1928   40.8  0.4066 -149.5
 6.000  0.7841  106.5   1.054   -1.5  0.1966   40.2  0.4153 -151.0
!
!  f       NFmin   Gammaopt  rn/50
! GHz       dB    MAG  ANG    -
 0.450      0.90  0.11   89   0.11
 0.900      0.95  0.18  132   0.10
 1.900      1.46  0.37  179   0.07
 2.400      1.71  0.44 -170   0.09
!
! (c) 2017  Infineon Technologies AG, Munich