! Infineon Technologies  Discrete & RF Semiconductors
! BFP183W
! VCE =  9.0 V,  IC =  37 mA
! Common Emitter S-Parameters:                            Jan 2017
# GHz  S  MA  R  50
!  f         S11            S21            S12            S22
! GHz     MAG   ANG      MAG   ANG      MAG   ANG      MAG   ANG
 0.010  0.4264  -10.4  60.971  174.9  0.0015   82.4  0.9644   -3.6
 0.020  0.4293  -24.7  60.106  169.7  0.0029   96.9  0.9564   -8.0
 0.030  0.4248  -35.1  58.278  165.5  0.0043   80.8  0.9326  -11.7
 0.040  0.4344  -45.4  56.782  161.1  0.0058   72.8  0.9130  -15.6
 0.050  0.4570  -54.9  55.645  156.4  0.0074   68.2  0.8978  -19.7
 0.060  0.4515  -62.9  53.368  153.3  0.0083   66.2  0.8647  -22.2
 0.070  0.4549  -71.0  51.259  150.0  0.0093   64.6  0.8334  -24.8
 0.080  0.4671  -78.8  49.339  146.4  0.0103   63.4  0.8040  -27.7
 0.090  0.4874  -86.0  47.631  142.5  0.0112   62.3  0.7768  -30.8
 0.100  0.5148  -92.6  46.159  138.3  0.0122   61.4  0.7520  -34.1
 0.110  0.5152  -97.5  44.264  136.2  0.0128   59.8  0.7236  -35.6
 0.120  0.5195 -102.4  42.431  134.0  0.0135   58.3  0.6958  -37.2
 0.130  0.5274 -107.2  40.669  131.6  0.0141   57.0  0.6686  -39.0
 0.140  0.5389 -111.8  38.987  128.9  0.0147   55.8  0.6420  -40.8
 0.150  0.5537 -116.2  37.397  126.0  0.0154   54.7  0.6162  -42.9
 0.200  0.5739 -130.7  30.697  117.3  0.0167   50.7  0.5186  -47.6
 0.250  0.5896 -141.0  25.802  110.9  0.0189   47.8  0.4469  -50.2
 0.300  0.5968 -148.7  22.076  106.4  0.0202   49.0  0.3932  -51.6
 0.350  0.5999 -153.7  19.570  103.5  0.0215   49.7  0.3594  -51.9
 0.400  0.6075 -158.6  17.129   99.7  0.0229   50.4  0.3256  -52.3
 0.450  0.6076 -162.1  15.482   97.6  0.0243   51.8  0.3055  -52.2
 0.500  0.6100 -165.5  13.860   95.0  0.0258   53.0  0.2854  -52.1
 0.600  0.6145 -170.7  11.680   91.2  0.0290   55.2  0.2595  -51.9
 0.700  0.6182 -174.8  10.044   88.1  0.0312   57.5  0.2418  -51.2
 0.800  0.6210 -178.6   8.830   85.0  0.0348   59.5  0.2315  -51.1
 0.900  0.6194  178.4   7.842   82.5  0.0382   59.9  0.2233  -51.5
 1.000  0.6218  175.4   7.093   80.1  0.0412   61.8  0.2162  -51.7
 1.100  0.6248  172.9   6.460   78.0  0.0446   62.7  0.2132  -52.2
 1.200  0.6262  170.4   5.921   75.7  0.0473   62.3  0.2094  -53.0
 1.300  0.6272  168.1   5.468   73.6  0.0506   62.7  0.2070  -54.1
 1.400  0.6294  166.0   5.096   71.6  0.0546   62.6  0.2042  -55.3
 1.500  0.6338  164.0   4.752   69.6  0.0579   63.1  0.2022  -56.7
 1.600  0.6368  162.0   4.465   67.6  0.0613   63.1  0.2021  -58.1
 1.700  0.6376  159.8   4.211   65.7  0.0646   63.2  0.2001  -59.9
 1.800  0.6419  158.0   3.991   63.8  0.0682   63.2  0.1993  -61.7
 1.900  0.6463  156.3   3.780   62.1  0.0713   63.3  0.1983  -63.6
 2.000  0.6483  154.3   3.589   60.0  0.0754   62.9  0.1982  -65.9
 2.100  0.6507  152.5   3.428   58.2  0.0788   62.5  0.1977  -68.2
 2.200  0.6537  150.7   3.270   56.3  0.0823   62.2  0.1975  -70.5
 2.300  0.6581  148.9   3.134   54.6  0.0859   61.8  0.1976  -73.1
 2.400  0.6632  147.2   3.001   52.7  0.0895   61.4  0.1981  -75.7
 2.500  0.6661  145.6   2.882   51.1  0.0926   60.9  0.1987  -78.3
 2.600  0.6695  144.1   2.766   49.3  0.0958   60.5  0.1998  -80.9
 2.700  0.6731  142.5   2.665   47.7  0.0990   60.1  0.2009  -83.5
 2.800  0.6772  140.9   2.567   45.9  0.1023   59.8  0.2023  -86.0
 2.900  0.6803  139.4   2.479   44.3  0.1056   59.2  0.2032  -88.8
 3.000  0.6838  137.9   2.394   42.5  0.1090   58.6  0.2046  -91.5
 3.100  0.6874  136.4   2.322   41.1  0.1125   58.1  0.2055  -94.1
 3.200  0.6914  135.0   2.251   39.6  0.1160   57.6  0.2068  -96.7
 3.300  0.6958  133.5   2.182   37.9  0.1195   57.1  0.2086  -99.3
 3.400  0.7007  132.1   2.114   36.2  0.1231   56.6  0.2108 -101.8
 3.500  0.7060  130.7   2.049   34.4  0.1266   56.2  0.2133 -104.2
 3.600  0.7092  129.4   1.994   33.0  0.1300   55.5  0.2143 -107.0
 3.700  0.7127  128.0   1.941   31.5  0.1333   54.8  0.2158 -109.7
 3.800  0.7167  126.7   1.889   29.9  0.1367   54.1  0.2178 -112.4
 3.900  0.7210  125.4   1.838   28.3  0.1402   53.5  0.2202 -115.0
 4.000  0.7257  124.1   1.789   26.5  0.1436   52.9  0.2231 -117.6
 4.100  0.7288  122.9   1.744   25.1  0.1469   52.2  0.2253 -120.6
 4.200  0.7323  121.6   1.700   23.7  0.1502   51.4  0.2280 -123.6
 4.300  0.7360  120.4   1.658   22.2  0.1535   50.8  0.2314 -126.4
 4.400  0.7402  119.2   1.616   20.6  0.1568   50.1  0.2353 -129.2
 4.500  0.7446  118.0   1.576   18.9  0.1602   49.5  0.2398 -131.9
 4.600  0.7478  117.0   1.538   17.7  0.1635   48.9  0.2447 -134.7
 4.700  0.7511  116.1   1.501   16.4  0.1668   48.2  0.2501 -137.4
 4.800  0.7547  115.2   1.464   15.1  0.1702   47.6  0.2560 -139.9
 4.900  0.7584  114.2   1.429   13.7  0.1735   47.1  0.2624 -142.4
 5.000  0.7624  113.3   1.394   12.2  0.1769   46.5  0.2693 -144.7
 5.100  0.7647  112.4   1.367   11.1  0.1803   45.8  0.2772 -146.9
 5.200  0.7672  111.6   1.340    9.9  0.1837   45.1  0.2854 -149.0
 5.300  0.7699  110.7   1.314    8.6  0.1871   44.4  0.2940 -150.9
 5.400  0.7728  109.8   1.288    7.3  0.1906   43.8  0.3029 -152.8
 5.500  0.7758  109.0   1.263    6.0  0.1941   43.2  0.3121 -154.5
 5.600  0.7769  108.1   1.238    4.9  0.1975   42.5  0.3197 -156.0
 5.700  0.7781  107.2   1.213    3.8  0.2009   41.8  0.3274 -157.4
 5.800  0.7796  106.3   1.189    2.6  0.2043   41.1  0.3354 -158.7
 5.900  0.7813  105.4   1.166    1.4  0.2078   40.4  0.3435 -160.0
 6.000  0.7831  104.5   1.143    0.1  0.2113   39.8  0.3518 -161.2
!
!  f       NFmin   Gammaopt  rn/50
! GHz       dB    MAG  ANG    -
!
! noise parameter not available yet for this operation point!
!
! (c) 2017  Infineon Technologies AG, Munich