! Infineon Technologies  Discrete & RF Semiconductors
! BFP183W
! VCE =  4.0 V,  IC =  50 mA
! Common Emitter S-Parameters:                            Jan 2017
# GHz  S  MA  R  50
!  f         S11            S21            S12            S22
! GHz     MAG   ANG      MAG   ANG      MAG   ANG      MAG   ANG
 0.010  0.2258  -28.9  66.908  173.6  0.0014   84.2  0.9224   -5.1
 0.020  0.2632  -54.4  65.362  166.2  0.0030   86.4  0.9015  -11.2
 0.030  0.2907  -72.5  62.011  160.7  0.0042   75.7  0.8622  -15.9
 0.040  0.3412  -86.4  59.290  154.7  0.0056   69.9  0.8292  -20.9
 0.050  0.4063  -96.3  57.290  148.1  0.0069   66.4  0.8032  -26.4
 0.060  0.4227 -104.5  53.858  145.0  0.0077   63.5  0.7607  -28.7
 0.070  0.4471 -111.9  50.609  141.4  0.0085   61.2  0.7196  -31.3
 0.080  0.4781 -118.5  47.583  137.4  0.0094   59.3  0.6802  -34.3
 0.090  0.5146 -124.2  44.822  132.8  0.0102   57.7  0.6427  -37.5
 0.100  0.5555 -129.1  42.381  127.7  0.0111   56.3  0.6076  -41.2
 0.110  0.5654 -132.6  40.204  125.9  0.0115   54.6  0.5799  -42.2
 0.120  0.5774 -135.9  38.072  123.9  0.0120   52.9  0.5523  -43.3
 0.130  0.5912 -139.1  35.992  121.6  0.0124   51.4  0.5250  -44.6
 0.140  0.6067 -142.1  33.974  119.1  0.0128   50.0  0.4980  -46.0
 0.150  0.6239 -145.0  32.030  116.3  0.0133   48.7  0.4713  -47.5
 0.200  0.6504 -154.3  25.254  108.7  0.0144   51.7  0.3893  -49.7
 0.250  0.6663 -160.7  20.746  103.6  0.0160   49.9  0.3347  -50.1
 0.300  0.6754 -165.3  17.515   99.8  0.0170   51.1  0.2981  -49.9
 0.350  0.6790 -168.5  15.428   97.4  0.0184   54.0  0.2765  -49.3
 0.400  0.6848 -171.7  13.376   94.3  0.0198   56.4  0.2550  -48.7
 0.450  0.6856 -173.9  12.066   92.6  0.0214   57.1  0.2433  -48.2
 0.500  0.6874 -176.1  10.769   90.4  0.0231   57.7  0.2316  -47.7
 0.600  0.6917 -179.8   9.020   87.1  0.0268   60.6  0.2169  -47.3
 0.700  0.6942  177.4   7.742   84.3  0.0286   63.1  0.2078  -46.8
 0.800  0.6958  174.6   6.796   81.5  0.0331   65.5  0.2033  -47.3
 0.900  0.6944  172.1   6.028   79.1  0.0361   65.7  0.1990  -48.1
 1.000  0.6984  169.9   5.450   76.8  0.0396   66.6  0.1963  -49.1
 1.100  0.7007  167.8   4.958   74.8  0.0437   66.6  0.1957  -50.2
 1.200  0.7017  165.7   4.546   72.5  0.0466   66.9  0.1946  -51.5
 1.300  0.7014  163.6   4.195   70.4  0.0499   67.4  0.1945  -53.3
 1.400  0.7030  161.9   3.911   68.4  0.0540   67.3  0.1935  -55.1
 1.500  0.7078  160.1   3.646   66.4  0.0573   67.2  0.1934  -57.0
 1.600  0.7108  158.2   3.425   64.4  0.0611   67.5  0.1944  -58.9
 1.700  0.7118  156.1   3.231   62.5  0.0651   67.5  0.1933  -61.4
 1.800  0.7154  154.4   3.063   60.5  0.0683   67.2  0.1937  -63.8
 1.900  0.7181  152.9   2.900   58.7  0.0721   66.8  0.1940  -66.1
 2.000  0.7214  151.0   2.753   56.7  0.0756   66.4  0.1956  -68.8
 2.100  0.7227  149.2   2.628   54.8  0.0794   65.9  0.1960  -71.6
 2.200  0.7248  147.4   2.507   52.8  0.0832   65.5  0.1968  -74.4
 2.300  0.7288  145.9   2.403   51.0  0.0870   65.1  0.1981  -77.2
 2.400  0.7332  144.4   2.301   49.1  0.0909   64.7  0.1999  -80.0
 2.500  0.7352  142.8   2.209   47.4  0.0944   64.1  0.2017  -83.0
 2.600  0.7378  141.2   2.120   45.6  0.0980   63.6  0.2041  -85.9
 2.700  0.7413  139.7   2.043   43.9  0.1016   63.1  0.2063  -88.8
 2.800  0.7454  138.2   1.967   42.1  0.1052   62.6  0.2091  -91.7
 2.900  0.7476  136.7   1.900   40.4  0.1088   61.9  0.2113  -94.6
 3.000  0.7503  135.2   1.834   38.6  0.1124   61.3  0.2140  -97.4
 3.100  0.7530  133.8   1.778   37.2  0.1160   60.6  0.2160 -100.2
 3.200  0.7561  132.3   1.724   35.6  0.1197   60.0  0.2186 -103.0
 3.300  0.7597  130.9   1.671   34.0  0.1233   59.5  0.2216 -105.7
 3.400  0.7638  129.5   1.619   32.3  0.1270   58.9  0.2251 -108.4
 3.500  0.7683  128.1   1.569   30.4  0.1307   58.4  0.2291 -110.9
 3.600  0.7708  126.8   1.526   29.0  0.1343   57.6  0.2314 -113.8
 3.700  0.7737  125.4   1.485   27.5  0.1380   56.8  0.2343 -116.6
 3.800  0.7770  124.1   1.444   25.9  0.1416   56.1  0.2377 -119.4
 3.900  0.7807  122.8   1.405   24.3  0.1453   55.4  0.2416 -122.0
 4.000  0.7848  121.5   1.367   22.5  0.1490   54.8  0.2461 -124.6
 4.100  0.7864  120.3   1.332   21.1  0.1525   54.0  0.2495 -127.6
 4.200  0.7883  119.1   1.299   19.7  0.1561   53.2  0.2536 -130.5
 4.300  0.7906  117.9   1.266   18.2  0.1597   52.4  0.2583 -133.3
 4.400  0.7932  116.7   1.234   16.6  0.1633   51.7  0.2635 -136.0
 4.500  0.7962  115.5   1.203   14.9  0.1670   51.0  0.2694 -138.6
 4.600  0.7989  114.6   1.174   13.7  0.1705   50.3  0.2754 -141.3
 4.700  0.8019  113.7   1.145   12.5  0.1741   49.6  0.2820 -143.9
 4.800  0.8050  112.8   1.116   11.3  0.1777   49.0  0.2891 -146.4
 4.900  0.8084  111.9   1.088    9.9  0.1813   48.4  0.2968 -148.8
 5.000  0.8119  111.0   1.061    8.5  0.1849   47.8  0.3049 -151.0
 5.100  0.8134  110.1   1.040    7.4  0.1885   47.0  0.3135 -153.1
 5.200  0.8151  109.2   1.019    6.2  0.1921   46.2  0.3226 -155.0
 5.300  0.8170  108.3   0.998    5.0  0.1957   45.5  0.3320 -156.9
 5.400  0.8191  107.4   0.978    3.8  0.1994   44.8  0.3417 -158.6
 5.500  0.8214  106.5   0.959    2.5  0.2031   44.1  0.3517 -160.3
 5.600  0.8218  105.6   0.940    1.5  0.2068   43.2  0.3596 -161.7
 5.700  0.8224  104.7   0.921    0.5  0.2105   42.4  0.3677 -163.1
 5.800  0.8232  103.8   0.902   -0.6  0.2143   41.6  0.3761 -164.4
 5.900  0.8242  102.9   0.884   -1.7  0.2181   40.8  0.3846 -165.7
 6.000  0.8254  102.0   0.866   -2.9  0.2219   40.1  0.3933 -166.9
!
!  f       NFmin   Gammaopt  rn/50
! GHz       dB    MAG  ANG    -
!
! noise parameter not available yet for this operation point!
!
! (c) 2017  Infineon Technologies AG, Munich