! Infineon Technologies  Discrete & RF Semiconductors
! BFP183W
! VCE =  2.0 V,  IC =  55 mA
! Common Emitter S-Parameters:                            Jan 2017
# GHz  S  MA  R  50
!  f         S11            S21            S12            S22
! GHz     MAG   ANG      MAG   ANG      MAG   ANG      MAG   ANG
 0.010  0.1748  -73.1  57.432  169.8  0.0024   77.2  0.7764   -9.1
 0.020  0.2999  -97.3  54.430  159.0  0.0041   73.6  0.7423  -18.6
 0.030  0.3724 -112.5  49.398  152.5  0.0057   62.9  0.6789  -24.2
 0.040  0.4621 -122.3  45.131  144.7  0.0075   57.1  0.6233  -30.9
 0.050  0.5609 -128.8  41.864  135.5  0.0093   53.5  0.5778  -38.8
 0.060  0.5826 -134.3  38.542  132.8  0.0098   51.3  0.5362  -40.8
 0.070  0.6093 -139.3  35.322  129.6  0.0103   49.3  0.4953  -43.1
 0.080  0.6402 -143.9  32.236  125.7  0.0108   47.4  0.4554  -45.7
 0.090  0.6749 -148.1  29.324  121.1  0.0114   45.8  0.4167  -49.0
 0.100  0.7128 -151.8  26.645  115.5  0.0119   44.3  0.3795  -52.8
 0.110  0.7206 -153.9  25.052  114.1  0.0123   43.7  0.3595  -53.5
 0.120  0.7294 -155.9  23.476  112.5  0.0127   43.1  0.3395  -54.2
 0.130  0.7390 -157.8  21.921  110.7  0.0131   42.6  0.3196  -55.0
 0.140  0.7494 -159.7  20.391  108.6  0.0135   42.1  0.2998  -55.9
 0.150  0.7607 -161.6  18.892  106.2  0.0139   41.6  0.2801  -57.0
 0.200  0.7752 -167.6  14.467  100.3  0.0141   45.0  0.2280  -57.7
 0.250  0.7845 -171.6  11.708   96.2  0.0164   45.7  0.1964  -57.2
 0.300  0.7872 -174.6   9.800   93.3  0.0173   48.4  0.1760  -56.6
 0.350  0.7891 -176.8   8.603   91.3  0.0189   52.0  0.1649  -56.1
 0.400  0.7921 -179.0   7.419   88.7  0.0205   55.0  0.1539  -55.6
 0.450  0.7924  179.4   6.676   87.1  0.0219   56.2  0.1487  -55.5
 0.500  0.7933  177.9   5.940   85.2  0.0234   57.2  0.1436  -55.4
 0.600  0.7945  175.1   4.964   82.2  0.0274   59.8  0.1377  -56.3
 0.700  0.7966  173.0   4.254   79.4  0.0304   63.7  0.1354  -57.0
 0.800  0.7977  170.6   3.728   76.6  0.0344   66.1  0.1355  -58.9
 0.900  0.7961  168.5   3.307   74.1  0.0383   65.8  0.1356  -61.1
 1.000  0.7970  166.6   2.989   71.8  0.0418   67.1  0.1358  -63.0
 1.100  0.7997  164.6   2.720   69.5  0.0461   67.5  0.1388  -65.5
 1.200  0.7992  162.6   2.493   67.1  0.0496   67.3  0.1409  -67.7
 1.300  0.8014  160.9   2.302   64.9  0.0533   67.7  0.1430  -70.6
 1.400  0.8026  159.0   2.146   62.6  0.0571   68.0  0.1446  -73.4
 1.500  0.8065  157.4   2.002   60.5  0.0608   67.3  0.1470  -76.2
 1.600  0.8082  155.5   1.883   58.2  0.0651   67.5  0.1507  -78.9
 1.700  0.8088  153.6   1.776   56.1  0.0693   67.7  0.1532  -82.4
 1.800  0.8139  151.8   1.684   53.9  0.0732   67.0  0.1559  -85.4
 1.900  0.8162  150.2   1.596   52.0  0.0771   66.9  0.1596  -88.4
 2.000  0.8167  148.4   1.515   49.7  0.0814   66.5  0.1636  -91.6
 2.100  0.8181  146.6   1.447   47.7  0.0853   66.0  0.1671  -95.0
 2.200  0.8202  144.9   1.380   45.6  0.0893   65.5  0.1712  -98.2
 2.300  0.8222  143.3   1.322   43.7  0.0934   65.0  0.1760 -101.4
 2.400  0.8249  141.7   1.266   41.6  0.0976   64.5  0.1813 -104.5
 2.500  0.8260  140.1   1.216   39.8  0.1015   63.8  0.1863 -107.6
 2.600  0.8278  138.6   1.167   37.8  0.1054   63.1  0.1919 -110.6
 2.700  0.8306  137.0   1.124   36.1  0.1094   62.5  0.1974 -113.5
 2.800  0.8341  135.4   1.083   34.2  0.1134   62.0  0.2034 -116.2
 2.900  0.8348  133.9   1.045   32.5  0.1174   61.2  0.2087 -119.1
 3.000  0.8360  132.5   1.009   30.6  0.1215   60.4  0.2145 -121.8
 3.100  0.8374  131.0   0.978   29.2  0.1254   59.7  0.2195 -124.6
 3.200  0.8394  129.6   0.948   27.6  0.1293   59.0  0.2250 -127.2
 3.300  0.8420  128.1   0.918   26.0  0.1332   58.4  0.2310 -129.8
 3.400  0.8451  126.6   0.889   24.3  0.1371   57.8  0.2374 -132.1
 3.500  0.8487  125.2   0.861   22.4  0.1410   57.3  0.2442 -134.4
 3.600  0.8497  123.8   0.837   21.1  0.1449   56.4  0.2494 -137.1
 3.700  0.8512  122.5   0.814   19.7  0.1488   55.6  0.2552 -139.8
 3.800  0.8531  121.2   0.791   18.2  0.1528   54.8  0.2615 -142.3
 3.900  0.8555  119.8   0.769   16.7  0.1568   54.1  0.2682 -144.6
 4.000  0.8584  118.5   0.747   15.0  0.1608   53.4  0.2754 -146.9
 4.100  0.8587  117.3   0.728   13.8  0.1646   52.5  0.2818 -149.6
 4.200  0.8593  116.1   0.709   12.5  0.1684   51.6  0.2887 -152.1
 4.300  0.8603  114.8   0.691   11.2  0.1723   50.7  0.2962 -154.5
 4.400  0.8618  113.6   0.673    9.8  0.1762   49.9  0.3042 -156.8
 4.500  0.8636  112.4   0.656    8.3  0.1802   49.1  0.3126 -159.0
 4.600  0.8644  111.5   0.640    7.4  0.1838   48.3  0.3207 -161.3
 4.700  0.8655  110.6   0.623    6.4  0.1875   47.6  0.3293 -163.4
 4.800  0.8668  109.6   0.607    5.4  0.1912   46.9  0.3383 -165.4
 4.900  0.8683  108.7   0.592    4.3  0.1949   46.2  0.3478 -167.4
 5.000  0.8700  107.8   0.576    3.2  0.1987   45.5  0.3576 -169.2
 5.100  0.8710  106.9   0.565    2.5  0.2025   44.6  0.3671 -170.9
 5.200  0.8722  106.1   0.554    1.7  0.2063   43.8  0.3769 -172.5
 5.300  0.8736  105.2   0.544    0.9  0.2102   43.0  0.3870 -174.1
 5.400  0.8752  104.4   0.533    0.1  0.2141   42.2  0.3973 -175.5
 5.500  0.8770  103.5   0.523   -0.8  0.2180   41.5  0.4079 -176.9
 5.600  0.8755  102.6   0.513   -1.4  0.2217   40.6  0.4155 -178.1
 5.700  0.8743  101.7   0.503   -2.0  0.2254   39.7  0.4233 -179.3
 5.800  0.8732  100.8   0.493   -2.7  0.2291   38.8  0.4313  179.6
 5.900  0.8724   99.9   0.483   -3.4  0.2329   38.0  0.4394  178.5
 6.000  0.8718   99.0   0.473   -4.1  0.2368   37.2  0.4477  177.4
!
!  f       NFmin   Gammaopt  rn/50
! GHz       dB    MAG  ANG    -
!
! noise parameter not available yet for this operation point!
!
! (c) 2017  Infineon Technologies AG, Munich