! Infineon Technologies  Discrete & RF Semiconductors
! BFP183W
! VCE =  8.0 V,  IC =  2.0 mA
! Common Emitter S-Parameters:                            Jan 2017
# GHz  S  MA  R  50
!  f         S11            S21            S12            S22
! GHz     MAG   ANG      MAG   ANG      MAG   ANG      MAG   ANG
 0.010  0.9512   -1.1   7.190  180.0  0.0021   91.9  1.0000   -0.8
 0.020  0.9396   -5.1   7.190  177.8  0.0041   94.4  0.9874   -1.5
 0.030  0.9332   -6.4   7.151  176.7  0.0063   88.9  0.9901   -2.2
 0.040  0.9273   -7.7   7.114  175.5  0.0086   86.2  0.9929   -2.9
 0.050  0.9219   -9.0   7.080  174.4  0.0109   84.7  0.9959   -3.6
 0.060  0.9216  -10.9   7.057  173.2  0.0131   83.4  0.9941   -4.3
 0.070  0.9223  -12.8   7.036  172.1  0.0153   82.5  0.9925   -5.0
 0.080  0.9240  -14.7   7.019  170.9  0.0174   81.8  0.9910   -5.7
 0.090  0.9266  -16.5   7.004  169.7  0.0196   81.2  0.9897   -6.4
 0.100  0.9303  -18.4   6.993  168.5  0.0218   80.8  0.9885   -7.1
 0.110  0.9252  -20.3   6.965  167.3  0.0237   79.2  0.9852   -7.8
 0.120  0.9210  -22.2   6.941  166.2  0.0257   77.8  0.9821   -8.5
 0.130  0.9179  -24.1   6.919  165.0  0.0276   76.6  0.9792   -9.2
 0.140  0.9159  -26.1   6.900  163.8  0.0296   75.6  0.9764   -9.9
 0.150  0.9149  -28.0   6.884  162.6  0.0316   74.7  0.9737  -10.6
 0.200  0.9128  -36.6   6.723  156.6  0.0404   70.0  0.9565  -13.8
 0.250  0.8980  -45.2   6.567  151.1  0.0498   65.3  0.9365  -16.9
 0.300  0.8792  -53.6   6.340  145.8  0.0573   60.1  0.9129  -19.7
 0.350  0.8618  -60.9   6.101  141.3  0.0638   56.0  0.8879  -22.1
 0.400  0.8587  -68.3   5.903  136.4  0.0706   52.6  0.8646  -24.6
 0.450  0.8370  -74.9   5.642  132.4  0.0754   48.8  0.8408  -26.5
 0.500  0.8269  -81.7   5.410  128.1  0.0805   45.5  0.8180  -28.5
 0.600  0.8053  -93.6   4.970  120.5  0.0884   39.7  0.7744  -31.7
 0.700  0.7834 -104.0   4.542  113.9  0.0930   35.0  0.7363  -34.3
 0.800  0.7661 -113.3   4.187  108.1  0.0963   31.2  0.7054  -36.4
 0.900  0.7501 -121.4   3.850  102.8  0.0992   27.6  0.6787  -38.3
 1.000  0.7405 -128.7   3.567   98.3  0.1005   24.6  0.6565  -40.0
 1.100  0.7356 -135.3   3.311   94.0  0.1017   22.2  0.6389  -41.5
 1.200  0.7280 -141.3   3.083   89.9  0.1020   19.6  0.6230  -43.1
 1.300  0.7232 -146.7   2.882   86.1  0.1020   17.7  0.6101  -44.6
 1.400  0.7207 -151.7   2.710   82.7  0.1015   16.4  0.5984  -46.1
 1.500  0.7221 -156.5   2.557   79.4  0.1014   15.2  0.5886  -47.6
 1.600  0.7211 -160.9   2.414   76.2  0.1000   14.1  0.5824  -49.0
 1.700  0.7207 -164.9   2.293   73.4  0.0993   13.2  0.5740  -50.8
 1.800  0.7221 -169.1   2.190   70.4  0.0979   12.5  0.5669  -52.3
 1.900  0.7253 -172.7   2.086   67.7  0.0961   12.0  0.5613  -53.9
 2.000  0.7267 -176.3   1.994   64.7  0.0952   11.5  0.5578  -55.5
 2.100  0.7270 -179.8   1.910   62.1  0.0937   11.5  0.5540  -57.3
 2.200  0.7299  176.8   1.831   59.2  0.0922   11.6  0.5507  -59.1
 2.300  0.7324  173.8   1.757   56.8  0.0905   11.7  0.5486  -61.0
 2.400  0.7368  170.9   1.687   54.1  0.0889   11.9  0.5471  -63.0
 2.500  0.7378  168.1   1.622   51.8  0.0874   12.5  0.5452  -64.9
 2.600  0.7405  165.4   1.560   49.3  0.0860   13.2  0.5440  -66.9
 2.700  0.7430  162.7   1.507   47.1  0.0846   14.2  0.5433  -68.8
 2.800  0.7470  160.1   1.456   44.7  0.0833   15.3  0.5433  -70.8
 2.900  0.7490  157.7   1.408   42.4  0.0824   16.4  0.5421  -72.8
 3.000  0.7524  155.3   1.363   39.9  0.0815   17.6  0.5416  -74.8
 3.100  0.7539  153.1   1.320   38.1  0.0811   19.6  0.5409  -77.0
 3.200  0.7566  150.8   1.278   36.2  0.0808   21.6  0.5410  -79.1
 3.300  0.7604  148.6   1.238   34.2  0.0805   23.6  0.5418  -81.3
 3.400  0.7654  146.4   1.200   32.0  0.0804   25.6  0.5434  -83.5
 3.500  0.7714  144.3   1.163   29.7  0.0804   27.6  0.5458  -85.6
 3.600  0.7731  142.3   1.130   28.0  0.0818   29.6  0.5450  -87.9
 3.700  0.7758  140.4   1.099   26.2  0.0833   31.5  0.5451  -90.3
 3.800  0.7793  138.5   1.068   24.3  0.0849   33.4  0.5461  -92.6
 3.900  0.7837  136.6   1.039   22.2  0.0865   35.2  0.5480  -94.9
 4.000  0.7889  134.7   1.011   20.1  0.0883   36.9  0.5508  -97.2
 4.100  0.7907  133.0   0.983   18.5  0.0910   38.4  0.5503  -99.8
 4.200  0.7931  131.3   0.956   16.9  0.0938   39.7  0.5510 -102.4
 4.300  0.7962  129.7   0.930   15.1  0.0966   41.0  0.5528 -104.9
 4.400  0.8000  128.0   0.905   13.3  0.0994   42.2  0.5556 -107.5
 4.500  0.8044  126.4   0.881   11.3  0.1023   43.4  0.5596 -110.0
 4.600  0.8065  125.1   0.857   10.0  0.1063   44.3  0.5612 -112.6
 4.700  0.8091  123.7   0.833    8.6  0.1104   45.1  0.5639 -115.2
 4.800  0.8121  122.4   0.810    7.2  0.1144   45.8  0.5677 -117.7
 4.900  0.8155  121.1   0.787    5.6  0.1185   46.5  0.5727 -120.2
 5.000  0.8193  119.8   0.765    4.0  0.1226   47.2  0.5787 -122.7
 5.100  0.8212  118.7   0.747    2.9  0.1273   47.3  0.5837 -125.2
 5.200  0.8235  117.5   0.729    1.8  0.1321   47.3  0.5898 -127.6
 5.300  0.8260  116.4   0.712    0.6  0.1368   47.4  0.5970 -130.0
 5.400  0.8289  115.3   0.695   -0.6  0.1416   47.4  0.6052 -132.3
 5.500  0.8321  114.2   0.678   -1.9  0.1463   47.5  0.6143 -134.6
 5.600  0.8322  113.1   0.662   -2.8  0.1513   47.1  0.6196 -136.7
 5.700  0.8326  112.0   0.646   -3.8  0.1564   46.7  0.6258 -138.8
 5.800  0.8333  110.9   0.630   -4.7  0.1614   46.4  0.6328 -140.8
 5.900  0.8343  109.8   0.614   -5.8  0.1664   46.0  0.6405 -142.8
 6.000  0.8356  108.7   0.599   -6.9  0.1715   45.7  0.6490 -144.7
!
!  f       NFmin   Gammaopt  rn/50
! GHz       dB    MAG  ANG    -
 0.450      0.76  0.48   45   0.22
 0.900      0.95  0.41   86   0.19
 1.900      1.77  0.52  156   0.09
 2.400      2.08  0.55  173   0.09
!
! (c) 2017  Infineon Technologies AG, Munich