! Infineon Technologies  Discrete & RF Semiconductors
! BFP183W
! VCE =  5.0 V,  IC =  24 mA
! Common Emitter S-Parameters:                            Jan 2017
# GHz  S  MA  R  50
!  f         S11            S21            S12            S22
! GHz     MAG   ANG      MAG   ANG      MAG   ANG      MAG   ANG
 0.010  0.4829   -9.1  52.027  176.1  0.0017   79.7  0.9780   -3.6
 0.020  0.4783  -21.1  51.102  171.1  0.0033   94.3  0.9650   -7.6
 0.030  0.4723  -30.0  49.935  167.2  0.0049   84.4  0.9466  -11.1
 0.040  0.4779  -38.9  49.012  163.1  0.0065   79.4  0.9319  -14.8
 0.050  0.4946  -47.4  48.345  158.9  0.0082   76.4  0.9211  -18.5
 0.060  0.4870  -54.8  46.637  155.9  0.0095   72.2  0.8912  -21.1
 0.070  0.4876  -62.2  45.067  152.7  0.0108   69.0  0.8633  -23.8
 0.080  0.4964  -69.6  43.650  149.2  0.0121   66.5  0.8374  -26.7
 0.090  0.5130  -76.6  42.400  145.6  0.0134   64.4  0.8139  -29.8
 0.100  0.5366  -83.0  41.334  141.7  0.0148   62.8  0.7929  -33.1
 0.110  0.5348  -88.0  39.807  139.6  0.0154   60.6  0.7653  -34.8
 0.120  0.5371  -93.0  38.338  137.3  0.0160   58.5  0.7384  -36.6
 0.130  0.5433  -97.9  36.934  134.9  0.0167   56.6  0.7123  -38.6
 0.140  0.5535 -102.6  35.602  132.2  0.0173   54.8  0.6870  -40.6
 0.150  0.5673 -107.2  34.352  129.4  0.0180   53.2  0.6628  -42.9
 0.200  0.5864 -123.0  28.645  120.3  0.0200   50.4  0.5613  -48.8
 0.250  0.6024 -134.4  24.327  113.6  0.0227   46.6  0.4836  -52.7
 0.300  0.6098 -142.9  20.954  108.8  0.0244   46.5  0.4249  -55.1
 0.350  0.6110 -148.6  18.628  105.6  0.0255   46.8  0.3856  -56.3
 0.400  0.6181 -154.2  16.376  101.5  0.0267   47.0  0.3465  -57.7
 0.450  0.6190 -158.1  14.823   99.3  0.0279   47.6  0.3222  -58.2
 0.500  0.6226 -161.9  13.298   96.5  0.0291   48.2  0.2980  -58.7
 0.600  0.6250 -167.7  11.228   92.4  0.0318   49.9  0.2661  -59.3
 0.700  0.6288 -172.1   9.668   89.1  0.0342   52.1  0.2433  -59.1
 0.800  0.6314 -176.3   8.505   85.9  0.0376   54.9  0.2297  -59.4
 0.900  0.6324 -179.6   7.560   83.3  0.0403   55.6  0.2182  -59.9
 1.000  0.6343  177.2   6.840   80.8  0.0433   56.5  0.2089  -60.3
 1.100  0.6370  174.8   6.232   78.5  0.0470   57.4  0.2043  -60.9
 1.200  0.6390  171.9   5.711   76.2  0.0498   58.1  0.1990  -61.6
 1.300  0.6377  169.4   5.277   74.0  0.0528   58.4  0.1958  -62.8
 1.400  0.6412  167.4   4.919   71.9  0.0566   59.2  0.1917  -63.9
 1.500  0.6455  165.2   4.588   69.9  0.0596   59.5  0.1898  -65.3
 1.600  0.6478  163.0   4.312   67.8  0.0632   59.4  0.1883  -66.6
 1.700  0.6504  160.9   4.067   65.9  0.0666   60.0  0.1865  -68.6
 1.800  0.6539  159.1   3.857   64.0  0.0697   60.0  0.1851  -70.4
 1.900  0.6578  157.1   3.653   62.2  0.0733   60.2  0.1844  -72.3
 2.000  0.6595  155.1   3.470   60.2  0.0768   59.8  0.1843  -74.6
 2.100  0.6628  153.2   3.313   58.3  0.0802   59.6  0.1837  -77.0
 2.200  0.6668  151.3   3.160   56.3  0.0836   59.4  0.1835  -79.4
 2.300  0.6705  149.6   3.028   54.6  0.0873   59.1  0.1842  -82.0
 2.400  0.6747  148.0   2.899   52.7  0.0910   58.9  0.1853  -84.5
 2.500  0.6771  146.3   2.785   51.0  0.0940   58.4  0.1863  -87.2
 2.600  0.6800  144.7   2.674   49.2  0.0970   58.0  0.1877  -89.8
 2.700  0.6846  143.0   2.576   47.6  0.1004   57.6  0.1892  -92.4
 2.800  0.6897  141.4   2.481   45.8  0.1039   57.3  0.1910  -95.0
 2.900  0.6924  139.9   2.396   44.1  0.1073   56.7  0.1923  -97.7
 3.000  0.6956  138.4   2.314   42.3  0.1107   56.1  0.1941 -100.3
 3.100  0.6988  136.9   2.244   40.9  0.1142   55.7  0.1956 -102.9
 3.200  0.7024  135.4   2.175   39.3  0.1177   55.2  0.1975 -105.5
 3.300  0.7066  133.9   2.108   37.7  0.1212   54.8  0.1997 -108.0
 3.400  0.7111  132.4   2.043   36.0  0.1247   54.5  0.2024 -110.4
 3.500  0.7162  131.0   1.980   34.1  0.1282   54.1  0.2054 -112.8
 3.600  0.7193  129.6   1.927   32.7  0.1315   53.4  0.2072 -115.6
 3.700  0.7227  128.2   1.875   31.2  0.1349   52.8  0.2094 -118.3
 3.800  0.7266  126.9   1.825   29.6  0.1382   52.2  0.2122 -120.9
 3.900  0.7309  125.5   1.775   28.0  0.1416   51.6  0.2153 -123.5
 4.000  0.7356  124.2   1.728   26.2  0.1450   51.1  0.2189 -126.0
 4.100  0.7382  123.0   1.684   24.8  0.1482   50.4  0.2218 -128.9
 4.200  0.7411  121.7   1.642   23.4  0.1514   49.7  0.2253 -131.8
 4.300  0.7444  120.5   1.600   21.8  0.1547   49.0  0.2293 -134.5
 4.400  0.7481  119.3   1.560   20.2  0.1579   48.4  0.2339 -137.2
 4.500  0.7520  118.1   1.521   18.5  0.1612   47.8  0.2389 -139.7
 4.600  0.7551  117.1   1.485   17.3  0.1645   47.2  0.2445 -142.3
 4.700  0.7585  116.2   1.449   16.1  0.1678   46.6  0.2506 -144.9
 4.800  0.7621  115.2   1.414   14.7  0.1712   46.1  0.2572 -147.3
 4.900  0.7659  114.2   1.379   13.4  0.1745   45.5  0.2642 -149.5
 5.000  0.7699  113.3   1.346   11.9  0.1779   45.0  0.2716 -151.7
 5.100  0.7721  112.4   1.319   10.8  0.1813   44.3  0.2798 -153.7
 5.200  0.7745  111.5   1.293    9.6  0.1848   43.7  0.2883 -155.5
 5.300  0.7770  110.6   1.267    8.4  0.1883   43.1  0.2970 -157.2
 5.400  0.7798  109.8   1.242    7.1  0.1918   42.5  0.3060 -158.9
 5.500  0.7827  108.9   1.218    5.8  0.1953   41.9  0.3153 -160.4
 5.600  0.7835  108.0   1.194    4.7  0.1987   41.1  0.3228 -161.7
 5.700  0.7845  107.1   1.171    3.6  0.2022   40.3  0.3305 -163.0
 5.800  0.7856  106.3   1.148    2.4  0.2056   39.6  0.3383 -164.2
 5.900  0.7870  105.4   1.125    1.2  0.2092   38.9  0.3463 -165.3
 6.000  0.7885  104.5   1.103   -0.1  0.2127   38.2  0.3544 -166.4
!
!  f       NFmin   Gammaopt  rn/50
! GHz       dB    MAG  ANG    -
 0.450      1.27  0.23  176   0.10
 0.900      1.29  0.27  178   0.09
 1.900      1.78  0.43 -159   0.09
 2.400      2.01  0.47 -154   0.13
!
! (c) 2017  Infineon Technologies AG, Munich