! Infineon Technologies  Discrete & RF Semiconductors
! BFP183W
! VCE =  10. V,  IC =  25 mA
! Common Emitter S-Parameters:                            Jan 2017
# GHz  S  MA  R  50
!  f         S11            S21            S12            S22
! GHz     MAG   ANG      MAG   ANG      MAG   ANG      MAG   ANG
 0.010  0.5384   -7.3  51.206  175.7  0.0015   77.5  0.9739   -3.2
 0.020  0.5325  -18.0  50.279  171.3  0.0030  100.3  0.9588   -6.7
 0.030  0.5255  -25.7  49.205  167.7  0.0046   82.2  0.9448   -9.9
 0.040  0.5282  -33.5  48.329  164.0  0.0063   73.8  0.9339  -13.2
 0.050  0.5404  -41.0  47.662  160.2  0.0082   69.1  0.9262  -16.6
 0.060  0.5295  -47.6  46.141  157.3  0.0094   67.6  0.8994  -19.0
 0.070  0.5258  -54.4  44.747  154.2  0.0106   66.4  0.8742  -21.5
 0.080  0.5296  -61.2  43.492  150.9  0.0118   65.5  0.8508  -24.2
 0.090  0.5407  -67.8  42.388  147.4  0.0130   64.7  0.8294  -27.0
 0.100  0.5587  -74.1  41.448  143.8  0.0142   64.1  0.8101  -30.0
 0.110  0.5532  -79.0  40.038  141.7  0.0150   62.1  0.7846  -31.6
 0.120  0.5519  -84.0  38.686  139.4  0.0158   60.2  0.7597  -33.3
 0.130  0.5548  -89.0  37.399  137.0  0.0166   58.6  0.7356  -35.2
 0.140  0.5618  -93.9  36.185  134.4  0.0175   57.1  0.7122  -37.1
 0.150  0.5727  -98.6  35.050  131.6  0.0183   55.7  0.6898  -39.2
 0.200  0.5842 -115.0  29.536  122.5  0.0198   51.5  0.5915  -44.9
 0.250  0.5928 -127.4  25.271  115.6  0.0227   47.9  0.5145  -48.6
 0.300  0.5951 -136.7  21.871  110.6  0.0238   47.0  0.4553  -50.9
 0.350  0.5947 -143.0  19.482  107.3  0.0252   47.2  0.4151  -51.9
 0.400  0.6015 -149.3  17.176  103.1  0.0266   47.4  0.3750  -53.1
 0.450  0.6001 -153.7  15.576  100.7  0.0278   47.9  0.3503  -53.4
 0.500  0.6022 -158.0  14.010   97.8  0.0290   48.3  0.3256  -53.8
 0.600  0.6051 -164.1  11.839   93.6  0.0322   49.8  0.2922  -54.1
 0.700  0.6071 -169.2  10.203   90.2  0.0336   51.7  0.2693  -53.8
 0.800  0.6094 -173.7   8.981   86.9  0.0374   54.4  0.2549  -53.9
 0.900  0.6087 -177.4   7.988   84.2  0.0397   54.2  0.2435  -54.2
 1.000  0.6125  179.5   7.232   81.7  0.0427   56.2  0.2342  -54.4
 1.100  0.6153  176.7   6.586   79.4  0.0462   56.9  0.2290  -54.8
 1.200  0.6152  173.9   6.039   77.0  0.0492   57.0  0.2234  -55.4
 1.300  0.6166  171.1   5.581   74.8  0.0519   58.0  0.2195  -56.3
 1.400  0.6185  168.8   5.201   72.7  0.0553   58.6  0.2160  -57.3
 1.500  0.6234  166.7   4.853   70.8  0.0585   59.3  0.2129  -58.6
 1.600  0.6262  164.5   4.561   68.7  0.0621   59.6  0.2118  -59.8
 1.700  0.6271  162.2   4.299   66.8  0.0646   59.6  0.2095  -61.5
 1.800  0.6317  160.2   4.078   64.8  0.0683   59.4  0.2080  -63.3
 1.900  0.6355  158.3   3.864   63.0  0.0712   59.7  0.2067  -65.2
 2.000  0.6374  156.2   3.668   61.0  0.0749   59.5  0.2062  -67.1
 2.100  0.6405  154.2   3.503   59.2  0.0780   59.5  0.2053  -69.3
 2.200  0.6444  152.3   3.342   57.2  0.0811   59.5  0.2048  -71.5
 2.300  0.6487  150.6   3.203   55.5  0.0848   59.2  0.2046  -73.9
 2.400  0.6536  148.9   3.068   53.6  0.0886   58.9  0.2047  -76.3
 2.500  0.6565  147.2   2.946   51.9  0.0917   58.4  0.2050  -78.8
 2.600  0.6600  145.6   2.827   50.1  0.0949   57.9  0.2056  -81.3
 2.700  0.6638  143.9   2.725   48.5  0.0980   57.7  0.2064  -83.8
 2.800  0.6681  142.3   2.625   46.7  0.1012   57.5  0.2076  -86.2
 2.900  0.6716  140.7   2.536   45.0  0.1045   57.0  0.2083  -88.8
 3.000  0.6755  139.2   2.450   43.2  0.1079   56.5  0.2094  -91.4
 3.100  0.6789  137.7   2.376   41.8  0.1112   56.1  0.2101  -93.9
 3.200  0.6827  136.2   2.303   40.3  0.1144   55.7  0.2111  -96.4
 3.300  0.6870  134.7   2.231   38.6  0.1177   55.3  0.2126  -98.9
 3.400  0.6918  133.2   2.162   36.9  0.1210   54.9  0.2145 -101.3
 3.500  0.6970  131.8   2.095   35.1  0.1243   54.6  0.2167 -103.7
 3.600  0.7004  130.4   2.039   33.7  0.1277   54.0  0.2176 -106.4
 3.700  0.7041  129.0   1.985   32.2  0.1311   53.3  0.2189 -109.1
 3.800  0.7083  127.6   1.931   30.6  0.1345   52.8  0.2207 -111.8
 3.900  0.7129  126.2   1.880   29.0  0.1379   52.2  0.2230 -114.4
 4.000  0.7179  124.9   1.830   27.2  0.1413   51.7  0.2258 -117.0
 4.100  0.7209  123.7   1.784   25.8  0.1445   51.0  0.2278 -119.9
 4.200  0.7243  122.5   1.740   24.4  0.1476   50.3  0.2304 -122.8
 4.300  0.7280  121.3   1.696   22.8  0.1508   49.6  0.2336 -125.6
 4.400  0.7320  120.1   1.654   21.2  0.1541   49.0  0.2373 -128.4
 4.500  0.7363  118.9   1.613   19.5  0.1573   48.4  0.2415 -131.0
 4.600  0.7395  117.9   1.574   18.3  0.1606   47.8  0.2461 -133.8
 4.700  0.7430  116.9   1.537   17.0  0.1640   47.3  0.2514 -136.5
 4.800  0.7467  115.9   1.499   15.7  0.1673   46.8  0.2571 -139.0
 4.900  0.7506  114.9   1.463   14.3  0.1707   46.3  0.2633 -141.5
 5.000  0.7548  113.9   1.428   12.8  0.1741   45.8  0.2700 -143.8
 5.100  0.7575  113.0   1.400   11.7  0.1775   45.1  0.2777 -146.0
 5.200  0.7603  112.1   1.372   10.5  0.1809   44.4  0.2858 -148.1
 5.300  0.7634  111.2   1.344    9.2  0.1843   43.8  0.2943 -150.0
 5.400  0.7666  110.4   1.318    7.9  0.1877   43.2  0.3030 -151.9
 5.500  0.7700  109.5   1.292    6.6  0.1912   42.6  0.3121 -153.6
 5.600  0.7709  108.6   1.267    5.5  0.1946   41.9  0.3196 -155.1
 5.700  0.7720  107.7   1.242    4.4  0.1979   41.1  0.3273 -156.5
 5.800  0.7732  106.9   1.217    3.2  0.2014   40.4  0.3351 -157.8
 5.900  0.7747  106.0   1.193    2.0  0.2048   39.8  0.3432 -159.1
 6.000  0.7763  105.1   1.170    0.7  0.2083   39.1  0.3514 -160.3
!
!  f       NFmin   Gammaopt  rn/50
! GHz       dB    MAG  ANG    -
 0.450      1.29  0.25  177   0.10
 0.900      1.32  0.28  180   0.09
 1.900      1.80  0.43 -158   0.09
 2.400      2.04  0.48 -154   0.13
!
! (c) 2017  Infineon Technologies AG, Munich