! Infineon Technologies  Discrete & RF Semiconductors
! BFP183W
! VCE =  1.0 V,  IC =  4.0 mA
! Common Emitter S-Parameters:                            Jan 2017
# GHz  S  MA  R  50
!  f         S11            S21            S12            S22
! GHz     MAG   ANG      MAG   ANG      MAG   ANG      MAG   ANG
 0.010  0.8769   -2.5  13.745  179.3  0.0028   92.1  0.9975   -1.7
 0.020  0.8647   -7.7  13.713  176.4  0.0054   88.5  0.9851   -3.2
 0.030  0.8579  -10.4  13.615  174.5  0.0085   84.3  0.9844   -4.8
 0.040  0.8529  -13.1  13.531  172.6  0.0117   82.3  0.9844   -6.5
 0.050  0.8500  -15.9  13.463  170.7  0.0149   81.2  0.9853   -8.1
 0.060  0.8449  -19.0  13.350  168.9  0.0177   78.8  0.9776   -9.6
 0.070  0.8423  -22.2  13.251  167.0  0.0206   77.0  0.9706  -11.1
 0.080  0.8424  -25.4  13.166  165.1  0.0234   75.7  0.9642  -12.7
 0.090  0.8450  -28.6  13.096  163.2  0.0263   74.6  0.9586  -14.2
 0.100  0.8502  -31.7  13.040  161.3  0.0292   73.8  0.9537  -15.8
 0.110  0.8412  -34.7  12.892  159.6  0.0316   71.7  0.9438  -17.2
 0.120  0.8344  -37.7  12.756  157.9  0.0341   69.9  0.9344  -18.6
 0.130  0.8301  -40.8  12.631  156.2  0.0366   68.3  0.9256  -20.0
 0.140  0.8282  -43.9  12.519  154.4  0.0391   67.0  0.9174  -21.5
 0.150  0.8287  -47.0  12.418  152.6  0.0416   65.8  0.9098  -23.0
 0.200  0.8162  -60.3  11.681  144.4  0.0518   59.3  0.8585  -29.2
 0.250  0.7958  -72.8  10.922  137.1  0.0606   53.2  0.8042  -34.5
 0.300  0.7757  -83.7  10.122  131.0  0.0674   48.2  0.7497  -39.0
 0.350  0.7547  -92.6   9.391  126.2  0.0719   44.2  0.7012  -42.3
 0.400  0.7526 -101.7   8.737  120.6  0.0767   40.7  0.6553  -46.0
 0.450  0.7358 -108.6   8.115  116.9  0.0794   37.6  0.6173  -48.3
 0.500  0.7301 -115.7   7.532  112.6  0.0824   34.7  0.5804  -50.9
 0.600  0.7172 -126.9   6.587  105.9  0.0868   30.7  0.5223  -54.5
 0.700  0.7074 -136.1   5.805  100.4  0.0883   27.3  0.4759  -57.2
 0.800  0.7010 -143.9   5.197   95.5  0.0904   25.8  0.4422  -59.3
 0.900  0.6932 -150.5   4.673   91.2  0.0914   24.0  0.4150  -61.2
 1.000  0.6921 -156.1   4.265   87.5  0.0929   22.6  0.3931  -62.9
 1.100  0.6929 -161.0   3.912   84.1  0.0934   22.1  0.3780  -64.3
 1.200  0.6912 -165.5   3.605   80.7  0.0937   20.9  0.3628  -65.8
 1.300  0.6887 -169.5   3.344   77.7  0.0941   20.5  0.3520  -67.3
 1.400  0.6918 -173.2   3.128   74.8  0.0952   20.6  0.3424  -69.0
 1.500  0.6961 -176.7   2.929   72.0  0.0951   20.5  0.3339  -70.6
 1.600  0.6973  179.9   2.758   69.2  0.0950   20.4  0.3287  -72.2
 1.700  0.6991  176.8   2.610   66.7  0.0952   21.0  0.3228  -74.2
 1.800  0.7036  173.9   2.483   64.1  0.0961   21.1  0.3178  -76.0
 1.900  0.7078  171.2   2.355   61.8  0.0959   21.4  0.3137  -77.9
 2.000  0.7085  168.3   2.243   59.2  0.0965   21.8  0.3112  -79.8
 2.100  0.7113  165.7   2.145   56.9  0.0971   22.3  0.3091  -81.9
 2.200  0.7155  163.1   2.050   54.4  0.0977   22.8  0.3075  -84.1
 2.300  0.7187  160.7   1.966   52.2  0.0984   23.4  0.3075  -86.4
 2.400  0.7231  158.3   1.885   49.8  0.0992   23.9  0.3079  -88.6
 2.500  0.7255  156.2   1.811   47.7  0.0999   24.7  0.3080  -91.0
 2.600  0.7289  154.1   1.739   45.5  0.1006   25.4  0.3086  -93.3
 2.700  0.7328  151.9   1.677   43.5  0.1014   26.2  0.3098  -95.6
 2.800  0.7377  149.7   1.618   41.3  0.1023   26.9  0.3114  -97.8
 2.900  0.7397  147.7   1.564   39.2  0.1037   27.6  0.3119 -100.1
 3.000  0.7426  145.8   1.512   37.0  0.1052   28.2  0.3129 -102.4
 3.100  0.7451  144.0   1.465   35.3  0.1068   29.0  0.3147 -104.8
 3.200  0.7484  142.1   1.420   33.6  0.1084   29.8  0.3171 -107.2
 3.300  0.7524  140.3   1.375   31.7  0.1101   30.5  0.3200 -109.5
 3.400  0.7572  138.6   1.333   29.7  0.1117   31.3  0.3234 -111.8
 3.500  0.7627  136.8   1.292   27.6  0.1134   32.0  0.3273 -114.0
 3.600  0.7651  135.2   1.256   26.0  0.1158   32.4  0.3296 -116.5
 3.700  0.7681  133.5   1.221   24.3  0.1183   32.8  0.3325 -119.0
 3.800  0.7718  131.9   1.188   22.6  0.1207   33.2  0.3361 -121.5
 3.900  0.7760  130.3   1.155   20.7  0.1231   33.6  0.3403 -123.9
 4.000  0.7809  128.7   1.124   18.7  0.1256   34.0  0.3450 -126.2
 4.100  0.7828  127.2   1.094   17.2  0.1284   34.3  0.3486 -128.9
 4.200  0.7852  125.8   1.066   15.6  0.1312   34.5  0.3530 -131.5
 4.300  0.7882  124.3   1.038   13.9  0.1341   34.8  0.3581 -134.0
 4.400  0.7916  122.9   1.011   12.2  0.1369   35.0  0.3639 -136.5
 4.500  0.7955  121.5   0.985   10.3  0.1397   35.2  0.3703 -138.9
 4.600  0.7977  120.4   0.959    9.1  0.1430   35.3  0.3763 -141.5
 4.700  0.8003  119.2   0.934    7.8  0.1463   35.4  0.3830 -143.9
 4.800  0.8031  118.1   0.910    6.4  0.1496   35.5  0.3904 -146.3
 4.900  0.8063  117.0   0.886    5.0  0.1529   35.5  0.3984 -148.6
 5.000  0.8097  115.9   0.862    3.5  0.1562   35.6  0.4071 -150.8
 5.100  0.8119  114.9   0.844    2.4  0.1599   35.4  0.4157 -152.9
 5.200  0.8143  113.8   0.825    1.3  0.1635   35.3  0.4248 -154.9
 5.300  0.8170  112.8   0.808    0.1  0.1672   35.2  0.4344 -156.8
 5.400  0.8200  111.8   0.790   -1.1  0.1708   35.0  0.4445 -158.6
 5.500  0.8232  110.8   0.773   -2.4  0.1745   34.9  0.4550 -160.4
 5.600  0.8230  109.8   0.756   -3.4  0.1783   34.5  0.4626 -162.0
 5.700  0.8230  108.8   0.739   -4.4  0.1822   34.1  0.4706 -163.5
 5.800  0.8233  107.9   0.723   -5.4  0.1860   33.7  0.4790 -165.0
 5.900  0.8238  106.9   0.707   -6.5  0.1898   33.3  0.4876 -166.4
 6.000  0.8245  105.9   0.691   -7.7  0.1937   33.0  0.4965 -167.8
!
!  f       NFmin   Gammaopt  rn/50
! GHz       dB    MAG  ANG    -
 0.450      0.73  0.32   50   0.29
 0.900      0.90  0.29   94   0.14
 1.900      1.50  0.43  165   0.08
 2.400      1.78  0.48  179   0.08
!
! (c) 2017  Infineon Technologies AG, Munich