! Infineon Technologies  Discrete & RF Semiconductors
! BFP183W
! VCE =  11. V,  IC =  7.0 mA
! Common Emitter S-Parameters:                            Jan 2017
# GHz  S  MA  R  50
!  f         S11            S21            S12            S22
! GHz     MAG   ANG      MAG   ANG      MAG   ANG      MAG   ANG
 0.010  0.8232   -2.7  21.778  178.4  0.0017   76.3  0.9933   -1.6
 0.020  0.8021   -8.4  21.410  175.6  0.0037   93.0  0.9817   -3.2
 0.030  0.7981  -11.5  21.290  173.6  0.0056   85.0  0.9800   -4.8
 0.040  0.7965  -14.5  21.197  171.6  0.0075   81.0  0.9791   -6.4
 0.050  0.7971  -17.6  21.129  169.6  0.0094   78.7  0.9790   -8.0
 0.060  0.7909  -21.0  20.914  167.7  0.0113   77.0  0.9705   -9.4
 0.070  0.7876  -24.5  20.724  165.7  0.0133   75.8  0.9626  -10.9
 0.080  0.7871  -27.9  20.558  163.7  0.0152   74.9  0.9553  -12.4
 0.090  0.7895  -31.4  20.418  161.7  0.0172   74.2  0.9487  -13.9
 0.100  0.7948  -34.8  20.304  159.6  0.0191   73.6  0.9427  -15.4
 0.110  0.7849  -38.0  20.029  157.9  0.0205   71.5  0.9316  -16.7
 0.120  0.7774  -41.2  19.772  156.1  0.0219   69.6  0.9210  -18.0
 0.130  0.7725  -44.5  19.535  154.3  0.0234   68.0  0.9109  -19.3
 0.140  0.7701  -47.8  19.318  152.4  0.0248   66.6  0.9013  -20.7
 0.150  0.7703  -51.1  19.122  150.5  0.0263   65.3  0.8922  -22.1
 0.200  0.7550  -65.1  17.764  142.1  0.0320   59.5  0.8349  -27.6
 0.250  0.7349  -78.0  16.424  134.7  0.0374   53.4  0.7768  -32.1
 0.300  0.7136  -89.1  15.060  128.6  0.0414   48.9  0.7213  -35.7
 0.350  0.6921  -97.9  13.875  124.1  0.0440   45.8  0.6745  -38.1
 0.400  0.6877 -107.0  12.793  118.7  0.0467   43.1  0.6291  -40.8
 0.450  0.6730 -113.7  11.832  115.2  0.0483   41.1  0.5941  -42.3
 0.500  0.6679 -120.6  10.921  111.2  0.0500   39.2  0.5596  -44.0
 0.600  0.6568 -131.6   9.487  105.0  0.0532   36.4  0.5073  -45.9
 0.700  0.6464 -140.4   8.321  100.0  0.0539   35.0  0.4679  -47.1
 0.800  0.6421 -147.7   7.423   95.5  0.0560   34.9  0.4396  -48.0
 0.900  0.6382 -154.0   6.662   91.7  0.0569   33.7  0.4165  -48.9
 1.000  0.6364 -159.2   6.065   88.3  0.0586   34.1  0.3992  -49.7
 1.100  0.6362 -164.0   5.549   85.3  0.0600   34.1  0.3865  -50.3
 1.200  0.6360 -168.3   5.109   82.2  0.0612   34.6  0.3748  -51.1
 1.300  0.6346 -172.1   4.731   79.5  0.0623   35.1  0.3657  -52.0
 1.400  0.6385 -175.5   4.421   76.9  0.0639   35.5  0.3581  -53.0
 1.500  0.6415 -178.9   4.135   74.4  0.0652   36.5  0.3516  -54.1
 1.600  0.6430  177.9   3.891   72.0  0.0664   37.2  0.3474  -55.2
 1.700  0.6442  174.9   3.675   69.7  0.0679   38.2  0.3422  -56.7
 1.800  0.6481  172.1   3.491   67.4  0.0694   38.9  0.3377  -58.1
 1.900  0.6507  169.6   3.312   65.3  0.0708   39.6  0.3345  -59.6
 2.000  0.6529  166.9   3.151   63.0  0.0733   40.4  0.3319  -61.0
 2.100  0.6554  164.3   3.011   60.9  0.0749   41.1  0.3294  -62.8
 2.200  0.6592  161.8   2.876   58.7  0.0766   41.7  0.3272  -64.6
 2.300  0.6636  159.5   2.757   56.7  0.0785   42.4  0.3260  -66.5
 2.400  0.6691  157.3   2.641   54.5  0.0805   43.1  0.3251  -68.5
 2.500  0.6713  155.2   2.537   52.6  0.0826   43.7  0.3241  -70.5
 2.600  0.6744  153.2   2.437   50.5  0.0848   44.3  0.3234  -72.5
 2.700  0.6790  151.2   2.350   48.7  0.0870   44.9  0.3233  -74.5
 2.800  0.6845  149.2   2.265   46.7  0.0893   45.4  0.3235  -76.5
 2.900  0.6873  147.3   2.189   44.8  0.0916   45.7  0.3227  -78.6
 3.000  0.6908  145.5   2.115   42.8  0.0940   45.9  0.3224  -80.7
 3.100  0.6936  143.7   2.050   41.2  0.0967   46.3  0.3223  -82.9
 3.200  0.6972  141.9   1.987   39.6  0.0993   46.7  0.3226  -85.1
 3.300  0.7014  140.1   1.926   37.8  0.1020   47.0  0.3234  -87.3
 3.400  0.7063  138.3   1.867   35.9  0.1046   47.4  0.3247  -89.4
 3.500  0.7118  136.6   1.810   33.9  0.1073   47.7  0.3264  -91.6
 3.600  0.7148  135.0   1.761   32.4  0.1103   47.7  0.3263  -94.0
 3.700  0.7184  133.5   1.714   30.8  0.1133   47.7  0.3268  -96.3
 3.800  0.7224  131.9   1.667   29.1  0.1164   47.6  0.3278  -98.7
 3.900  0.7270  130.4   1.623   27.3  0.1194   47.6  0.3293 -101.0
 4.000  0.7321  128.9   1.580   25.4  0.1224   47.6  0.3314 -103.3
 4.100  0.7350  127.5   1.540   23.9  0.1256   47.4  0.3320 -106.0
 4.200  0.7383  126.1   1.500   22.3  0.1288   47.2  0.3334 -108.6
 4.300  0.7421  124.7   1.462   20.7  0.1320   47.0  0.3355 -111.2
 4.400  0.7463  123.4   1.425   18.9  0.1352   46.8  0.3382 -113.8
 4.500  0.7509  122.0   1.390   17.1  0.1384   46.6  0.3416 -116.3
 4.600  0.7543  120.9   1.355   15.8  0.1418   46.4  0.3449 -119.0
 4.700  0.7579  119.8   1.322   14.5  0.1452   46.1  0.3489 -121.7
 4.800  0.7619  118.7   1.289   13.1  0.1486   45.9  0.3536 -124.3
 4.900  0.7661  117.6   1.256   11.6  0.1520   45.7  0.3591 -126.8
 5.000  0.7706  116.5   1.225   10.0  0.1554   45.5  0.3652 -129.2
 5.100  0.7727  115.5   1.199    8.8  0.1591   45.1  0.3719 -131.6
 5.200  0.7751  114.6   1.174    7.6  0.1629   44.6  0.3793 -134.0
 5.300  0.7777  113.6   1.149    6.3  0.1666   44.2  0.3873 -136.3
 5.400  0.7805  112.6   1.125    4.9  0.1703   43.9  0.3959 -138.4
 5.500  0.7835  111.7   1.101    3.5  0.1741   43.5  0.4050 -140.5
 5.600  0.7843  110.7   1.078    2.4  0.1779   42.9  0.4123 -142.4
 5.700  0.7854  109.8   1.055    1.3  0.1817   42.4  0.4200 -144.1
 5.800  0.7866  108.8   1.032    0.1  0.1855   41.8  0.4282 -145.9
 5.900  0.7881  107.9   1.010   -1.2  0.1893   41.3  0.4367 -147.5
 6.000  0.7898  106.9   0.989   -2.5  0.1931   40.8  0.4455 -149.1
!
!  f       NFmin   Gammaopt  rn/50
! GHz       dB    MAG  ANG    -
 0.450      0.82  0.16   68   0.11
 0.900      0.91  0.21  112   0.10
 1.900      1.45  0.39  172   0.07
 2.400      1.71  0.45 -173   0.09
!
! (c) 2017  Infineon Technologies AG, Munich