! Infineon Technologies  Discrete & RF Semiconductors
! BFP183W
! VCE =  1.0 V,  IC =  2.0 mA
! Common Emitter S-Parameters:                            Jan 2017
# GHz  S  MA  R  50
!  f         S11            S21            S12            S22
! GHz     MAG   ANG      MAG   ANG      MAG   ANG      MAG   ANG
 0.010  0.9454   -1.3   7.230  180.0  0.0027   88.1  0.9998   -1.0
 0.020  0.9213   -5.5   7.146  177.6  0.0058   89.3  0.9967   -2.0
 0.030  0.9194   -7.2   7.137  176.2  0.0091   85.4  0.9952   -3.0
 0.040  0.9184   -9.0   7.132  174.8  0.0124   83.6  0.9940   -4.0
 0.050  0.9182  -10.7   7.131  173.4  0.0157   82.5  0.9931   -5.0
 0.060  0.9171  -12.8   7.104  172.1  0.0186   81.1  0.9900   -6.0
 0.070  0.9173  -15.0   7.081  170.7  0.0216   80.1  0.9872   -6.9
 0.080  0.9187  -17.1   7.061  169.3  0.0246   79.3  0.9846   -7.9
 0.090  0.9215  -19.3   7.046  168.0  0.0275   78.7  0.9824   -8.9
 0.100  0.9255  -21.4   7.035  166.6  0.0305   78.2  0.9804   -9.9
 0.110  0.9192  -23.6   6.993  165.3  0.0334   76.6  0.9759  -10.8
 0.120  0.9141  -25.7   6.955  164.0  0.0363   75.2  0.9716  -11.8
 0.130  0.9105  -28.0   6.920  162.6  0.0392   74.1  0.9676  -12.7
 0.140  0.9081  -30.2   6.890  161.3  0.0422   73.1  0.9638  -13.6
 0.150  0.9072  -32.4   6.863  159.9  0.0451   72.2  0.9603  -14.6
 0.200  0.9001  -42.4   6.647  153.2  0.0581   66.4  0.9347  -19.0
 0.250  0.8862  -52.2   6.438  146.9  0.0697   61.0  0.9049  -23.0
 0.300  0.8637  -61.2   6.149  141.3  0.0796   55.9  0.8713  -26.7
 0.350  0.8425  -69.1   5.861  136.4  0.0879   51.1  0.8378  -29.7
 0.400  0.8381  -77.3   5.620  131.1  0.0967   47.1  0.8068  -33.0
 0.450  0.8174  -84.2   5.326  127.0  0.1022   43.5  0.7759  -35.4
 0.500  0.8089  -91.3   5.062  122.5  0.1080   40.2  0.7465  -37.9
 0.600  0.7877 -103.5   4.579  114.9  0.1162   34.7  0.6929  -41.7
 0.700  0.7679 -113.8   4.133  108.3  0.1216   29.6  0.6480  -44.8
 0.800  0.7543 -122.7   3.775  102.5  0.1255   26.0  0.6127  -47.4
 0.900  0.7413 -130.5   3.444   97.3  0.1282   22.4  0.5834  -49.7
 1.000  0.7351 -137.3   3.171   92.8  0.1294   19.7  0.5580  -51.7
 1.100  0.7299 -143.6   2.932   88.7  0.1303   17.2  0.5393  -53.5
 1.200  0.7245 -149.2   2.721   84.6  0.1302   14.7  0.5221  -55.3
 1.300  0.7207 -154.2   2.537   80.9  0.1299   13.0  0.5084  -57.0
 1.400  0.7220 -158.7   2.382   77.5  0.1292   11.5  0.4961  -58.9
 1.500  0.7232 -163.2   2.243   74.3  0.1288    9.9  0.4860  -60.6
 1.600  0.7231 -167.2   2.114   70.9  0.1275    8.7  0.4799  -62.3
 1.700  0.7253 -170.9   2.008   68.1  0.1257    7.8  0.4713  -64.4
 1.800  0.7290 -174.6   1.915   65.1  0.1250    7.1  0.4644  -66.2
 1.900  0.7322 -177.8   1.822   62.4  0.1227    6.4  0.4591  -68.1
 2.000  0.7340  178.6   1.741   59.4  0.1216    5.9  0.4550  -70.0
 2.100  0.7352  175.5   1.667   56.8  0.1201    5.5  0.4519  -72.0
 2.200  0.7386  172.4   1.596   53.9  0.1186    5.1  0.4494  -74.1
 2.300  0.7412  169.6   1.532   51.4  0.1163    4.9  0.4481  -76.4
 2.400  0.7455  166.8   1.471   48.7  0.1140    4.7  0.4476  -78.7
 2.500  0.7479  164.2   1.413   46.4  0.1119    5.0  0.4467  -81.0
 2.600  0.7518  161.7   1.358   43.9  0.1099    5.3  0.4465  -83.3
 2.700  0.7546  159.2   1.311   41.6  0.1081    5.8  0.4470  -85.6
 2.800  0.7589  156.7   1.266   39.2  0.1064    6.4  0.4482  -87.8
 2.900  0.7614  154.4   1.225   36.9  0.1053    7.2  0.4479  -90.0
 3.000  0.7650  152.2   1.186   34.5  0.1043    8.0  0.4483  -92.2
 3.100  0.7666  150.1   1.148   32.7  0.1031    9.4  0.4493  -94.6
 3.200  0.7693  148.0   1.112   30.8  0.1020   10.8  0.4510  -97.0
 3.300  0.7730  145.9   1.077   28.7  0.1009   12.2  0.4536  -99.4
 3.400  0.7778  143.8   1.043   26.5  0.0999   13.6  0.4569 -101.8
 3.500  0.7835  141.8   1.011   24.2  0.0990   15.1  0.4610 -104.1
 3.600  0.7855  140.0   0.982   22.5  0.0996   16.7  0.4622 -106.7
 3.700  0.7882  138.1   0.954   20.8  0.1003   18.2  0.4642 -109.2
 3.800  0.7918  136.3   0.928   18.9  0.1011   19.8  0.4672 -111.7
 3.900  0.7962  134.5   0.902   16.9  0.1019   21.3  0.4711 -114.2
 4.000  0.8013  132.7   0.877   14.8  0.1028   22.8  0.4758 -116.6
 4.100  0.8026  131.1   0.853   13.3  0.1048   24.3  0.4778 -119.3
 4.200  0.8046  129.4   0.829   11.7  0.1069   25.7  0.4809 -122.1
 4.300  0.8073  127.8   0.806   10.0  0.1090   27.0  0.4851 -124.7
 4.400  0.8106  126.2   0.784    8.2  0.1112   28.3  0.4903 -127.3
 4.500  0.8145  124.6   0.762    6.3  0.1135   29.6  0.4965 -129.9
 4.600  0.8168  123.3   0.741    5.1  0.1168   30.6  0.5009 -132.6
 4.700  0.8195  122.1   0.720    3.8  0.1200   31.6  0.5063 -135.2
 4.800  0.8225  120.9   0.700    2.5  0.1234   32.6  0.5128 -137.8
 4.900  0.8260  119.6   0.680    1.1  0.1267   33.5  0.5203 -140.3
 5.000  0.8298  118.4   0.661   -0.4  0.1301   34.3  0.5287 -142.7
 5.100  0.8317  117.3   0.646   -1.4  0.1344   34.6  0.5360 -145.0
 5.200  0.8338  116.2   0.631   -2.4  0.1388   34.9  0.5441 -147.3
 5.300  0.8363  115.1   0.616   -3.4  0.1431   35.2  0.5531 -149.5
 5.400  0.8391  114.0   0.601   -4.5  0.1475   35.5  0.5629 -151.6
 5.500  0.8422  112.9   0.587   -5.7  0.1518   35.7  0.5734 -153.7
 5.600  0.8421  111.8   0.573   -6.4  0.1564   35.5  0.5799 -155.6
 5.700  0.8423  110.7   0.559   -7.2  0.1609   35.4  0.5870 -157.4
 5.800  0.8429  109.7   0.545   -8.0  0.1655   35.3  0.5947 -159.2
 5.900  0.8437  108.6   0.532   -8.9  0.1700   35.1  0.6030 -161.0
 6.000  0.8448  107.5   0.518   -9.8  0.1746   35.0  0.6118 -162.7
!
!  f       NFmin   Gammaopt  rn/50
! GHz       dB    MAG  ANG    -
 0.450      0.76  0.48   45   0.22
 0.900      0.95  0.41   86   0.19
 1.900      1.77  0.52  156   0.09
 2.400      2.08  0.55  173   0.09
!
! (c) 2017  Infineon Technologies AG, Munich