! Infineon Technologies  Discrete & RF Semiconductors
! BFP183W
! VCE =  4.0 V,  IC =  30 mA
! Common Emitter S-Parameters:                            Jan 2017
# GHz  S  MA  R  50
!  f         S11            S21            S12            S22
! GHz     MAG   ANG      MAG   ANG      MAG   ANG      MAG   ANG
 0.010  0.3948  -12.6  58.311  175.5  0.0016   78.7  0.9697   -4.2
 0.020  0.3973  -27.8  57.674  169.8  0.0029   99.4  0.9535   -8.8
 0.030  0.3958  -39.2  55.839  165.4  0.0045   83.7  0.9296  -12.8
 0.040  0.4097  -50.2  54.350  160.8  0.0062   76.5  0.9105  -17.0
 0.050  0.4374  -60.1  53.238  155.9  0.0080   72.4  0.8965  -21.4
 0.060  0.4352  -68.5  50.968  152.8  0.0090   68.6  0.8611  -24.1
 0.070  0.4422  -76.7  48.862  149.4  0.0099   65.6  0.8277  -26.9
 0.080  0.4581  -84.6  46.945  145.7  0.0109   63.1  0.7966  -30.0
 0.090  0.4819  -91.8  45.239  141.7  0.0120   61.0  0.7681  -33.4
 0.100  0.5125  -98.2  43.769  137.4  0.0130   59.3  0.7423  -37.0
 0.110  0.5162 -103.0  41.937  135.3  0.0137   57.7  0.7130  -38.6
 0.120  0.5235 -107.8  40.165  133.1  0.0145   56.3  0.6844  -40.4
 0.130  0.5342 -112.3  38.459  130.7  0.0153   55.0  0.6565  -42.3
 0.140  0.5482 -116.7  36.829  128.0  0.0160   53.9  0.6294  -44.4
 0.150  0.5652 -120.8  35.286  125.1  0.0168   52.8  0.6032  -46.7
 0.200  0.5931 -134.6  28.831  116.4  0.0184   50.1  0.5022  -52.3
 0.250  0.6109 -144.4  24.175  110.2  0.0202   48.2  0.4286  -55.7
 0.300  0.6202 -151.5  20.657  105.7  0.0218   47.7  0.3745  -57.6
 0.350  0.6236 -156.3  18.299  102.8  0.0230   48.7  0.3394  -58.5
 0.400  0.6313 -161.0  16.001   99.1  0.0242   49.6  0.3043  -59.5
 0.450  0.6326 -164.2  14.461   97.0  0.0257   51.1  0.2832  -59.8
 0.500  0.6358 -167.4  12.945   94.4  0.0272   52.5  0.2622  -60.2
 0.600  0.6410 -172.4  10.903   90.6  0.0303   53.4  0.2353  -60.4
 0.700  0.6427 -176.3   9.373   87.5  0.0326   55.8  0.2165  -60.2
 0.800  0.6461 -179.8   8.239   84.5  0.0362   57.7  0.2046  -60.5
 0.900  0.6457  177.2   7.316   81.9  0.0395   59.2  0.1949  -61.1
 1.000  0.6506  174.5   6.617   79.6  0.0431   60.1  0.1876  -61.6
 1.100  0.6515  172.0   6.023   77.4  0.0458   61.4  0.1846  -62.2
 1.200  0.6533  169.7   5.522   75.1  0.0495   60.8  0.1801  -63.0
 1.300  0.6528  167.3   5.099   73.0  0.0526   61.7  0.1777  -64.2
 1.400  0.6559  165.3   4.754   70.9  0.0563   62.1  0.1748  -65.6
 1.500  0.6606  163.3   4.435   69.0  0.0600   62.3  0.1731  -67.1
 1.600  0.6639  161.2   4.164   66.9  0.0635   62.0  0.1727  -68.6
 1.700  0.6650  159.3   3.930   65.0  0.0675   62.7  0.1711  -70.6
 1.800  0.6677  157.3   3.725   63.0  0.0707   62.2  0.1704  -72.8
 1.900  0.6711  155.7   3.529   61.3  0.0740   62.0  0.1702  -74.8
 2.000  0.6737  153.7   3.350   59.3  0.0778   61.7  0.1706  -77.1
 2.100  0.6760  151.8   3.198   57.5  0.0813   61.4  0.1709  -79.7
 2.200  0.6791  149.9   3.050   55.5  0.0849   61.1  0.1715  -82.3
 2.300  0.6830  148.3   2.923   53.7  0.0885   60.7  0.1726  -85.1
 2.400  0.6874  146.7   2.799   51.8  0.0922   60.4  0.1741  -87.8
 2.500  0.6902  145.1   2.688   50.1  0.0956   59.8  0.1754  -90.5
 2.600  0.6935  143.5   2.580   48.3  0.0991   59.3  0.1771  -93.2
 2.700  0.6978  141.9   2.486   46.7  0.1026   58.9  0.1794  -95.9
 2.800  0.7027  140.4   2.394   44.9  0.1062   58.5  0.1821  -98.5
 2.900  0.7053  138.9   2.311   43.2  0.1096   57.8  0.1837 -101.3
 3.000  0.7084  137.4   2.231   41.4  0.1130   57.2  0.1858 -104.1
 3.100  0.7114  135.9   2.163   40.0  0.1164   56.7  0.1877 -106.8
 3.200  0.7149  134.4   2.097   38.5  0.1199   56.2  0.1901 -109.4
 3.300  0.7188  133.0   2.033   36.8  0.1234   55.7  0.1928 -111.9
 3.400  0.7232  131.5   1.970   35.1  0.1268   55.2  0.1959 -114.4
 3.500  0.7281  130.1   1.909   33.3  0.1303   54.8  0.1993 -116.8
 3.600  0.7312  128.7   1.858   31.9  0.1337   54.1  0.2016 -119.6
 3.700  0.7346  127.4   1.808   30.4  0.1371   53.4  0.2043 -122.3
 3.800  0.7385  126.0   1.759   28.8  0.1405   52.7  0.2075 -125.0
 3.900  0.7428  124.7   1.712   27.2  0.1439   52.1  0.2112 -127.5
 4.000  0.7475  123.4   1.666   25.4  0.1474   51.5  0.2152 -130.0
 4.100  0.7499  122.2   1.624   24.0  0.1507   50.8  0.2187 -132.9
 4.200  0.7526  121.0   1.583   22.6  0.1541   50.1  0.2227 -135.7
 4.300  0.7557  119.8   1.543   21.1  0.1575   49.4  0.2273 -138.4
 4.400  0.7591  118.6   1.504   19.5  0.1609   48.7  0.2323 -141.0
 4.500  0.7628  117.4   1.466   17.8  0.1643   48.1  0.2378 -143.5
 4.600  0.7656  116.4   1.431   16.6  0.1676   47.4  0.2438 -146.0
 4.700  0.7686  115.5   1.396   15.4  0.1710   46.8  0.2502 -148.5
 4.800  0.7718  114.6   1.362   14.1  0.1743   46.2  0.2571 -150.8
 4.900  0.7752  113.6   1.329   12.7  0.1777   45.6  0.2643 -152.9
 5.000  0.7788  112.7   1.296   11.3  0.1811   45.0  0.2719 -155.0
 5.100  0.7812  111.8   1.271   10.2  0.1845   44.3  0.2803 -156.9
 5.200  0.7838  110.9   1.246    9.0  0.1878   43.7  0.2891 -158.7
 5.300  0.7866  110.0   1.222    7.7  0.1912   43.1  0.2980 -160.3
 5.400  0.7896  109.2   1.198    6.4  0.1947   42.5  0.3073 -161.9
 5.500  0.7927  108.3   1.175    5.1  0.1981   41.9  0.3167 -163.4
 5.600  0.7932  107.4   1.152    4.0  0.2016   41.1  0.3242 -164.6
 5.700  0.7940  106.5   1.129    3.0  0.2051   40.3  0.3319 -165.8
 5.800  0.7949  105.6   1.106    1.8  0.2086   39.6  0.3397 -167.0
 5.900  0.7960  104.7   1.084    0.6  0.2122   38.9  0.3476 -168.1
 6.000  0.7973  103.8   1.063   -0.6  0.2158   38.2  0.3557 -169.1
!
!  f       NFmin   Gammaopt  rn/50
! GHz       dB    MAG  ANG    -
 0.450      1.39  0.27  180   0.10
 0.900      1.43  0.30 -178   0.09
 1.900      1.92  0.45 -156   0.10
 2.400      2.17  0.50 -152   0.15
!
! (c) 2017  Infineon Technologies AG, Munich