! Infineon Technologies  Discrete & RF Semiconductors
! BFP183W
! VCE =  5.0 V,  IC =  37 mA
! Common Emitter S-Parameters:                            Jan 2017
# GHz  S  MA  R  50
!  f         S11            S21            S12            S22
! GHz     MAG   ANG      MAG   ANG      MAG   ANG      MAG   ANG
 0.010  0.3458  -14.7  63.228  174.9  0.0014   98.7  0.9634   -4.3
 0.020  0.3535  -31.5  61.949  169.1  0.0030   83.3  0.9531   -9.2
 0.030  0.3555  -44.5  59.894  164.4  0.0045   74.5  0.9242  -13.3
 0.040  0.3751  -56.8  58.261  159.5  0.0060   70.0  0.9004  -17.7
 0.050  0.4098  -67.4  57.085  154.3  0.0075   67.4  0.8821  -22.3
 0.060  0.4118  -76.1  54.430  151.2  0.0085   65.8  0.8449  -24.9
 0.070  0.4230  -84.4  51.956  147.7  0.0094   64.5  0.8096  -27.7
 0.080  0.4427  -92.2  49.689  143.9  0.0104   63.5  0.7765  -30.8
 0.090  0.4699  -99.2  47.660  139.8  0.0113   62.6  0.7458  -34.2
 0.100  0.5032 -105.4  45.900  135.3  0.0123   61.9  0.7179  -37.8
 0.110  0.5089 -110.0  43.883  133.3  0.0129   59.7  0.6882  -39.3
 0.120  0.5178 -114.6  41.926  131.1  0.0135   57.7  0.6590  -40.9
 0.130  0.5298 -118.9  40.036  128.7  0.0141   55.8  0.6303  -42.7
 0.140  0.5447 -123.0  38.225  126.0  0.0148   54.1  0.6024  -44.7
 0.150  0.5623 -126.9  36.504  123.1  0.0154   52.6  0.5752  -46.8
 0.200  0.5918 -139.6  29.573  114.7  0.0165   50.2  0.4775  -51.6
 0.250  0.6085 -148.5  24.662  108.7  0.0183   49.2  0.4074  -54.3
 0.300  0.6175 -154.9  21.016  104.4  0.0197   49.6  0.3568  -55.7
 0.350  0.6226 -159.3  18.586  101.6  0.0210   50.8  0.3247  -56.1
 0.400  0.6314 -163.7  16.214   98.0  0.0223   51.8  0.2927  -56.6
 0.450  0.6324 -166.7  14.648   96.0  0.0239   53.3  0.2739  -56.5
 0.500  0.6351 -169.7  13.104   93.6  0.0255   54.6  0.2551  -56.4
 0.600  0.6389 -174.3  11.022   89.9  0.0283   56.4  0.2306  -56.3
 0.700  0.6407 -177.9   9.467   86.9  0.0313   59.3  0.2143  -55.9
 0.800  0.6443  178.7   8.315   84.0  0.0354   61.1  0.2047  -55.9
 0.900  0.6430  176.0   7.385   81.5  0.0381   61.5  0.1964  -56.4
 1.000  0.6477  173.5   6.678   79.2  0.0416   62.6  0.1900  -56.9
 1.100  0.6490  170.9   6.077   77.0  0.0451   62.8  0.1875  -57.5
 1.200  0.6501  168.5   5.571   74.8  0.0479   63.8  0.1844  -58.3
 1.300  0.6510  166.4   5.145   72.7  0.0515   63.5  0.1827  -59.5
 1.400  0.6533  164.5   4.795   70.7  0.0559   63.9  0.1797  -60.8
 1.500  0.6583  162.5   4.470   68.7  0.0592   64.2  0.1784  -62.4
 1.600  0.6616  160.5   4.201   66.7  0.0624   64.0  0.1783  -63.9
 1.700  0.6615  158.5   3.960   64.8  0.0662   64.1  0.1769  -66.0
 1.800  0.6659  156.7   3.753   62.9  0.0698   63.8  0.1766  -68.1
 1.900  0.6698  154.9   3.557   61.1  0.0729   63.7  0.1762  -70.2
 2.000  0.6721  153.1   3.377   59.1  0.0768   63.3  0.1768  -72.6
 2.100  0.6746  151.3   3.223   57.3  0.0803   63.0  0.1768  -75.2
 2.200  0.6778  149.6   3.073   55.4  0.0839   62.8  0.1771  -77.7
 2.300  0.6818  147.9   2.945   53.6  0.0876   62.3  0.1782  -80.4
 2.400  0.6863  146.3   2.821   51.7  0.0913   61.8  0.1796  -83.1
 2.500  0.6886  144.7   2.709   50.1  0.0948   61.3  0.1808  -86.0
 2.600  0.6915  143.2   2.600   48.3  0.0984   60.8  0.1825  -88.8
 2.700  0.6962  141.6   2.505   46.7  0.1018   60.3  0.1842  -91.5
 2.800  0.7014  140.1   2.413   44.9  0.1053   59.9  0.1862  -94.1
 2.900  0.7039  138.5   2.330   43.2  0.1087   59.3  0.1879  -96.9
 3.000  0.7069  137.0   2.249   41.4  0.1122   58.7  0.1901  -99.7
 3.100  0.7100  135.6   2.181   40.0  0.1156   58.1  0.1918 -102.4
 3.200  0.7135  134.1   2.114   38.5  0.1190   57.5  0.1939 -105.1
 3.300  0.7174  132.7   2.049   36.8  0.1225   57.0  0.1964 -107.6
 3.400  0.7218  131.3   1.986   35.1  0.1259   56.5  0.1992 -110.2
 3.500  0.7266  129.9   1.924   33.3  0.1294   56.0  0.2025 -112.6
 3.600  0.7297  128.6   1.872   31.9  0.1329   55.3  0.2045 -115.4
 3.700  0.7332  127.2   1.822   30.4  0.1364   54.6  0.2069 -118.2
 3.800  0.7371  125.9   1.773   28.9  0.1399   53.9  0.2098 -120.9
 3.900  0.7413  124.6   1.725   27.2  0.1434   53.3  0.2132 -123.6
 4.000  0.7460  123.3   1.679   25.5  0.1470   52.7  0.2170 -126.1
 4.100  0.7486  122.1   1.637   24.1  0.1503   51.9  0.2201 -129.1
 4.200  0.7515  120.9   1.595   22.7  0.1537   51.1  0.2238 -131.9
 4.300  0.7548  119.7   1.555   21.2  0.1571   50.4  0.2280 -134.7
 4.400  0.7584  118.5   1.516   19.6  0.1605   49.7  0.2328 -137.4
 4.500  0.7623  117.3   1.478   17.9  0.1640   49.0  0.2380 -139.9
 4.600  0.7654  116.3   1.442   16.7  0.1672   48.4  0.2438 -142.6
 4.700  0.7686  115.4   1.407   15.5  0.1705   47.7  0.2500 -145.1
 4.800  0.7722  114.4   1.373   14.1  0.1738   47.1  0.2568 -147.5
 4.900  0.7759  113.4   1.339   12.8  0.1771   46.6  0.2639 -149.8
 5.000  0.7798  112.5   1.306   11.3  0.1804   46.0  0.2715 -151.9
 5.100  0.7817  111.6   1.280   10.2  0.1839   45.3  0.2798 -153.9
 5.200  0.7838  110.8   1.255    9.0  0.1874   44.6  0.2884 -155.8
 5.300  0.7861  109.9   1.230    7.7  0.1909   43.9  0.2974 -157.6
 5.400  0.7886  109.0   1.206    6.4  0.1944   43.3  0.3066 -159.2
 5.500  0.7912  108.2   1.183    5.1  0.1980   42.7  0.3160 -160.8
 5.600  0.7919  107.3   1.160    4.0  0.2015   41.9  0.3236 -162.1
 5.700  0.7928  106.4   1.136    3.0  0.2049   41.2  0.3314 -163.4
 5.800  0.7938  105.6   1.114    1.8  0.2085   40.5  0.3393 -164.6
 5.900  0.7951  104.7   1.092    0.6  0.2120   39.8  0.3474 -165.7
 6.000  0.7965  103.8   1.070   -0.6  0.2156   39.1  0.3556 -166.8
!
!  f       NFmin   Gammaopt  rn/50
! GHz       dB    MAG  ANG    -
!
! noise parameter not available yet for this operation point!
!
! (c) 2017  Infineon Technologies AG, Munich