! Infineon Technologies  Discrete & RF Semiconductors
! BFP183W
! VCE =  6.0 V,  IC =  43 mA
! Common Emitter S-Parameters:                            Jan 2017
# GHz  S  MA  R  50
!  f         S11            S21            S12            S22
! GHz     MAG   ANG      MAG   ANG      MAG   ANG      MAG   ANG
 0.010  0.3229  -15.8  65.898  174.6  0.0014   95.4  0.9571   -4.2
 0.020  0.3310  -34.5  64.988  168.5  0.0028   93.6  0.9395   -9.2
 0.030  0.3367  -48.4  62.523  163.8  0.0041   82.3  0.9112  -13.4
 0.040  0.3609  -61.0  60.518  158.7  0.0054   76.6  0.8881  -17.9
 0.050  0.4002  -71.7  59.019  153.3  0.0068   73.1  0.8708  -22.6
 0.060  0.4042  -80.6  56.146  150.1  0.0077   68.4  0.8323  -25.1
 0.070  0.4175  -89.1  53.463  146.6  0.0087   64.8  0.7956  -27.9
 0.080  0.4393  -96.9  50.998  142.8  0.0097   61.8  0.7609  -30.9
 0.090  0.4685 -103.8  48.785  138.6  0.0107   59.5  0.7285  -34.2
 0.100  0.5037 -109.9  46.861  134.0  0.0117   57.5  0.6987  -37.8
 0.110  0.5100 -114.3  44.728  132.0  0.0122   56.6  0.6698  -39.2
 0.120  0.5193 -118.6  42.654  129.8  0.0127   55.8  0.6414  -40.7
 0.130  0.5314 -122.7  40.648  127.4  0.0133   55.1  0.6134  -42.3
 0.140  0.5460 -126.6  38.720  124.8  0.0138   54.4  0.5860  -44.1
 0.150  0.5631 -130.3  36.883  121.9  0.0143   53.8  0.5592  -46.1
 0.200  0.5925 -142.4  29.728  113.6  0.0150   50.5  0.4640  -50.1
 0.250  0.6119 -151.1  24.722  107.8  0.0174   51.0  0.3966  -52.3
 0.300  0.6218 -157.0  21.031  103.6  0.0186   51.7  0.3494  -53.0
 0.350  0.6244 -161.2  18.585  100.9  0.0199   53.1  0.3198  -53.1
 0.400  0.6304 -165.4  16.193   97.4  0.0212   54.3  0.2902  -53.2
 0.450  0.6324 -168.2  14.619   95.4  0.0226   55.5  0.2731  -52.9
 0.500  0.6359 -170.9  13.066   93.0  0.0241   56.6  0.2561  -52.6
 0.600  0.6395 -175.2  10.985   89.5  0.0277   57.9  0.2338  -52.1
 0.700  0.6409 -178.8   9.436   86.5  0.0304   61.1  0.2195  -51.6
 0.800  0.6447  178.2   8.286   83.7  0.0340   62.8  0.2108  -51.6
 0.900  0.6438  175.4   7.357   81.2  0.0375   62.5  0.2042  -52.0
 1.000  0.6468  172.8   6.650   78.9  0.0406   64.0  0.1988  -52.5
 1.100  0.6495  170.5   6.054   76.8  0.0440   64.8  0.1966  -53.2
 1.200  0.6509  168.1   5.550   74.5  0.0474   64.9  0.1935  -54.1
 1.300  0.6512  166.0   5.125   72.5  0.0508   65.2  0.1922  -55.3
 1.400  0.6544  164.0   4.775   70.5  0.0545   65.5  0.1900  -56.6
 1.500  0.6590  162.2   4.451   68.5  0.0577   65.2  0.1888  -58.1
 1.600  0.6605  160.2   4.182   66.5  0.0617   65.3  0.1888  -59.9
 1.700  0.6623  158.1   3.943   64.6  0.0650   65.4  0.1880  -61.9
 1.800  0.6668  156.3   3.740   62.7  0.0685   65.1  0.1871  -64.0
 1.900  0.6710  154.7   3.542   61.0  0.0722   64.7  0.1866  -66.0
 2.000  0.6714  152.8   3.362   59.0  0.0757   64.7  0.1872  -68.4
 2.100  0.6745  151.0   3.210   57.2  0.0793   64.1  0.1872  -71.0
 2.200  0.6783  149.3   3.061   55.2  0.0830   63.5  0.1876  -73.5
 2.300  0.6819  147.6   2.934   53.5  0.0866   63.1  0.1882  -76.2
 2.400  0.6860  146.0   2.809   51.6  0.0903   62.8  0.1892  -78.9
 2.500  0.6880  144.5   2.698   49.9  0.0937   62.3  0.1903  -81.7
 2.600  0.6905  143.0   2.589   48.1  0.0971   61.9  0.1919  -84.5
 2.700  0.6949  141.4   2.495   46.5  0.1006   61.4  0.1934  -87.2
 2.800  0.6998  139.8   2.403   44.7  0.1042   60.9  0.1953  -89.8
 2.900  0.7030  138.3   2.320   43.1  0.1076   60.1  0.1968  -92.6
 3.000  0.7066  136.9   2.240   41.3  0.1111   59.4  0.1988  -95.4
 3.100  0.7095  135.4   2.172   39.9  0.1146   58.9  0.2002  -98.1
 3.200  0.7128  134.0   2.106   38.4  0.1180   58.4  0.2020 -100.8
 3.300  0.7166  132.5   2.041   36.7  0.1215   57.9  0.2042 -103.4
 3.400  0.7209  131.1   1.977   35.0  0.1250   57.4  0.2068 -106.0
 3.500  0.7256  129.7   1.916   33.2  0.1285   57.0  0.2099 -108.5
 3.600  0.7289  128.4   1.865   31.8  0.1320   56.2  0.2115 -111.3
 3.700  0.7325  127.1   1.814   30.3  0.1355   55.5  0.2137 -114.1
 3.800  0.7366  125.8   1.766   28.8  0.1391   54.8  0.2164 -116.9
 3.900  0.7410  124.5   1.718   27.1  0.1426   54.1  0.2195 -119.5
 4.000  0.7458  123.2   1.672   25.4  0.1462   53.5  0.2231 -122.1
 4.100  0.7483  122.0   1.630   24.0  0.1496   52.7  0.2259 -125.1
 4.200  0.7512  120.8   1.588   22.6  0.1529   52.0  0.2293 -128.0
 4.300  0.7544  119.6   1.548   21.0  0.1563   51.3  0.2333 -130.8
 4.400  0.7579  118.4   1.509   19.4  0.1598   50.6  0.2378 -133.5
 4.500  0.7617  117.2   1.471   17.7  0.1632   50.0  0.2428 -136.1
 4.600  0.7648  116.2   1.436   16.5  0.1665   49.3  0.2482 -138.9
 4.700  0.7681  115.3   1.401   15.3  0.1699   48.6  0.2542 -141.5
 4.800  0.7716  114.4   1.367   14.0  0.1733   48.0  0.2606 -144.0
 4.900  0.7754  113.4   1.334   12.6  0.1767   47.4  0.2676 -146.4
 5.000  0.7793  112.5   1.302   11.2  0.1801   46.8  0.2750 -148.7
 5.100  0.7814  111.6   1.276   10.1  0.1835   46.1  0.2832 -150.8
 5.200  0.7837  110.7   1.251    8.9  0.1870   45.4  0.2919 -152.8
 5.300  0.7862  109.8   1.226    7.6  0.1905   44.7  0.3008 -154.6
 5.400  0.7889  109.0   1.202    6.3  0.1941   44.1  0.3100 -156.4
 5.500  0.7917  108.1   1.179    5.0  0.1976   43.5  0.3195 -158.0
 5.600  0.7925  107.2   1.156    3.9  0.2010   42.7  0.3272 -159.4
 5.700  0.7936  106.3   1.133    2.8  0.2045   41.9  0.3351 -160.7
 5.800  0.7948  105.5   1.110    1.7  0.2081   41.1  0.3431 -162.0
 5.900  0.7962  104.6   1.088    0.5  0.2116   40.4  0.3513 -163.2
 6.000  0.7978  103.7   1.067   -0.8  0.2152   39.7  0.3597 -164.4
!
!  f       NFmin   Gammaopt  rn/50
! GHz       dB    MAG  ANG    -
!
! noise parameter not available yet for this operation point!
!
! (c) 2017  Infineon Technologies AG, Munich