! Infineon Technologies  Discrete & RF Semiconductors
! BFP183W
! VCE =  8.0 V,  IC =  54 mA
! Common Emitter S-Parameters:                            Jan 2017
# GHz  S  MA  R  50
!  f         S11            S21            S12            S22
! GHz     MAG   ANG      MAG   ANG      MAG   ANG      MAG   ANG
 0.010  0.3064  -18.1  65.533  174.0  0.0016   80.9  0.9349   -4.0
 0.020  0.3247  -38.4  64.147  167.6  0.0025   85.2  0.9186   -9.1
 0.030  0.3324  -53.7  61.487  162.6  0.0039   73.7  0.8876  -13.2
 0.040  0.3619  -67.3  59.337  157.2  0.0055   68.4  0.8615  -17.6
 0.050  0.4083  -78.4  57.755  151.4  0.0070   65.5  0.8407  -22.2
 0.060  0.4144  -87.3  54.683  148.2  0.0078   63.3  0.8028  -24.4
 0.070  0.4299  -95.7  51.797  144.7  0.0086   61.4  0.7662  -26.8
 0.080  0.4541 -103.4  49.131  140.8  0.0094   59.9  0.7311  -29.4
 0.090  0.4855 -110.2  46.723  136.4  0.0103   58.7  0.6977  -32.3
 0.100  0.5229 -116.1  44.613  131.6  0.0111   57.6  0.6663  -35.5
 0.110  0.5298 -120.2  42.470  129.7  0.0115   55.9  0.6393  -36.5
 0.120  0.5394 -124.2  40.381  127.6  0.0119   54.4  0.6125  -37.6
 0.130  0.5514 -128.0  38.352  125.2  0.0123   52.9  0.5859  -38.8
 0.140  0.5658 -131.7  36.396  122.6  0.0128   51.6  0.5596  -40.1
 0.150  0.5824 -135.1  34.523  119.7  0.0132   50.3  0.5336  -41.5
 0.200  0.6111 -146.5  27.575  111.8  0.0143   50.5  0.4495  -43.7
 0.250  0.6271 -154.4  22.804  106.2  0.0161   50.5  0.3926  -44.2
 0.300  0.6373 -160.0  19.339  102.3  0.0171   51.6  0.3535  -43.8
 0.350  0.6404 -163.8  17.071   99.8  0.0184   53.7  0.3307  -43.2
 0.400  0.6464 -167.6  14.846   96.5  0.0198   55.5  0.3079  -42.6
 0.450  0.6471 -170.3  13.406   94.7  0.0212   56.2  0.2955  -42.2
 0.500  0.6491 -172.9  11.983   92.4  0.0226   56.8  0.2832  -41.7
 0.600  0.6528 -176.9  10.059   89.1  0.0257   59.8  0.2678  -41.4
 0.700  0.6548  179.7   8.643   86.2  0.0285   62.6  0.2574  -41.2
 0.800  0.6589  176.6   7.597   83.4  0.0322   64.7  0.2516  -41.7
 0.900  0.6569  173.9   6.749   81.1  0.0352   65.1  0.2470  -42.7
 1.000  0.6596  171.7   6.107   78.8  0.0383   65.5  0.2432  -43.5
 1.100  0.6617  169.3   5.562   76.8  0.0422   66.6  0.2419  -44.7
 1.200  0.6618  167.0   5.101   74.5  0.0450   66.9  0.2398  -46.1
 1.300  0.6631  165.0   4.717   72.5  0.0485   66.8  0.2382  -47.6
 1.400  0.6653  163.2   4.397   70.5  0.0522   67.4  0.2368  -49.3
 1.500  0.6688  161.3   4.105   68.6  0.0555   67.1  0.2355  -51.1
 1.600  0.6722  159.3   3.860   66.6  0.0591   67.4  0.2351  -52.9
 1.700  0.6730  157.3   3.642   64.7  0.0627   66.8  0.2338  -55.0
 1.800  0.6758  155.6   3.455   62.8  0.0665   66.9  0.2327  -57.2
 1.900  0.6804  153.8   3.276   61.0  0.0699   66.6  0.2321  -59.3
 2.000  0.6818  151.9   3.112   59.0  0.0735   66.5  0.2323  -61.8
 2.100  0.6842  150.2   2.973   57.2  0.0772   66.2  0.2316  -64.2
 2.200  0.6871  148.6   2.837   55.2  0.0810   66.0  0.2313  -66.7
 2.300  0.6913  146.9   2.721   53.5  0.0844   65.5  0.2315  -69.4
 2.400  0.6960  145.3   2.608   51.6  0.0878   65.0  0.2321  -72.0
 2.500  0.6976  143.7   2.506   49.9  0.0913   64.4  0.2327  -74.7
 2.600  0.6998  142.2   2.406   48.1  0.0948   63.9  0.2337  -77.3
 2.700  0.7042  140.7   2.319   46.5  0.0984   63.4  0.2345  -80.0
 2.800  0.7090  139.2   2.235   44.7  0.1021   62.9  0.2359  -82.7
 2.900  0.7115  137.6   2.159   43.0  0.1054   62.1  0.2367  -85.4
 3.000  0.7146  136.1   2.086   41.2  0.1087   61.4  0.2381  -88.0
 3.100  0.7177  134.7   2.023   39.7  0.1123   60.9  0.2388  -90.7
 3.200  0.7213  133.3   1.962   38.2  0.1159   60.4  0.2399  -93.3
 3.300  0.7253  131.9   1.902   36.5  0.1195   59.9  0.2416  -96.0
 3.400  0.7297  130.5   1.843   34.8  0.1231   59.4  0.2438  -98.6
 3.500  0.7346  129.1   1.787   32.9  0.1267   59.0  0.2465 -101.1
 3.600  0.7374  127.8   1.740   31.5  0.1303   58.2  0.2473 -103.9
 3.700  0.7406  126.4   1.693   30.0  0.1338   57.5  0.2488 -106.7
 3.800  0.7442  125.1   1.648   28.4  0.1374   56.8  0.2507 -109.4
 3.900  0.7482  123.8   1.604   26.8  0.1411   56.1  0.2533 -112.1
 4.000  0.7526  122.5   1.562   25.0  0.1447   55.5  0.2564 -114.7
 4.100  0.7551  121.3   1.523   23.6  0.1481   54.7  0.2584 -117.6
 4.200  0.7579  120.2   1.484   22.2  0.1516   54.0  0.2610 -120.5
 4.300  0.7611  119.0   1.447   20.6  0.1551   53.2  0.2643 -123.4
 4.400  0.7645  117.8   1.411   19.0  0.1587   52.6  0.2682 -126.1
 4.500  0.7683  116.7   1.376   17.3  0.1622   51.9  0.2727 -128.8
 4.600  0.7712  115.7   1.343   16.1  0.1656   51.2  0.2773 -131.6
 4.700  0.7742  114.8   1.310   14.8  0.1691   50.5  0.2825 -134.4
 4.800  0.7775  113.9   1.278   13.5  0.1725   49.8  0.2884 -137.0
 4.900  0.7810  112.9   1.247   12.1  0.1760   49.2  0.2948 -139.6
 5.000  0.7847  112.0   1.217   10.6  0.1795   48.6  0.3018 -142.0
 5.100  0.7871  111.1   1.193    9.5  0.1831   47.8  0.3095 -144.3
 5.200  0.7897  110.2   1.169    8.3  0.1867   47.1  0.3176 -146.4
 5.300  0.7924  109.3   1.146    7.1  0.1904   46.4  0.3262 -148.5
 5.400  0.7954  108.5   1.124    5.8  0.1941   45.7  0.3352 -150.5
 5.500  0.7985  107.6   1.102    4.5  0.1978   45.1  0.3445 -152.3
 5.600  0.7987  106.7   1.080    3.4  0.2014   44.3  0.3521 -153.9
 5.700  0.7992  105.8   1.058    2.3  0.2050   43.5  0.3599 -155.5
 5.800  0.7998  104.9   1.037    1.2  0.2087   42.7  0.3680 -156.9
 5.900  0.8007  104.0   1.016   -0.0  0.2124   42.0  0.3764 -158.3
 6.000  0.8017  103.1   0.995   -1.3  0.2162   41.3  0.3849 -159.7
!
!  f       NFmin   Gammaopt  rn/50
! GHz       dB    MAG  ANG    -
!
! noise parameter not available yet for this operation point!
!
! (c) 2017  Infineon Technologies AG, Munich