! Infineon Technologies  Discrete & RF Semiconductors
! BFP183W
! VCE =  5.0 V,  IC =  25 mA
! Common Emitter S-Parameters:                            Jan 2017
# GHz  S  MA  R  50
!  f         S11            S21            S12            S22
! GHz     MAG   ANG      MAG   ANG      MAG   ANG      MAG   ANG
 0.010  0.4696   -9.5  53.131  175.9  0.0015   92.3  0.9774   -3.7
 0.020  0.4672  -21.7  52.332  170.9  0.0031   85.6  0.9630   -7.7
 0.030  0.4615  -31.0  51.051  166.9  0.0048   77.7  0.9441  -11.3
 0.040  0.4680  -40.3  50.026  162.8  0.0066   73.9  0.9291  -15.1
 0.050  0.4864  -49.1  49.273  158.5  0.0084   71.8  0.9182  -18.9
 0.060  0.4790  -56.6  47.486  155.5  0.0095   69.3  0.8875  -21.5
 0.070  0.4800  -64.2  45.842  152.2  0.0107   67.4  0.8587  -24.2
 0.080  0.4893  -71.7  44.356  148.7  0.0119   65.8  0.8320  -27.2
 0.090  0.5065  -78.7  43.045  145.0  0.0130   64.6  0.8076  -30.3
 0.100  0.5308  -85.2  41.926  141.1  0.0142   63.5  0.7858  -33.6
 0.110  0.5296  -90.2  40.344  139.0  0.0150   60.8  0.7580  -35.3
 0.120  0.5324  -95.1  38.822  136.7  0.0158   58.4  0.7308  -37.1
 0.130  0.5391 -100.0  37.367  134.2  0.0167   56.3  0.7045  -39.0
 0.140  0.5496 -104.7  35.987  131.6  0.0175   54.4  0.6789  -41.1
 0.150  0.5637 -109.2  34.690  128.7  0.0184   52.6  0.6544  -43.3
 0.200  0.5881 -124.5  28.836  119.8  0.0201   50.1  0.5532  -49.3
 0.250  0.6005 -135.9  24.442  113.1  0.0220   47.5  0.4760  -53.0
 0.300  0.6094 -144.0  21.021  108.3  0.0232   46.2  0.4174  -55.4
 0.350  0.6119 -149.6  18.679  105.2  0.0245   46.9  0.3787  -56.5
 0.400  0.6202 -155.1  16.407  101.2  0.0259   47.6  0.3401  -57.8
 0.450  0.6202 -158.9  14.852   99.0  0.0273   48.5  0.3165  -58.2
 0.500  0.6229 -162.7  13.324   96.2  0.0287   49.4  0.2930  -58.7
 0.600  0.6263 -168.4  11.241   92.2  0.0317   51.1  0.2617  -59.1
 0.700  0.6291 -172.9   9.678   88.9  0.0343   53.4  0.2400  -59.1
 0.800  0.6320 -176.8   8.511   85.8  0.0372   55.8  0.2263  -59.3
 0.900  0.6320  179.9   7.566   83.1  0.0404   56.0  0.2153  -59.8
 1.000  0.6365  177.0   6.846   80.6  0.0433   57.0  0.2059  -60.2
 1.100  0.6372  174.3   6.231   78.4  0.0468   58.2  0.2015  -60.8
 1.200  0.6377  171.6   5.714   76.0  0.0499   58.4  0.1967  -61.5
 1.300  0.6399  169.3   5.279   73.9  0.0526   59.4  0.1933  -62.6
 1.400  0.6430  166.9   4.922   71.8  0.0565   59.9  0.1898  -63.8
 1.500  0.6463  165.0   4.589   69.9  0.0601   60.3  0.1874  -65.3
 1.600  0.6479  162.8   4.313   67.8  0.0630   60.2  0.1865  -66.6
 1.700  0.6504  160.7   4.066   65.9  0.0666   60.4  0.1844  -68.5
 1.800  0.6537  158.7   3.858   63.9  0.0704   60.1  0.1831  -70.5
 1.900  0.6587  157.0   3.653   62.1  0.0733   60.3  0.1826  -72.4
 2.000  0.6597  155.0   3.471   60.1  0.0771   60.4  0.1825  -74.7
 2.100  0.6626  153.1   3.314   58.3  0.0804   60.0  0.1821  -77.1
 2.200  0.6662  151.2   3.161   56.3  0.0838   59.6  0.1821  -79.5
 2.300  0.6701  149.5   3.029   54.5  0.0872   59.3  0.1828  -82.1
 2.400  0.6746  147.8   2.900   52.6  0.0907   59.1  0.1838  -84.6
 2.500  0.6775  146.2   2.785   50.9  0.0942   58.6  0.1847  -87.3
 2.600  0.6809  144.6   2.673   49.1  0.0978   58.2  0.1861  -90.0
 2.700  0.6851  142.9   2.576   47.5  0.1011   57.8  0.1877  -92.6
 2.800  0.6898  141.3   2.481   45.7  0.1045   57.5  0.1897  -95.2
 2.900  0.6927  139.7   2.395   44.0  0.1077   56.9  0.1911  -97.9
 3.000  0.6962  138.2   2.312   42.2  0.1109   56.4  0.1930 -100.5
 3.100  0.6993  136.7   2.242   40.8  0.1143   55.9  0.1945 -103.1
 3.200  0.7030  135.2   2.174   39.3  0.1178   55.5  0.1963 -105.7
 3.300  0.7071  133.7   2.107   37.6  0.1213   55.1  0.1985 -108.2
 3.400  0.7117  132.2   2.042   35.9  0.1247   54.7  0.2011 -110.6
 3.500  0.7167  130.8   1.979   34.1  0.1282   54.3  0.2041 -113.0
 3.600  0.7198  129.4   1.926   32.7  0.1316   53.6  0.2059 -115.8
 3.700  0.7233  128.1   1.874   31.2  0.1350   53.0  0.2081 -118.5
 3.800  0.7273  126.7   1.824   29.6  0.1384   52.3  0.2108 -121.2
 3.900  0.7316  125.4   1.775   28.0  0.1418   51.8  0.2140 -123.8
 4.000  0.7363  124.1   1.728   26.2  0.1452   51.2  0.2176 -126.3
 4.100  0.7389  122.9   1.684   24.8  0.1485   50.5  0.2207 -129.2
 4.200  0.7418  121.6   1.642   23.4  0.1517   49.8  0.2243 -132.0
 4.300  0.7451  120.4   1.600   21.9  0.1550   49.1  0.2284 -134.8
 4.400  0.7487  119.2   1.560   20.3  0.1584   48.4  0.2331 -137.4
 4.500  0.7527  118.0   1.521   18.6  0.1617   47.8  0.2382 -139.9
 4.600  0.7558  117.0   1.485   17.4  0.1650   47.2  0.2438 -142.5
 4.700  0.7592  116.1   1.449   16.1  0.1684   46.6  0.2499 -145.1
 4.800  0.7627  115.1   1.414   14.8  0.1717   46.1  0.2565 -147.5
 4.900  0.7665  114.1   1.380   13.4  0.1751   45.5  0.2635 -149.7
 5.000  0.7705  113.2   1.347   11.9  0.1785   45.0  0.2709 -151.9
 5.100  0.7728  112.3   1.320   10.8  0.1818   44.3  0.2790 -153.9
 5.200  0.7753  111.5   1.294    9.6  0.1851   43.7  0.2875 -155.7
 5.300  0.7780  110.6   1.268    8.4  0.1885   43.0  0.2962 -157.5
 5.400  0.7808  109.7   1.243    7.1  0.1918   42.4  0.3052 -159.1
 5.500  0.7838  108.9   1.218    5.8  0.1952   41.8  0.3144 -160.7
 5.600  0.7845  108.0   1.194    4.7  0.1986   41.1  0.3220 -162.0
 5.700  0.7854  107.1   1.171    3.6  0.2021   40.3  0.3298 -163.2
 5.800  0.7865  106.3   1.148    2.5  0.2056   39.6  0.3377 -164.4
 5.900  0.7877  105.4   1.125    1.3  0.2091   39.0  0.3458 -165.5
 6.000  0.7892  104.5   1.103    0.0  0.2127   38.3  0.3540 -166.6
!
!  f       NFmin   Gammaopt  rn/50
! GHz       dB    MAG  ANG    -
 0.450      1.29  0.25  177   0.10
 0.900      1.32  0.28  180   0.09
 1.900      1.80  0.43 -158   0.09
 2.400      2.04  0.48 -154   0.13
!
! (c) 2017  Infineon Technologies AG, Munich