! Infineon Technologies  Discrete & RF Semiconductors
! BFP183W
! VCE =  11. V,  IC =  35 mA
! Common Emitter S-Parameters:                            Jan 2017
# GHz  S  MA  R  50
!  f         S11            S21            S12            S22
! GHz     MAG   ANG      MAG   ANG      MAG   ANG      MAG   ANG
 0.010  0.5080   -8.3  48.729  174.9  0.0017   61.0  0.9323   -2.8
 0.020  0.5025  -20.0  47.590  169.8  0.0030   78.2  0.9204   -6.3
 0.030  0.4920  -28.3  46.158  165.8  0.0045   74.0  0.9030   -9.3
 0.040  0.4921  -36.8  44.970  161.5  0.0061   71.9  0.8881  -12.3
 0.050  0.5029  -45.1  44.045  157.0  0.0076   70.6  0.8759  -15.5
 0.060  0.4914  -51.8  42.293  154.2  0.0087   68.1  0.8509  -17.4
 0.070  0.4868  -58.7  40.652  151.1  0.0099   66.1  0.8270  -19.5
 0.080  0.4894  -65.6  39.138  147.8  0.0111   64.6  0.8042  -21.7
 0.090  0.4990  -72.4  37.764  144.2  0.0122   63.3  0.7826  -24.0
 0.100  0.5152  -78.8  36.548  140.4  0.0134   62.3  0.7624  -26.4
 0.110  0.5112  -83.3  35.135  138.5  0.0142   60.9  0.7412  -27.6
 0.120  0.5104  -87.8  33.763  136.5  0.0150   59.6  0.7203  -28.8
 0.130  0.5128  -92.3  32.437  134.3  0.0158   58.4  0.6997  -30.1
 0.140  0.5182  -96.7  31.163  131.9  0.0166   57.4  0.6796  -31.4
 0.150  0.5267 -101.0  29.948  129.3  0.0174   56.4  0.6598  -32.9
 0.200  0.5501 -116.9  25.155  121.3  0.0197   52.4  0.5816  -37.0
 0.250  0.5582 -127.9  21.451  115.2  0.0229   49.5  0.5223  -39.4
 0.300  0.5775 -136.5  18.677  110.7  0.0242   47.9  0.4755  -41.2
 0.350  0.5814 -142.6  16.688  107.6  0.0257   47.8  0.4431  -41.9
 0.400  0.5918 -148.6  14.761  103.7  0.0272   47.8  0.4107  -42.8
 0.450  0.5951 -152.9  13.432  101.4  0.0287   47.3  0.3905  -43.2
 0.500  0.6016 -157.1  12.129   98.6  0.0302   46.9  0.3703  -43.6
 0.600  0.6118 -163.5  10.298   94.5  0.0318   49.2  0.3416  -44.1
 0.700  0.6149 -168.7   8.907   91.0  0.0342   49.8  0.3220  -44.4
 0.800  0.6192 -173.0   7.877   87.8  0.0375   52.7  0.3097  -45.0
 0.900  0.6211 -176.7   7.021   85.0  0.0401   52.7  0.2990  -45.9
 1.000  0.6244 -179.9   6.372   82.5  0.0423   54.6  0.2905  -46.6
 1.100  0.6276  176.9   5.817   80.1  0.0453   55.0  0.2859  -47.6
 1.200  0.6291  174.1   5.343   77.7  0.0477   55.9  0.2805  -48.6
 1.300  0.6298  171.5   4.945   75.4  0.0503   56.6  0.2767  -49.9
 1.400  0.6327  169.2   4.619   73.3  0.0541   57.7  0.2727  -51.3
 1.500  0.6378  167.0   4.313   71.2  0.0569   57.8  0.2697  -52.9
 1.600  0.6410  164.6   4.058   69.1  0.0598   58.5  0.2678  -54.4
 1.700  0.6423  162.3   3.832   67.1  0.0630   58.9  0.2654  -56.2
 1.800  0.6472  160.3   3.639   65.0  0.0661   59.0  0.2630  -58.0
 1.900  0.6501  158.6   3.451   63.3  0.0688   59.2  0.2615  -59.8
 2.000  0.6529  156.4   3.281   61.2  0.0724   59.2  0.2603  -61.9
 2.100  0.6562  154.4   3.136   59.3  0.0757   59.1  0.2589  -64.1
 2.200  0.6603  152.4   2.994   57.2  0.0791   59.1  0.2578  -66.3
 2.300  0.6643  150.5   2.871   55.4  0.0822   59.0  0.2572  -68.6
 2.400  0.6690  148.7   2.751   53.5  0.0854   58.9  0.2571  -71.0
 2.500  0.6716  147.1   2.644   51.7  0.0887   58.6  0.2568  -73.3
 2.600  0.6748  145.5   2.540   49.8  0.0921   58.4  0.2570  -75.7
 2.700  0.6786  143.9   2.449   48.1  0.0952   58.2  0.2572  -78.2
 2.800  0.6830  142.3   2.360   46.3  0.0984   58.1  0.2579  -80.6
 2.900  0.6862  140.6   2.282   44.6  0.1015   57.6  0.2579  -83.1
 3.000  0.6900  139.0   2.206   42.7  0.1046   57.2  0.2584  -85.5
 3.100  0.6933  137.5   2.140   41.2  0.1080   56.9  0.2585  -88.0
 3.200  0.6970  135.9   2.075   39.7  0.1114   56.5  0.2592  -90.4
 3.300  0.7013  134.4   2.011   38.0  0.1149   56.2  0.2603  -92.9
 3.400  0.7060  133.0   1.950   36.3  0.1183   56.0  0.2619  -95.3
 3.500  0.7112  131.5   1.890   34.4  0.1217   55.7  0.2639  -97.7
 3.600  0.7142  130.1   1.840   32.9  0.1251   55.1  0.2642 -100.3
 3.700  0.7177  128.7   1.791   31.4  0.1285   54.5  0.2650 -102.9
 3.800  0.7216  127.4   1.743   29.8  0.1319   53.9  0.2664 -105.5
 3.900  0.7258  126.0   1.697   28.1  0.1354   53.4  0.2683 -108.0
 4.000  0.7305  124.7   1.652   26.3  0.1388   52.9  0.2707 -110.5
 4.100  0.7335  123.4   1.611   24.9  0.1421   52.2  0.2720 -113.4
 4.200  0.7369  122.2   1.570   23.4  0.1455   51.6  0.2739 -116.2
 4.300  0.7406  120.9   1.531   21.8  0.1488   51.0  0.2765 -118.9
 4.400  0.7447  119.7   1.493   20.1  0.1522   50.4  0.2798 -121.7
 4.500  0.7491  118.5   1.456   18.4  0.1556   49.9  0.2836 -124.3
 4.600  0.7523  117.5   1.421   17.2  0.1590   49.3  0.2875 -127.1
 4.700  0.7557  116.5   1.386   15.9  0.1624   48.8  0.2921 -129.9
 4.800  0.7593  115.5   1.352   14.5  0.1658   48.2  0.2973 -132.5
 4.900  0.7632  114.5   1.319   13.1  0.1693   47.7  0.3032 -135.1
 5.000  0.7673  113.5   1.287   11.6  0.1727   47.2  0.3096 -137.5
 5.100  0.7697  112.6   1.261   10.4  0.1762   46.5  0.3169 -139.8
 5.200  0.7723  111.7   1.236    9.2  0.1797   45.8  0.3247 -142.1
 5.300  0.7750  110.8   1.211    7.9  0.1833   45.2  0.3329 -144.2
 5.400  0.7780  110.0   1.187    6.6  0.1868   44.6  0.3416 -146.2
 5.500  0.7811  109.1   1.164    5.2  0.1904   44.0  0.3507 -148.1
 5.600  0.7817  108.2   1.140    4.1  0.1940   43.3  0.3581 -149.8
 5.700  0.7825  107.3   1.117    3.0  0.1977   42.6  0.3659 -151.3
 5.800  0.7835  106.4   1.094    1.8  0.2014   41.9  0.3739 -152.9
 5.900  0.7846  105.5   1.072    0.6  0.2051   41.2  0.3821 -154.3
 6.000  0.7860  104.6   1.050   -0.7  0.2088   40.6  0.3906 -155.7
!
!  f       NFmin   Gammaopt  rn/50
! GHz       dB    MAG  ANG    -
 0.450      1.51  0.29 -177   0.10
 0.900      1.56  0.32 -176   0.10
 1.900      2.05  0.47 -154   0.11
 2.400      2.31  0.51 -151   0.16
!
! (c) 2017  Infineon Technologies AG, Munich