! Infineon Technologies  Discrete & RF Semiconductors
! BFP183W
! VCE =  2.0 V,  IC =  30 mA
! Common Emitter S-Parameters:                            Jan 2017
# GHz  S  MA  R  50
!  f         S11            S21            S12            S22
! GHz     MAG   ANG      MAG   ANG      MAG   ANG      MAG   ANG
 0.010  0.3562  -17.1  57.495  174.8  0.0018   91.0  0.9530   -5.2
 0.020  0.3665  -35.5  56.478  168.2  0.0035   88.1  0.9315  -10.7
 0.030  0.3705  -49.8  54.244  163.2  0.0051   76.4  0.8998  -15.3
 0.040  0.3962  -62.9  52.451  157.9  0.0069   70.5  0.8743  -20.2
 0.050  0.4399  -74.0  51.146  152.2  0.0087   67.0  0.8556  -25.4
 0.060  0.4439  -82.8  48.537  149.0  0.0099   63.9  0.8146  -28.2
 0.070  0.4579  -91.2  46.094  145.5  0.0111   61.6  0.7757  -31.2
 0.080  0.4811  -98.9  43.845  141.6  0.0124   59.7  0.7392  -34.6
 0.090  0.5123 -105.8  41.819  137.3  0.0136   58.1  0.7056  -38.3
 0.100  0.5500 -111.9  40.052  132.6  0.0149   56.8  0.6752  -42.4
 0.110  0.5568 -116.2  38.173  130.6  0.0154   54.8  0.6453  -44.0
 0.120  0.5666 -120.5  36.343  128.5  0.0159   52.9  0.6158  -45.7
 0.130  0.5795 -124.5  34.571  126.1  0.0164   51.1  0.5870  -47.5
 0.140  0.5951 -128.4  32.865  123.4  0.0170   49.5  0.5589  -49.6
 0.150  0.6132 -132.0  31.237  120.5  0.0175   47.9  0.5316  -51.9
 0.200  0.6403 -143.9  25.058  112.3  0.0187   46.7  0.4349  -57.3
 0.250  0.6580 -152.3  20.775  106.6  0.0206   45.8  0.3675  -60.4
 0.300  0.6675 -158.2  17.650  102.5  0.0220   46.6  0.3193  -62.2
 0.350  0.6704 -162.3  15.583   99.8  0.0235   48.2  0.2888  -63.0
 0.400  0.6767 -166.3  13.561   96.3  0.0251   49.6  0.2583  -64.0
 0.450  0.6785 -169.0  12.246   94.4  0.0262   50.5  0.2408  -64.3
 0.500  0.6818 -171.7  10.949   92.0  0.0273   51.3  0.2234  -64.6
 0.600  0.6861 -176.1   9.181   88.4  0.0308   52.6  0.2004  -65.1
 0.700  0.6882 -179.4   7.885   85.4  0.0330   56.6  0.1851  -65.3
 0.800  0.6897  177.3   6.924   82.5  0.0373   58.3  0.1761  -65.8
 0.900  0.6908  174.6   6.145   79.9  0.0406   58.4  0.1690  -66.8
 1.000  0.6940  172.2   5.559   77.6  0.0435   59.8  0.1636  -67.6
 1.100  0.6958  169.8   5.057   75.4  0.0471   60.5  0.1609  -68.4
 1.200  0.6959  167.6   4.635   73.0  0.0501   61.0  0.1583  -69.6
 1.300  0.6953  165.3   4.280   70.9  0.0545   61.7  0.1571  -71.2
 1.400  0.6998  163.5   3.990   68.8  0.0581   62.1  0.1555  -73.0
 1.500  0.7037  161.7   3.721   66.8  0.0618   62.1  0.1546  -74.9
 1.600  0.7072  159.6   3.497   64.7  0.0653   62.3  0.1551  -76.6
 1.700  0.7061  157.7   3.298   62.8  0.0694   62.3  0.1553  -79.1
 1.800  0.7109  155.7   3.126   60.7  0.0729   61.9  0.1554  -81.4
 1.900  0.7133  154.2   2.962   58.9  0.0762   62.0  0.1560  -83.7
 2.000  0.7157  152.2   2.812   56.8  0.0802   61.5  0.1583  -86.4
 2.100  0.7187  150.4   2.684   54.9  0.0840   61.2  0.1596  -89.2
 2.200  0.7225  148.6   2.559   52.9  0.0878   61.0  0.1612  -92.0
 2.300  0.7255  146.9   2.453   51.1  0.0915   60.7  0.1636  -94.8
 2.400  0.7291  145.3   2.349   49.2  0.0952   60.4  0.1664  -97.6
 2.500  0.7310  143.7   2.256   47.4  0.0987   59.8  0.1690 -100.5
 2.600  0.7335  142.2   2.165   45.5  0.1023   59.3  0.1721 -103.3
 2.700  0.7374  140.6   2.086   43.9  0.1059   58.7  0.1754 -106.0
 2.800  0.7419  139.0   2.009   42.1  0.1095   58.2  0.1791 -108.6
 2.900  0.7439  137.5   1.939   40.4  0.1128   57.5  0.1824 -111.4
 3.000  0.7465  136.0   1.871   38.5  0.1161   56.9  0.1862 -114.0
 3.100  0.7492  134.5   1.814   37.0  0.1197   56.3  0.1892 -116.7
 3.200  0.7525  133.1   1.758   35.5  0.1234   55.8  0.1927 -119.3
 3.300  0.7562  131.6   1.704   33.8  0.1270   55.3  0.1965 -121.9
 3.400  0.7604  130.2   1.651   32.1  0.1306   54.8  0.2007 -124.3
 3.500  0.7650  128.8   1.600   30.2  0.1343   54.4  0.2052 -126.6
 3.600  0.7675  127.4   1.557   28.8  0.1379   53.6  0.2088 -129.3
 3.700  0.7704  126.1   1.515   27.3  0.1416   52.9  0.2129 -131.9
 3.800  0.7738  124.7   1.473   25.7  0.1453   52.3  0.2174 -134.4
 3.900  0.7776  123.4   1.434   24.0  0.1490   51.6  0.2222 -136.8
 4.000  0.7818  122.1   1.395   22.2  0.1527   51.0  0.2275 -139.1
 4.100  0.7839  120.9   1.359   20.8  0.1560   50.2  0.2323 -141.9
 4.200  0.7864  119.7   1.325   19.4  0.1594   49.5  0.2375 -144.5
 4.300  0.7892  118.5   1.291   17.9  0.1628   48.7  0.2433 -147.0
 4.400  0.7923  117.3   1.258   16.3  0.1663   48.1  0.2495 -149.4
 4.500  0.7958  116.1   1.226   14.6  0.1697   47.4  0.2561 -151.7
 4.600  0.7980  115.1   1.196   13.4  0.1731   46.7  0.2631 -154.0
 4.700  0.8004  114.2   1.167   12.2  0.1766   46.1  0.2705 -156.3
 4.800  0.8030  113.2   1.138   11.0  0.1800   45.5  0.2783 -158.4
 4.900  0.8058  112.2   1.110    9.6  0.1835   44.9  0.2864 -160.3
 5.000  0.8089  111.3   1.082    8.2  0.1870   44.3  0.2949 -162.2
 5.100  0.8107  110.4   1.061    7.1  0.1905   43.6  0.3039 -163.9
 5.200  0.8128  109.5   1.040    5.9  0.1940   42.9  0.3131 -165.5
 5.300  0.8150  108.6   1.020    4.7  0.1976   42.2  0.3226 -167.0
 5.400  0.8174  107.8   1.000    3.5  0.2012   41.5  0.3322 -168.4
 5.500  0.8200  106.9   0.981    2.2  0.2048   40.9  0.3421 -169.7
 5.600  0.8202  106.0   0.961    1.2  0.2082   40.1  0.3498 -170.9
 5.700  0.8205  105.1   0.942    0.1  0.2117   39.3  0.3576 -172.0
 5.800  0.8210  104.3   0.923   -1.0  0.2152   38.5  0.3655 -173.0
 5.900  0.8218  103.4   0.904   -2.1  0.2188   37.7  0.3735 -174.0
 6.000  0.8227  102.5   0.886   -3.3  0.2224   37.0  0.3817 -175.0
!
!  f       NFmin   Gammaopt  rn/50
! GHz       dB    MAG  ANG    -
 0.450      1.39  0.27  180   0.10
 0.900      1.43  0.30 -178   0.09
 1.900      1.92  0.45 -156   0.10
 2.400      2.17  0.50 -152   0.15
!
! (c) 2017  Infineon Technologies AG, Munich