! Infineon Technologies  Discrete & RF Semiconductors
! BFP183W
! VCE =  5.0 V,  IC =  40 mA
! Common Emitter S-Parameters:                            Jan 2017
# GHz  S  MA  R  50
!  f         S11            S21            S12            S22
! GHz     MAG   ANG      MAG   ANG      MAG   ANG      MAG   ANG
 0.010  0.3213  -16.2  64.881  174.8  0.0014   86.5  0.9584   -4.4
 0.020  0.3286  -34.6  64.030  168.6  0.0029   86.3  0.9469   -9.5
 0.030  0.3350  -48.7  61.602  163.9  0.0043   77.5  0.9165  -13.7
 0.040  0.3602  -61.5  59.626  158.8  0.0058   73.2  0.8914  -18.2
 0.050  0.4008  -72.2  58.149  153.4  0.0073   70.6  0.8720  -22.9
 0.060  0.4055  -81.0  55.318  150.2  0.0082   67.6  0.8333  -25.5
 0.070  0.4194  -89.3  52.673  146.7  0.0092   65.2  0.7964  -28.3
 0.080  0.4415  -97.0  50.244  142.9  0.0101   63.2  0.7617  -31.4
 0.090  0.4707 -103.8  48.063  138.7  0.0111   61.6  0.7294  -34.8
 0.100  0.5058 -109.8  46.166  134.1  0.0121   60.3  0.6999  -38.5
 0.110  0.5122 -114.3  44.076  132.1  0.0127   58.3  0.6707  -39.9
 0.120  0.5217 -118.6  42.043  129.9  0.0133   56.5  0.6419  -41.5
 0.130  0.5340 -122.7  40.078  127.5  0.0139   54.8  0.6136  -43.2
 0.140  0.5490 -126.7  38.189  124.9  0.0145   53.3  0.5859  -45.1
 0.150  0.5664 -130.4  36.390  122.0  0.0151   51.9  0.5589  -47.1
 0.200  0.5964 -142.5  29.343  113.7  0.0160   51.1  0.4629  -51.6
 0.250  0.6148 -150.9  24.401  107.8  0.0177   49.5  0.3945  -53.8
 0.300  0.6234 -157.0  20.760  103.6  0.0191   49.7  0.3467  -54.9
 0.350  0.6277 -161.1  18.349  100.9  0.0204   51.7  0.3159  -55.2
 0.400  0.6353 -165.2  15.990   97.4  0.0217   53.5  0.2852  -55.5
 0.450  0.6366 -168.1  14.439   95.4  0.0235   54.8  0.2674  -55.3
 0.500  0.6394 -170.9  12.909   93.0  0.0253   56.0  0.2496  -55.1
 0.600  0.6445 -175.2  10.853   89.5  0.0283   56.9  0.2276  -54.8
 0.700  0.6472 -178.9   9.320   86.5  0.0306   60.4  0.2119  -54.3
 0.800  0.6514  178.0   8.185   83.6  0.0347   61.6  0.2032  -54.3
 0.900  0.6488  175.3   7.265   81.1  0.0379   62.6  0.1962  -54.8
 1.000  0.6515  172.8   6.571   78.8  0.0407   63.8  0.1903  -55.2
 1.100  0.6544  170.4   5.981   76.7  0.0447   64.2  0.1883  -55.9
 1.200  0.6561  168.2   5.480   74.4  0.0481   64.6  0.1855  -56.8
 1.300  0.6568  165.9   5.060   72.4  0.0515   64.8  0.1834  -58.1
 1.400  0.6583  164.1   4.716   70.4  0.0552   65.2  0.1813  -59.5
 1.500  0.6638  162.1   4.397   68.4  0.0587   64.5  0.1800  -61.1
 1.600  0.6665  160.1   4.132   66.4  0.0626   65.2  0.1799  -62.7
 1.700  0.6682  158.0   3.895   64.5  0.0661   64.8  0.1787  -64.9
 1.800  0.6705  156.3   3.694   62.6  0.0691   64.8  0.1784  -66.9
 1.900  0.6747  154.7   3.498   60.8  0.0727   64.3  0.1781  -69.1
 2.000  0.6764  152.8   3.320   58.8  0.0766   63.9  0.1787  -71.4
 2.100  0.6791  150.9   3.170   57.0  0.0802   63.5  0.1789  -74.0
 2.200  0.6825  149.1   3.023   55.0  0.0838   63.1  0.1794  -76.6
 2.300  0.6864  147.5   2.897   53.3  0.0874   62.7  0.1804  -79.4
 2.400  0.6908  145.9   2.774   51.5  0.0911   62.4  0.1818  -82.1
 2.500  0.6933  144.4   2.664   49.8  0.0944   61.8  0.1832  -84.9
 2.600  0.6963  142.9   2.557   48.0  0.0978   61.2  0.1851  -87.7
 2.700  0.7001  141.3   2.463   46.4  0.1016   60.8  0.1869  -90.4
 2.800  0.7044  139.8   2.372   44.6  0.1054   60.4  0.1892  -93.1
 2.900  0.7075  138.3   2.291   42.9  0.1087   59.7  0.1907  -95.9
 3.000  0.7111  136.9   2.212   41.1  0.1121   59.0  0.1926  -98.7
 3.100  0.7143  135.4   2.145   39.7  0.1156   58.4  0.1943 -101.4
 3.200  0.7179  134.0   2.080   38.2  0.1192   57.9  0.1965 -104.1
 3.300  0.7220  132.5   2.016   36.5  0.1227   57.4  0.1990 -106.8
 3.400  0.7265  131.1   1.953   34.8  0.1262   56.9  0.2020 -109.3
 3.500  0.7315  129.7   1.893   33.0  0.1298   56.5  0.2054 -111.8
 3.600  0.7341  128.4   1.842   31.6  0.1332   55.7  0.2073 -114.6
 3.700  0.7372  127.0   1.792   30.1  0.1367   55.0  0.2097 -117.4
 3.800  0.7406  125.7   1.744   28.5  0.1401   54.3  0.2126 -120.1
 3.900  0.7444  124.4   1.697   26.9  0.1436   53.6  0.2160 -122.8
 4.000  0.7486  123.1   1.651   25.1  0.1471   53.0  0.2198 -125.3
 4.100  0.7513  121.9   1.609   23.7  0.1505   52.2  0.2229 -128.3
 4.200  0.7543  120.7   1.568   22.3  0.1538   51.5  0.2267 -131.2
 4.300  0.7577  119.5   1.528   20.8  0.1572   50.8  0.2310 -134.0
 4.400  0.7614  118.3   1.490   19.2  0.1607   50.1  0.2358 -136.6
 4.500  0.7654  117.1   1.452   17.5  0.1641   49.5  0.2411 -139.2
 4.600  0.7684  116.1   1.417   16.3  0.1674   48.8  0.2468 -141.9
 4.700  0.7717  115.2   1.383   15.1  0.1708   48.2  0.2530 -144.5
 4.800  0.7751  114.2   1.349   13.7  0.1742   47.6  0.2597 -146.9
 4.900  0.7788  113.2   1.316   12.4  0.1776   47.0  0.2668 -149.2
 5.000  0.7827  112.3   1.284   10.9  0.1810   46.4  0.2744 -151.4
 5.100  0.7848  111.4   1.259    9.8  0.1844   45.7  0.2828 -153.4
 5.200  0.7871  110.6   1.234    8.6  0.1879   45.0  0.2915 -155.3
 5.300  0.7895  109.7   1.210    7.4  0.1914   44.3  0.3006 -157.1
 5.400  0.7922  108.8   1.186    6.1  0.1949   43.6  0.3099 -158.7
 5.500  0.7950  108.0   1.163    4.8  0.1984   43.0  0.3194 -160.3
 5.600  0.7958  107.1   1.140    3.7  0.2019   42.2  0.3270 -161.6
 5.700  0.7967  106.2   1.118    2.7  0.2054   41.4  0.3348 -162.9
 5.800  0.7979  105.4   1.096    1.5  0.2090   40.6  0.3427 -164.1
 5.900  0.7992  104.5   1.074    0.3  0.2126   39.9  0.3508 -165.3
 6.000  0.8007  103.6   1.053   -0.9  0.2162   39.2  0.3590 -166.4
!
!  f       NFmin   Gammaopt  rn/50
! GHz       dB    MAG  ANG    -
!
! noise parameter not available yet for this operation point!
!
! (c) 2017  Infineon Technologies AG, Munich