! Infineon Technologies  Discrete & RF Semiconductors
! BFP183W
! VCE =  7.0 V,  IC =  20 mA
! Common Emitter S-Parameters:                            Jan 2017
# GHz  S  MA  R  50
!  f         S11            S21            S12            S22
! GHz     MAG   ANG      MAG   ANG      MAG   ANG      MAG   ANG
 0.010  0.5624   -7.1  46.418  176.4  0.0014   87.2  0.9833   -3.1
 0.020  0.5533  -16.8  45.638  172.0  0.0031   83.3  0.9722   -6.5
 0.030  0.5462  -24.0  44.803  168.5  0.0048   76.3  0.9580   -9.6
 0.040  0.5479  -31.2  44.136  165.0  0.0066   73.0  0.9466  -12.8
 0.050  0.5581  -38.3  43.646  161.3  0.0084   71.1  0.9382  -16.0
 0.060  0.5471  -44.7  42.371  158.5  0.0097   69.6  0.9136  -18.4
 0.070  0.5431  -51.2  41.205  155.5  0.0110   68.5  0.8907  -20.9
 0.080  0.5462  -57.7  40.159  152.3  0.0124   67.7  0.8696  -23.5
 0.090  0.5563  -64.1  39.242  149.0  0.0137   67.0  0.8504  -26.2
 0.100  0.5730  -70.2  38.463  145.5  0.0150   66.4  0.8332  -29.1
 0.110  0.5673  -75.0  37.228  143.4  0.0158   63.8  0.8081  -30.8
 0.120  0.5658  -79.9  36.047  141.1  0.0167   61.4  0.7837  -32.5
 0.130  0.5683  -84.8  34.927  138.7  0.0176   59.3  0.7601  -34.4
 0.140  0.5750  -89.6  33.872  136.1  0.0186   57.3  0.7373  -36.4
 0.150  0.5856  -94.3  32.890  133.4  0.0195   55.6  0.7155  -38.5
 0.200  0.5957 -111.1  27.980  124.2  0.0224   51.4  0.6176  -44.7
 0.250  0.6021 -123.9  24.080  117.2  0.0247   47.5  0.5386  -48.7
 0.300  0.6048 -133.4  20.924  112.0  0.0260   45.7  0.4769  -51.4
 0.350  0.6038 -140.0  18.682  108.6  0.0272   45.8  0.4343  -52.8
 0.400  0.6108 -146.6  16.526  104.2  0.0285   45.9  0.3920  -54.4
 0.450  0.6094 -151.2  14.995  101.7  0.0299   45.8  0.3653  -54.9
 0.500  0.6118 -155.7  13.498   98.7  0.0314   45.8  0.3387  -55.5
 0.600  0.6158 -162.4  11.427   94.3  0.0339   47.3  0.3029  -56.1
 0.700  0.6171 -167.6   9.855   90.7  0.0363   48.5  0.2776  -56.2
 0.800  0.6195 -172.2   8.686   87.4  0.0388   51.5  0.2611  -56.3
 0.900  0.6184 -176.0   7.725   84.6  0.0414   51.6  0.2481  -56.8
 1.000  0.6234 -179.2   6.993   82.0  0.0441   53.6  0.2376  -57.2
 1.100  0.6264  177.5   6.373   79.7  0.0474   54.4  0.2316  -57.6
 1.200  0.6266  174.7   5.845   77.2  0.0500   54.7  0.2258  -58.3
 1.300  0.6261  172.1   5.401   75.0  0.0526   55.5  0.2216  -59.2
 1.400  0.6281  169.7   5.035   72.9  0.0564   56.5  0.2170  -60.3
 1.500  0.6332  167.5   4.698   70.8  0.0595   56.8  0.2137  -61.6
 1.600  0.6365  165.2   4.414   68.7  0.0625   57.2  0.2124  -62.7
 1.700  0.6372  162.8   4.164   66.8  0.0654   57.6  0.2099  -64.5
 1.800  0.6413  160.8   3.952   64.8  0.0687   57.8  0.2080  -66.2
 1.900  0.6453  158.9   3.741   63.0  0.0719   57.8  0.2064  -67.9
 2.000  0.6480  156.8   3.554   60.9  0.0750   57.9  0.2061  -70.1
 2.100  0.6509  154.8   3.394   59.1  0.0785   57.8  0.2049  -72.3
 2.200  0.6546  152.8   3.238   57.1  0.0820   57.7  0.2040  -74.5
 2.300  0.6584  151.0   3.103   55.3  0.0853   57.5  0.2043  -76.9
 2.400  0.6628  149.3   2.971   53.4  0.0886   57.4  0.2049  -79.2
 2.500  0.6654  147.6   2.854   51.7  0.0917   57.1  0.2052  -81.8
 2.600  0.6685  146.0   2.740   49.8  0.0949   56.9  0.2060  -84.3
 2.700  0.6727  144.3   2.640   48.2  0.0982   56.6  0.2070  -86.8
 2.800  0.6774  142.6   2.543   46.4  0.1016   56.3  0.2084  -89.2
 2.900  0.6805  141.0   2.456   44.7  0.1047   55.9  0.2091  -91.8
 3.000  0.6841  139.4   2.372   42.9  0.1078   55.5  0.2102  -94.3
 3.100  0.6875  137.8   2.300   41.5  0.1111   55.1  0.2111  -96.9
 3.200  0.6913  136.3   2.230   39.9  0.1144   54.7  0.2124  -99.4
 3.300  0.6957  134.8   2.161   38.3  0.1177   54.3  0.2142 -101.9
 3.400  0.7005  133.3   2.095   36.6  0.1211   53.9  0.2163 -104.3
 3.500  0.7058  131.8   2.030   34.7  0.1244   53.6  0.2188 -106.7
 3.600  0.7088  130.4   1.976   33.3  0.1277   53.0  0.2199 -109.4
 3.700  0.7123  129.0   1.922   31.8  0.1310   52.4  0.2215 -112.0
 3.800  0.7161  127.7   1.871   30.2  0.1343   51.9  0.2236 -114.6
 3.900  0.7204  126.3   1.821   28.5  0.1376   51.4  0.2261 -117.2
 4.000  0.7250  125.0   1.772   26.7  0.1409   50.9  0.2291 -119.7
 4.100  0.7279  123.8   1.727   25.3  0.1442   50.2  0.2314 -122.6
 4.200  0.7312  122.5   1.684   23.9  0.1475   49.6  0.2343 -125.5
 4.300  0.7349  121.3   1.642   22.3  0.1508   49.0  0.2378 -128.3
 4.400  0.7388  120.1   1.601   20.7  0.1541   48.4  0.2418 -131.0
 4.500  0.7431  118.9   1.561   19.0  0.1575   47.8  0.2464 -133.6
 4.600  0.7463  117.9   1.523   17.8  0.1609   47.2  0.2514 -136.3
 4.700  0.7498  116.9   1.487   16.5  0.1643   46.7  0.2569 -138.9
 4.800  0.7535  115.9   1.451   15.2  0.1677   46.2  0.2629 -141.4
 4.900  0.7574  114.9   1.415   13.8  0.1711   45.7  0.2694 -143.8
 5.000  0.7616  113.9   1.381   12.3  0.1745   45.2  0.2763 -146.1
 5.100  0.7640  113.0   1.354   11.2  0.1779   44.6  0.2842 -148.2
 5.200  0.7667  112.1   1.327   10.0  0.1812   44.0  0.2925 -150.2
 5.300  0.7695  111.2   1.301    8.7  0.1846   43.4  0.3011 -152.1
 5.400  0.7724  110.4   1.275    7.4  0.1881   42.8  0.3100 -153.9
 5.500  0.7756  109.5   1.250    6.1  0.1915   42.3  0.3192 -155.6
 5.600  0.7766  108.6   1.225    5.0  0.1949   41.6  0.3267 -157.0
 5.700  0.7778  107.7   1.201    3.9  0.1983   40.8  0.3344 -158.4
 5.800  0.7792  106.8   1.177    2.7  0.2018   40.1  0.3423 -159.7
 5.900  0.7807  105.9   1.154    1.5  0.2053   39.5  0.3504 -160.9
 6.000  0.7825  105.0   1.131    0.2  0.2088   38.8  0.3586 -162.1
!
!  f       NFmin   Gammaopt  rn/50
! GHz       dB    MAG  ANG    -
 0.450      1.17  0.20  171   0.10
 0.900      1.20  0.25  174   0.09
 1.900      1.68  0.41 -163   0.08
 2.400      1.92  0.45 -157   0.12
!
! (c) 2017  Infineon Technologies AG, Munich