! Infineon Technologies  Discrete & RF Semiconductors
! BFP183W
! VCE =  3.0 V,  IC =  63 mA
! Common Emitter S-Parameters:                            Jan 2017
# GHz  S  MA  R  50
!  f         S11            S21            S12            S22
! GHz     MAG   ANG      MAG   ANG      MAG   ANG      MAG   ANG
 0.010  0.1542  -74.9  60.078  170.7  0.0017   80.2  0.8049   -7.4
 0.020  0.2718  -98.1  57.669  160.5  0.0035   79.6  0.7716  -15.5
 0.030  0.3437 -112.3  52.787  154.2  0.0048   66.9  0.7162  -20.6
 0.040  0.4292 -121.2  48.670  146.7  0.0062   59.7  0.6673  -26.4
 0.050  0.5215 -127.1  45.527  138.0  0.0077   55.3  0.6264  -33.1
 0.060  0.5454 -132.7  42.052  135.2  0.0083   53.1  0.5856  -34.8
 0.070  0.5740 -137.8  38.697  131.9  0.0090   51.3  0.5453  -36.7
 0.080  0.6067 -142.3  35.495  128.0  0.0096   49.7  0.5058  -39.0
 0.090  0.6428 -146.4  32.491  123.3  0.0102   48.2  0.4672  -41.6
 0.100  0.6818 -150.0  29.747  117.7  0.0109   47.0  0.4297  -44.7
 0.110  0.6908 -152.2  28.011  116.2  0.0112   46.6  0.4093  -45.1
 0.120  0.7008 -154.3  26.296  114.6  0.0114   46.2  0.3889  -45.5
 0.130  0.7117 -156.4  24.605  112.7  0.0117   45.8  0.3685  -46.0
 0.140  0.7235 -158.4  22.946  110.5  0.0119   45.4  0.3482  -46.5
 0.150  0.7362 -160.3  21.325  108.0  0.0122   45.1  0.3279  -47.1
 0.200  0.7524 -166.4  16.384  101.8  0.0131   47.4  0.2752  -46.4
 0.250  0.7626 -170.7  13.282   97.6  0.0149   48.7  0.2440  -45.0
 0.300  0.7649 -173.8  11.139   94.6  0.0161   50.4  0.2240  -43.7
 0.350  0.7681 -176.1   9.782   92.6  0.0176   54.1  0.2132  -42.8
 0.400  0.7724 -178.3   8.442   89.9  0.0191   57.3  0.2025  -41.8
 0.450  0.7725  180.0   7.599   88.3  0.0205   58.7  0.1975  -41.6
 0.500  0.7732  178.3   6.764   86.4  0.0220   60.0  0.1926  -41.4
 0.600  0.7754  175.6   5.656   83.4  0.0256   62.7  0.1867  -41.9
 0.700  0.7762  173.4   4.848   80.7  0.0279   66.0  0.1836  -42.5
 0.800  0.7770  170.9   4.250   77.9  0.0326   67.3  0.1840  -44.1
 0.900  0.7763  168.8   3.771   75.5  0.0361   67.4  0.1833  -46.1
 1.000  0.7797  166.9   3.408   73.2  0.0392   68.2  0.1824  -47.8
 1.100  0.7815  164.9   3.101   71.0  0.0435   69.6  0.1849  -50.2
 1.200  0.7810  163.0   2.843   68.7  0.0467   68.9  0.1855  -52.2
 1.300  0.7820  161.1   2.626   66.6  0.0502   69.4  0.1873  -54.7
 1.400  0.7840  159.2   2.448   64.4  0.0540   69.8  0.1872  -57.3
 1.500  0.7881  157.6   2.283   62.3  0.0578   69.3  0.1883  -59.8
 1.600  0.7907  155.8   2.146   60.1  0.0615   69.2  0.1911  -62.5
 1.700  0.7921  153.8   2.025   58.1  0.0660   69.1  0.1921  -65.6
 1.800  0.7956  152.0   1.920   56.0  0.0696   68.9  0.1934  -68.4
 1.900  0.7974  150.5   1.818   54.2  0.0732   68.9  0.1951  -71.4
 2.000  0.7982  148.6   1.727   52.0  0.0772   68.4  0.1978  -74.4
 2.100  0.7999  146.8   1.649   50.0  0.0810   68.0  0.1998  -77.7
 2.200  0.8024  145.1   1.573   47.9  0.0849   67.6  0.2024  -80.9
 2.300  0.8053  143.5   1.508   46.0  0.0889   66.9  0.2052  -84.1
 2.400  0.8087  142.0   1.444   44.0  0.0929   66.3  0.2086  -87.3
 2.500  0.8096  140.5   1.387   42.2  0.0966   65.8  0.2118  -90.5
 2.600  0.8111  139.0   1.332   40.3  0.1004   65.3  0.2157  -93.6
 2.700  0.8139  137.4   1.283   38.6  0.1043   64.7  0.2195  -96.7
 2.800  0.8173  135.8   1.236   36.8  0.1083   64.1  0.2239  -99.6
 2.900  0.8183  134.3   1.193   35.1  0.1121   63.4  0.2276 -102.7
 3.000  0.8198  132.9   1.152   33.2  0.1160   62.7  0.2319 -105.6
 3.100  0.8214  131.5   1.117   31.8  0.1200   62.0  0.2353 -108.6
 3.200  0.8236  130.0   1.083   30.2  0.1239   61.4  0.2393 -111.5
 3.300  0.8262  128.6   1.049   28.6  0.1279   60.8  0.2438 -114.3
 3.400  0.8294  127.2   1.017   26.9  0.1319   60.2  0.2490 -116.9
 3.500  0.8330  125.8   0.985   25.0  0.1359   59.7  0.2546 -119.5
 3.600  0.8343  124.4   0.958   23.6  0.1398   58.8  0.2583 -122.4
 3.700  0.8361  123.1   0.931   22.2  0.1437   58.0  0.2626 -125.3
 3.800  0.8384  121.7   0.906   20.7  0.1477   57.2  0.2675 -128.0
 3.900  0.8411  120.3   0.880   19.1  0.1517   56.4  0.2730 -130.7
 4.000  0.8443  119.0   0.856   17.4  0.1557   55.7  0.2791 -133.2
 4.100  0.8450  117.8   0.834   16.1  0.1594   54.8  0.2839 -136.2
 4.200  0.8460  116.6   0.813   14.8  0.1632   53.9  0.2895 -139.0
 4.300  0.8474  115.4   0.792   13.4  0.1669   53.1  0.2958 -141.8
 4.400  0.8492  114.2   0.772   11.9  0.1708   52.3  0.3027 -144.4
 4.500  0.8514  113.0   0.752   10.4  0.1746   51.5  0.3102 -146.9
 4.600  0.8524  112.1   0.734    9.4  0.1784   50.7  0.3173 -149.5
 4.700  0.8537  111.1   0.716    8.4  0.1821   49.9  0.3250 -151.9
 4.800  0.8552  110.2   0.698    7.3  0.1860   49.2  0.3333 -154.3
 4.900  0.8569  109.2   0.680    6.1  0.1898   48.5  0.3421 -156.5
 5.000  0.8589  108.3   0.663    4.9  0.1937   47.8  0.3514 -158.6
 5.100  0.8598  107.4   0.650    4.0  0.1976   47.0  0.3606 -160.6
 5.200  0.8609  106.6   0.637    3.1  0.2015   46.1  0.3702 -162.5
 5.300  0.8622  105.7   0.625    2.1  0.2055   45.4  0.3801 -164.3
 5.400  0.8637  104.9   0.612    1.1  0.2095   44.6  0.3904 -166.0
 5.500  0.8654  104.0   0.600    0.1  0.2136   43.9  0.4011 -167.6
 5.600  0.8650  103.1   0.588   -0.6  0.2173   43.0  0.4089 -169.0
 5.700  0.8649  102.2   0.576   -1.4  0.2210   42.1  0.4169 -170.4
 5.800  0.8649  101.4   0.565   -2.1  0.2249   41.2  0.4251 -171.8
 5.900  0.8652  100.5   0.553   -3.0  0.2287   40.4  0.4336 -173.1
 6.000  0.8656   99.6   0.542   -3.8  0.2326   39.6  0.4423 -174.3
!
!  f       NFmin   Gammaopt  rn/50
! GHz       dB    MAG  ANG    -
!
! noise parameter not available yet for this operation point!
!
! (c) 2017  Infineon Technologies AG, Munich