! Infineon Technologies  Discrete & RF Semiconductors
! BFP183W
! VCE =  12. V,  IC =  37 mA
! Common Emitter S-Parameters:                            Jan 2017
# GHz  S  MA  R  50
!  f         S11            S21            S12            S22
! GHz     MAG   ANG      MAG   ANG      MAG   ANG      MAG   ANG
 0.010  0.5004   -8.0  41.408  174.7  0.0026   30.1  0.8708   -2.2
 0.020  0.4982  -20.0  40.414  169.5  0.0033   61.7  0.8594   -5.1
 0.030  0.4851  -28.0  39.008  165.5  0.0048   61.0  0.8469   -7.5
 0.040  0.4819  -36.3  37.808  161.2  0.0064   60.6  0.8360  -10.0
 0.050  0.4887  -44.5  36.835  156.6  0.0079   60.4  0.8267  -12.5
 0.060  0.4750  -50.8  35.309  153.9  0.0090   60.8  0.8082  -14.1
 0.070  0.4673  -57.4  33.868  151.0  0.0101   61.1  0.7904  -15.7
 0.080  0.4660  -64.2  32.525  147.8  0.0111   61.3  0.7733  -17.4
 0.090  0.4711  -70.8  31.290  144.3  0.0122   61.5  0.7568  -19.1
 0.100  0.4825  -77.3  30.178  140.6  0.0133   61.7  0.7411  -21.0
 0.110  0.4790  -81.4  29.055  138.8  0.0142   60.0  0.7254  -22.0
 0.120  0.4781  -85.6  27.962  136.9  0.0151   58.4  0.7099  -22.9
 0.130  0.4797  -89.8  26.902  134.9  0.0160   57.1  0.6946  -24.0
 0.140  0.4838  -93.9  25.878  132.7  0.0170   55.9  0.6796  -25.1
 0.150  0.4903  -97.9  24.897  130.3  0.0179   54.8  0.6648  -26.2
 0.200  0.5193 -113.3  21.026  122.9  0.0203   53.4  0.6035  -29.7
 0.250  0.5208 -124.3  18.010  117.1  0.0237   49.6  0.5573  -31.6
 0.300  0.5502 -132.3  15.816  112.8  0.0257   49.1  0.5180  -33.4
 0.350  0.5551 -138.4  14.196  109.7  0.0277   48.5  0.4910  -34.4
 0.400  0.5661 -144.3  12.627  105.9  0.0297   47.9  0.4642  -35.5
 0.450  0.5727 -148.8  11.531  103.6  0.0310   47.5  0.4461  -36.2
 0.500  0.5827 -153.1  10.456  100.9  0.0324   47.1  0.4280  -37.0
 0.600  0.6005 -160.0   8.960   96.7  0.0350   46.7  0.4003  -38.3
 0.700  0.6077 -165.4   7.789   93.0  0.0371   47.2  0.3835  -39.3
 0.800  0.6168 -169.9   6.934   89.7  0.0404   48.4  0.3686  -40.4
 0.900  0.6203 -173.8   6.220   86.8  0.0420   48.7  0.3586  -41.5
 1.000  0.6263 -177.4   5.635   84.1  0.0441   50.1  0.3489  -42.9
 1.100  0.6305  179.4   5.171   81.7  0.0465   51.4  0.3445  -44.1
 1.200  0.6354  176.3   4.754   79.1  0.0488   51.0  0.3377  -45.5
 1.300  0.6356  173.6   4.397   76.8  0.0516   52.0  0.3335  -47.0
 1.400  0.6390  171.0   4.124   74.4  0.0543   53.2  0.3282  -48.5
 1.500  0.6450  168.7   3.864   72.3  0.0572   54.0  0.3226  -50.2
 1.600  0.6503  166.3   3.642   70.1  0.0592   55.1  0.3210  -51.8
 1.700  0.6514  163.8   3.438   68.0  0.0622   55.6  0.3175  -53.9
 1.800  0.6561  161.7   3.268   65.8  0.0650   56.0  0.3143  -55.6
 1.900  0.6602  160.0   3.092   64.0  0.0679   56.5  0.3120  -57.5
 2.000  0.6626  157.5   2.948   61.8  0.0710   56.6  0.3104  -59.6
 2.100  0.6655  155.5   2.822   59.8  0.0737   56.8  0.3080  -61.7
 2.200  0.6693  153.5   2.699   57.7  0.0765   57.0  0.3061  -63.9
 2.300  0.6737  151.6   2.592   55.8  0.0795   57.1  0.3057  -66.2
 2.400  0.6789  149.8   2.487   53.8  0.0826   57.2  0.3057  -68.5
 2.500  0.6819  148.0   2.388   52.0  0.0855   57.2  0.3056  -70.8
 2.600  0.6856  146.3   2.292   50.0  0.0884   57.2  0.3060  -73.1
 2.700  0.6894  144.5   2.211   48.3  0.0916   57.1  0.3056  -75.4
 2.800  0.6939  142.8   2.132   46.4  0.0949   57.0  0.3058  -77.8
 2.900  0.6969  141.1   2.060   44.6  0.0982   56.7  0.3052  -80.2
 3.000  0.7004  139.5   1.991   42.7  0.1015   56.4  0.3051  -82.7
 3.100  0.7035  137.9   1.932   41.2  0.1048   56.2  0.3050  -85.1
 3.200  0.7072  136.4   1.874   39.6  0.1081   56.1  0.3055  -87.5
 3.300  0.7114  134.8   1.818   37.9  0.1115   55.9  0.3065  -89.9
 3.400  0.7161  133.3   1.764   36.0  0.1148   55.7  0.3080  -92.3
 3.500  0.7213  131.8   1.711   34.1  0.1181   55.6  0.3101  -94.6
 3.600  0.7243  130.4   1.665   32.6  0.1215   55.1  0.3098  -97.1
 3.700  0.7277  129.0   1.621   31.0  0.1249   54.6  0.3100  -99.7
 3.800  0.7315  127.6   1.577   29.4  0.1283   54.1  0.3109 -102.2
 3.900  0.7358  126.2   1.535   27.6  0.1317   53.6  0.3124 -104.7
 4.000  0.7405  124.8   1.495   25.8  0.1351   53.2  0.3145 -107.2
 4.100  0.7433  123.5   1.457   24.4  0.1386   52.6  0.3152 -110.0
 4.200  0.7464  122.2   1.420   22.9  0.1421   52.0  0.3166 -112.7
 4.300  0.7499  121.0   1.384   21.3  0.1457   51.5  0.3188 -115.4
 4.400  0.7538  119.7   1.350   19.6  0.1492   51.0  0.3217 -118.1
 4.500  0.7580  118.5   1.316   17.9  0.1528   50.5  0.3252 -120.7
 4.600  0.7610  117.5   1.284   16.7  0.1563   50.0  0.3287 -123.5
 4.700  0.7642  116.5   1.253   15.3  0.1598   49.5  0.3329 -126.2
 4.800  0.7677  115.5   1.223   14.0  0.1633   49.0  0.3378 -128.9
 4.900  0.7714  114.5   1.193   12.5  0.1668   48.5  0.3435 -131.4
 5.000  0.7753  113.5   1.164   11.0  0.1703   48.1  0.3498 -133.9
 5.100  0.7778  112.6   1.140    9.8  0.1739   47.4  0.3567 -136.3
 5.200  0.7805  111.6   1.117    8.6  0.1775   46.8  0.3642 -138.6
 5.300  0.7834  110.7   1.095    7.4  0.1812   46.2  0.3722 -140.8
 5.400  0.7865  109.8   1.072    6.1  0.1848   45.7  0.3808 -143.0
 5.500  0.7898  108.9   1.051    4.7  0.1885   45.1  0.3899 -145.0
 5.600  0.7904  108.0   1.030    3.7  0.1922   44.3  0.3971 -146.8
 5.700  0.7912  107.1   1.009    2.6  0.1959   43.6  0.4047 -148.5
 5.800  0.7922  106.1   0.988    1.4  0.1997   42.9  0.4127 -150.2
 5.900  0.7934  105.2   0.968    0.2  0.2035   42.2  0.4210 -151.8
 6.000  0.7948  104.3   0.948   -1.0  0.2073   41.6  0.4296 -153.3
!
!  f       NFmin   Gammaopt  rn/50
! GHz       dB    MAG  ANG    -
!
! noise parameter not available yet for this operation point!
!
! (c) 2017  Infineon Technologies AG, Munich