! Infineon Technologies  Discrete & RF Semiconductors
! BFP183W
! VCE =  8.0 V,  IC =  45 mA
! Common Emitter S-Parameters:                            Jan 2017
# GHz  S  MA  R  50
!  f         S11            S21            S12            S22
! GHz     MAG   ANG      MAG   ANG      MAG   ANG      MAG   ANG
 0.010  0.3566  -13.8  65.097  174.5  0.0016   85.8  0.9553   -3.9
 0.020  0.3650  -30.5  63.828  168.7  0.0028   85.8  0.9407   -8.7
 0.030  0.3651  -43.5  61.637  164.1  0.0042   78.5  0.9141  -12.7
 0.040  0.3835  -55.8  59.872  159.2  0.0056   74.9  0.8924  -17.0
 0.050  0.4176  -66.6  58.573  154.0  0.0070   72.7  0.8757  -21.4
 0.060  0.4181  -75.2  55.819  150.8  0.0078   68.9  0.8389  -23.8
 0.070  0.4280  -83.7  53.252  147.4  0.0087   65.8  0.8038  -26.5
 0.080  0.4467  -91.6  50.900  143.6  0.0095   63.2  0.7705  -29.4
 0.090  0.4730  -98.7  48.793  139.4  0.0104   61.1  0.7393  -32.5
 0.100  0.5059 -105.0  46.966  134.9  0.0113   59.3  0.7106  -35.9
 0.110  0.5104 -109.6  44.865  132.9  0.0118   57.8  0.6823  -37.2
 0.120  0.5182 -114.1  42.824  130.7  0.0124   56.4  0.6543  -38.7
 0.130  0.5291 -118.5  40.853  128.3  0.0130   55.1  0.6269  -40.3
 0.140  0.5429 -122.7  38.962  125.6  0.0135   54.0  0.5999  -42.0
 0.150  0.5594 -126.6  37.163  122.7  0.0141   52.9  0.5736  -43.9
 0.200  0.5837 -139.4  30.057  114.4  0.0152   49.5  0.4787  -47.7
 0.250  0.6015 -148.4  25.059  108.4  0.0174   48.8  0.4123  -49.4
 0.300  0.6122 -155.0  21.342  104.2  0.0186   50.1  0.3646  -50.1
 0.350  0.6156 -159.4  18.870  101.5  0.0198   52.5  0.3350  -50.1
 0.400  0.6226 -163.7  16.454   97.9  0.0210   54.7  0.3055  -50.0
 0.450  0.6229 -166.6  14.858   95.9  0.0224   55.0  0.2886  -49.6
 0.500  0.6248 -169.5  13.283   93.5  0.0239   55.3  0.2718  -49.2
 0.600  0.6287 -174.1  11.175   89.9  0.0275   57.6  0.2504  -48.6
 0.700  0.6321 -177.7   9.599   86.9  0.0299   59.8  0.2361  -48.0
 0.800  0.6358  178.8   8.430   84.0  0.0338   62.5  0.2281  -48.0
 0.900  0.6355  176.0   7.486   81.5  0.0367   62.7  0.2209  -48.5
 1.000  0.6383  173.4   6.771   79.2  0.0399   63.9  0.2160  -48.9
 1.100  0.6398  171.0   6.160   77.1  0.0438   64.6  0.2139  -49.6
 1.200  0.6428  168.6   5.648   74.8  0.0466   64.5  0.2108  -50.5
 1.300  0.6417  166.5   5.216   72.8  0.0501   65.3  0.2094  -51.7
 1.400  0.6447  164.6   4.862   70.8  0.0539   65.5  0.2071  -53.0
 1.500  0.6482  162.6   4.531   68.9  0.0570   65.3  0.2062  -54.5
 1.600  0.6512  160.6   4.260   66.9  0.0605   65.4  0.2058  -56.2
 1.700  0.6531  158.5   4.015   65.0  0.0644   65.6  0.2045  -58.1
 1.800  0.6565  156.7   3.809   63.1  0.0679   65.1  0.2037  -60.2
 1.900  0.6593  155.1   3.606   61.3  0.0709   64.8  0.2031  -62.2
 2.000  0.6623  153.2   3.424   59.3  0.0747   64.3  0.2033  -64.5
 2.100  0.6646  151.4   3.269   57.5  0.0783   64.1  0.2028  -66.9
 2.200  0.6675  149.6   3.118   55.6  0.0820   63.9  0.2027  -69.3
 2.300  0.6716  147.9   2.989   53.9  0.0854   63.4  0.2032  -72.0
 2.400  0.6763  146.3   2.862   52.0  0.0889   62.9  0.2042  -74.6
 2.500  0.6791  144.8   2.749   50.3  0.0922   62.4  0.2048  -77.3
 2.600  0.6824  143.3   2.639   48.5  0.0956   62.0  0.2059  -80.0
 2.700  0.6863  141.7   2.543   46.9  0.0993   61.6  0.2072  -82.7
 2.800  0.6908  140.2   2.449   45.2  0.1030   61.2  0.2089  -85.3
 2.900  0.6931  138.7   2.365   43.5  0.1063   60.5  0.2098  -88.0
 3.000  0.6959  137.2   2.284   41.7  0.1096   59.8  0.2112  -90.6
 3.100  0.6993  135.7   2.215   40.3  0.1131   59.3  0.2121  -93.3
 3.200  0.7032  134.3   2.147   38.8  0.1165   58.8  0.2135  -96.0
 3.300  0.7075  132.8   2.081   37.1  0.1200   58.3  0.2153  -98.6
 3.400  0.7122  131.4   2.017   35.4  0.1235   57.8  0.2176 -101.2
 3.500  0.7174  130.0   1.955   33.6  0.1270   57.4  0.2203 -103.7
 3.600  0.7205  128.7   1.903   32.2  0.1305   56.6  0.2214 -106.5
 3.700  0.7240  127.3   1.851   30.7  0.1339   55.9  0.2230 -109.3
 3.800  0.7278  126.0   1.801   29.1  0.1374   55.2  0.2252 -112.0
 3.900  0.7321  124.7   1.753   27.5  0.1410   54.5  0.2279 -114.7
 4.000  0.7367  123.4   1.706   25.7  0.1445   53.9  0.2310 -117.3
 4.100  0.7394  122.2   1.663   24.3  0.1478   53.1  0.2332 -120.3
 4.200  0.7424  121.0   1.621   22.9  0.1511   52.4  0.2360 -123.2
 4.300  0.7458  119.8   1.580   21.4  0.1545   51.7  0.2395 -126.1
 4.400  0.7495  118.6   1.540   19.8  0.1578   51.0  0.2435 -128.8
 4.500  0.7535  117.4   1.502   18.1  0.1612   50.4  0.2480 -131.5
 4.600  0.7568  116.4   1.466   16.9  0.1646   49.7  0.2528 -134.3
 4.700  0.7603  115.5   1.431   15.7  0.1681   49.1  0.2583 -137.1
 4.800  0.7640  114.6   1.396   14.3  0.1715   48.5  0.2643 -139.7
 4.900  0.7679  113.6   1.362   13.0  0.1750   47.9  0.2708 -142.1
 5.000  0.7720  112.7   1.329   11.5  0.1785   47.3  0.2778 -144.5
 5.100  0.7743  111.8   1.303   10.4  0.1819   46.6  0.2858 -146.7
 5.200  0.7768  110.9   1.277    9.2  0.1853   45.9  0.2941 -148.7
 5.300  0.7794  110.0   1.252    7.9  0.1888   45.2  0.3028 -150.7
 5.400  0.7823  109.2   1.227    6.6  0.1923   44.6  0.3119 -152.5
 5.500  0.7853  108.3   1.203    5.3  0.1958   44.0  0.3212 -154.2
 5.600  0.7861  107.4   1.179    4.2  0.1993   43.2  0.3289 -155.7
 5.700  0.7871  106.5   1.156    3.1  0.2029   42.4  0.3367 -157.2
 5.800  0.7883  105.7   1.133    2.0  0.2064   41.7  0.3448 -158.5
 5.900  0.7896  104.8   1.111    0.8  0.2101   41.0  0.3531 -159.8
 6.000  0.7912  103.9   1.089   -0.5  0.2137   40.3  0.3615 -161.1
!
!  f       NFmin   Gammaopt  rn/50
! GHz       dB    MAG  ANG    -
!
! noise parameter not available yet for this operation point!
!
! (c) 2017  Infineon Technologies AG, Munich