! Infineon Technologies  Discrete & RF Semiconductors
! BFP183W
! VCE =  5.0 V,  IC =  48 mA
! Common Emitter S-Parameters:                            Jan 2017
# GHz  S  MA  R  50
!  f         S11            S21            S12            S22
! GHz     MAG   ANG      MAG   ANG      MAG   ANG      MAG   ANG
 0.010  0.2630  -21.7  67.513  174.1  0.0015   82.8  0.9421   -4.6
 0.020  0.2873  -43.4  66.045  167.4  0.0027   93.6  0.9293  -10.1
 0.030  0.3016  -60.1  63.223  162.3  0.0039   77.3  0.8937  -14.5
 0.040  0.3383  -74.2  60.951  156.7  0.0053   69.2  0.8640  -19.3
 0.050  0.3911  -85.1  59.292  150.8  0.0068   64.5  0.8406  -24.4
 0.060  0.4023  -93.8  56.060  147.6  0.0077   62.1  0.7998  -26.8
 0.070  0.4221 -101.8  53.021  144.1  0.0086   60.2  0.7606  -29.6
 0.080  0.4494 -108.9  50.210  140.1  0.0095   58.7  0.7233  -32.5
 0.090  0.4828 -115.2  47.668  135.7  0.0105   57.4  0.6882  -35.9
 0.100  0.5212 -120.6  45.440  130.8  0.0114   56.4  0.6556  -39.5
 0.110  0.5304 -124.5  43.233  128.9  0.0118   55.4  0.6269  -40.7
 0.120  0.5419 -128.2  41.078  126.8  0.0122   54.4  0.5985  -42.0
 0.130  0.5557 -131.8  38.984  124.5  0.0125   53.5  0.5704  -43.5
 0.140  0.5715 -135.2  36.962  121.9  0.0129   52.7  0.5428  -45.1
 0.150  0.5892 -138.4  35.024  119.0  0.0133   51.9  0.5156  -46.9
 0.200  0.6161 -149.1  27.896  111.1  0.0145   52.2  0.4263  -49.9
 0.250  0.6356 -156.5  23.044  105.6  0.0164   51.5  0.3652  -51.2
 0.300  0.6452 -161.7  19.520  101.6  0.0176   50.2  0.3234  -51.5
 0.350  0.6484 -165.4  17.223   99.1  0.0191   53.5  0.2975  -51.1
 0.400  0.6543 -169.0  14.969   95.8  0.0206   56.4  0.2717  -50.6
 0.450  0.6564 -171.5  13.511   94.0  0.0219   57.5  0.2575  -50.2
 0.500  0.6597 -173.9  12.070   91.7  0.0232   58.5  0.2434  -49.8
 0.600  0.6631 -177.9  10.117   88.3  0.0271   59.8  0.2255  -49.2
 0.700  0.6654  179.0   8.686   85.4  0.0294   62.7  0.2139  -48.6
 0.800  0.6680  176.1   7.626   82.6  0.0337   65.0  0.2080  -48.8
 0.900  0.6670  173.5   6.767   80.2  0.0367   64.7  0.2019  -49.5
 1.000  0.6700  171.3   6.119   77.9  0.0403   65.0  0.1987  -50.1
 1.100  0.6738  169.0   5.568   75.8  0.0433   66.0  0.1971  -51.1
 1.200  0.6740  166.8   5.103   73.6  0.0469   66.1  0.1949  -52.2
 1.300  0.6746  164.8   4.712   71.5  0.0499   66.3  0.1942  -53.6
 1.400  0.6772  162.7   4.392   69.5  0.0541   66.8  0.1927  -55.2
 1.500  0.6812  161.0   4.094   67.6  0.0577   67.1  0.1919  -57.0
 1.600  0.6834  159.1   3.846   65.5  0.0612   66.4  0.1923  -58.8
 1.700  0.6857  157.2   3.628   63.7  0.0653   66.5  0.1919  -60.9
 1.800  0.6887  155.3   3.438   61.7  0.0683   66.3  0.1918  -63.2
 1.900  0.6919  153.8   3.258   60.0  0.0718   66.3  0.1914  -65.3
 2.000  0.6934  151.9   3.093   57.9  0.0757   66.0  0.1921  -67.9
 2.100  0.6959  150.1   2.952   56.1  0.0793   65.3  0.1923  -70.6
 2.200  0.6991  148.4   2.815   54.1  0.0829   64.7  0.1930  -73.2
 2.300  0.7033  146.8   2.698   52.4  0.0865   64.3  0.1939  -76.0
 2.400  0.7081  145.2   2.583   50.5  0.0902   63.9  0.1953  -78.8
 2.500  0.7101  143.7   2.481   48.8  0.0938   63.4  0.1967  -81.7
 2.600  0.7125  142.2   2.381   47.0  0.0975   62.9  0.1986  -84.5
 2.700  0.7166  140.6   2.294   45.4  0.1010   62.3  0.2006  -87.2
 2.800  0.7213  139.0   2.210   43.6  0.1046   61.7  0.2031  -89.9
 2.900  0.7236  137.5   2.134   41.9  0.1080   61.1  0.2046  -92.8
 3.000  0.7264  136.0   2.059   40.1  0.1115   60.5  0.2067  -95.6
 3.100  0.7292  134.6   1.997   38.7  0.1151   59.9  0.2083  -98.4
 3.200  0.7324  133.1   1.935   37.2  0.1187   59.4  0.2103 -101.1
 3.300  0.7360  131.7   1.876   35.5  0.1223   58.8  0.2128 -103.8
 3.400  0.7401  130.3   1.817   33.8  0.1259   58.4  0.2158 -106.4
 3.500  0.7447  128.9   1.761   32.0  0.1295   57.9  0.2192 -108.9
 3.600  0.7477  127.6   1.714   30.6  0.1330   57.1  0.2211 -111.8
 3.700  0.7511  126.3   1.668   29.1  0.1366   56.3  0.2236 -114.6
 3.800  0.7549  125.0   1.623   27.5  0.1401   55.6  0.2266 -117.3
 3.900  0.7591  123.7   1.579   25.9  0.1437   54.9  0.2301 -120.0
 4.000  0.7637  122.4   1.537   24.1  0.1473   54.3  0.2341 -122.6
 4.100  0.7659  121.2   1.498   22.7  0.1507   53.5  0.2371 -125.6
 4.200  0.7685  120.0   1.460   21.3  0.1541   52.8  0.2407 -128.5
 4.300  0.7714  118.8   1.423   19.8  0.1576   52.0  0.2449 -131.4
 4.400  0.7747  117.6   1.387   18.2  0.1611   51.4  0.2498 -134.1
 4.500  0.7783  116.4   1.352   16.5  0.1646   50.7  0.2551 -136.7
 4.600  0.7810  115.4   1.319   15.3  0.1681   50.0  0.2607 -139.4
 4.700  0.7839  114.5   1.287   14.1  0.1716   49.3  0.2669 -142.1
 4.800  0.7870  113.6   1.255   12.7  0.1751   48.6  0.2737 -144.6
 4.900  0.7904  112.6   1.224   11.4  0.1786   48.0  0.2809 -146.9
 5.000  0.7939  111.7   1.194    9.9  0.1822   47.4  0.2886 -149.2
 5.100  0.7958  110.8   1.170    8.8  0.1857   46.6  0.2969 -151.3
 5.200  0.7979  110.0   1.147    7.6  0.1892   45.9  0.3057 -153.3
 5.300  0.8002  109.1   1.123    6.4  0.1927   45.2  0.3147 -155.2
 5.400  0.8027  108.2   1.101    5.2  0.1963   44.5  0.3241 -156.9
 5.500  0.8053  107.4   1.079    3.9  0.1999   43.9  0.3338 -158.6
 5.600  0.8058  106.5   1.058    2.8  0.2035   43.1  0.3417 -160.0
 5.700  0.8065  105.6   1.037    1.8  0.2071   42.3  0.3498 -161.4
 5.800  0.8074  104.7   1.017    0.6  0.2108   41.5  0.3580 -162.7
 5.900  0.8085  103.8   0.997   -0.6  0.2145   40.8  0.3665 -163.9
 6.000  0.8098  102.9   0.977   -1.8  0.2183   40.1  0.3751 -165.1
!
!  f       NFmin   Gammaopt  rn/50
! GHz       dB    MAG  ANG    -
!
! noise parameter not available yet for this operation point!
!
! (c) 2017  Infineon Technologies AG, Munich