! Infineon Technologies  Discrete & RF Semiconductors
! BFP183W
! VCE =  11. V,  IC =  13 mA
! Common Emitter S-Parameters:                            Jan 2017
# GHz  S  MA  R  50
!  f         S11            S21            S12            S22
! GHz     MAG   ANG      MAG   ANG      MAG   ANG      MAG   ANG
 0.010  0.7018   -4.4  34.569  177.2  0.0013   77.5  0.9839   -2.3
 0.020  0.6888  -11.7  34.009  173.7  0.0034   93.9  0.9689   -4.7
 0.030  0.6819  -16.5  33.604  171.1  0.0051   82.4  0.9636   -7.0
 0.040  0.6799  -21.3  33.272  168.4  0.0069   76.7  0.9598   -9.3
 0.050  0.6826  -26.1  33.015  165.6  0.0087   73.4  0.9577  -11.7
 0.060  0.6719  -30.9  32.395  163.1  0.0103   71.9  0.9418  -13.7
 0.070  0.6661  -35.7  31.836  160.6  0.0120   70.7  0.9271  -15.7
 0.080  0.6651  -40.7  31.343  158.0  0.0136   69.9  0.9135  -17.8
 0.090  0.6690  -45.6  30.917  155.3  0.0153   69.2  0.9012  -19.9
 0.100  0.6778  -50.4  30.562  152.5  0.0169   68.7  0.8902  -22.1
 0.110  0.6674  -54.5  29.866  150.5  0.0181   66.3  0.8716  -23.6
 0.120  0.6604  -58.6  29.209  148.4  0.0192   64.1  0.8536  -25.3
 0.130  0.6569  -62.8  28.594  146.2  0.0204   62.3  0.8363  -26.9
 0.140  0.6571  -67.1  28.022  143.9  0.0217   60.6  0.8198  -28.7
 0.150  0.6608  -71.3  27.497  141.5  0.0229   59.1  0.8041  -30.5
 0.200  0.6528  -88.0  24.392  132.3  0.0257   54.1  0.7214  -36.7
 0.250  0.6414 -101.9  21.663  124.8  0.0291   49.0  0.6481  -41.3
 0.300  0.6337 -113.1  19.250  119.1  0.0319   46.4  0.5843  -44.5
 0.350  0.6233 -121.1  17.377  115.1  0.0336   44.2  0.5375  -46.3
 0.400  0.6255 -129.3  15.611  110.1  0.0353   42.3  0.4914  -48.4
 0.450  0.6191 -135.1  14.259  107.2  0.0364   41.8  0.4599  -49.3
 0.500  0.6191 -140.9  12.952  103.7  0.0376   41.3  0.4285  -50.4
 0.600  0.6169 -149.8  11.059   98.6  0.0402   40.9  0.3844  -51.5
 0.700  0.6155 -156.6   9.594   94.4  0.0413   41.6  0.3523  -51.9
 0.800  0.6148 -162.4   8.486   90.7  0.0436   43.6  0.3307  -52.3
 0.900  0.6133 -167.2   7.571   87.5  0.0461   43.7  0.3138  -52.9
 1.000  0.6150 -171.4   6.868   84.6  0.0481   45.2  0.3001  -53.2
 1.100  0.6178 -175.1   6.262   82.0  0.0502   45.6  0.2915  -53.6
 1.200  0.6170 -178.7   5.751   79.3  0.0526   46.7  0.2836  -54.3
 1.300  0.6169  178.2   5.320   77.0  0.0544   47.4  0.2774  -55.2
 1.400  0.6202  175.5   4.962   74.7  0.0571   48.5  0.2717  -56.2
 1.500  0.6246  172.8   4.633   72.5  0.0596   49.5  0.2673  -57.2
 1.600  0.6277  170.1   4.354   70.3  0.0622   49.9  0.2643  -58.2
 1.700  0.6279  167.6   4.111   68.2  0.0650   51.0  0.2611  -59.8
 1.800  0.6329  165.3   3.899   66.1  0.0678   51.0  0.2581  -61.4
 1.900  0.6359  163.1   3.695   64.2  0.0701   51.6  0.2554  -62.9
 2.000  0.6386  160.7   3.512   62.0  0.0730   51.9  0.2544  -64.7
 2.100  0.6414  158.5   3.355   60.1  0.0761   52.2  0.2527  -66.6
 2.200  0.6451  156.4   3.202   58.1  0.0792   52.4  0.2512  -68.5
 2.300  0.6492  154.4   3.069   56.2  0.0818   52.6  0.2504  -70.6
 2.400  0.6540  152.5   2.940   54.2  0.0844   52.7  0.2500  -72.8
 2.500  0.6571  150.7   2.824   52.5  0.0873   52.8  0.2496  -75.0
 2.600  0.6609  148.9   2.711   50.6  0.0902   52.8  0.2496  -77.2
 2.700  0.6652  147.0   2.613   48.9  0.0931   52.7  0.2499  -79.5
 2.800  0.6702  145.2   2.518   47.0  0.0961   52.7  0.2505  -81.7
 2.900  0.6735  143.5   2.433   45.3  0.0992   52.5  0.2504  -84.0
 3.000  0.6773  141.8   2.350   43.4  0.1024   52.4  0.2507  -86.3
 3.100  0.6805  140.2   2.279   41.9  0.1055   52.3  0.2509  -88.6
 3.200  0.6842  138.6   2.209   40.4  0.1086   52.1  0.2515  -91.0
 3.300  0.6884  137.0   2.141   38.7  0.1116   52.0  0.2525  -93.3
 3.400  0.6931  135.4   2.075   36.9  0.1147   51.9  0.2540  -95.6
 3.500  0.6984  133.9   2.011   35.0  0.1178   51.8  0.2558  -97.9
 3.600  0.7016  132.4   1.957   33.6  0.1210   51.4  0.2562 -100.4
 3.700  0.7052  131.0   1.905   32.0  0.1242   51.0  0.2570 -103.0
 3.800  0.7093  129.5   1.854   30.4  0.1274   50.6  0.2584 -105.5
 3.900  0.7138  128.1   1.805   28.7  0.1306   50.2  0.2603 -108.0
 4.000  0.7188  126.7   1.757   26.9  0.1338   49.9  0.2626 -110.4
 4.100  0.7217  125.4   1.713   25.5  0.1370   49.4  0.2639 -113.2
 4.200  0.7251  124.1   1.669   23.9  0.1401   48.8  0.2659 -116.0
 4.300  0.7288  122.8   1.627   22.3  0.1433   48.3  0.2685 -118.7
 4.400  0.7329  121.5   1.586   20.7  0.1465   47.9  0.2716 -121.4
 4.500  0.7373  120.2   1.547   18.9  0.1497   47.4  0.2754 -124.0
 4.600  0.7406  119.2   1.510   17.7  0.1531   46.9  0.2794 -126.8
 4.700  0.7441  118.2   1.473   16.3  0.1564   46.5  0.2840 -129.5
 4.800  0.7479  117.2   1.437   15.0  0.1598   46.1  0.2892 -132.1
 4.900  0.7519  116.2   1.402   13.5  0.1632   45.7  0.2950 -134.6
 5.000  0.7561  115.2   1.368   12.0  0.1666   45.3  0.3013 -137.0
 5.100  0.7590  114.3   1.340   10.8  0.1701   44.7  0.3086 -139.3
 5.200  0.7621  113.3   1.313    9.6  0.1737   44.2  0.3163 -141.5
 5.300  0.7654  112.4   1.287    8.3  0.1772   43.6  0.3245 -143.6
 5.400  0.7688  111.5   1.261    7.0  0.1808   43.1  0.3330 -145.5
 5.500  0.7725  110.6   1.236    5.6  0.1844   42.6  0.3420 -147.4
 5.600  0.7731  109.7   1.211    4.5  0.1879   41.9  0.3496 -149.1
 5.700  0.7740  108.7   1.187    3.4  0.1914   41.3  0.3574 -150.6
 5.800  0.7750  107.8   1.162    2.2  0.1950   40.7  0.3655 -152.2
 5.900  0.7762  106.8   1.139    1.0  0.1985   40.1  0.3739 -153.6
 6.000  0.7777  105.9   1.116   -0.3  0.2021   39.5  0.3825 -155.0
!
!  f       NFmin   Gammaopt  rn/50
! GHz       dB    MAG  ANG    -
 0.450      1.01  0.12  144   0.10
 0.900      1.04  0.19  155   0.09
 1.900      1.52  0.38 -172   0.08
 2.400      1.75  0.44 -164   0.10
!
! (c) 2017  Infineon Technologies AG, Munich