! Infineon Technologies  Discrete & RF Semiconductors
! BFP183W
! VCE =  6.0 V,  IC =  48 mA
! Common Emitter S-Parameters:                            Jan 2017
# GHz  S  MA  R  50
!  f         S11            S21            S12            S22
! GHz     MAG   ANG      MAG   ANG      MAG   ANG      MAG   ANG
 0.010  0.2892  -18.7  67.378  174.3  0.0016   84.8  0.9477   -4.3
 0.020  0.3052  -39.1  66.069  167.9  0.0029   85.3  0.9363   -9.7
 0.030  0.3155  -54.6  63.403  162.9  0.0043   76.6  0.9032  -14.0
 0.040  0.3467  -68.2  61.259  157.5  0.0057   72.2  0.8755  -18.6
 0.050  0.3938  -79.1  59.692  151.8  0.0072   69.6  0.8537  -23.4
 0.060  0.4018  -87.9  56.597  148.6  0.0080   66.3  0.8139  -25.8
 0.070  0.4187  -96.1  53.693  145.1  0.0088   63.5  0.7758  -28.5
 0.080  0.4436 -103.6  51.013  141.2  0.0096   61.2  0.7395  -31.5
 0.090  0.4752 -110.2  48.595  136.9  0.0105   59.3  0.7054  -34.7
 0.100  0.5122 -115.9  46.479  132.2  0.0113   57.7  0.6738  -38.3
 0.110  0.5199 -120.1  44.271  130.3  0.0117   56.6  0.6453  -39.5
 0.120  0.5303 -124.1  42.120  128.1  0.0122   55.6  0.6171  -40.9
 0.130  0.5432 -127.9  40.034  125.7  0.0126   54.6  0.5893  -42.4
 0.140  0.5584 -131.6  38.024  123.1  0.0131   53.7  0.5620  -44.0
 0.150  0.5757 -135.0  36.103  120.2  0.0135   52.9  0.5351  -45.8
 0.200  0.6040 -146.2  28.896  112.1  0.0146   52.6  0.4445  -49.1
 0.250  0.6224 -154.2  23.937  106.5  0.0167   51.6  0.3809  -50.5
 0.300  0.6316 -159.7  20.317  102.5  0.0178   52.3  0.3375  -50.8
 0.350  0.6350 -163.5  17.932   99.9  0.0192   54.3  0.3101  -50.6
 0.400  0.6412 -167.3  15.595   96.5  0.0206   56.1  0.2828  -50.3
 0.450  0.6430 -169.9  14.071   94.6  0.0221   56.6  0.2680  -49.9
 0.500  0.6461 -172.5  12.566   92.3  0.0236   57.1  0.2533  -49.4
 0.600  0.6502 -176.6  10.559   88.8  0.0266   58.8  0.2344  -48.8
 0.700  0.6517 -180.0   9.070   85.9  0.0297   61.8  0.2222  -48.2
 0.800  0.6538  176.8   7.963   83.1  0.0333   64.3  0.2153  -48.2
 0.900  0.6557  174.3   7.066   80.7  0.0363   64.4  0.2094  -48.9
 1.000  0.6580  171.9   6.388   78.4  0.0399   64.8  0.2050  -49.5
 1.100  0.6606  169.6   5.814   76.3  0.0433   65.7  0.2037  -50.3
 1.200  0.6620  167.3   5.327   74.0  0.0465   66.2  0.2010  -51.3
 1.300  0.6616  165.3   4.920   72.0  0.0503   66.2  0.2000  -52.6
 1.400  0.6648  163.3   4.586   70.0  0.0538   66.6  0.1985  -54.2
 1.500  0.6681  161.5   4.276   68.1  0.0572   66.5  0.1973  -55.8
 1.600  0.6707  159.7   4.017   66.1  0.0610   66.1  0.1976  -57.4
 1.700  0.6713  157.6   3.788   64.2  0.0647   66.4  0.1966  -59.7
 1.800  0.6751  155.8   3.591   62.2  0.0685   65.9  0.1961  -61.8
 1.900  0.6798  154.2   3.402   60.5  0.0715   65.8  0.1960  -64.0
 2.000  0.6820  152.2   3.229   58.5  0.0753   65.2  0.1964  -66.4
 2.100  0.6842  150.4   3.083   56.7  0.0787   64.9  0.1961  -68.9
 2.200  0.6871  148.7   2.941   54.7  0.0822   64.7  0.1962  -71.5
 2.300  0.6910  147.1   2.818   53.0  0.0861   64.2  0.1971  -74.2
 2.400  0.6954  145.5   2.698   51.1  0.0900   63.7  0.1985  -76.9
 2.500  0.6977  144.0   2.592   49.4  0.0934   63.2  0.1996  -79.7
 2.600  0.7005  142.5   2.488   47.6  0.0968   62.7  0.2011  -82.5
 2.700  0.7046  140.9   2.398   46.0  0.1002   62.2  0.2026  -85.3
 2.800  0.7093  139.4   2.310   44.3  0.1036   61.8  0.2045  -88.0
 2.900  0.7117  137.9   2.230   42.6  0.1071   61.1  0.2058  -90.8
 3.000  0.7145  136.4   2.153   40.8  0.1106   60.4  0.2076  -93.6
 3.100  0.7177  134.9   2.088   39.4  0.1142   59.8  0.2090  -96.3
 3.200  0.7214  133.5   2.024   37.9  0.1178   59.3  0.2108  -99.0
 3.300  0.7256  132.1   1.961   36.2  0.1214   58.8  0.2132 -101.7
 3.400  0.7302  130.7   1.900   34.5  0.1250   58.3  0.2159 -104.3
 3.500  0.7352  129.3   1.841   32.7  0.1286   57.9  0.2191 -106.8
 3.600  0.7380  128.0   1.791   31.3  0.1321   57.1  0.2207 -109.6
 3.700  0.7412  126.6   1.743   29.8  0.1355   56.3  0.2228 -112.4
 3.800  0.7448  125.3   1.696   28.2  0.1390   55.6  0.2255 -115.2
 3.900  0.7488  124.0   1.650   26.6  0.1426   54.9  0.2287 -117.8
 4.000  0.7532  122.7   1.606   24.8  0.1461   54.3  0.2323 -120.4
 4.100  0.7558  121.5   1.565   23.4  0.1495   53.5  0.2349 -123.4
 4.200  0.7587  120.3   1.526   22.0  0.1529   52.7  0.2381 -126.3
 4.300  0.7619  119.1   1.487   20.5  0.1564   52.0  0.2419 -129.2
 4.400  0.7654  118.0   1.449   18.9  0.1599   51.3  0.2463 -131.9
 4.500  0.7693  116.8   1.413   17.2  0.1634   50.6  0.2513 -134.6
 4.600  0.7721  115.8   1.379   16.0  0.1668   49.9  0.2567 -137.4
 4.700  0.7751  114.9   1.346   14.8  0.1701   49.3  0.2628 -140.1
 4.800  0.7783  114.0   1.313   13.4  0.1735   48.7  0.2693 -142.6
 4.900  0.7818  113.0   1.281   12.1  0.1770   48.1  0.2764 -145.0
 5.000  0.7854  112.1   1.250   10.6  0.1804   47.5  0.2839 -147.3
 5.100  0.7877  111.2   1.225    9.5  0.1839   46.7  0.2921 -149.4
 5.200  0.7901  110.4   1.201    8.3  0.1875   46.0  0.3006 -151.5
 5.300  0.7927  109.5   1.177    7.0  0.1911   45.3  0.3095 -153.4
 5.400  0.7955  108.6   1.154    5.7  0.1947   44.6  0.3188 -155.2
 5.500  0.7985  107.8   1.131    4.4  0.1983   44.0  0.3283 -156.9
 5.600  0.7991  106.9   1.108    3.4  0.2018   43.2  0.3360 -158.3
 5.700  0.7999  106.0   1.086    2.3  0.2053   42.4  0.3440 -159.7
 5.800  0.8009  105.1   1.064    1.2  0.2089   41.6  0.3521 -161.0
 5.900  0.8021  104.2   1.043    0.0  0.2125   40.9  0.3604 -162.3
 6.000  0.8035  103.3   1.022   -1.2  0.2161   40.2  0.3689 -163.5
!
!  f       NFmin   Gammaopt  rn/50
! GHz       dB    MAG  ANG    -
!
! noise parameter not available yet for this operation point!
!
! (c) 2017  Infineon Technologies AG, Munich