! Infineon Technologies  Discrete & RF Semiconductors
! BFP183W
! VCE =  9.0 V,  IC =  20 mA
! Common Emitter S-Parameters:                            Jan 2017
# GHz  S  MA  R  50
!  f         S11            S21            S12            S22
! GHz     MAG   ANG      MAG   ANG      MAG   ANG      MAG   ANG
 0.010  0.5833   -6.3  45.787  176.3  0.0013   75.9  0.9816   -3.0
 0.020  0.5755  -15.9  45.197  172.1  0.0034   87.0  0.9659   -6.2
 0.030  0.5674  -22.6  44.320  168.8  0.0051   80.3  0.9547   -9.1
 0.040  0.5673  -29.4  43.598  165.3  0.0069   77.0  0.9461  -12.1
 0.050  0.5751  -36.1  43.038  161.8  0.0087   75.0  0.9401  -15.2
 0.060  0.5644  -42.2  41.843  159.0  0.0099   72.3  0.9167  -17.5
 0.070  0.5603  -48.5  40.752  156.1  0.0111   70.2  0.8948  -19.9
 0.080  0.5630  -54.8  39.774  153.0  0.0123   68.5  0.8746  -22.5
 0.090  0.5725  -61.0  38.916  149.8  0.0136   67.1  0.8563  -25.1
 0.100  0.5883  -66.9  38.188  146.4  0.0148   65.9  0.8398  -27.9
 0.110  0.5805  -71.6  37.004  144.3  0.0157   63.4  0.8157  -29.5
 0.120  0.5768  -76.4  35.875  142.0  0.0167   61.2  0.7923  -31.3
 0.130  0.5771  -81.2  34.804  139.6  0.0177   59.2  0.7697  -33.1
 0.140  0.5815  -86.0  33.798  137.1  0.0187   57.4  0.7480  -35.0
 0.150  0.5899  -90.7  32.862  134.4  0.0197   55.8  0.7271  -37.1
 0.200  0.5954 -107.7  28.117  125.1  0.0222   50.7  0.6303  -43.2
 0.250  0.6000 -120.8  24.276  118.1  0.0247   47.4  0.5527  -47.2
 0.300  0.6021 -130.6  21.144  112.8  0.0259   45.7  0.4904  -50.0
 0.350  0.5999 -137.6  18.900  109.3  0.0272   45.7  0.4476  -51.3
 0.400  0.6065 -144.5  16.747  104.8  0.0286   45.7  0.4050  -52.9
 0.450  0.6046 -149.2  15.206  102.3  0.0300   45.2  0.3781  -53.4
 0.500  0.6066 -153.8  13.700   99.3  0.0314   44.8  0.3512  -53.9
 0.600  0.6095 -160.7  11.608   94.8  0.0340   46.6  0.3141  -54.5
 0.700  0.6100 -166.3  10.017   91.2  0.0355   48.9  0.2886  -54.5
 0.800  0.6123 -170.9   8.826   87.8  0.0390   50.4  0.2718  -54.7
 0.900  0.6106 -174.9   7.853   85.0  0.0413   51.5  0.2584  -55.0
 1.000  0.6149 -178.4   7.114   82.4  0.0441   53.0  0.2477  -55.4
 1.100  0.6176  178.5   6.480   80.0  0.0467   53.8  0.2418  -55.8
 1.200  0.6184  175.5   5.947   77.6  0.0498   54.1  0.2354  -56.3
 1.300  0.6200  172.8   5.496   75.4  0.0526   55.1  0.2311  -57.2
 1.400  0.6213  170.4   5.123   73.2  0.0561   56.4  0.2264  -58.3
 1.500  0.6258  168.2   4.780   71.2  0.0585   56.7  0.2232  -59.4
 1.600  0.6273  165.7   4.492   69.1  0.0619   56.7  0.2214  -60.6
 1.700  0.6291  163.5   4.237   67.1  0.0652   57.3  0.2186  -62.4
 1.800  0.6334  161.2   4.019   65.1  0.0682   57.1  0.2171  -64.0
 1.900  0.6376  159.4   3.807   63.3  0.0708   57.2  0.2152  -65.7
 2.000  0.6395  157.3   3.618   61.2  0.0748   57.8  0.2146  -67.7
 2.100  0.6422  155.3   3.455   59.4  0.0778   57.7  0.2134  -69.8
 2.200  0.6457  153.3   3.296   57.4  0.0809   57.6  0.2125  -72.0
 2.300  0.6504  151.5   3.158   55.6  0.0843   57.4  0.2125  -74.4
 2.400  0.6557  149.7   3.024   53.7  0.0877   57.2  0.2128  -76.7
 2.500  0.6585  148.0   2.906   52.0  0.0907   57.0  0.2130  -79.1
 2.600  0.6619  146.4   2.790   50.2  0.0938   56.8  0.2135  -81.5
 2.700  0.6660  144.7   2.688   48.6  0.0971   56.5  0.2143  -83.9
 2.800  0.6706  143.0   2.589   46.8  0.1005   56.3  0.2154  -86.3
 2.900  0.6740  141.4   2.501   45.1  0.1036   55.8  0.2158  -88.8
 3.000  0.6779  139.8   2.415   43.2  0.1068   55.3  0.2167  -91.3
 3.100  0.6811  138.2   2.342   41.8  0.1101   55.0  0.2173  -93.8
 3.200  0.6848  136.7   2.270   40.2  0.1135   54.6  0.2184  -96.3
 3.300  0.6891  135.2   2.201   38.6  0.1168   54.3  0.2199  -98.8
 3.400  0.6937  133.7   2.133   36.9  0.1202   54.1  0.2217 -101.2
 3.500  0.6989  132.2   2.067   35.0  0.1235   53.8  0.2240 -103.6
 3.600  0.7021  130.8   2.012   33.6  0.1268   53.2  0.2249 -106.3
 3.700  0.7057  129.4   1.958   32.1  0.1301   52.6  0.2262 -108.9
 3.800  0.7097  128.0   1.905   30.5  0.1334   52.1  0.2280 -111.5
 3.900  0.7141  126.6   1.854   28.9  0.1367   51.6  0.2303 -114.1
 4.000  0.7189  125.3   1.805   27.1  0.1400   51.1  0.2330 -116.6
 4.100  0.7220  124.0   1.760   25.7  0.1432   50.4  0.2349 -119.5
 4.200  0.7255  122.8   1.716   24.2  0.1465   49.8  0.2375 -122.4
 4.300  0.7293  121.5   1.673   22.7  0.1497   49.2  0.2406 -125.2
 4.400  0.7334  120.3   1.631   21.0  0.1530   48.6  0.2442 -127.9
 4.500  0.7379  119.1   1.591   19.3  0.1563   48.0  0.2484 -130.5
 4.600  0.7413  118.1   1.553   18.1  0.1596   47.5  0.2530 -133.3
 4.700  0.7450  117.1   1.515   16.8  0.1629   46.9  0.2582 -135.9
 4.800  0.7488  116.1   1.478   15.5  0.1662   46.4  0.2640 -138.5
 4.900  0.7529  115.2   1.442   14.1  0.1696   46.0  0.2702 -140.9
 5.000  0.7572  114.2   1.407   12.6  0.1729   45.5  0.2769 -143.2
 5.100  0.7597  113.3   1.379   11.4  0.1762   44.9  0.2845 -145.4
 5.200  0.7623  112.4   1.352   10.2  0.1796   44.2  0.2925 -147.5
 5.300  0.7651  111.5   1.326    9.0  0.1830   43.6  0.3009 -149.5
 5.400  0.7681  110.7   1.300    7.7  0.1864   43.1  0.3096 -151.3
 5.500  0.7713  109.8   1.275    6.3  0.1898   42.5  0.3186 -153.1
 5.600  0.7721  108.9   1.249    5.2  0.1933   41.8  0.3262 -154.6
 5.700  0.7731  108.0   1.224    4.1  0.1968   41.1  0.3341 -156.0
 5.800  0.7744  107.0   1.200    2.9  0.2003   40.4  0.3421 -157.4
 5.900  0.7758  106.1   1.176    1.7  0.2039   39.7  0.3503 -158.7
 6.000  0.7774  105.2   1.152    0.4  0.2075   39.1  0.3587 -159.9
!
!  f       NFmin   Gammaopt  rn/50
! GHz       dB    MAG  ANG    -
 0.450      1.17  0.20  171   0.10
 0.900      1.20  0.25  174   0.09
 1.900      1.68  0.41 -163   0.08
 2.400      1.92  0.45 -157   0.12
!
! (c) 2017  Infineon Technologies AG, Munich