! Infineon Technologies  Discrete & RF Semiconductors
! BFP183W
! VCE =  11. V,  IC =  33 mA
! Common Emitter S-Parameters:                            Jan 2017
# GHz  S  MA  R  50
!  f         S11            S21            S12            S22
! GHz     MAG   ANG      MAG   ANG      MAG   ANG      MAG   ANG
 0.010  0.5171   -7.8  49.911  175.0  0.0015   57.1  0.9422   -2.9
 0.020  0.5137  -19.2  49.124  170.0  0.0032   79.4  0.9298   -6.4
 0.030  0.5034  -27.3  47.625  166.1  0.0048   74.5  0.9132   -9.5
 0.040  0.5034  -35.5  46.357  162.0  0.0063   72.1  0.8994  -12.6
 0.050  0.5137  -43.6  45.340  157.7  0.0079   70.6  0.8884  -15.9
 0.060  0.5019  -50.2  43.605  154.8  0.0091   67.7  0.8626  -17.9
 0.070  0.4970  -57.1  41.988  151.8  0.0103   65.5  0.8379  -20.1
 0.080  0.4993  -64.0  40.501  148.4  0.0116   63.8  0.8145  -22.4
 0.090  0.5088  -70.7  39.160  144.9  0.0128   62.4  0.7924  -24.8
 0.100  0.5249  -77.1  37.980  141.1  0.0141   61.2  0.7719  -27.4
 0.110  0.5207  -81.7  36.551  139.2  0.0148   60.1  0.7498  -28.7
 0.120  0.5199  -86.3  35.166  137.1  0.0155   59.1  0.7281  -30.0
 0.130  0.5224  -90.9  33.832  134.8  0.0162   58.1  0.7068  -31.4
 0.140  0.5283  -95.5  32.553  132.4  0.0169   57.3  0.6859  -32.9
 0.150  0.5375  -99.9  31.338  129.8  0.0176   56.5  0.6656  -34.5
 0.200  0.5576 -115.8  26.374  121.5  0.0196   53.4  0.5829  -39.0
 0.250  0.5675 -127.2  22.462  115.2  0.0225   49.0  0.5191  -41.5
 0.300  0.5818 -136.0  19.540  110.6  0.0238   46.8  0.4688  -43.5
 0.350  0.5847 -142.3  17.454  107.5  0.0258   47.3  0.4348  -44.2
 0.400  0.5944 -148.4  15.434  103.5  0.0278   47.7  0.4009  -45.1
 0.450  0.5956 -152.6  14.018  101.2  0.0286   47.6  0.3795  -45.4
 0.500  0.6000 -156.8  12.631   98.3  0.0295   47.5  0.3582  -45.8
 0.600  0.6074 -163.3  10.719   94.2  0.0323   48.8  0.3282  -46.1
 0.700  0.6116 -168.3   9.266   90.7  0.0342   50.8  0.3087  -46.3
 0.800  0.6160 -172.9   8.178   87.5  0.0374   52.4  0.2952  -46.7
 0.900  0.6168 -176.6   7.284   84.7  0.0402   53.3  0.2846  -47.4
 1.000  0.6203  180.0   6.605   82.2  0.0424   53.9  0.2760  -48.0
 1.100  0.6232  177.1   6.024   79.8  0.0448   55.4  0.2714  -48.8
 1.200  0.6262  174.1   5.535   77.4  0.0484   55.7  0.2661  -49.8
 1.300  0.6268  171.6   5.118   75.2  0.0507   56.9  0.2624  -50.9
 1.400  0.6287  169.2   4.775   73.1  0.0543   57.8  0.2583  -52.2
 1.500  0.6332  167.0   4.458   71.0  0.0573   58.3  0.2556  -53.7
 1.600  0.6365  164.7   4.194   68.9  0.0605   58.7  0.2541  -55.2
 1.700  0.6379  162.5   3.959   66.9  0.0634   58.6  0.2511  -56.9
 1.800  0.6428  160.4   3.756   64.9  0.0671   59.1  0.2497  -58.7
 1.900  0.6454  158.5   3.562   63.1  0.0697   59.2  0.2477  -60.6
 2.000  0.6483  156.5   3.384   61.0  0.0729   58.9  0.2470  -62.6
 2.100  0.6508  154.5   3.234   59.1  0.0762   58.8  0.2456  -64.7
 2.200  0.6541  152.5   3.087   57.1  0.0796   58.8  0.2446  -66.9
 2.300  0.6586  150.7   2.959   55.3  0.0828   58.9  0.2442  -69.2
 2.400  0.6637  148.9   2.835   53.4  0.0861   58.9  0.2442  -71.6
 2.500  0.6667  147.2   2.725   51.7  0.0892   58.6  0.2440  -74.1
 2.600  0.6702  145.6   2.617   49.8  0.0924   58.3  0.2443  -76.6
 2.700  0.6741  143.9   2.523   48.2  0.0956   58.1  0.2448  -79.0
 2.800  0.6785  142.3   2.432   46.4  0.0989   58.0  0.2457  -81.3
 2.900  0.6814  140.7   2.350   44.7  0.1020   57.4  0.2458  -83.8
 3.000  0.6848  139.1   2.270   42.8  0.1051   56.9  0.2463  -86.3
 3.100  0.6883  137.6   2.202   41.3  0.1085   56.6  0.2465  -88.8
 3.200  0.6922  136.0   2.135   39.8  0.1119   56.2  0.2472  -91.2
 3.300  0.6967  134.5   2.070   38.1  0.1153   55.9  0.2484  -93.7
 3.400  0.7016  133.1   2.006   36.4  0.1187   55.7  0.2500  -96.1
 3.500  0.7070  131.6   1.945   34.5  0.1221   55.4  0.2520  -98.5
 3.600  0.7101  130.2   1.893   33.1  0.1255   54.8  0.2525 -101.1
 3.700  0.7137  128.8   1.843   31.5  0.1288   54.2  0.2535 -103.7
 3.800  0.7177  127.5   1.794   29.9  0.1322   53.6  0.2550 -106.3
 3.900  0.7220  126.1   1.746   28.2  0.1356   53.1  0.2571 -108.9
 4.000  0.7268  124.8   1.700   26.4  0.1390   52.6  0.2596 -111.4
 4.100  0.7296  123.5   1.657   25.0  0.1423   51.9  0.2610 -114.3
 4.200  0.7327  122.3   1.616   23.5  0.1455   51.3  0.2631 -117.1
 4.300  0.7362  121.0   1.575   21.9  0.1488   50.7  0.2658 -119.9
 4.400  0.7400  119.8   1.536   20.2  0.1522   50.1  0.2691 -122.6
 4.500  0.7442  118.6   1.498   18.5  0.1555   49.5  0.2730 -125.2
 4.600  0.7476  117.6   1.462   17.3  0.1590   48.9  0.2770 -128.0
 4.700  0.7511  116.6   1.427   16.0  0.1624   48.4  0.2817 -130.8
 4.800  0.7549  115.6   1.392   14.7  0.1659   47.9  0.2870 -133.5
 4.900  0.7590  114.7   1.358   13.3  0.1694   47.4  0.2928 -136.0
 5.000  0.7632  113.7   1.325   11.8  0.1729   46.9  0.2993 -138.5
 5.100  0.7657  112.8   1.298   10.6  0.1763   46.3  0.3067 -140.8
 5.200  0.7683  111.9   1.272    9.4  0.1797   45.6  0.3145 -143.0
 5.300  0.7712  111.0   1.247    8.2  0.1832   45.0  0.3228 -145.1
 5.400  0.7742  110.1   1.222    6.9  0.1866   44.5  0.3314 -147.1
 5.500  0.7774  109.2   1.198    5.5  0.1901   43.9  0.3405 -149.0
 5.600  0.7782  108.3   1.174    4.4  0.1936   43.1  0.3480 -150.6
 5.700  0.7791  107.4   1.150    3.2  0.1972   42.4  0.3558 -152.2
 5.800  0.7803  106.5   1.127    2.0  0.2008   41.7  0.3638 -153.6
 5.900  0.7817  105.6   1.104    0.8  0.2044   41.0  0.3721 -155.0
 6.000  0.7832  104.7   1.082   -0.5  0.2081   40.3  0.3806 -156.4
!
!  f       NFmin   Gammaopt  rn/50
! GHz       dB    MAG  ANG    -
 0.450      1.47  0.28 -179   0.10
 0.900      1.51  0.31 -177   0.10
 1.900      2.00  0.46 -156   0.11
 2.400      2.24  0.51 -151   0.16
!
! (c) 2017  Infineon Technologies AG, Munich