! Infineon Technologies  Discrete & RF Semiconductors
! BFP183W
! VCE =  1.0 V,  IC =  30 mA
! Common Emitter S-Parameters:                            Jan 2017
# GHz  S  MA  R  50
!  f         S11            S21            S12            S22
! GHz     MAG   ANG      MAG   ANG      MAG   ANG      MAG   ANG
 0.010  0.3410  -29.7  52.047  171.7  0.0029   78.4  0.8517   -8.8
 0.020  0.3836  -56.3  50.087  162.5  0.0059   75.7  0.8237  -17.7
 0.030  0.4027  -74.8  46.421  156.4  0.0082   66.1  0.7647  -23.9
 0.040  0.4582  -90.2  43.364  149.4  0.0106   60.7  0.7161  -31.1
 0.050  0.5389 -101.7  41.054  141.4  0.0130   57.3  0.6801  -39.1
 0.060  0.5493 -109.5  38.116  138.4  0.0139   54.0  0.6324  -42.0
 0.070  0.5694 -116.9  35.298  135.0  0.0148   51.0  0.5867  -45.4
 0.080  0.5983 -123.7  32.629  130.9  0.0158   48.5  0.5434  -49.4
 0.090  0.6348 -129.8  30.150  126.2  0.0168   46.2  0.5031  -54.0
 0.100  0.6777 -135.2  27.912  120.7  0.0178   44.2  0.4666  -59.4
 0.110  0.6845 -138.4  26.324  119.1  0.0183   42.9  0.4410  -61.0
 0.120  0.6934 -141.5  24.759  117.3  0.0188   41.7  0.4158  -62.8
 0.130  0.7043 -144.5  23.222  115.2  0.0193   40.6  0.3911  -64.9
 0.140  0.7171 -147.4  21.719  112.9  0.0198   39.5  0.3670  -67.2
 0.150  0.7316 -150.2  20.258  110.2  0.0203   38.5  0.3435  -69.8
 0.200  0.7496 -158.8  15.689  103.5  0.0209   37.7  0.2735  -75.7
 0.250  0.7614 -164.5  12.747   98.9  0.0228   38.8  0.2276  -79.8
 0.300  0.7648 -168.6  10.712   95.7  0.0242   40.1  0.1970  -82.8
 0.350  0.7663 -171.6   9.410   93.5  0.0255   42.5  0.1784  -84.6
 0.400  0.7699 -174.5   8.128   90.5  0.0269   44.7  0.1601  -86.8
 0.450  0.7710 -176.6   7.318   88.9  0.0283   46.1  0.1503  -88.2
 0.500  0.7730 -178.6   6.516   86.8  0.0298   47.3  0.1407  -89.8
 0.600  0.7749  178.2   5.451   83.5  0.0329   50.2  0.1285  -92.8
 0.700  0.7767  175.5   4.673   80.7  0.0361   54.0  0.1206  -94.4
 0.800  0.7770  172.8   4.097   77.8  0.0398   55.9  0.1179  -96.3
 0.900  0.7758  170.5   3.636   75.4  0.0435   56.7  0.1161  -98.5
 1.000  0.7788  168.5   3.287   73.0  0.0471   58.1  0.1151 -100.4
 1.100  0.7802  166.3   2.992   70.6  0.0513   59.0  0.1167 -101.7
 1.200  0.7801  164.2   2.746   68.2  0.0552   59.5  0.1172 -103.4
 1.300  0.7801  162.2   2.534   66.0  0.0587   59.8  0.1194 -105.5
 1.400  0.7838  160.3   2.365   63.8  0.0631   60.6  0.1212 -107.8
 1.500  0.7860  158.5   2.205   61.6  0.0669   60.7  0.1238 -109.9
 1.600  0.7885  156.7   2.075   59.4  0.0706   60.7  0.1269 -111.7
 1.700  0.7898  154.8   1.959   57.3  0.0749   60.7  0.1306 -114.3
 1.800  0.7953  152.9   1.856   55.1  0.0789   60.4  0.1345 -116.7
 1.900  0.7956  151.3   1.760   53.1  0.0825   60.2  0.1384 -118.8
 2.000  0.7974  149.4   1.672   50.9  0.0873   59.7  0.1439 -121.0
 2.100  0.7992  147.6   1.595   48.9  0.0911   59.4  0.1487 -123.5
 2.200  0.8017  145.8   1.521   46.7  0.0950   59.2  0.1538 -125.9
 2.300  0.8045  144.1   1.459   44.8  0.0990   58.7  0.1594 -128.3
 2.400  0.8080  142.5   1.399   42.8  0.1030   58.2  0.1652 -130.6
 2.500  0.8087  140.9   1.344   41.0  0.1068   57.7  0.1713 -132.7
 2.600  0.8100  139.4   1.290   39.0  0.1107   57.2  0.1776 -134.7
 2.700  0.8124  137.9   1.243   37.2  0.1144   56.6  0.1839 -136.8
 2.800  0.8153  136.4   1.197   35.3  0.1182   56.1  0.1905 -138.8
 2.900  0.8166  134.8   1.155   33.6  0.1222   55.4  0.1964 -140.9
 3.000  0.8186  133.2   1.115   31.7  0.1262   54.8  0.2026 -142.9
 3.100  0.8202  131.7   1.081   30.2  0.1299   54.2  0.2084 -145.0
 3.200  0.8224  130.3   1.048   28.7  0.1337   53.6  0.2144 -147.0
 3.300  0.8251  128.9   1.016   27.0  0.1374   53.0  0.2207 -148.9
 3.400  0.8283  127.4   0.985   25.3  0.1412   52.5  0.2272 -150.6
 3.500  0.8320  126.0   0.955   23.4  0.1450   52.0  0.2339 -152.3
 3.600  0.8333  124.6   0.929   22.0  0.1487   51.2  0.2401 -154.5
 3.700  0.8350  123.3   0.904   20.6  0.1524   50.5  0.2466 -156.5
 3.800  0.8372  121.9   0.879   19.1  0.1562   49.7  0.2534 -158.5
 3.900  0.8399  120.5   0.854   17.5  0.1600   49.1  0.2605 -160.3
 4.000  0.8431  119.2   0.831   15.8  0.1638   48.4  0.2679 -162.1
 4.100  0.8437  118.0   0.810   14.5  0.1674   47.6  0.2750 -164.3
 4.200  0.8446  116.8   0.790   13.2  0.1711   46.8  0.2826 -166.3
 4.300  0.8459  115.6   0.770   11.8  0.1747   46.0  0.2904 -168.3
 4.400  0.8476  114.4   0.750   10.3  0.1785   45.3  0.2986 -170.1
 4.500  0.8496  113.2   0.731    8.8  0.1822   44.6  0.3071 -171.9
 4.600  0.8507  112.2   0.714    7.8  0.1857   43.9  0.3155 -173.7
 4.700  0.8520  111.3   0.697    6.8  0.1892   43.2  0.3242 -175.3
 4.800  0.8535  110.3   0.680    5.7  0.1928   42.5  0.3332 -176.9
 4.900  0.8553  109.4   0.663    4.6  0.1964   41.8  0.3424 -178.4
 5.000  0.8573  108.4   0.647    3.4  0.2000   41.2  0.3518 -179.8
 5.100  0.8578  107.5   0.634    2.6  0.2035   40.4  0.3612  178.9
 5.200  0.8586  106.6   0.622    1.7  0.2071   39.6  0.3708  177.7
 5.300  0.8595  105.8   0.609    0.8  0.2108   38.9  0.3806  176.5
 5.400  0.8607  104.9   0.597   -0.2  0.2144   38.2  0.3905  175.4
 5.500  0.8620  104.0   0.585   -1.2  0.2181   37.5  0.4005  174.4
 5.600  0.8615  103.1   0.574   -1.9  0.2216   36.7  0.4079  173.5
 5.700  0.8612  102.2   0.563   -2.7  0.2252   35.9  0.4153  172.5
 5.800  0.8610  101.4   0.552   -3.4  0.2288   35.1  0.4229  171.7
 5.900  0.8611  100.5   0.542   -4.3  0.2324   34.3  0.4305  170.8
 6.000  0.8614   99.6   0.531   -5.1  0.2361   33.6  0.4383  170.0
!
!  f       NFmin   Gammaopt  rn/50
! GHz       dB    MAG  ANG    -
 0.450      1.39  0.27  180   0.10
 0.900      1.43  0.30 -178   0.09
 1.900      1.92  0.45 -156   0.10
 2.400      2.17  0.50 -152   0.15
!
! (c) 2017  Infineon Technologies AG, Munich