! Infineon Technologies  Discrete & RF Semiconductors
! BFP183W
! VCE =  5.0 V,  IC =  65 mA
! Common Emitter S-Parameters:                            Jan 2017
# GHz  S  MA  R  50
!  f         S11            S21            S12            S22
! GHz     MAG   ANG      MAG   ANG      MAG   ANG      MAG   ANG
 0.010  0.1739  -45.0  64.881  172.4  0.0014   90.4  0.8739   -5.3
 0.020  0.2433  -74.5  63.250  163.9  0.0030   77.3  0.8549  -11.9
 0.030  0.2932  -92.2  59.098  158.0  0.0043   69.1  0.8086  -16.4
 0.040  0.3623 -104.0  55.657  151.3  0.0056   64.6  0.7679  -21.4
 0.050  0.4417 -111.8  53.064  143.9  0.0069   61.9  0.7336  -26.9
 0.060  0.4636 -118.8  49.481  140.9  0.0075   58.9  0.6928  -28.7
 0.070  0.4917 -125.1  46.057  137.4  0.0081   56.3  0.6527  -30.7
 0.080  0.5252 -130.6  42.829  133.4  0.0087   54.2  0.6135  -33.0
 0.090  0.5629 -135.5  39.844  128.8  0.0094   52.3  0.5754  -35.6
 0.100  0.6041 -139.7  37.162  123.4  0.0100   50.6  0.5387  -38.5
 0.110  0.6141 -142.5  35.125  121.7  0.0104   49.9  0.5155  -39.0
 0.120  0.6256 -145.3  33.121  119.8  0.0108   49.2  0.4924  -39.6
 0.130  0.6384 -147.9  31.157  117.7  0.0111   48.5  0.4694  -40.2
 0.140  0.6525 -150.4  29.242  115.3  0.0115   48.0  0.4464  -40.9
 0.150  0.6678 -152.8  27.385  112.6  0.0119   47.4  0.4235  -41.7
 0.200  0.6919 -160.6  21.321  105.7  0.0124   49.6  0.3589  -41.4
 0.250  0.7044 -166.1  17.403  101.1  0.0147   49.6  0.3197  -40.3
 0.300  0.7103 -169.6  14.645   97.8  0.0155   51.9  0.2945  -39.2
 0.350  0.7137 -172.4  12.891   95.6  0.0168   55.5  0.2805  -38.3
 0.400  0.7188 -175.2  11.162   92.8  0.0182   58.5  0.2665  -37.4
 0.450  0.7199 -177.2  10.057   91.2  0.0198   59.3  0.2597  -37.1
 0.500  0.7219 -179.1   8.962   89.1  0.0215   59.9  0.2530  -36.7
 0.600  0.7233  177.8   7.504   86.1  0.0247   62.9  0.2447  -36.8
 0.700  0.7245  175.2   6.442   83.4  0.0270   65.1  0.2391  -37.1
 0.800  0.7277  172.6   5.656   80.7  0.0309   67.8  0.2374  -38.2
 0.900  0.7247  170.5   5.025   78.4  0.0346   67.9  0.2352  -39.7
 1.000  0.7292  168.2   4.545   76.2  0.0377   68.9  0.2330  -41.1
 1.100  0.7310  166.3   4.139   74.1  0.0413   69.6  0.2344  -42.9
 1.200  0.7305  164.2   3.796   71.9  0.0446   69.3  0.2334  -44.7
 1.300  0.7314  162.2   3.509   69.8  0.0478   69.6  0.2340  -46.7
 1.400  0.7344  160.4   3.271   67.8  0.0517   69.6  0.2328  -48.7
 1.500  0.7367  158.7   3.054   65.8  0.0550   70.1  0.2327  -51.0
 1.600  0.7399  156.9   2.872   63.7  0.0589   70.2  0.2336  -53.1
 1.700  0.7412  155.0   2.711   61.8  0.0629   69.8  0.2333  -55.6
 1.800  0.7446  153.2   2.571   59.7  0.0661   69.3  0.2335  -58.2
 1.900  0.7473  151.6   2.438   58.0  0.0695   69.5  0.2340  -60.7
 2.000  0.7479  149.8   2.315   55.9  0.0733   68.7  0.2350  -63.4
 2.100  0.7499  148.0   2.212   54.0  0.0770   68.5  0.2352  -66.1
 2.200  0.7526  146.3   2.111   52.0  0.0808   68.3  0.2359  -68.8
 2.300  0.7559  144.7   2.024   50.2  0.0847   67.7  0.2369  -71.8
 2.400  0.7598  143.1   1.939   48.3  0.0887   67.2  0.2386  -74.7
 2.500  0.7614  141.6   1.863   46.6  0.0922   66.6  0.2400  -77.6
 2.600  0.7635  140.1   1.789   44.7  0.0958   66.1  0.2421  -80.5
 2.700  0.7662  138.6   1.725   43.0  0.0995   65.6  0.2443  -83.4
 2.800  0.7695  137.1   1.662   41.2  0.1033   65.1  0.2471  -86.2
 2.900  0.7715  135.6   1.605   39.5  0.1071   64.4  0.2487  -89.1
 3.000  0.7741  134.1   1.550   37.6  0.1109   63.7  0.2510  -92.0
 3.100  0.7764  132.7   1.503   36.1  0.1146   63.1  0.2526  -94.8
 3.200  0.7792  131.2   1.457   34.6  0.1184   62.5  0.2548  -97.6
 3.300  0.7824  129.8   1.413   32.9  0.1221   61.9  0.2575 -100.3
 3.400  0.7862  128.4   1.369   31.2  0.1259   61.4  0.2609 -103.0
 3.500  0.7904  127.0   1.327   29.3  0.1297   60.9  0.2648 -105.6
 3.600  0.7925  125.7   1.292   27.9  0.1335   60.1  0.2666 -108.5
 3.700  0.7950  124.4   1.257   26.4  0.1373   59.3  0.2690 -111.4
 3.800  0.7979  123.1   1.223   24.8  0.1412   58.5  0.2721 -114.2
 3.900  0.8012  121.8   1.191   23.2  0.1451   57.8  0.2758 -116.9
 4.000  0.8049  120.5   1.159   21.4  0.1490   57.1  0.2802 -119.6
 4.100  0.8064  119.3   1.130   20.1  0.1526   56.2  0.2831 -122.6
 4.200  0.8082  118.1   1.101   18.6  0.1563   55.4  0.2868 -125.6
 4.300  0.8104  116.9   1.073   17.1  0.1600   54.7  0.2912 -128.4
 4.400  0.8129  115.7   1.045   15.6  0.1637   53.9  0.2964 -131.2
 4.500  0.8158  114.5   1.019   13.9  0.1675   53.2  0.3022 -133.9
 4.600  0.8175  113.6   0.994   12.8  0.1712   52.4  0.3077 -136.7
 4.700  0.8195  112.6   0.970   11.6  0.1749   51.7  0.3140 -139.4
 4.800  0.8216  111.7   0.946   10.4  0.1786   50.9  0.3209 -142.0
 4.900  0.8240  110.7   0.922    9.1  0.1824   50.3  0.3285 -144.5
 5.000  0.8266  109.8   0.899    7.7  0.1862   49.6  0.3366 -146.9
 5.100  0.8285  108.9   0.881    6.6  0.1900   48.8  0.3449 -149.1
 5.200  0.8306  108.1   0.864    5.6  0.1938   48.0  0.3537 -151.3
 5.300  0.8328  107.2   0.847    4.4  0.1976   47.3  0.3629 -153.3
 5.400  0.8353  106.4   0.830    3.2  0.2015   46.6  0.3726 -155.2
 5.500  0.8379  105.5   0.814    2.0  0.2054   45.9  0.3827 -157.0
 5.600  0.8377  104.6   0.797    1.1  0.2091   45.0  0.3905 -158.6
 5.700  0.8377  103.8   0.781    0.2  0.2129   44.1  0.3986 -160.2
 5.800  0.8378  102.9   0.765   -0.8  0.2168   43.2  0.4071 -161.7
 5.900  0.8382  102.1   0.749   -1.8  0.2207   42.4  0.4158 -163.2
 6.000  0.8387  101.2   0.733   -2.9  0.2246   41.6  0.4247 -164.6
!
!  f       NFmin   Gammaopt  rn/50
! GHz       dB    MAG  ANG    -
!
! noise parameter not available yet for this operation point!
!
! (c) 2017  Infineon Technologies AG, Munich