! Infineon Technologies  Discrete & RF Semiconductors
! BFP183W
! VCE =  2.0 V,  IC =  28 mA
! Common Emitter S-Parameters:                            Jan 2017
# GHz  S  MA  R  50
!  f         S11            S21            S12            S22
! GHz     MAG   ANG      MAG   ANG      MAG   ANG      MAG   ANG
 0.010  0.3809  -15.3  56.040  175.1  0.0018   87.2  0.9592   -4.9
 0.020  0.3884  -32.4  55.027  168.9  0.0037   90.4  0.9411  -10.1
 0.030  0.3890  -45.4  53.054  164.1  0.0055   78.9  0.9112  -14.6
 0.040  0.4091  -57.8  51.483  158.9  0.0074   73.1  0.8873  -19.3
 0.050  0.4461  -68.6  50.353  153.5  0.0094   69.8  0.8697  -24.3
 0.060  0.4475  -77.3  47.922  150.3  0.0105   65.9  0.8302  -27.1
 0.070  0.4590  -85.8  45.653  146.8  0.0116   62.7  0.7929  -30.2
 0.080  0.4799  -93.6  43.571  143.0  0.0127   60.1  0.7582  -33.6
 0.090  0.5091 -100.8  41.704  138.8  0.0138   57.9  0.7263  -37.3
 0.100  0.5452 -107.0  40.083  134.2  0.0150   56.1  0.6977  -41.3
 0.110  0.5504 -111.6  38.274  132.2  0.0156   54.7  0.6674  -43.0
 0.120  0.5590 -116.0  36.517  130.0  0.0163   53.3  0.6378  -44.8
 0.130  0.5708 -120.3  34.819  127.6  0.0170   52.1  0.6088  -46.7
 0.140  0.5857 -124.4  33.189  124.9  0.0176   51.0  0.5806  -48.9
 0.150  0.6035 -128.3  31.638  122.0  0.0183   49.9  0.5534  -51.3
 0.200  0.6326 -140.9  25.529  113.6  0.0193   46.4  0.4551  -56.9
 0.250  0.6496 -149.7  21.232  107.7  0.0215   44.4  0.3850  -60.3
 0.300  0.6590 -156.0  18.067  103.4  0.0227   44.8  0.3343  -62.5
 0.350  0.6626 -160.3  15.965  100.7  0.0242   46.4  0.3020  -63.4
 0.400  0.6699 -164.5  13.910   97.1  0.0258   47.9  0.2698  -64.6
 0.450  0.6709 -167.5  12.567   95.1  0.0271   48.9  0.2509  -65.1
 0.500  0.6736 -170.4  11.243   92.6  0.0285   49.8  0.2321  -65.7
 0.600  0.6794 -174.9   9.440   89.0  0.0315   52.9  0.2071  -66.5
 0.700  0.6808 -178.5   8.110   85.9  0.0339   55.1  0.1902  -66.6
 0.800  0.6841  178.2   7.122   83.0  0.0381   56.8  0.1802  -67.4
 0.900  0.6823  175.4   6.323   80.4  0.0414   57.7  0.1720  -68.2
 1.000  0.6859  172.9   5.717   78.0  0.0441   58.7  0.1655  -69.0
 1.100  0.6893  170.6   5.200   75.8  0.0478   59.9  0.1630  -70.0
 1.200  0.6898  168.2   4.772   73.5  0.0510   59.7  0.1597  -71.2
 1.300  0.6906  166.1   4.407   71.4  0.0544   60.8  0.1582  -72.5
 1.400  0.6934  164.1   4.107   69.3  0.0587   61.1  0.1562  -74.3
 1.500  0.6964  162.1   3.829   67.2  0.0621   61.5  0.1546  -76.1
 1.600  0.6997  160.0   3.598   65.2  0.0654   61.6  0.1554  -77.8
 1.700  0.7011  158.0   3.395   63.2  0.0691   61.7  0.1553  -80.3
 1.800  0.7051  156.3   3.219   61.2  0.0731   61.1  0.1549  -82.5
 1.900  0.7075  154.7   3.049   59.4  0.0765   61.3  0.1556  -84.9
 2.000  0.7096  152.6   2.894   57.3  0.0806   60.9  0.1576  -87.5
 2.100  0.7121  150.8   2.762   55.4  0.0842   60.7  0.1586  -90.3
 2.200  0.7154  149.0   2.634   53.3  0.0878   60.5  0.1600  -93.0
 2.300  0.7186  147.3   2.525   51.5  0.0915   60.0  0.1623  -95.8
 2.400  0.7224  145.6   2.418   49.6  0.0952   59.5  0.1650  -98.5
 2.500  0.7246  144.1   2.322   47.9  0.0987   59.0  0.1676 -101.3
 2.600  0.7273  142.6   2.229   46.0  0.1022   58.6  0.1707 -104.1
 2.700  0.7317  141.0   2.147   44.3  0.1057   58.1  0.1741 -106.8
 2.800  0.7366  139.4   2.067   42.5  0.1092   57.7  0.1779 -109.4
 2.900  0.7387  137.8   1.996   40.8  0.1127   57.1  0.1808 -112.1
 3.000  0.7413  136.3   1.926   39.0  0.1163   56.5  0.1841 -114.8
 3.100  0.7438  134.8   1.868   37.5  0.1199   55.9  0.1872 -117.4
 3.200  0.7469  133.3   1.810   36.0  0.1235   55.4  0.1906 -120.0
 3.300  0.7504  131.9   1.755   34.3  0.1271   54.9  0.1944 -122.5
 3.400  0.7544  130.4   1.700   32.6  0.1307   54.4  0.1986 -124.8
 3.500  0.7589  129.0   1.648   30.7  0.1343   53.9  0.2031 -127.1
 3.600  0.7617  127.7   1.604   29.3  0.1378   53.2  0.2065 -129.8
 3.700  0.7648  126.3   1.560   27.8  0.1414   52.5  0.2104 -132.4
 3.800  0.7684  125.0   1.518   26.2  0.1450   51.8  0.2147 -134.9
 3.900  0.7724  123.7   1.477   24.6  0.1486   51.2  0.2194 -137.3
 4.000  0.7768  122.4   1.437   22.8  0.1522   50.6  0.2245 -139.6
 4.100  0.7787  121.2   1.400   21.4  0.1555   49.8  0.2292 -142.3
 4.200  0.7810  119.9   1.365   20.0  0.1588   49.1  0.2344 -145.0
 4.300  0.7836  118.7   1.330   18.4  0.1622   48.4  0.2401 -147.5
 4.400  0.7866  117.5   1.296   16.8  0.1656   47.7  0.2462 -149.8
 4.500  0.7899  116.3   1.263   15.1  0.1690   47.1  0.2527 -152.1
 4.600  0.7925  115.3   1.232   13.9  0.1724   46.4  0.2597 -154.4
 4.700  0.7953  114.4   1.202   12.7  0.1758   45.8  0.2670 -156.6
 4.800  0.7984  113.4   1.173   11.4  0.1792   45.2  0.2747 -158.7
 4.900  0.8017  112.4   1.144   10.0  0.1826   44.6  0.2828 -160.7
 5.000  0.8052  111.5   1.116    8.6  0.1861   44.0  0.2912 -162.5
 5.100  0.8068  110.6   1.094    7.5  0.1896   43.3  0.3001 -164.2
 5.200  0.8086  109.8   1.073    6.4  0.1931   42.6  0.3092 -165.7
 5.300  0.8106  108.9   1.052    5.2  0.1966   41.9  0.3185 -167.2
 5.400  0.8128  108.1   1.031    4.0  0.2001   41.2  0.3281 -168.6
 5.500  0.8151  107.2   1.011    2.7  0.2037   40.6  0.3378 -169.9
 5.600  0.8156  106.3   0.991    1.7  0.2072   39.8  0.3454 -171.0
 5.700  0.8163  105.4   0.971    0.6  0.2107   39.0  0.3532 -172.1
 5.800  0.8172  104.5   0.952   -0.5  0.2142   38.3  0.3611 -173.2
 5.900  0.8183  103.6   0.933   -1.7  0.2178   37.6  0.3691 -174.1
 6.000  0.8196  102.7   0.914   -2.9  0.2214   36.9  0.3772 -175.1
!
!  f       NFmin   Gammaopt  rn/50
! GHz       dB    MAG  ANG    -
 0.450      1.35  0.26  179   0.09
 0.900      1.38  0.29 -179   0.10
 1.900      1.87  0.44 -157   0.10
 2.400      2.12  0.49 -152   0.14
!
! (c) 2017  Infineon Technologies AG, Munich