! Infineon Technologies  Discrete & RF Semiconductors
! BFP183W
! VCE =  9.0 V,  IC =  22 mA
! Common Emitter S-Parameters:                            Jan 2017
# GHz  S  MA  R  50
!  f         S11            S21            S12            S22
! GHz     MAG   ANG      MAG   ANG      MAG   ANG      MAG   ANG
 0.010  0.5592   -6.8  48.329  176.1  0.0014   78.0  0.9800   -3.1
 0.020  0.5525  -16.9  47.535  171.7  0.0027   89.2  0.9678   -6.5
 0.030  0.5448  -24.1  46.591  168.3  0.0045   78.5  0.9537   -9.6
 0.040  0.5460  -31.4  45.823  164.7  0.0063   74.0  0.9424  -12.8
 0.050  0.5559  -38.6  45.238  161.0  0.0082   71.5  0.9341  -16.0
 0.060  0.5448  -45.0  43.888  158.2  0.0095   69.6  0.9088  -18.4
 0.070  0.5406  -51.5  42.652  155.1  0.0109   68.3  0.8852  -20.8
 0.080  0.5436  -58.1  41.541  152.0  0.0123   67.2  0.8633  -23.5
 0.090  0.5535  -64.5  40.566  148.6  0.0136   66.3  0.8433  -26.2
 0.100  0.5701  -70.6  39.736  145.1  0.0150   65.6  0.8253  -29.1
 0.110  0.5642  -75.4  38.448  143.0  0.0158   63.2  0.8004  -30.7
 0.120  0.5624  -80.4  37.217  140.7  0.0166   61.0  0.7763  -32.4
 0.130  0.5648  -85.3  36.047  138.3  0.0175   59.0  0.7528  -34.3
 0.140  0.5712  -90.1  34.946  135.7  0.0183   57.1  0.7302  -36.2
 0.150  0.5816  -94.8  33.919  133.0  0.0192   55.5  0.7085  -38.3
 0.200  0.5886 -111.6  28.784  123.8  0.0206   50.7  0.6117  -44.3
 0.250  0.5952 -124.4  24.737  116.8  0.0237   47.3  0.5337  -48.2
 0.300  0.5976 -133.9  21.472  111.6  0.0248   46.5  0.4726  -50.7
 0.350  0.5975 -140.5  19.160  108.2  0.0264   46.0  0.4309  -51.9
 0.400  0.6054 -147.1  16.933  103.9  0.0280   45.5  0.3894  -53.3
 0.450  0.6041 -151.5  15.364  101.5  0.0291   46.4  0.3632  -53.8
 0.500  0.6063 -155.9  13.829   98.5  0.0302   47.3  0.3371  -54.3
 0.600  0.6088 -162.7  11.699   94.2  0.0327   47.9  0.3022  -54.6
 0.700  0.6099 -167.8  10.090   90.6  0.0347   50.2  0.2780  -54.6
 0.800  0.6124 -172.4   8.889   87.4  0.0379   52.6  0.2622  -54.8
 0.900  0.6106 -176.3   7.902   84.5  0.0407   52.9  0.2493  -55.1
 1.000  0.6152 -179.6   7.159   82.0  0.0435   54.7  0.2396  -55.3
 1.100  0.6168  177.6   6.521   79.7  0.0465   55.0  0.2335  -55.6
 1.200  0.6182  174.6   5.981   77.2  0.0493   55.9  0.2277  -56.4
 1.300  0.6189  171.8   5.525   75.1  0.0521   56.6  0.2242  -57.3
 1.400  0.6213  169.6   5.152   73.0  0.0556   57.6  0.2195  -58.3
 1.500  0.6251  167.3   4.806   70.9  0.0589   57.9  0.2165  -59.6
 1.600  0.6278  165.1   4.517   68.8  0.0617   57.7  0.2153  -60.8
 1.700  0.6292  162.8   4.260   66.9  0.0650   58.7  0.2128  -62.6
 1.800  0.6331  160.7   4.039   64.9  0.0685   58.5  0.2112  -64.1
 1.900  0.6368  158.9   3.828   63.2  0.0714   58.6  0.2095  -65.9
 2.000  0.6394  156.8   3.635   61.1  0.0748   58.5  0.2090  -67.9
 2.100  0.6424  154.8   3.472   59.3  0.0780   58.4  0.2078  -70.1
 2.200  0.6461  152.9   3.312   57.3  0.0813   58.3  0.2069  -72.3
 2.300  0.6506  151.1   3.174   55.5  0.0846   58.1  0.2070  -74.7
 2.400  0.6557  149.3   3.039   53.6  0.0879   57.9  0.2074  -77.1
 2.500  0.6581  147.6   2.920   51.9  0.0911   57.6  0.2077  -79.6
 2.600  0.6610  145.9   2.803   50.1  0.0943   57.4  0.2083  -82.0
 2.700  0.6656  144.2   2.701   48.5  0.0977   57.2  0.2092  -84.5
 2.800  0.6708  142.6   2.601   46.7  0.1012   57.0  0.2104  -86.9
 2.900  0.6735  141.0   2.512   45.0  0.1042   56.4  0.2109  -89.5
 3.000  0.6767  139.4   2.426   43.2  0.1073   55.9  0.2119  -92.0
 3.100  0.6802  137.9   2.353   41.8  0.1106   55.5  0.2126  -94.5
 3.200  0.6842  136.4   2.281   40.2  0.1139   55.1  0.2137  -97.0
 3.300  0.6886  134.9   2.211   38.6  0.1172   54.8  0.2152  -99.5
 3.400  0.6936  133.4   2.143   36.9  0.1206   54.4  0.2170 -101.9
 3.500  0.6989  132.0   2.077   35.0  0.1239   54.1  0.2193 -104.3
 3.600  0.7021  130.6   2.022   33.6  0.1272   53.5  0.2203 -107.0
 3.700  0.7057  129.2   1.967   32.1  0.1305   52.9  0.2218 -109.7
 3.800  0.7098  127.8   1.915   30.5  0.1338   52.4  0.2238 -112.3
 3.900  0.7142  126.4   1.864   28.9  0.1372   51.9  0.2262 -114.9
 4.000  0.7191  125.1   1.814   27.1  0.1405   51.4  0.2291 -117.4
 4.100  0.7221  123.8   1.768   25.7  0.1438   50.7  0.2310 -120.3
 4.200  0.7255  122.6   1.724   24.3  0.1471   50.1  0.2336 -123.2
 4.300  0.7292  121.3   1.681   22.7  0.1504   49.5  0.2367 -126.0
 4.400  0.7332  120.1   1.639   21.1  0.1537   48.9  0.2403 -128.8
 4.500  0.7376  118.9   1.598   19.4  0.1571   48.4  0.2445 -131.4
 4.600  0.7409  117.9   1.560   18.2  0.1603   47.8  0.2492 -134.2
 4.700  0.7443  117.0   1.522   16.9  0.1636   47.2  0.2544 -136.8
 4.800  0.7480  116.0   1.485   15.6  0.1669   46.7  0.2602 -139.4
 4.900  0.7519  115.0   1.449   14.2  0.1702   46.1  0.2665 -141.8
 5.000  0.7560  114.1   1.414   12.7  0.1735   45.6  0.2732 -144.1
 5.100  0.7588  113.2   1.386   11.5  0.1769   45.0  0.2809 -146.3
 5.200  0.7618  112.3   1.358   10.3  0.1803   44.3  0.2890 -148.3
 5.300  0.7650  111.4   1.332    9.1  0.1837   43.7  0.2975 -150.3
 5.400  0.7684  110.5   1.305    7.8  0.1871   43.2  0.3062 -152.1
 5.500  0.7720  109.6   1.280    6.4  0.1906   42.6  0.3153 -153.8
 5.600  0.7727  108.7   1.255    5.3  0.1941   41.8  0.3229 -155.3
 5.700  0.7737  107.8   1.230    4.2  0.1977   41.1  0.3307 -156.7
 5.800  0.7748  107.0   1.206    3.1  0.2013   40.4  0.3387 -158.0
 5.900  0.7760  106.1   1.182    1.9  0.2049   39.8  0.3469 -159.3
 6.000  0.7775  105.2   1.159    0.6  0.2086   39.1  0.3552 -160.5
!
!  f       NFmin   Gammaopt  rn/50
! GHz       dB    MAG  ANG    -
 0.450      1.22  0.22  174   0.10
 0.900      1.25  0.26  177   0.09
 1.900      1.73  0.41 -161   0.09
 2.400      1.96  0.46 -155   0.12
!
! (c) 2017  Infineon Technologies AG, Munich