! Infineon Technologies  Discrete & RF Semiconductors
! BFP183W
! VCE =  7.0 V,  IC =  54 mA
! Common Emitter S-Parameters:                            Jan 2017
# GHz  S  MA  R  50
!  f         S11            S21            S12            S22
! GHz     MAG   ANG      MAG   ANG      MAG   ANG      MAG   ANG
 0.010  0.2808  -20.2  67.178  174.0  0.0014   86.5  0.9363   -4.2
 0.020  0.3032  -41.3  65.633  167.3  0.0025   89.4  0.9170   -9.5
 0.030  0.3145  -57.5  62.832  162.2  0.0038   75.0  0.8851  -13.8
 0.040  0.3483  -71.6  60.571  156.7  0.0053   68.2  0.8584  -18.3
 0.050  0.3991  -82.7  58.912  150.8  0.0068   64.4  0.8374  -23.1
 0.060  0.4083  -91.4  55.709  147.6  0.0076   62.3  0.7982  -25.4
 0.070  0.4264  -99.6  52.696  144.1  0.0084   60.6  0.7603  -27.9
 0.080  0.4524 -106.9  49.907  140.1  0.0092   59.2  0.7241  -30.6
 0.090  0.4850 -113.4  47.383  135.8  0.0101   58.1  0.6897  -33.7
 0.100  0.5229 -119.0  45.168  130.9  0.0109   57.1  0.6574  -37.0
 0.110  0.5308 -123.0  42.972  129.0  0.0113   55.9  0.6298  -38.0
 0.120  0.5412 -126.9  40.828  126.9  0.0118   54.7  0.6023  -39.2
 0.130  0.5540 -130.7  38.745  124.6  0.0122   53.7  0.5752  -40.4
 0.140  0.5691 -134.2  36.733  122.0  0.0127   52.7  0.5483  -41.8
 0.150  0.5863 -137.6  34.805  119.1  0.0131   51.8  0.5218  -43.3
 0.200  0.6141 -148.2  27.723  111.2  0.0138   51.4  0.4367  -45.5
 0.250  0.6319 -156.0  22.897  105.7  0.0160   50.5  0.3797  -46.1
 0.300  0.6393 -161.1  19.399  101.8  0.0172   52.0  0.3403  -45.9
 0.350  0.6433 -164.9  17.117   99.3  0.0185   54.0  0.3167  -45.3
 0.400  0.6500 -168.6  14.878   96.0  0.0199   55.7  0.2932  -44.7
 0.450  0.6506 -171.1  13.430   94.2  0.0212   57.0  0.2805  -44.2
 0.500  0.6524 -173.6  11.999   92.0  0.0226   58.1  0.2679  -43.6
 0.600  0.6587 -177.5  10.070   88.6  0.0259   61.1  0.2519  -43.1
 0.700  0.6597  179.2   8.646   85.8  0.0285   62.5  0.2420  -42.8
 0.800  0.6630  176.2   7.593   83.0  0.0327   64.9  0.2363  -43.2
 0.900  0.6616  173.5   6.744   80.6  0.0355   65.3  0.2318  -44.0
 1.000  0.6642  171.3   6.099   78.4  0.0396   66.0  0.2284  -44.7
 1.100  0.6673  169.0   5.551   76.3  0.0421   66.6  0.2270  -45.9
 1.200  0.6673  166.7   5.091   74.0  0.0455   66.6  0.2249  -47.2
 1.300  0.6683  164.7   4.703   72.0  0.0491   67.1  0.2244  -48.7
 1.400  0.6690  162.8   4.386   70.0  0.0526   67.3  0.2225  -50.2
 1.500  0.6751  161.0   4.090   68.1  0.0561   67.4  0.2212  -52.2
 1.600  0.6770  159.1   3.845   66.1  0.0598   67.2  0.2216  -54.0
 1.700  0.6795  157.1   3.627   64.2  0.0633   67.2  0.2203  -56.1
 1.800  0.6826  155.3   3.440   62.3  0.0670   67.1  0.2200  -58.2
 1.900  0.6853  153.7   3.261   60.6  0.0701   66.8  0.2194  -60.5
 2.000  0.6869  151.8   3.096   58.5  0.0744   66.3  0.2197  -63.0
 2.100  0.6900  150.0   2.957   56.7  0.0779   66.0  0.2192  -65.5
 2.200  0.6937  148.3   2.822   54.8  0.0814   65.8  0.2191  -68.0
 2.300  0.6966  146.7   2.705   53.0  0.0847   65.3  0.2198  -70.7
 2.400  0.7001  145.2   2.590   51.1  0.0880   64.8  0.2209  -73.3
 2.500  0.7027  143.6   2.488   49.4  0.0917   64.3  0.2216  -76.1
 2.600  0.7058  142.1   2.389   47.6  0.0954   63.8  0.2229  -78.9
 2.700  0.7091  140.5   2.303   46.0  0.0990   63.3  0.2241  -81.6
 2.800  0.7130  139.0   2.220   44.2  0.1026   62.8  0.2258  -84.2
 2.900  0.7164  137.5   2.145   42.5  0.1061   62.1  0.2269  -87.0
 3.000  0.7203  136.0   2.071   40.7  0.1097   61.4  0.2285  -89.7
 3.100  0.7231  134.6   2.008   39.3  0.1132   60.8  0.2295  -92.4
 3.200  0.7263  133.2   1.947   37.7  0.1168   60.3  0.2310  -95.1
 3.300  0.7300  131.8   1.887   36.1  0.1203   59.8  0.2329  -97.7
 3.400  0.7341  130.4   1.829   34.4  0.1238   59.3  0.2354 -100.3
 3.500  0.7386  129.0   1.773   32.5  0.1274   58.9  0.2383 -102.8
 3.600  0.7413  127.7   1.725   31.1  0.1309   58.1  0.2394 -105.6
 3.700  0.7445  126.4   1.679   29.6  0.1345   57.3  0.2410 -108.5
 3.800  0.7480  125.1   1.634   28.0  0.1381   56.6  0.2432 -111.2
 3.900  0.7519  123.8   1.590   26.4  0.1417   55.9  0.2460 -114.0
 4.000  0.7562  122.5   1.547   24.6  0.1453   55.3  0.2493 -116.6
 4.100  0.7588  121.3   1.508   23.2  0.1487   54.5  0.2516 -119.6
 4.200  0.7617  120.1   1.470   21.8  0.1521   53.7  0.2545 -122.5
 4.300  0.7649  118.9   1.433   20.2  0.1556   53.0  0.2582 -125.4
 4.400  0.7685  117.7   1.398   18.6  0.1591   52.3  0.2624 -128.1
 4.500  0.7724  116.5   1.363   16.9  0.1626   51.6  0.2672 -130.8
 4.600  0.7751  115.5   1.330   15.7  0.1661   50.9  0.2721 -133.6
 4.700  0.7781  114.6   1.298   14.5  0.1696   50.2  0.2776 -136.3
 4.800  0.7813  113.7   1.266   13.2  0.1732   49.6  0.2837 -138.9
 4.900  0.7846  112.7   1.235   11.8  0.1767   49.0  0.2903 -141.4
 5.000  0.7882  111.8   1.205   10.4  0.1803   48.4  0.2975 -143.8
 5.100  0.7904  110.9   1.181    9.3  0.1839   47.7  0.3055 -146.0
 5.200  0.7927  110.1   1.157    8.1  0.1875   47.0  0.3139 -148.2
 5.300  0.7953  109.2   1.134    6.8  0.1911   46.3  0.3227 -150.2
 5.400  0.7980  108.3   1.112    5.5  0.1948   45.6  0.3319 -152.1
 5.500  0.8009  107.5   1.090    4.2  0.1985   45.0  0.3414 -153.9
 5.600  0.8014  106.6   1.068    3.2  0.2021   44.1  0.3492 -155.5
 5.700  0.8020  105.7   1.047    2.1  0.2057   43.3  0.3572 -157.0
 5.800  0.8029  104.9   1.026    0.9  0.2093   42.5  0.3654 -158.4
 5.900  0.8039  104.0   1.005   -0.3  0.2130   41.7  0.3739 -159.8
 6.000  0.8051  103.1   0.985   -1.5  0.2167   41.0  0.3826 -161.1
!
!  f       NFmin   Gammaopt  rn/50
! GHz       dB    MAG  ANG    -
!
! noise parameter not available yet for this operation point!
!
! (c) 2017  Infineon Technologies AG, Munich