! Infineon Technologies  Discrete & RF Semiconductors
! BFP183W
! VCE =  3.0 V,  IC =  22 mA
! Common Emitter S-Parameters:                            Jan 2017
# GHz  S  MA  R  50
!  f         S11            S21            S12            S22
! GHz     MAG   ANG      MAG   ANG      MAG   ANG      MAG   ANG
 0.010  0.4826   -9.7  49.976  176.2  0.0017   84.9  0.9781   -3.9
 0.020  0.4776  -22.3  49.609  171.0  0.0033   90.8  0.9660   -8.0
 0.030  0.4725  -31.5  48.306  167.0  0.0051   80.0  0.9457  -11.7
 0.040  0.4798  -40.7  47.251  162.8  0.0069   74.9  0.9294  -15.5
 0.050  0.4988  -49.4  46.463  158.4  0.0088   71.9  0.9175  -19.5
 0.060  0.4911  -56.9  44.754  155.4  0.0101   68.4  0.8861  -22.2
 0.070  0.4921  -64.5  43.181  152.1  0.0114   65.7  0.8567  -25.0
 0.080  0.5015  -71.9  41.759  148.6  0.0128   63.6  0.8296  -28.0
 0.090  0.5191  -79.0  40.503  144.9  0.0141   61.9  0.8050  -31.3
 0.100  0.5439  -85.5  39.430  140.9  0.0155   60.5  0.7831  -34.7
 0.110  0.5431  -90.5  37.947  138.8  0.0164   58.3  0.7549  -36.4
 0.120  0.5463  -95.4  36.519  136.5  0.0172   56.4  0.7275  -38.3
 0.130  0.5536 -100.3  35.153  134.1  0.0182   54.6  0.7010  -40.4
 0.140  0.5648 -105.0  33.856  131.4  0.0191   53.0  0.6754  -42.5
 0.150  0.5796 -109.5  32.637  128.6  0.0200   51.6  0.6508  -44.9
 0.200  0.6014 -125.0  27.108  119.6  0.0217   48.8  0.5488  -51.4
 0.250  0.6179 -136.2  22.967  112.9  0.0238   46.0  0.4704  -55.6
 0.300  0.6259 -144.3  19.761  108.1  0.0255   44.9  0.4118  -58.3
 0.350  0.6280 -149.9  17.554  104.9  0.0266   45.1  0.3723  -59.8
 0.400  0.6361 -155.4  15.415  100.9  0.0277   45.3  0.3331  -61.6
 0.450  0.6371 -159.2  13.949   98.7  0.0291   46.2  0.3090  -62.2
 0.500  0.6409 -163.0  12.510   95.9  0.0306   47.1  0.2850  -62.9
 0.600  0.6449 -168.6  10.554   91.9  0.0338   48.5  0.2529  -63.9
 0.700  0.6471 -173.1   9.083   88.6  0.0357   50.6  0.2299  -64.3
 0.800  0.6488 -177.0   7.992   85.4  0.0390   53.5  0.2157  -64.8
 0.900  0.6487  179.7   7.101   82.7  0.0420   53.7  0.2046  -65.5
 1.000  0.6522  176.8   6.425   80.2  0.0446   55.2  0.1950  -66.1
 1.100  0.6545  174.1   5.850   78.0  0.0485   56.7  0.1905  -66.8
 1.200  0.6563  171.4   5.367   75.5  0.0515   56.9  0.1853  -67.6
 1.300  0.6569  169.0   4.957   73.4  0.0545   57.7  0.1818  -69.0
 1.400  0.6586  166.9   4.622   71.3  0.0584   57.8  0.1782  -70.4
 1.500  0.6627  164.7   4.310   69.3  0.0613   58.2  0.1760  -71.7
 1.600  0.6655  162.7   4.051   67.2  0.0648   58.6  0.1744  -73.2
 1.700  0.6674  160.5   3.821   65.2  0.0685   59.1  0.1732  -75.4
 1.800  0.6717  158.5   3.624   63.2  0.0719   58.6  0.1720  -77.4
 1.900  0.6740  156.7   3.432   61.4  0.0754   59.0  0.1716  -79.5
 2.000  0.6770  154.8   3.260   59.3  0.0789   58.3  0.1723  -81.8
 2.100  0.6795  152.9   3.113   57.5  0.0823   58.2  0.1724  -84.3
 2.200  0.6828  151.0   2.969   55.5  0.0857   58.2  0.1728  -86.8
 2.300  0.6872  149.2   2.845   53.7  0.0893   57.9  0.1739  -89.5
 2.400  0.6923  147.5   2.723   51.8  0.0929   57.7  0.1753  -92.1
 2.500  0.6944  145.9   2.616   50.1  0.0962   57.3  0.1772  -94.8
 2.600  0.6971  144.4   2.511   48.2  0.0996   57.0  0.1794  -97.4
 2.700  0.7012  142.7   2.420   46.6  0.1030   56.6  0.1814 -100.0
 2.800  0.7059  141.1   2.331   44.8  0.1064   56.3  0.1838 -102.6
 2.900  0.7089  139.5   2.251   43.1  0.1098   55.7  0.1859 -105.3
 3.000  0.7125  138.0   2.173   41.2  0.1133   55.2  0.1883 -107.9
 3.100  0.7153  136.5   2.107   39.8  0.1167   54.7  0.1904 -110.5
 3.200  0.7187  135.0   2.043   38.2  0.1202   54.3  0.1929 -113.1
 3.300  0.7225  133.5   1.980   36.6  0.1236   53.9  0.1958 -115.6
 3.400  0.7268  132.0   1.918   34.9  0.1270   53.5  0.1990 -118.1
 3.500  0.7316  130.5   1.859   33.0  0.1305   53.1  0.2026 -120.4
 3.600  0.7344  129.1   1.809   31.6  0.1339   52.4  0.2050 -123.1
 3.700  0.7375  127.8   1.760   30.1  0.1373   51.8  0.2079 -125.8
 3.800  0.7411  126.4   1.713   28.5  0.1407   51.2  0.2112 -128.4
 3.900  0.7451  125.1   1.667   26.9  0.1442   50.6  0.2150 -130.9
 4.000  0.7495  123.8   1.622   25.1  0.1476   50.1  0.2191 -133.3
 4.100  0.7522  122.5   1.581   23.7  0.1509   49.4  0.2229 -136.1
 4.200  0.7552  121.3   1.541   22.3  0.1541   48.7  0.2272 -138.8
 4.300  0.7586  120.0   1.502   20.7  0.1574   48.0  0.2320 -141.4
 4.400  0.7623  118.8   1.464   19.1  0.1608   47.3  0.2373 -143.9
 4.500  0.7664  117.6   1.427   17.4  0.1641   46.7  0.2430 -146.3
 4.600  0.7692  116.6   1.393   16.2  0.1674   46.1  0.2492 -148.8
 4.700  0.7723  115.7   1.359   15.0  0.1708   45.5  0.2558 -151.1
 4.800  0.7755  114.8   1.326   13.6  0.1741   44.9  0.2628 -153.3
 4.900  0.7789  113.8   1.294   12.3  0.1775   44.3  0.2703 -155.4
 5.000  0.7826  112.9   1.262   10.8  0.1809   43.8  0.2780 -157.4
 5.100  0.7850  112.0   1.237    9.7  0.1843   43.1  0.2866 -159.2
 5.200  0.7876  111.1   1.213    8.5  0.1877   42.5  0.2954 -160.9
 5.300  0.7904  110.2   1.189    7.3  0.1911   41.9  0.3045 -162.5
 5.400  0.7933  109.3   1.166    6.0  0.1945   41.3  0.3138 -164.0
 5.500  0.7965  108.4   1.143    4.7  0.1980   40.7  0.3233 -165.4
 5.600  0.7968  107.5   1.121    3.6  0.2016   39.9  0.3308 -166.6
 5.700  0.7974  106.6   1.099    2.6  0.2052   39.2  0.3384 -167.8
 5.800  0.7981  105.7   1.077    1.4  0.2088   38.5  0.3461 -168.8
 5.900  0.7991  104.8   1.056    0.2  0.2125   37.9  0.3540 -169.9
 6.000  0.8002  103.9   1.035   -1.0  0.2162   37.2  0.3620 -170.9
!
!  f       NFmin   Gammaopt  rn/50
! GHz       dB    MAG  ANG    -
 0.450      1.22  0.22  174   0.10
 0.900      1.25  0.26  177   0.09
 1.900      1.73  0.41 -161   0.09
 2.400      1.96  0.46 -155   0.12
!
! (c) 2017  Infineon Technologies AG, Munich