! Infineon Technologies  Discrete & RF Semiconductors
! BFP183W
! VCE =  7.0 V,  IC =  15 mA
! Common Emitter S-Parameters:                            Jan 2017
# GHz  S  MA  R  50
!  f         S11            S21            S12            S22
! GHz     MAG   ANG      MAG   ANG      MAG   ANG      MAG   ANG
 0.010  0.6384   -5.5  38.794  177.1  0.0016   93.2  0.9885   -2.7
 0.020  0.6309  -14.0  38.411  173.1  0.0035   88.1  0.9816   -5.6
 0.030  0.6222  -19.7  37.805  170.1  0.0052   81.4  0.9704   -8.2
 0.040  0.6199  -25.5  37.307  167.0  0.0070   78.1  0.9613  -11.0
 0.050  0.6239  -31.3  36.921  163.8  0.0088   76.1  0.9544  -13.7
 0.060  0.6132  -36.8  36.066  161.2  0.0103   73.3  0.9348  -15.9
 0.070  0.6083  -42.4  35.292  158.4  0.0119   71.3  0.9166  -18.1
 0.080  0.6093  -48.0  34.604  155.5  0.0135   69.7  0.8998  -20.5
 0.090  0.6161  -53.6  34.007  152.5  0.0150   68.4  0.8846  -22.9
 0.100  0.6286  -59.0  33.507  149.4  0.0166   67.4  0.8711  -25.4
 0.110  0.6198  -63.5  32.606  147.3  0.0176   64.8  0.8491  -27.0
 0.120  0.6148  -68.0  31.750  145.1  0.0186   62.5  0.8278  -28.8
 0.130  0.6137  -72.6  30.944  142.8  0.0196   60.4  0.8073  -30.6
 0.140  0.6166  -77.2  30.191  140.4  0.0207   58.6  0.7876  -32.5
 0.150  0.6234  -81.7  29.496  137.8  0.0218   56.9  0.7689  -34.5
 0.200  0.6230  -98.8  25.668  128.5  0.0248   52.3  0.6772  -40.8
 0.250  0.6216 -112.5  22.464  121.2  0.0281   47.2  0.5995  -45.3
 0.300  0.6190 -123.0  19.751  115.7  0.0302   44.6  0.5355  -48.5
 0.350  0.6146 -130.5  17.731  111.9  0.0313   43.9  0.4894  -50.1
 0.400  0.6209 -138.0  15.807  107.2  0.0325   43.3  0.4437  -52.1
 0.450  0.6167 -143.2  14.387  104.5  0.0338   42.9  0.4141  -52.9
 0.500  0.6176 -148.4  13.006  101.2  0.0351   42.5  0.3845  -53.8
 0.600  0.6201 -156.3  11.056   96.4  0.0375   42.6  0.3430  -54.7
 0.700  0.6199 -162.3   9.565   92.5  0.0393   44.7  0.3145  -55.1
 0.800  0.6219 -167.3   8.443   89.0  0.0419   46.3  0.2943  -55.4
 0.900  0.6212 -171.7   7.519   86.0  0.0442   46.8  0.2790  -55.9
 1.000  0.6228 -175.6   6.815   83.2  0.0465   48.6  0.2677  -56.3
 1.100  0.6256 -178.8   6.212   80.8  0.0489   48.8  0.2594  -56.8
 1.200  0.6267  177.9   5.701   78.2  0.0516   50.2  0.2523  -57.5
 1.300  0.6263  175.1   5.269   75.9  0.0542   50.9  0.2471  -58.3
 1.400  0.6289  172.5   4.914   73.6  0.0570   51.4  0.2416  -59.4
 1.500  0.6342  170.1   4.587   71.5  0.0599   52.1  0.2380  -60.6
 1.600  0.6366  167.6   4.313   69.3  0.0627   53.2  0.2355  -61.7
 1.700  0.6381  165.1   4.066   67.3  0.0653   53.5  0.2326  -63.4
 1.800  0.6427  162.8   3.860   65.3  0.0689   53.9  0.2303  -65.0
 1.900  0.6456  160.8   3.656   63.5  0.0713   54.2  0.2282  -66.8
 2.000  0.6490  158.7   3.474   61.3  0.0747   54.6  0.2272  -68.6
 2.100  0.6514  156.6   3.318   59.4  0.0776   54.6  0.2259  -70.7
 2.200  0.6547  154.6   3.165   57.4  0.0805   54.6  0.2250  -72.8
 2.300  0.6589  152.7   3.033   55.6  0.0836   54.7  0.2249  -75.1
 2.400  0.6639  150.8   2.905   53.6  0.0867   54.7  0.2252  -77.3
 2.500  0.6673  149.0   2.791   51.9  0.0898   54.5  0.2251  -79.7
 2.600  0.6713  147.3   2.679   50.0  0.0930   54.3  0.2254  -82.1
 2.700  0.6750  145.6   2.582   48.3  0.0960   54.3  0.2262  -84.4
 2.800  0.6793  143.9   2.488   46.5  0.0990   54.3  0.2274  -86.7
 2.900  0.6821  142.2   2.403   44.8  0.1023   53.9  0.2275  -89.2
 3.000  0.6854  140.6   2.321   42.9  0.1056   53.5  0.2281  -91.7
 3.100  0.6885  139.0   2.251   41.4  0.1088   53.2  0.2288  -94.2
 3.200  0.6922  137.4   2.182   39.9  0.1120   53.0  0.2300  -96.6
 3.300  0.6964  135.8   2.115   38.2  0.1152   52.7  0.2316  -99.0
 3.400  0.7012  134.2   2.050   36.5  0.1184   52.5  0.2335 -101.4
 3.500  0.7064  132.7   1.987   34.6  0.1216   52.3  0.2359 -103.7
 3.600  0.7096  131.3   1.934   33.2  0.1248   51.8  0.2368 -106.3
 3.700  0.7133  129.9   1.882   31.6  0.1281   51.4  0.2382 -108.9
 3.800  0.7173  128.5   1.831   30.0  0.1314   50.9  0.2401 -111.5
 3.900  0.7218  127.1   1.782   28.3  0.1346   50.5  0.2425 -114.0
 4.000  0.7267  125.8   1.735   26.5  0.1379   50.1  0.2453 -116.5
 4.100  0.7296  124.5   1.691   25.1  0.1412   49.5  0.2472 -119.4
 4.200  0.7330  123.2   1.648   23.6  0.1446   48.9  0.2498 -122.2
 4.300  0.7366  121.9   1.606   22.0  0.1479   48.4  0.2529 -124.9
 4.400  0.7407  120.7   1.566   20.3  0.1513   47.9  0.2566 -127.6
 4.500  0.7451  119.4   1.527   18.6  0.1547   47.4  0.2608 -130.2
 4.600  0.7482  118.4   1.490   17.4  0.1580   46.9  0.2654 -132.9
 4.700  0.7516  117.4   1.454   16.1  0.1612   46.4  0.2707 -135.6
 4.800  0.7552  116.4   1.418   14.7  0.1645   46.0  0.2765 -138.1
 4.900  0.7590  115.4   1.384   13.3  0.1678   45.5  0.2828 -140.6
 5.000  0.7631  114.4   1.350   11.8  0.1711   45.1  0.2896 -142.9
 5.100  0.7657  113.5   1.323   10.7  0.1745   44.5  0.2973 -145.1
 5.200  0.7686  112.6   1.297    9.5  0.1780   43.8  0.3055 -147.2
 5.300  0.7716  111.7   1.271    8.2  0.1814   43.2  0.3140 -149.2
 5.400  0.7748  110.8   1.246    6.9  0.1849   42.7  0.3229 -151.0
 5.500  0.7782  109.9   1.221    5.6  0.1884   42.1  0.3321 -152.8
 5.600  0.7789  109.0   1.196    4.5  0.1919   41.4  0.3398 -154.3
 5.700  0.7798  108.1   1.172    3.3  0.1954   40.7  0.3477 -155.8
 5.800  0.7809  107.2   1.149    2.1  0.1989   40.0  0.3558 -157.1
 5.900  0.7822  106.3   1.126    0.9  0.2025   39.4  0.3641 -158.4
 6.000  0.7837  105.4   1.103   -0.4  0.2061   38.8  0.3726 -159.7
!
!  f       NFmin   Gammaopt  rn/50
! GHz       dB    MAG  ANG    -
 0.450      1.05  0.15  158   0.10
 0.900      1.09  0.21  163   0.09
 1.900      1.56  0.39 -168   0.08
 2.400      1.80  0.44 -161   0.11
!
! (c) 2017  Infineon Technologies AG, Munich