! Infineon Technologies  Discrete & RF Semiconductors
! BFP183W
! VCE =  1.0 V,  IC =  9.0 mA
! Common Emitter S-Parameters:                            Jan 2017
# GHz  S  MA  R  50
!  f         S11            S21            S12            S22
! GHz     MAG   ANG      MAG   ANG      MAG   ANG      MAG   ANG
 0.010  0.7286   -5.2  27.252  178.0  0.0024   89.0  0.9890   -3.0
 0.020  0.7154  -13.0  26.945  174.0  0.0054   87.3  0.9809   -6.0
 0.030  0.7072  -18.2  26.631  171.0  0.0081   81.7  0.9708   -8.8
 0.040  0.7050  -23.5  26.390  168.0  0.0109   78.9  0.9630  -11.6
 0.050  0.7088  -28.8  26.224  164.9  0.0137   77.2  0.9576  -14.5
 0.060  0.6969  -33.9  25.675  162.3  0.0159   73.5  0.9384  -16.9
 0.070  0.6908  -39.1  25.180  159.6  0.0182   70.8  0.9210  -19.4
 0.080  0.6905  -44.4  24.742  156.8  0.0206   68.7  0.9053  -22.0
 0.090  0.6960  -49.7  24.365  154.0  0.0229   67.0  0.8916  -24.7
 0.100  0.7073  -54.8  24.052  151.0  0.0253   65.6  0.8798  -27.4
 0.110  0.6970  -59.2  23.460  148.9  0.0269   63.2  0.8583  -29.3
 0.120  0.6909  -63.6  22.900  146.7  0.0285   61.1  0.8378  -31.3
 0.130  0.6890  -68.1  22.376  144.4  0.0301   59.3  0.8183  -33.5
 0.140  0.6914  -72.6  21.889  142.0  0.0318   57.6  0.8001  -35.7
 0.150  0.6980  -77.1  21.443  139.5  0.0335   56.1  0.7831  -38.0
 0.200  0.6931  -94.0  18.849  130.1  0.0387   49.8  0.6928  -45.9
 0.250  0.6897 -108.1  16.613  122.5  0.0439   43.9  0.6129  -52.0
 0.300  0.6850 -119.0  14.676  116.7  0.0464   40.3  0.5456  -56.8
 0.350  0.6776 -126.8  13.212  112.7  0.0486   38.4  0.4956  -59.8
 0.400  0.6829 -134.6  11.826  107.8  0.0508   36.6  0.4473  -63.5
 0.450  0.6782 -140.0  10.787  104.9  0.0519   35.6  0.4136  -65.5
 0.500  0.6796 -145.5   9.781  101.5  0.0530   34.6  0.3805  -67.9
 0.600  0.6792 -153.7   8.324   96.3  0.0559   33.2  0.3335  -71.1
 0.700  0.6777 -160.2   7.201   92.2  0.0567   33.8  0.2993  -73.4
 0.800  0.6792 -165.6   6.365   88.3  0.0588   34.3  0.2751  -75.3
 0.900  0.6771 -170.3   5.674   85.1  0.0608   34.7  0.2571  -77.2
 1.000  0.6802 -174.0   5.143   82.1  0.0629   35.5  0.2424  -78.8
 1.100  0.6830 -177.6   4.691   79.4  0.0648   36.0  0.2324  -80.1
 1.200  0.6826  179.1   4.308   76.7  0.0671   36.7  0.2229  -81.8
 1.300  0.6834  176.1   3.985   74.2  0.0689   37.4  0.2165  -83.3
 1.400  0.6851  173.3   3.718   71.7  0.0715   38.8  0.2105  -85.2
 1.500  0.6909  170.8   3.472   69.4  0.0738   39.5  0.2059  -87.0
 1.600  0.6914  168.2   3.264   67.1  0.0761   39.9  0.2032  -88.6
 1.700  0.6942  165.8   3.083   64.9  0.0786   40.9  0.2010  -90.9
 1.800  0.6987  163.4   2.928   62.6  0.0812   41.2  0.1990  -93.0
 1.900  0.7023  161.3   2.775   60.7  0.0835   41.9  0.1976  -95.1
 2.000  0.7040  159.0   2.636   58.3  0.0866   42.2  0.1977  -97.4
 2.100  0.7066  156.8   2.518   56.3  0.0892   42.6  0.1976  -99.8
 2.200  0.7103  154.6   2.404   54.1  0.0919   43.0  0.1979 -102.2
 2.300  0.7140  152.7   2.305   52.1  0.0948   43.4  0.1995 -104.7
 2.400  0.7184  150.8   2.209   50.0  0.0977   43.7  0.2015 -107.1
 2.500  0.7208  148.9   2.122   48.2  0.1003   43.7  0.2037 -109.6
 2.600  0.7240  147.1   2.037   46.2  0.1030   43.7  0.2063 -112.0
 2.700  0.7276  145.3   1.963   44.4  0.1059   43.8  0.2089 -114.3
 2.800  0.7319  143.5   1.891   42.4  0.1089   43.9  0.2119 -116.6
 2.900  0.7340  141.8   1.827   40.6  0.1119   43.7  0.2143 -119.1
 3.000  0.7368  140.2   1.765   38.6  0.1150   43.5  0.2170 -121.5
 3.100  0.7395  138.5   1.711   37.1  0.1180   43.5  0.2201 -123.8
 3.200  0.7427  136.9   1.659   35.4  0.1210   43.5  0.2235 -126.1
 3.300  0.7466  135.3   1.607   33.7  0.1240   43.4  0.2272 -128.3
 3.400  0.7511  133.7   1.558   31.9  0.1270   43.4  0.2313 -130.4
 3.500  0.7561  132.1   1.510   29.9  0.1300   43.4  0.2357 -132.4
 3.600  0.7585  130.6   1.469   28.4  0.1332   43.0  0.2393 -134.9
 3.700  0.7615  129.2   1.429   26.9  0.1365   42.7  0.2434 -137.2
 3.800  0.7649  127.7   1.391   25.2  0.1397   42.4  0.2478 -139.6
 3.900  0.7688  126.3   1.353   23.4  0.1430   42.1  0.2527 -141.8
 4.000  0.7732  124.9   1.317   21.6  0.1462   41.8  0.2579 -143.9
 4.100  0.7752  123.6   1.284   20.2  0.1494   41.4  0.2628 -146.4
 4.200  0.7776  122.3   1.251   18.7  0.1526   41.0  0.2682 -148.8
 4.300  0.7803  121.0   1.219   17.1  0.1558   40.6  0.2740 -151.2
 4.400  0.7835  119.7   1.189   15.4  0.1591   40.2  0.2802 -153.4
 4.500  0.7871  118.4   1.159   13.7  0.1623   39.9  0.2869 -155.5
 4.600  0.7896  117.3   1.130   12.5  0.1656   39.4  0.2940 -157.7
 4.700  0.7923  116.3   1.102   11.2  0.1688   39.0  0.3015 -159.7
 4.800  0.7953  115.3   1.074    9.9  0.1721   38.6  0.3093 -161.7
 4.900  0.7985  114.2   1.047    8.5  0.1754   38.2  0.3175 -163.5
 5.000  0.8020  113.2   1.021    7.0  0.1787   37.8  0.3260 -165.3
 5.100  0.8038  112.3   1.001    5.9  0.1820   37.3  0.3350 -166.9
 5.200  0.8058  111.3   0.981    4.7  0.1853   36.8  0.3442 -168.4
 5.300  0.8080  110.4   0.962    3.5  0.1887   36.3  0.3537 -169.9
 5.400  0.8105  109.5   0.943    2.3  0.1920   35.8  0.3633 -171.2
 5.500  0.8131  108.6   0.924    1.0  0.1954   35.4  0.3732 -172.5
 5.600  0.8133  107.7   0.905   -0.0  0.1988   34.8  0.3806 -173.6
 5.700  0.8137  106.8   0.887   -1.1  0.2022   34.2  0.3881 -174.7
 5.800  0.8144  105.8   0.869   -2.2  0.2057   33.6  0.3958 -175.7
 5.900  0.8152  104.9   0.851   -3.3  0.2091   33.0  0.4036 -176.7
 6.000  0.8163  104.0   0.834   -4.5  0.2126   32.5  0.4115 -177.7
!
!  f       NFmin   Gammaopt  rn/50
! GHz       dB    MAG  ANG    -
 0.450      0.90  0.11   89   0.11
 0.900      0.95  0.18  132   0.10
 1.900      1.46  0.37  179   0.07
 2.400      1.71  0.44 -170   0.09
!
! (c) 2017  Infineon Technologies AG, Munich