! Infineon Technologies  Discrete & RF Semiconductors
! BFP183W
! VCE =  4.0 V,  IC =  35 mA
! Common Emitter S-Parameters:                            Jan 2017
# GHz  S  MA  R  50
!  f         S11            S21            S12            S22
! GHz     MAG   ANG      MAG   ANG      MAG   ANG      MAG   ANG
 0.010  0.3425  -15.2  62.063  175.1  0.0013   83.9  0.9633   -4.4
 0.020  0.3516  -32.7  60.872  169.0  0.0035   89.1  0.9508   -9.5
 0.030  0.3547  -45.9  58.815  164.3  0.0048   79.6  0.9214  -13.7
 0.040  0.3757  -58.3  57.177  159.3  0.0062   74.2  0.8973  -18.1
 0.050  0.4121  -68.9  55.995  154.1  0.0076   70.8  0.8789  -22.8
 0.060  0.4150  -77.6  53.355  150.9  0.0086   67.8  0.8408  -25.5
 0.070  0.4272  -86.0  50.893  147.5  0.0096   65.4  0.8046  -28.4
 0.080  0.4480  -93.7  48.637  143.7  0.0107   63.4  0.7707  -31.5
 0.090  0.4761 -100.7  46.616  139.5  0.0117   61.8  0.7393  -35.0
 0.100  0.5105 -106.8  44.861  135.0  0.0128   60.5  0.7109  -38.7
 0.110  0.5160 -111.4  42.870  133.0  0.0134   58.8  0.6814  -40.2
 0.120  0.5247 -115.8  40.937  130.8  0.0139   57.3  0.6523  -41.9
 0.130  0.5365 -120.1  39.070  128.4  0.0145   55.8  0.6239  -43.7
 0.140  0.5511 -124.2  37.279  125.7  0.0151   54.5  0.5962  -45.7
 0.150  0.5683 -128.0  35.577  122.8  0.0157   53.3  0.5693  -47.9
 0.200  0.5988 -140.6  28.777  114.4  0.0166   50.6  0.4713  -52.8
 0.250  0.6180 -149.4  23.997  108.4  0.0189   49.2  0.4009  -55.8
 0.300  0.6273 -155.6  20.430  104.1  0.0200   48.8  0.3505  -57.2
 0.350  0.6321 -159.9  18.065  101.4  0.0214   50.0  0.3184  -57.7
 0.400  0.6404 -164.2  15.754   97.8  0.0229   51.0  0.2864  -58.3
 0.450  0.6414 -167.1  14.229   95.8  0.0242   52.7  0.2675  -58.4
 0.500  0.6441 -170.0  12.725   93.3  0.0255   54.3  0.2487  -58.5
 0.600  0.6482 -174.5  10.698   89.7  0.0288   57.0  0.2239  -58.5
 0.700  0.6516 -178.2   9.192   86.7  0.0318   59.3  0.2074  -58.3
 0.800  0.6545  178.5   8.074   83.8  0.0355   60.1  0.1975  -58.4
 0.900  0.6531  175.6   7.168   81.3  0.0385   61.3  0.1898  -59.0
 1.000  0.6560  173.2   6.484   78.9  0.0421   62.1  0.1834  -59.5
 1.100  0.6590  170.9   5.900   76.8  0.0456   62.7  0.1805  -60.1
 1.200  0.6594  168.4   5.408   74.5  0.0488   62.9  0.1773  -61.0
 1.300  0.6615  166.3   4.995   72.4  0.0522   63.4  0.1753  -62.3
 1.400  0.6634  164.3   4.653   70.4  0.0558   63.9  0.1729  -63.7
 1.500  0.6682  162.5   4.340   68.4  0.0597   63.8  0.1717  -65.3
 1.600  0.6698  160.4   4.078   66.4  0.0632   63.9  0.1719  -66.7
 1.700  0.6700  158.4   3.846   64.5  0.0665   64.0  0.1707  -68.9
 1.800  0.6754  156.5   3.646   62.5  0.0702   63.5  0.1699  -71.1
 1.900  0.6779  154.8   3.453   60.8  0.0737   63.5  0.1699  -73.3
 2.000  0.6804  153.0   3.278   58.8  0.0778   63.0  0.1707  -75.7
 2.100  0.6833  151.2   3.130   56.9  0.0813   62.6  0.1708  -78.4
 2.200  0.6869  149.4   2.985   54.9  0.0848   62.3  0.1712  -81.0
 2.300  0.6909  147.7   2.861   53.2  0.0884   61.8  0.1725  -83.8
 2.400  0.6955  146.0   2.739   51.3  0.0921   61.4  0.1742  -86.5
 2.500  0.6975  144.5   2.630   49.6  0.0955   60.9  0.1758  -89.4
 2.600  0.6999  143.0   2.524   47.8  0.0990   60.4  0.1779  -92.2
 2.700  0.7041  141.4   2.432   46.2  0.1025   60.0  0.1801  -94.9
 2.800  0.7088  139.8   2.342   44.4  0.1061   59.6  0.1826  -97.5
 2.900  0.7114  138.3   2.262   42.8  0.1095   58.9  0.1845 -100.3
 3.000  0.7144  136.8   2.184   41.0  0.1130   58.2  0.1868 -103.0
 3.100  0.7174  135.4   2.118   39.6  0.1165   57.6  0.1888 -105.7
 3.200  0.7209  133.9   2.053   38.0  0.1200   57.1  0.1913 -108.4
 3.300  0.7249  132.5   1.989   36.4  0.1235   56.6  0.1941 -111.0
 3.400  0.7293  131.1   1.928   34.7  0.1270   56.1  0.1974 -113.6
 3.500  0.7341  129.7   1.868   32.8  0.1305   55.7  0.2010 -116.0
 3.600  0.7371  128.3   1.818   31.4  0.1340   54.9  0.2033 -118.8
 3.700  0.7404  127.0   1.769   29.9  0.1375   54.2  0.2061 -121.6
 3.800  0.7442  125.6   1.721   28.3  0.1411   53.5  0.2093 -124.2
 3.900  0.7484  124.3   1.675   26.7  0.1446   52.8  0.2130 -126.8
 4.000  0.7530  123.0   1.630   24.9  0.1482   52.2  0.2171 -129.3
 4.100  0.7554  121.8   1.589   23.5  0.1515   51.4  0.2206 -132.3
 4.200  0.7582  120.6   1.548   22.1  0.1549   50.7  0.2246 -135.1
 4.300  0.7613  119.4   1.509   20.6  0.1583   50.0  0.2292 -137.9
 4.400  0.7647  118.3   1.470   19.0  0.1617   49.3  0.2343 -140.5
 4.500  0.7684  117.1   1.433   17.3  0.1651   48.7  0.2399 -143.0
 4.600  0.7714  116.1   1.398   16.1  0.1684   48.0  0.2460 -145.6
 4.700  0.7745  115.2   1.365   14.9  0.1718   47.4  0.2525 -148.0
 4.800  0.7779  114.2   1.331   13.6  0.1752   46.8  0.2595 -150.3
 4.900  0.7816  113.2   1.299   12.2  0.1786   46.2  0.2669 -152.5
 5.000  0.7854  112.3   1.267   10.8  0.1820   45.6  0.2746 -154.6
 5.100  0.7874  111.4   1.242    9.7  0.1854   44.9  0.2830 -156.5
 5.200  0.7896  110.6   1.218    8.5  0.1888   44.3  0.2918 -158.3
 5.300  0.7919  109.7   1.194    7.3  0.1922   43.6  0.3008 -159.9
 5.400  0.7945  108.8   1.171    6.0  0.1956   43.0  0.3100 -161.5
 5.500  0.7972  108.0   1.148    4.7  0.1991   42.4  0.3195 -163.0
 5.600  0.7981  107.1   1.125    3.6  0.2025   41.6  0.3272 -164.3
 5.700  0.7991  106.2   1.103    2.6  0.2060   40.8  0.3350 -165.5
 5.800  0.8004  105.4   1.081    1.4  0.2096   40.1  0.3429 -166.6
 5.900  0.8018  104.5   1.060    0.2  0.2131   39.4  0.3510 -167.7
 6.000  0.8034  103.6   1.039   -1.0  0.2167   38.7  0.3592 -168.8
!
!  f       NFmin   Gammaopt  rn/50
! GHz       dB    MAG  ANG    -
 0.450      1.51  0.29 -177   0.10
 0.900      1.56  0.32 -176   0.10
 1.900      2.05  0.47 -154   0.11
 2.400      2.31  0.51 -151   0.16
!
! (c) 2017  Infineon Technologies AG, Munich