! Infineon Technologies  Discrete & RF Semiconductors
! BFP183W
! VCE =  7.0 V,  IC =  4.0 mA
! Common Emitter S-Parameters:                            Jan 2017
# GHz  S  MA  R  50
!  f         S11            S21            S12            S22
! GHz     MAG   ANG      MAG   ANG      MAG   ANG      MAG   ANG
 0.010  0.8878   -1.9  13.606  179.4  0.0017   97.2  0.9988   -1.2
 0.020  0.8652   -6.5  13.443  176.9  0.0037   88.6  0.9904   -2.3
 0.030  0.8622   -8.7  13.398  175.3  0.0059   85.1  0.9899   -3.5
 0.040  0.8605  -10.8  13.362  173.8  0.0082   83.5  0.9899   -4.6
 0.050  0.8600  -13.0  13.337  172.2  0.0104   82.6  0.9902   -5.8
 0.060  0.8576  -15.7  13.261  170.6  0.0125   80.8  0.9852   -6.9
 0.070  0.8571  -18.3  13.195  169.0  0.0145   79.5  0.9805   -8.0
 0.080  0.8584  -21.0  13.140  167.4  0.0166   78.5  0.9762   -9.1
 0.090  0.8617  -23.7  13.095  165.7  0.0187   77.7  0.9722  -10.2
 0.100  0.8667  -26.3  13.061  164.1  0.0208   77.1  0.9686  -11.3
 0.110  0.8588  -28.8  12.946  162.6  0.0226   75.0  0.9622  -12.3
 0.120  0.8526  -31.4  12.839  161.1  0.0245   73.2  0.9561  -13.3
 0.130  0.8480  -34.0  12.741  159.6  0.0263   71.6  0.9504  -14.4
 0.140  0.8453  -36.6  12.652  158.1  0.0282   70.3  0.9449  -15.4
 0.150  0.8443  -39.2  12.573  156.5  0.0301   69.1  0.9398  -16.5
 0.200  0.8334  -50.8  12.031  149.2  0.0376   64.7  0.9030  -21.1
 0.250  0.8139  -62.0  11.444  142.4  0.0453   58.4  0.8624  -25.2
 0.300  0.7891  -72.2  10.768  136.6  0.0505   53.5  0.8201  -28.7
 0.350  0.7674  -80.7  10.114  131.8  0.0549   49.3  0.7801  -31.3
 0.400  0.7632  -89.4   9.541  126.4  0.0595   45.7  0.7419  -34.2
 0.450  0.7433  -96.4   8.940  122.6  0.0623   42.7  0.7083  -36.0
 0.500  0.7350 -103.7   8.385  118.2  0.0652   40.0  0.6755  -38.0
 0.600  0.7155 -115.6   7.441  111.3  0.0699   35.6  0.6223  -40.7
 0.700  0.7008 -125.4   6.625  105.4  0.0712   32.8  0.5788  -42.7
 0.800  0.6908 -133.9   5.976  100.3  0.0734   30.4  0.5469  -44.2
 0.900  0.6806 -141.1   5.407   95.8  0.0750   28.2  0.5203  -45.6
 1.000  0.6762 -147.3   4.950   92.0  0.0755   26.8  0.4981  -46.7
 1.100  0.6747 -153.0   4.548   88.4  0.0761   26.4  0.4836  -47.7
 1.200  0.6713 -158.0   4.204   84.9  0.0771   25.3  0.4689  -48.8
 1.300  0.6684 -162.6   3.905   81.7  0.0775   24.8  0.4579  -50.0
 1.400  0.6710 -166.5   3.655   78.8  0.0776   24.6  0.4479  -51.2
 1.500  0.6740 -170.5   3.429   76.1  0.0779   24.8  0.4391  -52.5
 1.600  0.6753 -174.2   3.228   73.3  0.0787   24.8  0.4341  -53.7
 1.700  0.6761 -177.6   3.056   70.8  0.0785   25.5  0.4276  -55.2
 1.800  0.6794  179.2   2.909   68.2  0.0787   25.9  0.4218  -56.7
 1.900  0.6826  176.3   2.761   65.9  0.0787   26.4  0.4170  -58.2
 2.000  0.6850  173.0   2.631   63.3  0.0794   26.8  0.4140  -59.7
 2.100  0.6868  170.1   2.516   61.0  0.0798   27.6  0.4111  -61.4
 2.200  0.6904  167.3   2.405   58.5  0.0803   28.4  0.4085  -63.2
 2.300  0.6934  164.8   2.307   56.3  0.0808   29.3  0.4067  -65.1
 2.400  0.6977  162.3   2.212   53.9  0.0813   30.1  0.4054  -67.0
 2.500  0.7009  159.9   2.126   51.8  0.0820   31.0  0.4039  -69.0
 2.600  0.7053  157.6   2.042   49.6  0.0828   31.9  0.4029  -71.0
 2.700  0.7084  155.3   1.970   47.6  0.0838   33.1  0.4027  -73.0
 2.800  0.7125  153.1   1.900   45.5  0.0848   34.2  0.4030  -75.0
 2.900  0.7148  151.0   1.837   43.4  0.0862   35.0  0.4022  -77.0
 3.000  0.7181  149.0   1.776   41.2  0.0877   35.8  0.4018  -79.0
 3.100  0.7207  147.0   1.721   39.5  0.0895   36.9  0.4016  -81.2
 3.200  0.7240  145.1   1.668   37.8  0.0913   37.9  0.4020  -83.3
 3.300  0.7283  143.2   1.616   35.9  0.0931   38.9  0.4029  -85.5
 3.400  0.7333  141.3   1.566   33.9  0.0949   39.9  0.4044  -87.6
 3.500  0.7391  139.4   1.518   31.8  0.0968   40.8  0.4065  -89.7
 3.600  0.7416  137.7   1.477   30.2  0.0994   41.4  0.4064  -92.0
 3.700  0.7448  135.9   1.436   28.5  0.1020   42.0  0.4070  -94.3
 3.800  0.7486  134.2   1.397   26.7  0.1046   42.5  0.4082  -96.6
 3.900  0.7531  132.6   1.360   24.8  0.1073   43.0  0.4101  -98.9
 4.000  0.7582  130.9   1.324   22.8  0.1099   43.5  0.4126 -101.2
 4.100  0.7607  129.4   1.289   21.3  0.1131   43.8  0.4131 -103.8
 4.200  0.7637  127.9   1.256   19.6  0.1162   44.0  0.4145 -106.4
 4.300  0.7672  126.5   1.223   17.9  0.1194   44.3  0.4167 -109.0
 4.400  0.7712  125.0   1.191   16.1  0.1225   44.5  0.4197 -111.6
 4.500  0.7757  123.6   1.161   14.2  0.1257   44.7  0.4236 -114.1
 4.600  0.7784  122.4   1.131   12.9  0.1294   44.8  0.4264 -116.8
 4.700  0.7813  121.2   1.101   11.5  0.1330   45.0  0.4301 -119.4
 4.800  0.7847  120.0   1.072   10.0  0.1367   45.1  0.4348 -121.9
 4.900  0.7883  118.9   1.044    8.4  0.1403   45.2  0.4402 -124.5
 5.000  0.7923  117.7   1.017    6.8  0.1440   45.3  0.4465 -126.9
 5.100  0.7948  116.6   0.994    5.6  0.1480   45.1  0.4529 -129.4
 5.200  0.7975  115.6   0.972    4.4  0.1520   44.8  0.4601 -131.7
 5.300  0.8006  114.6   0.951    3.1  0.1561   44.6  0.4681 -134.0
 5.400  0.8039  113.5   0.930    1.8  0.1601   44.4  0.4768 -136.3
 5.500  0.8074  112.5   0.909    0.4  0.1641   44.2  0.4862 -138.4
 5.600  0.8081  111.5   0.889   -0.6  0.1683   43.7  0.4931 -140.4
 5.700  0.8090  110.5   0.869   -1.7  0.1725   43.2  0.5006 -142.3
 5.800  0.8101  109.5   0.849   -2.9  0.1768   42.7  0.5087 -144.2
 5.900  0.8115  108.5   0.830   -4.1  0.1810   42.2  0.5172 -146.0
 6.000  0.8132  107.5   0.811   -5.3  0.1853   41.8  0.5263 -147.7
!
!  f       NFmin   Gammaopt  rn/50
! GHz       dB    MAG  ANG    -
 0.450      0.73  0.32   50   0.29
 0.900      0.90  0.29   94   0.14
 1.900      1.50  0.43  165   0.08
 2.400      1.78  0.48  179   0.08
!
! (c) 2017  Infineon Technologies AG, Munich