! Infineon Technologies  Discrete & RF Semiconductors
! BFP183W
! VCE =  9.0 V,  IC =  50 mA
! Common Emitter S-Parameters:                            Jan 2017
# GHz  S  MA  R  50
!  f         S11            S21            S12            S22
! GHz     MAG   ANG      MAG   ANG      MAG   ANG      MAG   ANG
 0.010  0.3528  -14.9  61.887  174.2  0.0013   78.9  0.9345   -3.6
 0.020  0.3592  -33.1  60.747  168.2  0.0029   78.9  0.9191   -8.4
 0.030  0.3612  -46.6  58.359  163.5  0.0043   73.4  0.8918  -12.2
 0.040  0.3825  -59.2  56.405  158.3  0.0057   70.6  0.8687  -16.3
 0.050  0.4200  -70.1  54.930  152.9  0.0071   68.9  0.8501  -20.5
 0.060  0.4216  -78.8  52.206  149.8  0.0079   65.4  0.8149  -22.7
 0.070  0.4328  -87.3  49.652  146.3  0.0087   62.6  0.7811  -25.1
 0.080  0.4529  -95.2  47.296  142.5  0.0096   60.2  0.7486  -27.6
 0.090  0.4808 -102.3  45.170  138.4  0.0104   58.3  0.7179  -30.4
 0.100  0.5151 -108.5  43.307  133.8  0.0113   56.6  0.6890  -33.5
 0.110  0.5202 -112.9  41.325  131.9  0.0119   55.2  0.6631  -34.6
 0.120  0.5284 -117.2  39.395  129.8  0.0125   53.9  0.6375  -35.8
 0.130  0.5394 -121.4  37.524  127.4  0.0131   52.7  0.6122  -37.0
 0.140  0.5531 -125.3  35.722  124.8  0.0137   51.6  0.5871  -38.4
 0.150  0.5694 -129.1  33.999  122.0  0.0143   50.6  0.5625  -39.9
 0.200  0.5963 -141.6  27.396  113.9  0.0148   49.8  0.4769  -42.4
 0.250  0.6139 -150.1  22.826  108.2  0.0173   49.0  0.4181  -43.3
 0.300  0.6251 -156.4  19.422  104.0  0.0181   49.3  0.3765  -43.5
 0.350  0.6281 -160.6  17.185  101.4  0.0192   51.3  0.3517  -43.2
 0.400  0.6345 -164.7  14.994   98.0  0.0204   53.0  0.3270  -42.9
 0.450  0.6358 -167.7  13.554   96.1  0.0221   54.6  0.3133  -42.5
 0.500  0.6388 -170.6  12.133   93.7  0.0239   55.9  0.2996  -42.1
 0.600  0.6416 -175.0  10.198   90.2  0.0269   58.0  0.2823  -41.9
 0.700  0.6455 -178.6   8.775   87.3  0.0293   60.7  0.2700  -41.8
 0.800  0.6472  178.1   7.719   84.5  0.0326   62.5  0.2635  -42.4
 0.900  0.6473  175.3   6.867   82.0  0.0360   63.6  0.2574  -43.3
 1.000  0.6497  172.7   6.218   79.7  0.0391   64.5  0.2531  -44.2
 1.100  0.6519  170.4   5.664   77.6  0.0419   65.4  0.2509  -45.3
 1.200  0.6521  168.0   5.205   75.4  0.0455   65.5  0.2484  -46.6
 1.300  0.6531  165.9   4.810   73.3  0.0486   65.6  0.2462  -48.1
 1.400  0.6569  163.9   4.491   71.3  0.0528   65.9  0.2437  -49.7
 1.500  0.6597  162.1   4.191   69.4  0.0558   66.0  0.2420  -51.5
 1.600  0.6621  160.0   3.941   67.4  0.0593   66.4  0.2417  -53.1
 1.700  0.6637  158.0   3.720   65.5  0.0628   66.1  0.2397  -55.4
 1.800  0.6670  156.1   3.533   63.5  0.0662   66.0  0.2387  -57.4
 1.900  0.6708  154.5   3.349   61.8  0.0692   65.7  0.2379  -59.5
 2.000  0.6728  152.6   3.183   59.7  0.0735   65.7  0.2374  -61.8
 2.100  0.6754  150.8   3.041   57.9  0.0769   65.2  0.2365  -64.2
 2.200  0.6786  149.0   2.903   56.0  0.0803   64.8  0.2361  -66.6
 2.300  0.6823  147.4   2.784   54.2  0.0840   64.5  0.2359  -69.3
 2.400  0.6866  145.8   2.668   52.3  0.0877   64.3  0.2363  -71.9
 2.500  0.6892  144.3   2.564   50.6  0.0910   63.7  0.2367  -74.5
 2.600  0.6922  142.8   2.463   48.8  0.0944   63.1  0.2376  -77.0
 2.700  0.6961  141.2   2.375   47.2  0.0979   62.6  0.2383  -79.7
 2.800  0.7006  139.6   2.289   45.4  0.1015   62.1  0.2396  -82.3
 2.900  0.7030  138.1   2.212   43.7  0.1049   61.5  0.2401  -85.0
 3.000  0.7059  136.6   2.138   41.9  0.1084   60.9  0.2411  -87.6
 3.100  0.7091  135.1   2.074   40.4  0.1119   60.4  0.2416  -90.2
 3.200  0.7127  133.7   2.011   38.9  0.1155   59.9  0.2426  -92.8
 3.300  0.7167  132.3   1.949   37.2  0.1191   59.4  0.2441  -95.4
 3.400  0.7212  130.9   1.890   35.5  0.1226   59.0  0.2461  -97.9
 3.500  0.7261  129.5   1.832   33.6  0.1262   58.6  0.2486 -100.4
 3.600  0.7290  128.2   1.783   32.2  0.1297   57.8  0.2492 -103.2
 3.700  0.7323  126.8   1.736   30.7  0.1332   57.0  0.2504 -105.9
 3.800  0.7360  125.5   1.689   29.1  0.1368   56.3  0.2521 -108.6
 3.900  0.7400  124.2   1.644   27.4  0.1403   55.6  0.2545 -111.3
 4.000  0.7445  122.9   1.601   25.6  0.1439   55.0  0.2573 -113.9
 4.100  0.7472  121.7   1.561   24.2  0.1473   54.2  0.2591 -116.8
 4.200  0.7502  120.5   1.522   22.8  0.1507   53.5  0.2615 -119.7
 4.300  0.7536  119.3   1.484   21.2  0.1541   52.8  0.2646 -122.6
 4.400  0.7572  118.2   1.447   19.6  0.1575   52.1  0.2683 -125.3
 4.500  0.7612  117.0   1.411   17.9  0.1610   51.5  0.2726 -128.0
 4.600  0.7643  116.0   1.377   16.7  0.1644   50.8  0.2770 -130.8
 4.700  0.7677  115.1   1.344   15.4  0.1679   50.2  0.2821 -133.5
 4.800  0.7713  114.2   1.312   14.1  0.1713   49.6  0.2877 -136.2
 4.900  0.7750  113.2   1.280   12.7  0.1748   49.0  0.2940 -138.7
 5.000  0.7790  112.3   1.249   11.2  0.1783   48.4  0.3008 -141.1
 5.100  0.7812  111.4   1.224   10.0  0.1819   47.6  0.3083 -143.4
 5.200  0.7835  110.5   1.200    8.8  0.1855   46.9  0.3164 -145.6
 5.300  0.7861  109.6   1.176    7.6  0.1891   46.2  0.3248 -147.7
 5.400  0.7888  108.8   1.153    6.3  0.1928   45.5  0.3337 -149.6
 5.500  0.7917  107.9   1.130    4.9  0.1965   44.9  0.3429 -151.5
 5.600  0.7921  107.0   1.107    3.9  0.2000   44.1  0.3505 -153.1
 5.700  0.7927  106.1   1.085    2.8  0.2036   43.3  0.3583 -154.6
 5.800  0.7935  105.3   1.063    1.6  0.2073   42.5  0.3663 -156.1
 5.900  0.7945  104.4   1.042    0.4  0.2109   41.8  0.3746 -157.5
 6.000  0.7957  103.5   1.021   -0.8  0.2146   41.1  0.3831 -158.8
!
!  f       NFmin   Gammaopt  rn/50
! GHz       dB    MAG  ANG    -
!
! noise parameter not available yet for this operation point!
!
! (c) 2017  Infineon Technologies AG, Munich