! Infineon Technologies  Discrete & RF Semiconductors
! BFP183W
! VCE =  2.0 V,  IC =  7.0 mA
! Common Emitter S-Parameters:                            Jan 2017
# GHz  S  MA  R  50
!  f         S11            S21            S12            S22
! GHz     MAG   ANG      MAG   ANG      MAG   ANG      MAG   ANG
 0.010  0.7876   -3.7  22.266  178.7  0.0021   86.2  0.9953   -2.1
 0.020  0.7697  -10.0  21.972  175.3  0.0047   97.4  0.9854   -4.2
 0.030  0.7644  -13.8  21.828  172.9  0.0070   87.4  0.9808   -6.2
 0.040  0.7625  -17.7  21.722  170.5  0.0095   82.5  0.9775   -8.3
 0.050  0.7640  -21.5  21.654  168.1  0.0120   79.6  0.9754  -10.3
 0.060  0.7559  -25.5  21.361  165.9  0.0142   76.8  0.9635  -12.1
 0.070  0.7516  -29.6  21.100  163.6  0.0164   74.8  0.9526  -14.0
 0.080  0.7512  -33.7  20.873  161.3  0.0187   73.3  0.9428  -15.9
 0.090  0.7547  -37.9  20.681  158.9  0.0209   72.1  0.9340  -17.9
 0.100  0.7620  -41.9  20.526  156.5  0.0232   71.1  0.9264  -19.9
 0.110  0.7516  -45.5  20.168  154.6  0.0249   68.7  0.9111  -21.5
 0.120  0.7443  -49.3  19.832  152.7  0.0267   66.7  0.8965  -23.1
 0.130  0.7402  -53.1  19.521  150.6  0.0285   64.9  0.8826  -24.7
 0.140  0.7393  -56.9  19.234  148.5  0.0303   63.3  0.8694  -26.4
 0.150  0.7418  -60.7  18.974  146.4  0.0322   61.9  0.8571  -28.2
 0.200  0.7286  -76.3  17.293  137.4  0.0381   54.8  0.7853  -34.8
 0.250  0.7168  -90.0  15.700  129.9  0.0442   49.2  0.7163  -40.2
 0.300  0.7022 -101.4  14.180  123.8  0.0476   45.0  0.6534  -44.4
 0.350  0.6880 -110.1  12.935  119.4  0.0501   42.2  0.6029  -47.1
 0.400  0.6900 -118.9  11.785  114.0  0.0527   39.7  0.5539  -50.3
 0.450  0.6793 -125.2  10.833  110.8  0.0544   37.5  0.5180  -52.0
 0.500  0.6771 -131.7   9.923  106.9  0.0561   35.4  0.4827  -54.0
 0.600  0.6726 -141.6   8.538  101.1  0.0585   33.5  0.4299  -56.4
 0.700  0.6671 -149.4   7.442   96.4  0.0602   32.5  0.3906  -58.1
 0.800  0.6674 -156.0   6.610   92.1  0.0616   32.7  0.3630  -59.3
 0.900  0.6619 -161.4   5.911   88.5  0.0636   32.0  0.3408  -60.6
 1.000  0.6659 -166.2   5.370   85.2  0.0646   32.1  0.3232  -61.6
 1.100  0.6672 -170.3   4.909   82.3  0.0660   33.1  0.3115  -62.6
 1.200  0.6669 -174.3   4.511   79.3  0.0677   32.6  0.3006  -63.6
 1.300  0.6666 -177.6   4.177   76.7  0.0689   33.6  0.2924  -64.8
 1.400  0.6691  179.2   3.900   74.1  0.0706   34.2  0.2841  -66.2
 1.500  0.6737  176.3   3.645   71.7  0.0723   34.8  0.2782  -67.4
 1.600  0.6749  173.4   3.430   69.2  0.0734   36.2  0.2745  -68.8
 1.700  0.6776  170.7   3.237   66.9  0.0757   36.5  0.2701  -70.7
 1.800  0.6807  168.0   3.077   64.6  0.0771   37.0  0.2667  -72.4
 1.900  0.6854  165.7   2.917   62.6  0.0792   38.1  0.2635  -74.1
 2.000  0.6872  163.1   2.772   60.2  0.0814   38.7  0.2622  -76.0
 2.100  0.6896  160.8   2.650   58.1  0.0835   39.2  0.2605  -78.1
 2.200  0.6932  158.5   2.531   55.8  0.0856   39.7  0.2592  -80.2
 2.300  0.6973  156.3   2.425   53.8  0.0877   40.3  0.2591  -82.4
 2.400  0.7023  154.2   2.323   51.6  0.0898   40.9  0.2594  -84.6
 2.500  0.7046  152.2   2.232   49.7  0.0921   41.3  0.2596  -87.0
 2.600  0.7077  150.3   2.143   47.6  0.0944   41.7  0.2603  -89.4
 2.700  0.7117  148.4   2.066   45.8  0.0967   42.2  0.2615  -91.6
 2.800  0.7165  146.5   1.991   43.8  0.0990   42.6  0.2631  -93.8
 2.900  0.7189  144.7   1.924   41.9  0.1016   42.7  0.2635  -96.2
 3.000  0.7221  142.9   1.859   39.9  0.1042   42.7  0.2644  -98.6
 3.100  0.7249  141.2   1.802   38.3  0.1070   43.0  0.2657 -101.0
 3.200  0.7283  139.5   1.746   36.6  0.1097   43.2  0.2676 -103.4
 3.300  0.7324  137.8   1.692   34.8  0.1125   43.5  0.2698 -105.7
 3.400  0.7371  136.1   1.640   32.9  0.1152   43.7  0.2726 -108.0
 3.500  0.7424  134.5   1.590   30.9  0.1180   43.9  0.2757 -110.3
 3.600  0.7451  133.0   1.547   29.4  0.1211   43.8  0.2775 -112.8
 3.700  0.7483  131.4   1.505   27.8  0.1243   43.7  0.2798 -115.3
 3.800  0.7521  129.9   1.464   26.1  0.1274   43.6  0.2827 -117.8
 3.900  0.7564  128.4   1.424   24.4  0.1306   43.5  0.2861 -120.2
 4.000  0.7612  126.9   1.386   22.5  0.1337   43.4  0.2899 -122.5
 4.100  0.7635  125.5   1.350   21.0  0.1368   43.1  0.2928 -125.3
 4.200  0.7663  124.1   1.316   19.5  0.1399   42.8  0.2965 -128.0
 4.300  0.7694  122.8   1.282   17.8  0.1431   42.5  0.3007 -130.6
 4.400  0.7731  121.4   1.249   16.1  0.1462   42.3  0.3056 -133.2
 4.500  0.7771  120.1   1.218   14.3  0.1493   42.0  0.3111 -135.7
 4.600  0.7798  119.0   1.188   13.1  0.1527   41.7  0.3167 -138.3
 4.700  0.7829  118.0   1.158   11.7  0.1560   41.5  0.3229 -140.8
 4.800  0.7861  116.9   1.129   10.4  0.1594   41.2  0.3296 -143.1
 4.900  0.7897  115.8   1.101    8.9  0.1627   41.0  0.3370 -145.4
 5.000  0.7935  114.8   1.073    7.4  0.1661   40.8  0.3448 -147.6
 5.100  0.7954  113.9   1.051    6.3  0.1698   40.4  0.3532 -149.7
 5.200  0.7975  112.9   1.029    5.1  0.1734   39.9  0.3620 -151.7
 5.300  0.7998  112.0   1.008    3.8  0.1771   39.6  0.3712 -153.6
 5.400  0.8024  111.1   0.987    2.5  0.1808   39.2  0.3808 -155.4
 5.500  0.8051  110.2   0.967    1.2  0.1845   38.8  0.3908 -157.1
 5.600  0.8058  109.2   0.947    0.1  0.1881   38.2  0.3986 -158.6
 5.700  0.8067  108.2   0.927   -1.0  0.1918   37.6  0.4067 -160.1
 5.800  0.8078  107.3   0.907   -2.1  0.1955   37.1  0.4151 -161.5
 5.900  0.8092  106.3   0.888   -3.3  0.1992   36.5  0.4237 -162.9
 6.000  0.8108  105.3   0.869   -4.6  0.2029   36.0  0.4325 -164.2
!
!  f       NFmin   Gammaopt  rn/50
! GHz       dB    MAG  ANG    -
 0.450      0.82  0.16   68   0.11
 0.900      0.91  0.21  112   0.10
 1.900      1.45  0.39  172   0.07
 2.400      1.71  0.45 -173   0.09
!
! (c) 2017  Infineon Technologies AG, Munich