! Infineon Technologies  Discrete & RF Semiconductors
! BFP183W
! VCE =  3.0 V,  IC =  15 mA
! Common Emitter S-Parameters:                            Jan 2017
# GHz  S  MA  R  50
!  f         S11            S21            S12            S22
! GHz     MAG   ANG      MAG   ANG      MAG   ANG      MAG   ANG
 0.010  0.6046   -6.8  39.489  177.1  0.0017   88.5  0.9873   -3.2
 0.020  0.5959  -16.0  38.988  172.7  0.0038   88.0  0.9754   -6.5
 0.030  0.5877  -22.6  38.349  169.3  0.0057   81.2  0.9625   -9.5
 0.040  0.5875  -29.4  37.847  165.9  0.0076   77.9  0.9524  -12.6
 0.050  0.5953  -36.0  37.488  162.3  0.0096   75.9  0.9452  -15.8
 0.060  0.5843  -42.1  36.484  159.5  0.0112   72.6  0.9217  -18.2
 0.070  0.5801  -48.3  35.572  156.5  0.0128   70.1  0.8999  -20.8
 0.080  0.5829  -54.6  34.760  153.4  0.0145   68.2  0.8800  -23.4
 0.090  0.5925  -60.7  34.055  150.2  0.0161   66.6  0.8621  -26.2
 0.100  0.6087  -66.6  33.464  146.8  0.0178   65.4  0.8463  -29.1
 0.110  0.6019  -71.4  32.447  144.7  0.0189   62.9  0.8217  -30.9
 0.120  0.5993  -76.2  31.476  142.5  0.0200   60.8  0.7980  -32.7
 0.130  0.6010  -81.1  30.556  140.1  0.0211   58.8  0.7751  -34.7
 0.140  0.6070  -85.8  29.692  137.6  0.0223   57.1  0.7532  -36.8
 0.150  0.6171  -90.5  28.889  134.9  0.0235   55.5  0.7324  -39.0
 0.200  0.6235 -107.4  24.756  125.5  0.0261   49.5  0.6351  -45.9
 0.250  0.6308 -120.7  21.429  118.4  0.0293   46.7  0.5546  -50.7
 0.300  0.6317 -130.4  18.685  113.0  0.0309   43.7  0.4910  -54.1
 0.350  0.6301 -137.4  16.713  109.4  0.0324   42.4  0.4460  -55.9
 0.400  0.6379 -144.3  14.823  104.9  0.0339   41.2  0.4015  -58.2
 0.450  0.6366 -149.0  13.468  102.3  0.0350   41.7  0.3723  -59.2
 0.500  0.6396 -153.7  12.147   99.2  0.0361   42.1  0.3433  -60.4
 0.600  0.6418 -160.8  10.289   94.6  0.0386   42.0  0.3038  -61.8
 0.700  0.6432 -166.3   8.884   90.9  0.0404   44.0  0.2759  -62.4
 0.800  0.6453 -171.0   7.829   87.4  0.0432   46.3  0.2571  -63.1
 0.900  0.6438 -174.9   6.966   84.5  0.0458   47.2  0.2426  -63.9
 1.000  0.6484 -178.5   6.311   81.8  0.0481   47.8  0.2311  -64.6
 1.100  0.6511  178.6   5.751   79.4  0.0511   49.3  0.2240  -65.2
 1.200  0.6518  175.5   5.275   76.9  0.0535   50.0  0.2167  -66.1
 1.300  0.6513  172.9   4.876   74.6  0.0564   50.6  0.2120  -67.2
 1.400  0.6543  170.3   4.547   72.3  0.0595   51.7  0.2072  -68.5
 1.500  0.6586  168.0   4.243   70.2  0.0627   52.4  0.2037  -69.8
 1.600  0.6604  165.5   3.988   68.1  0.0658   52.7  0.2020  -71.2
 1.700  0.6624  163.3   3.764   66.0  0.0686   53.4  0.1995  -73.3
 1.800  0.6668  161.2   3.570   64.0  0.0717   53.4  0.1974  -75.1
 1.900  0.6701  159.3   3.382   62.1  0.0746   53.8  0.1960  -76.9
 2.000  0.6732  157.2   3.213   60.0  0.0782   53.7  0.1959  -79.1
 2.100  0.6754  155.1   3.069   58.1  0.0814   53.9  0.1953  -81.4
 2.200  0.6785  153.0   2.928   56.0  0.0847   54.0  0.1951  -83.7
 2.300  0.6826  151.2   2.806   54.2  0.0879   54.1  0.1958  -86.2
 2.400  0.6873  149.5   2.687   52.2  0.0912   54.1  0.1969  -88.7
 2.500  0.6905  147.8   2.581   50.4  0.0943   53.8  0.1978  -91.3
 2.600  0.6943  146.1   2.477   48.5  0.0974   53.6  0.1990  -93.8
 2.700  0.6976  144.3   2.387   46.8  0.1005   53.3  0.2008  -96.3
 2.800  0.7015  142.6   2.299   45.0  0.1037   53.1  0.2030  -98.8
 2.900  0.7047  140.9   2.221   43.3  0.1070   52.8  0.2043 -101.3
 3.000  0.7085  139.3   2.145   41.4  0.1104   52.5  0.2059 -103.8
 3.100  0.7115  137.7   2.080   39.9  0.1137   52.2  0.2076 -106.4
 3.200  0.7149  136.2   2.016   38.4  0.1170   51.9  0.2098 -108.9
 3.300  0.7189  134.7   1.954   36.7  0.1202   51.7  0.2123 -111.4
 3.400  0.7234  133.2   1.894   34.9  0.1235   51.4  0.2152 -113.8
 3.500  0.7284  131.7   1.836   33.0  0.1268   51.2  0.2185 -116.1
 3.600  0.7312  130.3   1.786   31.6  0.1302   50.6  0.2206 -118.8
 3.700  0.7345  128.9   1.738   30.0  0.1335   50.1  0.2232 -121.4
 3.800  0.7382  127.5   1.691   28.4  0.1369   49.6  0.2262 -123.9
 3.900  0.7424  126.1   1.645   26.7  0.1403   49.1  0.2296 -126.4
 4.000  0.7470  124.7   1.601   24.9  0.1437   48.6  0.2335 -128.8
 4.100  0.7496  123.4   1.561   23.5  0.1469   48.0  0.2368 -131.6
 4.200  0.7526  122.2   1.521   22.1  0.1502   47.4  0.2407 -134.4
 4.300  0.7559  120.9   1.483   20.5  0.1534   46.8  0.2452 -137.0
 4.400  0.7596  119.7   1.446   18.9  0.1567   46.2  0.2501 -139.6
 4.500  0.7636  118.5   1.410   17.2  0.1600   45.7  0.2555 -142.0
 4.600  0.7665  117.5   1.376   16.0  0.1633   45.2  0.2614 -144.5
 4.700  0.7696  116.5   1.342   14.7  0.1667   44.6  0.2678 -146.9
 4.800  0.7729  115.5   1.309   13.4  0.1700   44.1  0.2746 -149.2
 4.900  0.7765  114.5   1.277   12.0  0.1734   43.7  0.2819 -151.4
 5.000  0.7803  113.5   1.246   10.5  0.1768   43.2  0.2895 -153.5
 5.100  0.7825  112.6   1.221    9.4  0.1802   42.6  0.2979 -155.4
 5.200  0.7848  111.7   1.197    8.2  0.1837   42.0  0.3066 -157.2
 5.300  0.7874  110.8   1.173    6.9  0.1871   41.5  0.3156 -158.9
 5.400  0.7902  109.9   1.150    5.6  0.1906   40.9  0.3249 -160.5
 5.500  0.7931  109.0   1.127    4.3  0.1941   40.4  0.3344 -162.0
 5.600  0.7939  108.1   1.105    3.2  0.1976   39.7  0.3420 -163.3
 5.700  0.7950  107.2   1.083    2.2  0.2011   39.0  0.3498 -164.6
 5.800  0.7962  106.4   1.061    1.0  0.2046   38.4  0.3578 -165.8
 5.900  0.7976  105.5   1.040   -0.2  0.2082   37.7  0.3659 -166.9
 6.000  0.7992  104.6   1.019   -1.4  0.2118   37.1  0.3741 -168.0
!
!  f       NFmin   Gammaopt  rn/50
! GHz       dB    MAG  ANG    -
 0.450      1.05  0.15  158   0.10
 0.900      1.09  0.21  163   0.09
 1.900      1.56  0.39 -168   0.08
 2.400      1.80  0.44 -161   0.11
!
! (c) 2017  Infineon Technologies AG, Munich