! Infineon Technologies  Discrete & RF Semiconductors
! BFP183W
! VCE =  8.0 V,  IC =  40 mA
! Common Emitter S-Parameters:                            Jan 2017
# GHz  S  MA  R  50
!  f         S11            S21            S12            S22
! GHz     MAG   ANG      MAG   ANG      MAG   ANG      MAG   ANG
 0.010  0.3882  -12.1  63.297  174.8  0.0013   77.9  0.9620   -3.8
 0.020  0.3903  -27.6  62.159  169.3  0.0028   92.2  0.9465   -8.4
 0.030  0.3891  -39.3  60.175  164.9  0.0042   80.6  0.9226  -12.3
 0.040  0.4039  -50.6  58.570  160.2  0.0056   74.9  0.9032  -16.4
 0.050  0.4330  -60.8  57.377  155.3  0.0071   71.5  0.8886  -20.7
 0.060  0.4302  -69.2  54.848  152.2  0.0080   68.7  0.8536  -23.2
 0.070  0.4367  -77.5  52.499  148.7  0.0090   66.5  0.8203  -25.9
 0.080  0.4520  -85.4  50.354  145.0  0.0100   64.8  0.7891  -28.8
 0.090  0.4752  -92.7  48.442  141.0  0.0109   63.3  0.7600  -32.0
 0.100  0.5054  -99.2  46.791  136.6  0.0119   62.1  0.7335  -35.4
 0.110  0.5082 -104.0  44.790  134.6  0.0125   59.8  0.7046  -36.8
 0.120  0.5144 -108.7  42.851  132.4  0.0131   57.8  0.6762  -38.4
 0.130  0.5240 -113.2  40.981  129.9  0.0137   55.9  0.6483  -40.1
 0.140  0.5368 -117.6  39.192  127.3  0.0144   54.2  0.6211  -42.0
 0.150  0.5525 -121.7  37.494  124.4  0.0150   52.6  0.5946  -44.0
 0.200  0.5781 -135.3  30.534  115.8  0.0163   50.7  0.4979  -48.5
 0.250  0.5957 -145.0  25.561  109.7  0.0179   49.4  0.4281  -50.8
 0.300  0.6043 -151.9  21.821  105.3  0.0196   49.7  0.3771  -51.9
 0.350  0.6073 -156.7  19.317  102.5  0.0208   51.7  0.3444  -52.1
 0.400  0.6146 -161.5  16.874   98.8  0.0220   53.5  0.3118  -52.3
 0.450  0.6147 -164.6  15.244   96.7  0.0236   53.6  0.2930  -52.1
 0.500  0.6167 -167.7  13.638   94.2  0.0252   53.7  0.2743  -51.9
 0.600  0.6234 -172.6  11.484   90.5  0.0280   57.1  0.2502  -51.5
 0.700  0.6238 -176.4   9.869   87.5  0.0306   59.3  0.2342  -50.9
 0.800  0.6275 -180.0   8.670   84.5  0.0344   61.6  0.2243  -50.8
 0.900  0.6283  177.1   7.702   82.0  0.0374   62.0  0.2167  -51.2
 1.000  0.6317  174.4   6.961   79.7  0.0406   62.7  0.2101  -51.6
 1.100  0.6325  172.0   6.339   77.5  0.0441   63.3  0.2079  -52.1
 1.200  0.6334  169.5   5.810   75.3  0.0471   63.2  0.2043  -52.9
 1.300  0.6337  167.2   5.367   73.2  0.0507   64.0  0.2025  -54.0
 1.400  0.6378  165.3   5.001   71.2  0.0544   64.2  0.1997  -55.1
 1.500  0.6412  163.4   4.662   69.2  0.0577   64.5  0.1981  -56.7
 1.600  0.6438  161.2   4.381   67.2  0.0608   64.3  0.1979  -58.1
 1.700  0.6443  159.2   4.131   65.3  0.0645   64.5  0.1966  -60.1
 1.800  0.6490  157.3   3.916   63.4  0.0682   64.2  0.1960  -62.0
 1.900  0.6531  155.6   3.709   61.7  0.0713   63.8  0.1953  -64.0
 2.000  0.6552  153.8   3.521   59.7  0.0752   63.5  0.1949  -66.2
 2.100  0.6582  151.9   3.363   57.9  0.0787   63.2  0.1947  -68.6
 2.200  0.6619  150.1   3.209   56.0  0.0822   62.9  0.1948  -71.1
 2.300  0.6658  148.5   3.075   54.3  0.0857   62.5  0.1950  -73.7
 2.400  0.6703  146.9   2.944   52.4  0.0892   62.1  0.1957  -76.3
 2.500  0.6729  145.3   2.828   50.7  0.0927   61.6  0.1965  -79.0
 2.600  0.6760  143.7   2.714   48.9  0.0963   61.1  0.1977  -81.6
 2.700  0.6803  142.1   2.615   47.3  0.0996   60.7  0.1988  -84.2
 2.800  0.6850  140.6   2.518   45.6  0.1029   60.3  0.2004  -86.8
 2.900  0.6881  139.1   2.432   43.9  0.1062   59.6  0.2014  -89.6
 3.000  0.6916  137.6   2.349   42.1  0.1095   58.9  0.2029  -92.3
 3.100  0.6947  136.1   2.278   40.7  0.1130   58.4  0.2039  -94.9
 3.200  0.6983  134.6   2.208   39.2  0.1165   57.9  0.2053  -97.5
 3.300  0.7023  133.2   2.140   37.5  0.1200   57.4  0.2071 -100.1
 3.400  0.7068  131.7   2.073   35.8  0.1236   57.0  0.2093 -102.6
 3.500  0.7117  130.3   2.009   34.0  0.1271   56.6  0.2119 -105.1
 3.600  0.7148  129.0   1.955   32.6  0.1305   55.9  0.2131 -107.9
 3.700  0.7182  127.6   1.902   31.1  0.1339   55.2  0.2148 -110.7
 3.800  0.7221  126.3   1.851   29.6  0.1374   54.5  0.2170 -113.4
 3.900  0.7263  125.0   1.801   27.9  0.1408   53.9  0.2197 -116.1
 4.000  0.7309  123.7   1.753   26.2  0.1443   53.3  0.2228 -118.7
 4.100  0.7338  122.5   1.709   24.8  0.1476   52.6  0.2251 -121.7
 4.200  0.7370  121.3   1.666   23.4  0.1509   51.8  0.2281 -124.6
 4.300  0.7406  120.1   1.624   21.8  0.1543   51.2  0.2316 -127.5
 4.400  0.7445  118.9   1.583   20.2  0.1576   50.5  0.2357 -130.2
 4.500  0.7487  117.7   1.544   18.5  0.1610   49.9  0.2403 -132.9
 4.600  0.7520  116.7   1.507   17.3  0.1642   49.2  0.2452 -135.7
 4.700  0.7555  115.8   1.470   16.1  0.1674   48.6  0.2508 -138.4
 4.800  0.7592  114.9   1.434   14.7  0.1707   48.0  0.2568 -140.9
 4.900  0.7632  113.9   1.399   13.4  0.1739   47.4  0.2633 -143.4
 5.000  0.7673  113.0   1.365   11.9  0.1772   46.8  0.2703 -145.7
 5.100  0.7696  112.1   1.338   10.8  0.1806   46.1  0.2782 -147.9
 5.200  0.7721  111.2   1.312    9.6  0.1841   45.4  0.2864 -149.9
 5.300  0.7747  110.3   1.286    8.3  0.1876   44.7  0.2951 -151.9
 5.400  0.7776  109.5   1.261    7.0  0.1912   44.1  0.3040 -153.7
 5.500  0.7806  108.6   1.237    5.7  0.1947   43.5  0.3132 -155.4
 5.600  0.7816  107.7   1.212    4.6  0.1982   42.7  0.3208 -156.8
 5.700  0.7829  106.9   1.188    3.5  0.2017   42.0  0.3286 -158.2
 5.800  0.7843  106.0   1.164    2.4  0.2052   41.3  0.3365 -159.5
 5.900  0.7858  105.2   1.141    1.2  0.2088   40.6  0.3446 -160.7
 6.000  0.7876  104.3   1.118   -0.1  0.2124   39.9  0.3529 -161.9
!
!  f       NFmin   Gammaopt  rn/50
! GHz       dB    MAG  ANG    -
!
! noise parameter not available yet for this operation point!
!
! (c) 2017  Infineon Technologies AG, Munich