! Infineon Technologies  Discrete & RF Semiconductors
! BFP183W
! VCE =  5.0 V,  IC =  59 mA
! Common Emitter S-Parameters:                            Jan 2017
# GHz  S  MA  R  50
!  f         S11            S21            S12            S22
! GHz     MAG   ANG      MAG   ANG      MAG   ANG      MAG   ANG
 0.010  0.2001  -34.4  66.894  173.1  0.0016   84.8  0.9019   -5.1
 0.020  0.2504  -62.2  65.170  165.3  0.0028   78.6  0.8826  -11.2
 0.030  0.2866  -80.6  61.511  159.6  0.0041   71.6  0.8408  -15.8
 0.040  0.3448  -93.8  58.528  153.3  0.0055   68.1  0.8049  -20.8
 0.050  0.4158 -102.9  56.327  146.4  0.0069   66.0  0.7757  -26.2
 0.060  0.4347 -110.6  52.770  143.3  0.0076   63.2  0.7341  -28.3
 0.070  0.4608 -117.6  49.389  139.8  0.0083   60.8  0.6937  -30.6
 0.080  0.4930 -123.8  46.223  135.7  0.0090   58.8  0.6544  -33.1
 0.090  0.5301 -129.1  43.319  131.1  0.0098   57.1  0.6167  -36.0
 0.100  0.5712 -133.7  40.734  125.9  0.0105   55.7  0.5807  -39.3
 0.110  0.5814 -136.9  38.579  124.2  0.0108   54.0  0.5551  -40.1
 0.120  0.5934 -140.0  36.464  122.2  0.0112   52.5  0.5295  -40.9
 0.130  0.6071 -143.0  34.397  120.0  0.0116   51.0  0.5041  -41.8
 0.140  0.6223 -145.8  32.385  117.6  0.0119   49.7  0.4788  -42.8
 0.150  0.6390 -148.5  30.441  114.8  0.0123   48.4  0.4537  -43.9
 0.200  0.6641 -157.1  23.868  107.5  0.0133   49.4  0.3800  -44.8
 0.250  0.6784 -163.0  19.549  102.5  0.0145   50.6  0.3332  -44.4
 0.300  0.6875 -167.2  16.477   99.0  0.0163   53.2  0.3022  -43.4
 0.350  0.6915 -170.3  14.516   96.7  0.0174   55.1  0.2844  -42.6
 0.400  0.6974 -173.3  12.585   93.7  0.0186   56.8  0.2667  -41.7
 0.450  0.6973 -175.4  11.343   92.1  0.0203   58.9  0.2575  -41.2
 0.500  0.6980 -177.4  10.112   90.0  0.0220   60.6  0.2483  -40.7
 0.600  0.7007  179.3   8.470   86.8  0.0250   61.3  0.2370  -40.3
 0.700  0.7029  176.5   7.268   84.1  0.0279   64.6  0.2299  -40.3
 0.800  0.7051  173.7   6.380   81.3  0.0316   67.1  0.2271  -41.1
 0.900  0.7026  171.3   5.664   79.0  0.0346   66.2  0.2240  -42.4
 1.000  0.7076  169.2   5.123   76.8  0.0382   67.8  0.2220  -43.5
 1.100  0.7092  167.0   4.664   74.7  0.0416   68.2  0.2220  -44.9
 1.200  0.7096  165.0   4.276   72.5  0.0450   68.6  0.2214  -46.5
 1.300  0.7106  163.0   3.951   70.4  0.0481   68.6  0.2213  -48.3
 1.400  0.7135  161.2   3.681   68.4  0.0525   69.0  0.2202  -50.3
 1.500  0.7159  159.4   3.435   66.5  0.0559   68.6  0.2196  -52.4
 1.600  0.7192  157.6   3.230   64.4  0.0595   68.7  0.2207  -54.4
 1.700  0.7207  155.7   3.045   62.5  0.0635   68.9  0.2202  -56.8
 1.800  0.7244  153.9   2.890   60.5  0.0671   68.6  0.2205  -59.2
 1.900  0.7259  152.4   2.738   58.8  0.0704   68.4  0.2208  -61.6
 2.000  0.7282  150.5   2.601   56.7  0.0740   67.7  0.2215  -64.2
 2.100  0.7303  148.7   2.484   54.8  0.0776   67.4  0.2215  -67.0
 2.200  0.7331  147.0   2.369   52.8  0.0812   67.1  0.2221  -69.7
 2.300  0.7368  145.4   2.271   51.0  0.0851   66.6  0.2232  -72.6
 2.400  0.7410  143.8   2.176   49.1  0.0891   66.2  0.2249  -75.4
 2.500  0.7426  142.3   2.091   47.4  0.0928   65.6  0.2263  -78.3
 2.600  0.7447  140.8   2.007   45.6  0.0966   65.0  0.2282  -81.2
 2.700  0.7479  139.3   1.935   43.9  0.1001   64.5  0.2300  -84.0
 2.800  0.7517  137.8   1.864   42.1  0.1037   64.0  0.2323  -86.8
 2.900  0.7534  136.2   1.800   40.4  0.1072   63.4  0.2343  -89.7
 3.000  0.7557  134.7   1.737   38.6  0.1107   62.8  0.2369  -92.5
 3.100  0.7586  133.3   1.685   37.1  0.1144   62.1  0.2384  -95.3
 3.200  0.7619  131.9   1.633   35.6  0.1181   61.5  0.2404  -98.1
 3.300  0.7657  130.5   1.584   33.9  0.1219   61.0  0.2430 -100.8
 3.400  0.7699  129.1   1.535   32.2  0.1256   60.4  0.2461 -103.5
 3.500  0.7746  127.7   1.488   30.3  0.1294   59.9  0.2498 -106.1
 3.600  0.7768  126.4   1.448   28.9  0.1331   59.1  0.2515 -109.0
 3.700  0.7793  125.1   1.409   27.4  0.1368   58.3  0.2539 -111.8
 3.800  0.7823  123.8   1.371   25.8  0.1406   57.6  0.2569 -114.6
 3.900  0.7856  122.5   1.334   24.2  0.1444   56.9  0.2605 -117.3
 4.000  0.7894  121.2   1.298   22.4  0.1482   56.2  0.2646 -119.9
 4.100  0.7912  120.0   1.265   21.0  0.1518   55.4  0.2675 -122.9
 4.200  0.7934  118.8   1.233   19.6  0.1554   54.6  0.2711 -125.8
 4.300  0.7960  117.6   1.201   18.1  0.1591   53.8  0.2754 -128.7
 4.400  0.7989  116.4   1.171   16.5  0.1628   53.1  0.2803 -131.4
 4.500  0.8021  115.2   1.141   14.8  0.1665   52.4  0.2859 -134.1
 4.600  0.8044  114.2   1.113   13.7  0.1701   51.6  0.2914 -136.9
 4.700  0.8070  113.3   1.086   12.5  0.1737   50.9  0.2976 -139.6
 4.800  0.8097  112.4   1.060   11.2  0.1773   50.2  0.3044 -142.2
 4.900  0.8127  111.4   1.034    9.9  0.1810   49.5  0.3118 -144.7
 5.000  0.8159  110.5   1.008    8.5  0.1847   48.9  0.3197 -147.0
 5.100  0.8174  109.6   0.988    7.4  0.1884   48.1  0.3281 -149.2
 5.200  0.8191  108.8   0.968    6.3  0.1921   47.3  0.3369 -151.3
 5.300  0.8210  107.9   0.949    5.1  0.1958   46.6  0.3461 -153.3
 5.400  0.8231  107.1   0.930    3.9  0.1996   45.9  0.3558 -155.2
 5.500  0.8254  106.2   0.911    2.6  0.2034   45.2  0.3658 -157.0
 5.600  0.8259  105.3   0.893    1.6  0.2071   44.3  0.3736 -158.6
 5.700  0.8266  104.4   0.874    0.6  0.2107   43.5  0.3817 -160.1
 5.800  0.8275  103.6   0.857   -0.5  0.2145   42.7  0.3900 -161.5
 5.900  0.8286  102.7   0.839   -1.6  0.2183   41.9  0.3985 -162.9
 6.000  0.8299  101.8   0.822   -2.8  0.2221   41.1  0.4073 -164.2
!
!  f       NFmin   Gammaopt  rn/50
! GHz       dB    MAG  ANG    -
!
! noise parameter not available yet for this operation point!
!
! (c) 2017  Infineon Technologies AG, Munich