! Infineon Technologies  Discrete & RF Semiconductors
! BFP183W
! VCE =  2.0 V,  IC =  20 mA
! Common Emitter S-Parameters:                            Jan 2017
# GHz  S  MA  R  50
!  f         S11            S21            S12            S22
! GHz     MAG   ANG      MAG   ANG      MAG   ANG      MAG   ANG
 0.010  0.5016  -10.0  47.335  176.3  0.0017   80.5  0.9772   -4.1
 0.020  0.4973  -22.2  46.989  171.0  0.0035   90.9  0.9658   -8.3
 0.030  0.4908  -31.4  45.740  167.0  0.0055   79.4  0.9445  -12.1
 0.040  0.4970  -40.6  44.731  162.7  0.0076   74.2  0.9277  -16.1
 0.050  0.5157  -49.4  43.978  158.3  0.0097   71.2  0.9154  -20.2
 0.060  0.5075  -56.9  42.344  155.3  0.0111   67.9  0.8830  -22.9
 0.070  0.5082  -64.5  40.839  152.0  0.0124   65.4  0.8528  -25.9
 0.080  0.5177  -71.9  39.478  148.4  0.0138   63.3  0.8250  -29.0
 0.090  0.5356  -79.0  38.277  144.7  0.0153   61.7  0.7999  -32.3
 0.100  0.5610  -85.5  37.251  140.7  0.0167   60.3  0.7776  -35.9
 0.110  0.5600  -90.5  35.834  138.6  0.0176   58.0  0.7493  -37.7
 0.120  0.5632  -95.5  34.471  136.3  0.0186   55.9  0.7217  -39.7
 0.130  0.5706 -100.4  33.168  133.8  0.0195   54.0  0.6952  -41.8
 0.140  0.5821 -105.1  31.932  131.1  0.0205   52.3  0.6696  -44.1
 0.150  0.5973 -109.6  30.772  128.2  0.0215   50.7  0.6452  -46.6
 0.200  0.6175 -125.3  25.533  119.2  0.0233   47.7  0.5427  -53.4
 0.250  0.6341 -136.5  21.629  112.6  0.0259   44.4  0.4635  -58.0
 0.300  0.6420 -144.4  18.588  107.8  0.0270   43.3  0.4051  -61.1
 0.350  0.6441 -150.0  16.504  104.6  0.0285   43.4  0.3653  -62.8
 0.400  0.6523 -155.5  14.485  100.6  0.0300   43.5  0.3258  -64.9
 0.450  0.6519 -159.4  13.115   98.4  0.0312   44.0  0.3018  -65.8
 0.500  0.6545 -163.2  11.769   95.6  0.0325   44.4  0.2778  -66.9
 0.600  0.6591 -168.6   9.913   91.5  0.0353   46.8  0.2451  -68.4
 0.700  0.6624 -173.1   8.529   88.2  0.0371   49.2  0.2220  -69.1
 0.800  0.6644 -177.2   7.506   85.0  0.0411   50.9  0.2075  -69.8
 0.900  0.6650  179.5   6.670   82.3  0.0437   51.8  0.1956  -71.0
 1.000  0.6677  176.6   6.035   79.8  0.0469   53.2  0.1867  -71.9
 1.100  0.6685  174.0   5.496   77.5  0.0504   54.2  0.1818  -72.8
 1.200  0.6701  171.4   5.041   75.1  0.0529   54.7  0.1762  -73.7
 1.300  0.6715  168.9   4.656   72.9  0.0563   55.8  0.1731  -75.2
 1.400  0.6735  166.7   4.341   70.7  0.0604   56.4  0.1692  -76.7
 1.500  0.6779  164.6   4.049   68.7  0.0630   56.6  0.1672  -78.4
 1.600  0.6813  162.5   3.806   66.6  0.0665   57.0  0.1665  -79.8
 1.700  0.6817  160.3   3.590   64.6  0.0706   57.4  0.1652  -82.1
 1.800  0.6859  158.4   3.405   62.5  0.0738   57.3  0.1643  -84.3
 1.900  0.6901  156.5   3.226   60.7  0.0771   57.4  0.1647  -86.4
 2.000  0.6914  154.6   3.062   58.6  0.0810   57.2  0.1654  -88.9
 2.100  0.6942  152.7   2.924   56.7  0.0843   57.0  0.1659  -91.5
 2.200  0.6978  150.8   2.789   54.7  0.0877   56.8  0.1668  -94.0
 2.300  0.7013  149.0   2.673   52.9  0.0913   56.6  0.1684  -96.6
 2.400  0.7054  147.3   2.560   50.9  0.0949   56.5  0.1704  -99.2
 2.500  0.7081  145.7   2.458   49.2  0.0983   56.1  0.1726 -102.0
 2.600  0.7114  144.1   2.359   47.3  0.1017   55.7  0.1752 -104.7
 2.700  0.7147  142.4   2.273   45.6  0.1050   55.3  0.1780 -107.2
 2.800  0.7185  140.8   2.190   43.8  0.1084   55.0  0.1811 -109.7
 2.900  0.7214  139.2   2.115   42.1  0.1118   54.4  0.1837 -112.4
 3.000  0.7249  137.7   2.042   40.2  0.1152   53.9  0.1866 -115.0
 3.100  0.7278  136.2   1.980   38.7  0.1187   53.4  0.1892 -117.6
 3.200  0.7312  134.7   1.919   37.2  0.1222   53.0  0.1922 -120.1
 3.300  0.7352  133.2   1.860   35.5  0.1257   52.6  0.1956 -122.5
 3.400  0.7396  131.7   1.803   33.8  0.1292   52.2  0.1993 -124.9
 3.500  0.7445  130.2   1.747   31.9  0.1327   51.8  0.2033 -127.1
 3.600  0.7472  128.8   1.700   30.5  0.1361   51.2  0.2065 -129.7
 3.700  0.7504  127.4   1.654   29.0  0.1395   50.6  0.2102 -132.3
 3.800  0.7540  126.1   1.609   27.4  0.1429   50.0  0.2143 -134.7
 3.900  0.7580  124.7   1.566   25.7  0.1463   49.4  0.2187 -137.0
 4.000  0.7624  123.4   1.524   23.9  0.1497   48.9  0.2235 -139.3
 4.100  0.7647  122.2   1.485   22.5  0.1530   48.2  0.2279 -142.0
 4.200  0.7673  121.0   1.448   21.1  0.1564   47.5  0.2327 -144.6
 4.300  0.7702  119.8   1.411   19.6  0.1597   46.8  0.2380 -147.1
 4.400  0.7735  118.6   1.376   18.0  0.1631   46.2  0.2438 -149.4
 4.500  0.7771  117.4   1.341   16.3  0.1665   45.6  0.2499 -151.7
 4.600  0.7798  116.4   1.309   15.1  0.1698   45.0  0.2566 -154.0
 4.700  0.7827  115.4   1.277   13.9  0.1731   44.4  0.2637 -156.2
 4.800  0.7859  114.4   1.245   12.5  0.1764   43.9  0.2712 -158.3
 4.900  0.7893  113.5   1.215   11.2  0.1797   43.3  0.2790 -160.2
 5.000  0.7929  112.5   1.185    9.7  0.1831   42.8  0.2871 -162.1
 5.100  0.7946  111.6   1.162    8.6  0.1865   42.1  0.2958 -163.8
 5.200  0.7965  110.7   1.139    7.4  0.1900   41.5  0.3047 -165.3
 5.300  0.7987  109.8   1.116    6.2  0.1934   40.9  0.3139 -166.8
 5.400  0.8010  108.9   1.094    4.9  0.1969   40.3  0.3232 -168.2
 5.500  0.8035  108.0   1.073    3.6  0.2004   39.7  0.3327 -169.5
 5.600  0.8043  107.1   1.052    2.5  0.2039   39.0  0.3402 -170.6
 5.700  0.8054  106.2   1.031    1.5  0.2074   38.2  0.3478 -171.7
 5.800  0.8066  105.4   1.011    0.3  0.2109   37.5  0.3555 -172.7
 5.900  0.8080  104.5   0.991   -0.9  0.2145   36.9  0.3634 -173.7
 6.000  0.8096  103.6   0.971   -2.1  0.2181   36.2  0.3713 -174.6
!
!  f       NFmin   Gammaopt  rn/50
! GHz       dB    MAG  ANG    -
 0.450      1.17  0.20  171   0.10
 0.900      1.20  0.25  174   0.09
 1.900      1.68  0.41 -163   0.08
 2.400      1.92  0.45 -157   0.12
!
! (c) 2017  Infineon Technologies AG, Munich