! Infineon Technologies  Discrete & RF Semiconductors
! BFP183W
! VCE =  6.0 V,  IC =  15 mA
! Common Emitter S-Parameters:                            Jan 2017
# GHz  S  MA  R  50
!  f         S11            S21            S12            S22
! GHz     MAG   ANG      MAG   ANG      MAG   ANG      MAG   ANG
 0.010  0.6314   -5.8  39.003  177.1  0.0014   90.6  0.9882   -2.8
 0.020  0.6183  -14.4  38.333  173.1  0.0035   93.4  0.9723   -5.7
 0.030  0.6114  -20.2  37.807  170.0  0.0052   84.5  0.9635   -8.4
 0.040  0.6109  -26.1  37.393  166.8  0.0071   80.1  0.9569  -11.2
 0.050  0.6169  -32.0  37.097  163.6  0.0089   77.5  0.9526  -14.0
 0.060  0.6061  -37.6  36.214  160.9  0.0105   73.7  0.9319  -16.2
 0.070  0.6012  -43.3  35.414  158.1  0.0121   71.0  0.9127  -18.6
 0.080  0.6024  -49.1  34.703  155.2  0.0138   68.9  0.8951  -21.0
 0.090  0.6097  -54.8  34.086  152.1  0.0154   67.2  0.8791  -23.5
 0.100  0.6228  -60.3  33.569  149.0  0.0171   65.9  0.8649  -26.1
 0.110  0.6140  -64.9  32.646  146.9  0.0181   63.8  0.8428  -27.7
 0.120  0.6091  -69.5  31.770  144.7  0.0192   62.0  0.8214  -29.5
 0.130  0.6083  -74.2  30.944  142.3  0.0202   60.3  0.8007  -31.3
 0.140  0.6117  -78.9  30.172  139.9  0.0213   58.8  0.7810  -33.2
 0.150  0.6190  -83.5  29.459  137.3  0.0224   57.5  0.7621  -35.2
 0.200  0.6218 -100.5  25.563  128.0  0.0251   52.2  0.6706  -41.6
 0.250  0.6229 -114.1  22.330  120.7  0.0286   47.6  0.5910  -46.1
 0.300  0.6201 -124.5  19.592  115.2  0.0298   44.9  0.5270  -49.4
 0.350  0.6165 -131.9  17.579  111.5  0.0312   44.3  0.4812  -51.1
 0.400  0.6232 -139.2  15.660  106.8  0.0326   43.7  0.4358  -53.1
 0.450  0.6200 -144.3  14.251  104.1  0.0340   43.1  0.4064  -53.9
 0.500  0.6219 -149.5  12.879  100.9  0.0354   42.6  0.3770  -54.8
 0.600  0.6241 -157.0  10.935   96.1  0.0379   42.9  0.3359  -55.9
 0.700  0.6235 -163.0   9.452   92.2  0.0390   44.7  0.3069  -56.2
 0.800  0.6253 -168.1   8.345   88.7  0.0423   46.2  0.2883  -56.5
 0.900  0.6259 -172.4   7.431   85.7  0.0447   46.8  0.2729  -57.0
 1.000  0.6277 -176.0   6.735   83.0  0.0470   48.1  0.2605  -57.6
 1.100  0.6307 -179.4   6.137   80.5  0.0498   49.0  0.2530  -58.1
 1.200  0.6318  177.3   5.632   77.9  0.0514   49.9  0.2458  -58.7
 1.300  0.6313  174.6   5.205   75.7  0.0545   50.8  0.2406  -59.6
 1.400  0.6352  172.0   4.855   73.4  0.0572   52.0  0.2353  -60.7
 1.500  0.6383  169.6   4.532   71.3  0.0603   52.4  0.2311  -61.9
 1.600  0.6405  167.1   4.258   69.1  0.0629   52.8  0.2296  -63.1
 1.700  0.6424  164.9   4.017   67.1  0.0665   53.6  0.2269  -64.8
 1.800  0.6462  162.6   3.812   65.0  0.0694   54.1  0.2245  -66.5
 1.900  0.6515  160.6   3.612   63.2  0.0722   54.1  0.2223  -68.1
 2.000  0.6535  158.4   3.430   61.1  0.0751   54.3  0.2217  -70.1
 2.100  0.6561  156.3   3.277   59.2  0.0781   54.5  0.2204  -72.2
 2.200  0.6596  154.3   3.128   57.1  0.0812   54.7  0.2194  -74.4
 2.300  0.6637  152.4   2.997   55.3  0.0844   54.6  0.2195  -76.7
 2.400  0.6685  150.6   2.870   53.3  0.0876   54.6  0.2199  -79.0
 2.500  0.6713  148.8   2.757   51.6  0.0906   54.4  0.2199  -81.4
 2.600  0.6747  147.1   2.647   49.7  0.0936   54.3  0.2203  -83.8
 2.700  0.6787  145.3   2.551   48.0  0.0968   54.1  0.2214  -86.2
 2.800  0.6833  143.6   2.457   46.2  0.1001   53.9  0.2228  -88.6
 2.900  0.6859  141.9   2.373   44.5  0.1031   53.7  0.2233  -91.1
 3.000  0.6891  140.3   2.292   42.6  0.1061   53.5  0.2242  -93.6
 3.100  0.6925  138.7   2.223   41.1  0.1094   53.2  0.2250  -96.1
 3.200  0.6964  137.2   2.155   39.6  0.1126   52.9  0.2262  -98.5
 3.300  0.7008  135.6   2.089   37.9  0.1159   52.7  0.2279 -100.9
 3.400  0.7058  134.1   2.024   36.2  0.1191   52.4  0.2299 -103.3
 3.500  0.7112  132.6   1.962   34.3  0.1224   52.2  0.2323 -105.6
 3.600  0.7143  131.2   1.909   32.9  0.1257   51.7  0.2334 -108.2
 3.700  0.7178  129.8   1.858   31.3  0.1291   51.2  0.2350 -110.9
 3.800  0.7217  128.4   1.808   29.7  0.1324   50.7  0.2371 -113.4
 3.900  0.7261  127.0   1.760   28.0  0.1357   50.2  0.2397 -115.9
 4.000  0.7309  125.6   1.713   26.2  0.1391   49.8  0.2427 -118.4
 4.100  0.7334  124.3   1.670   24.8  0.1423   49.2  0.2449 -121.3
 4.200  0.7363  123.0   1.627   23.3  0.1455   48.7  0.2477 -124.1
 4.300  0.7396  121.8   1.586   21.8  0.1488   48.2  0.2510 -126.8
 4.400  0.7432  120.5   1.547   20.1  0.1520   47.7  0.2549 -129.5
 4.500  0.7471  119.3   1.508   18.4  0.1553   47.2  0.2594 -132.1
 4.600  0.7506  118.3   1.471   17.2  0.1587   46.7  0.2642 -134.9
 4.700  0.7543  117.3   1.436   15.9  0.1620   46.1  0.2697 -137.5
 4.800  0.7582  116.3   1.401   14.5  0.1654   45.6  0.2756 -140.1
 4.900  0.7624  115.3   1.366   13.1  0.1688   45.2  0.2821 -142.5
 5.000  0.7668  114.3   1.333   11.6  0.1722   44.7  0.2891 -144.8
 5.100  0.7693  113.4   1.306   10.5  0.1756   44.1  0.2970 -146.9
 5.200  0.7719  112.4   1.280    9.3  0.1790   43.6  0.3053 -148.9
 5.300  0.7748  111.5   1.255    8.0  0.1825   43.0  0.3140 -150.8
 5.400  0.7778  110.6   1.230    6.7  0.1859   42.5  0.3230 -152.6
 5.500  0.7811  109.7   1.206    5.4  0.1894   42.0  0.3323 -154.3
 5.600  0.7817  108.8   1.182    4.3  0.1930   41.3  0.3399 -155.8
 5.700  0.7825  107.9   1.158    3.2  0.1966   40.6  0.3477 -157.2
 5.800  0.7835  107.0   1.135    2.0  0.2002   39.9  0.3558 -158.6
 5.900  0.7847  106.1   1.112    0.8  0.2039   39.2  0.3640 -159.9
 6.000  0.7861  105.2   1.090   -0.5  0.2076   38.6  0.3724 -161.1
!
!  f       NFmin   Gammaopt  rn/50
! GHz       dB    MAG  ANG    -
 0.450      1.05  0.15  158   0.10
 0.900      1.09  0.21  163   0.09
 1.900      1.56  0.39 -168   0.08
 2.400      1.80  0.44 -161   0.11
!
! (c) 2017  Infineon Technologies AG, Munich