! Infineon Technologies  Discrete & RF Semiconductors
! BFP183W
! VCE =  4.0 V,  IC =  22 mA
! Common Emitter S-Parameters:                            Jan 2017
# GHz  S  MA  R  50
!  f         S11            S21            S12            S22
! GHz     MAG   ANG      MAG   ANG      MAG   ANG      MAG   ANG
 0.010  0.4962   -9.1  49.838  176.2  0.0018   87.0  0.9794   -3.7
 0.020  0.4922  -20.6  49.176  171.3  0.0028   81.0  0.9712   -7.6
 0.030  0.4859  -29.3  48.034  167.4  0.0047   75.8  0.9516  -11.1
 0.040  0.4909  -38.0  47.121  163.4  0.0066   73.5  0.9357  -14.7
 0.050  0.5070  -46.4  46.452  159.2  0.0085   72.3  0.9237  -18.5
 0.060  0.4984  -53.7  44.844  156.2  0.0098   69.2  0.8940  -21.1
 0.070  0.4981  -61.1  43.368  153.0  0.0111   66.9  0.8661  -23.8
 0.080  0.5061  -68.4  42.038  149.6  0.0125   65.1  0.8404  -26.7
 0.090  0.5220  -75.4  40.867  145.9  0.0138   63.6  0.8171  -29.8
 0.100  0.5451  -81.9  39.870  142.1  0.0152   62.4  0.7962  -33.1
 0.110  0.5432  -86.8  38.420  140.0  0.0160   60.2  0.7689  -34.8
 0.120  0.5453  -91.8  37.027  137.7  0.0168   58.3  0.7423  -36.7
 0.130  0.5515  -96.6  35.697  135.3  0.0176   56.5  0.7166  -38.7
 0.140  0.5615 -101.4  34.437  132.6  0.0184   54.9  0.6918  -40.8
 0.150  0.5752 -105.9  33.255  129.8  0.0193   53.4  0.6680  -43.1
 0.200  0.5957 -121.9  27.769  120.7  0.0210   47.5  0.5654  -49.4
 0.250  0.6074 -133.5  23.629  114.0  0.0237   46.7  0.4880  -53.4
 0.300  0.6147 -142.0  20.368  109.1  0.0251   45.4  0.4282  -56.1
 0.350  0.6168 -147.8  18.112  105.9  0.0264   46.0  0.3879  -57.4
 0.400  0.6252 -153.5  15.930  101.7  0.0278   46.6  0.3478  -59.1
 0.450  0.6255 -157.4  14.426   99.4  0.0289   46.9  0.3232  -59.7
 0.500  0.6287 -161.3  12.950   96.6  0.0300   47.1  0.2987  -60.5
 0.600  0.6342 -167.3  10.937   92.5  0.0334   49.1  0.2657  -61.1
 0.700  0.6359 -171.8   9.416   89.2  0.0352   50.6  0.2424  -61.2
 0.800  0.6400 -175.9   8.285   85.9  0.0383   53.6  0.2275  -61.6
 0.900  0.6375 -179.3   7.362   83.2  0.0420   54.1  0.2162  -62.1
 1.000  0.6423  177.6   6.664   80.7  0.0446   55.3  0.2062  -62.7
 1.100  0.6438  174.8   6.067   78.5  0.0477   56.4  0.2018  -63.3
 1.200  0.6458  172.1   5.564   76.1  0.0502   56.4  0.1962  -64.2
 1.300  0.6465  169.8   5.140   73.9  0.0535   57.0  0.1927  -65.3
 1.400  0.6486  167.5   4.793   71.8  0.0572   58.0  0.1886  -66.6
 1.500  0.6529  165.3   4.469   69.8  0.0607   58.3  0.1856  -67.9
 1.600  0.6554  163.2   4.202   67.7  0.0641   58.8  0.1849  -69.3
 1.700  0.6557  161.0   3.962   65.7  0.0677   59.0  0.1831  -71.3
 1.800  0.6612  159.0   3.759   63.7  0.0711   59.0  0.1819  -73.2
 1.900  0.6635  157.3   3.559   62.0  0.0737   58.7  0.1805  -75.1
 2.000  0.6670  155.2   3.380   59.9  0.0774   58.7  0.1815  -77.3
 2.100  0.6694  153.3   3.228   58.0  0.0809   58.5  0.1809  -79.8
 2.200  0.6725  151.4   3.079   56.0  0.0845   58.4  0.1806  -82.3
 2.300  0.6765  149.7   2.951   54.3  0.0880   58.2  0.1815  -84.9
 2.400  0.6811  148.0   2.826   52.4  0.0915   58.0  0.1827  -87.4
 2.500  0.6836  146.3   2.714   50.7  0.0948   57.6  0.1838  -90.1
 2.600  0.6866  144.7   2.605   48.8  0.0982   57.3  0.1853  -92.7
 2.700  0.6910  143.0   2.510   47.2  0.1016   57.0  0.1872  -95.3
 2.800  0.6959  141.4   2.418   45.4  0.1050   56.7  0.1894  -97.9
 2.900  0.6987  139.8   2.335   43.7  0.1083   56.1  0.1907 -100.6
 3.000  0.7021  138.3   2.255   41.9  0.1116   55.5  0.1924 -103.2
 3.100  0.7053  136.8   2.187   40.5  0.1150   55.1  0.1942 -105.8
 3.200  0.7090  135.3   2.120   38.9  0.1183   54.6  0.1963 -108.4
 3.300  0.7132  133.8   2.054   37.3  0.1217   54.2  0.1989 -110.9
 3.400  0.7179  132.3   1.991   35.6  0.1251   53.9  0.2018 -113.3
 3.500  0.7230  130.9   1.929   33.7  0.1285   53.5  0.2051 -115.7
 3.600  0.7259  129.5   1.877   32.3  0.1319   52.8  0.2071 -118.5
 3.700  0.7293  128.1   1.827   30.8  0.1353   52.2  0.2096 -121.2
 3.800  0.7330  126.8   1.778   29.2  0.1388   51.5  0.2126 -123.8
 3.900  0.7372  125.4   1.730   27.6  0.1422   51.0  0.2160 -126.3
 4.000  0.7418  124.1   1.684   25.8  0.1457   50.4  0.2198 -128.8
 4.100  0.7443  122.9   1.642   24.4  0.1490   49.7  0.2231 -131.7
 4.200  0.7471  121.6   1.600   23.0  0.1523   49.1  0.2269 -134.5
 4.300  0.7503  120.4   1.560   21.4  0.1556   48.5  0.2313 -137.1
 4.400  0.7538  119.2   1.521   19.8  0.1589   47.9  0.2361 -139.7
 4.500  0.7577  118.0   1.483   18.1  0.1623   47.3  0.2414 -142.2
 4.600  0.7607  117.0   1.447   16.9  0.1656   46.7  0.2472 -144.8
 4.700  0.7639  116.1   1.412   15.7  0.1689   46.1  0.2535 -147.2
 4.800  0.7674  115.1   1.377   14.3  0.1722   45.6  0.2603 -149.6
 4.900  0.7710  114.1   1.343   13.0  0.1755   45.0  0.2675 -151.8
 5.000  0.7749  113.2   1.310   11.5  0.1788   44.5  0.2750 -153.9
 5.100  0.7773  112.3   1.284   10.4  0.1822   43.8  0.2833 -155.8
 5.200  0.7800  111.4   1.259    9.2  0.1856   43.2  0.2918 -157.6
 5.300  0.7828  110.5   1.235    7.9  0.1890   42.6  0.3006 -159.2
 5.400  0.7858  109.6   1.211    6.6  0.1924   42.0  0.3097 -160.8
 5.500  0.7890  108.7   1.188    5.3  0.1959   41.4  0.3190 -162.3
 5.600  0.7894  107.8   1.165    4.2  0.1995   40.6  0.3266 -163.6
 5.700  0.7901  107.0   1.141    3.1  0.2030   39.9  0.3343 -164.8
 5.800  0.7909  106.1   1.119    2.0  0.2067   39.2  0.3421 -165.9
 5.900  0.7918  105.3   1.097    0.8  0.2103   38.6  0.3501 -167.0
 6.000  0.7930  104.4   1.075   -0.5  0.2140   37.9  0.3582 -168.1
!
!  f       NFmin   Gammaopt  rn/50
! GHz       dB    MAG  ANG    -
 0.450      1.22  0.22  174   0.10
 0.900      1.25  0.26  177   0.09
 1.900      1.73  0.41 -161   0.09
 2.400      1.96  0.46 -155   0.12
!
! (c) 2017  Infineon Technologies AG, Munich