! Infineon Technologies  Discrete & RF Semiconductors
! BFP183W
! VCE =  6.0 V,  IC =  55 mA
! Common Emitter S-Parameters:                            Jan 2017
# GHz  S  MA  R  50
!  f         S11            S21            S12            S22
! GHz     MAG   ANG      MAG   ANG      MAG   ANG      MAG   ANG
 0.010  0.2493  -23.8  67.831  173.8  0.0014   85.7  0.9294   -4.5
 0.020  0.2771  -47.3  66.287  166.8  0.0023   88.4  0.9091  -10.1
 0.030  0.2959  -64.8  63.190  161.5  0.0038   74.1  0.8742  -14.5
 0.040  0.3380  -79.0  60.686  155.7  0.0053   67.9  0.8450  -19.3
 0.050  0.3958  -89.6  58.850  149.5  0.0069   64.6  0.8219  -24.3
 0.060  0.4091  -98.2  55.497  146.4  0.0076   62.2  0.7812  -26.5
 0.070  0.4308 -106.0  52.333  142.8  0.0084   60.2  0.7418  -29.0
 0.080  0.4598 -113.0  49.393  138.8  0.0092   58.6  0.7039  -31.8
 0.090  0.4948 -119.1  46.722  134.4  0.0099   57.2  0.6679  -34.8
 0.100  0.5346 -124.3  44.367  129.4  0.0107   56.0  0.6339  -38.2
 0.110  0.5435 -128.1  42.146  127.5  0.0112   55.1  0.6066  -39.2
 0.120  0.5546 -131.7  39.976  125.5  0.0117   54.2  0.5796  -40.3
 0.130  0.5679 -135.2  37.863  123.2  0.0122   53.4  0.5527  -41.5
 0.140  0.5831 -138.5  35.819  120.6  0.0127   52.7  0.5262  -42.8
 0.150  0.6002 -141.6  33.856  117.7  0.0132   52.0  0.4999  -44.3
 0.200  0.6276 -151.5  26.831  110.0  0.0136   50.6  0.4176  -46.2
 0.250  0.6454 -158.4  22.109  104.7  0.0153   50.0  0.3633  -46.7
 0.300  0.6542 -163.4  18.701  100.9  0.0165   52.1  0.3248  -46.1
 0.350  0.6577 -166.9  16.486   98.5  0.0180   54.5  0.3028  -45.5
 0.400  0.6636 -170.3  14.309   95.3  0.0196   56.5  0.2808  -44.8
 0.450  0.6649 -172.7  12.913   93.5  0.0210   57.9  0.2689  -44.3
 0.500  0.6674 -175.1  11.532   91.3  0.0225   59.1  0.2570  -43.7
 0.600  0.6706 -178.8   9.667   88.0  0.0259   60.3  0.2422  -43.2
 0.700  0.6723  178.2   8.299   85.2  0.0284   63.5  0.2332  -42.8
 0.800  0.6743  175.4   7.288   82.4  0.0324   65.8  0.2284  -43.4
 0.900  0.6758  172.8   6.474   80.1  0.0356   65.6  0.2241  -44.2
 1.000  0.6798  170.6   5.850   77.8  0.0382   67.1  0.2211  -45.0
 1.100  0.6787  168.4   5.325   75.7  0.0423   67.2  0.2201  -46.2
 1.200  0.6802  166.3   4.882   73.5  0.0457   67.5  0.2188  -47.6
 1.300  0.6807  164.3   4.511   71.5  0.0494   68.0  0.2181  -49.1
 1.400  0.6828  162.3   4.204   69.5  0.0530   68.0  0.2164  -50.9
 1.500  0.6877  160.5   3.923   67.6  0.0562   68.0  0.2154  -52.7
 1.600  0.6903  158.6   3.686   65.6  0.0598   67.9  0.2162  -54.6
 1.700  0.6905  156.7   3.477   63.6  0.0636   67.7  0.2153  -56.9
 1.800  0.6937  154.8   3.297   61.7  0.0673   67.2  0.2146  -59.1
 1.900  0.6963  153.3   3.124   60.0  0.0707   67.4  0.2147  -61.4
 2.000  0.7001  151.4   2.966   57.9  0.0742   66.6  0.2150  -63.8
 2.100  0.7022  149.6   2.832   56.1  0.0777   66.3  0.2148  -66.4
 2.200  0.7049  147.9   2.702   54.1  0.0813   66.1  0.2151  -69.0
 2.300  0.7087  146.3   2.591   52.4  0.0850   65.6  0.2160  -71.8
 2.400  0.7130  144.7   2.482   50.5  0.0888   65.2  0.2173  -74.5
 2.500  0.7149  143.2   2.384   48.8  0.0923   64.5  0.2183  -77.3
 2.600  0.7173  141.8   2.289   47.0  0.0958   63.9  0.2198  -80.1
 2.700  0.7213  140.2   2.206   45.4  0.0994   63.5  0.2213  -82.9
 2.800  0.7258  138.7   2.125   43.6  0.1030   63.1  0.2234  -85.7
 2.900  0.7280  137.2   2.052   41.9  0.1066   62.5  0.2248  -88.5
 3.000  0.7306  135.7   1.982   40.0  0.1103   61.9  0.2267  -91.3
 3.100  0.7336  134.3   1.922   38.6  0.1139   61.3  0.2279  -94.1
 3.200  0.7370  132.8   1.863   37.0  0.1175   60.7  0.2296  -96.8
 3.300  0.7409  131.4   1.806   35.4  0.1211   60.1  0.2318  -99.4
 3.400  0.7452  130.0   1.750   33.7  0.1247   59.6  0.2345 -102.1
 3.500  0.7500  128.6   1.696   31.8  0.1283   59.1  0.2377 -104.6
 3.600  0.7525  127.3   1.651   30.4  0.1319   58.3  0.2391 -107.5
 3.700  0.7555  125.9   1.606   28.9  0.1356   57.5  0.2410 -110.3
 3.800  0.7588  124.6   1.563   27.4  0.1393   56.8  0.2436 -113.1
 3.900  0.7626  123.3   1.521   25.7  0.1430   56.1  0.2467 -115.8
 4.000  0.7667  122.0   1.480   24.0  0.1467   55.5  0.2503 -118.4
 4.100  0.7689  120.8   1.442   22.6  0.1502   54.7  0.2529 -121.4
 4.200  0.7715  119.6   1.406   21.2  0.1537   53.9  0.2561 -124.3
 4.300  0.7744  118.4   1.370   19.6  0.1572   53.2  0.2600 -127.1
 4.400  0.7776  117.3   1.336   18.0  0.1607   52.5  0.2645 -129.9
 4.500  0.7811  116.1   1.302   16.3  0.1643   51.8  0.2696 -132.5
 4.600  0.7839  115.2   1.271   15.1  0.1677   51.1  0.2748 -135.3
 4.700  0.7868  114.2   1.240   13.9  0.1712   50.4  0.2806 -138.0
 4.800  0.7900  113.3   1.210   12.5  0.1747   49.7  0.2870 -140.7
 4.900  0.7934  112.4   1.181   11.2  0.1783   49.0  0.2940 -143.1
 5.000  0.7970  111.5   1.152    9.7  0.1818   48.4  0.3015 -145.5
 5.100  0.7991  110.6   1.129    8.6  0.1854   47.6  0.3096 -147.7
 5.200  0.8014  109.7   1.106    7.4  0.1890   46.9  0.3182 -149.8
 5.300  0.8039  108.8   1.084    6.2  0.1926   46.2  0.3272 -151.8
 5.400  0.8066  108.0   1.062    4.9  0.1962   45.5  0.3365 -153.6
 5.500  0.8095  107.1   1.041    3.6  0.1999   44.9  0.3462 -155.4
 5.600  0.8096  106.2   1.020    2.6  0.2036   44.0  0.3540 -157.0
 5.700  0.8098  105.3   1.000    1.5  0.2073   43.2  0.3620 -158.4
 5.800  0.8103  104.5   0.980    0.4  0.2110   42.4  0.3703 -159.9
 5.900  0.8110  103.6   0.960   -0.7  0.2148   41.6  0.3788 -161.2
 6.000  0.8118  102.7   0.941   -1.9  0.2186   40.9  0.3875 -162.5
!
!  f       NFmin   Gammaopt  rn/50
! GHz       dB    MAG  ANG    -
!
! noise parameter not available yet for this operation point!
!
! (c) 2017  Infineon Technologies AG, Munich