! Infineon Technologies  Discrete & RF Semiconductors
! BFP183W
! VCE =  6.0 V,  IC =  54 mA
! Common Emitter S-Parameters:                            Jan 2017
# GHz  S  MA  R  50
!  f         S11            S21            S12            S22
! GHz     MAG   ANG      MAG   ANG      MAG   ANG      MAG   ANG
 0.010  0.2555  -23.3  67.885  173.8  0.0013   82.8  0.9323   -4.4
 0.020  0.2782  -47.0  66.753  166.9  0.0029   86.7  0.9156  -10.0
 0.030  0.2976  -63.9  63.613  161.7  0.0042   75.8  0.8804  -14.4
 0.040  0.3387  -77.7  61.048  156.0  0.0057   70.3  0.8508  -19.1
 0.050  0.3950  -88.1  59.133  149.9  0.0071   67.0  0.8273  -24.1
 0.060  0.4073  -96.7  55.793  146.7  0.0078   64.0  0.7866  -26.4
 0.070  0.4281 -104.5  52.643  143.2  0.0086   61.4  0.7474  -28.9
 0.080  0.4562 -111.6  49.721  139.2  0.0093   59.3  0.7097  -31.7
 0.090  0.4903 -117.7  47.068  134.8  0.0101   57.5  0.6739  -34.8
 0.100  0.5293 -123.0  44.732  129.8  0.0109   56.0  0.6404  -38.3
 0.110  0.5383 -126.8  42.519  127.9  0.0113   54.8  0.6129  -39.3
 0.120  0.5497 -130.5  40.357  125.9  0.0116   53.7  0.5857  -40.5
 0.130  0.5631 -133.9  38.253  123.5  0.0120   52.6  0.5587  -41.7
 0.140  0.5786 -137.3  36.219  121.0  0.0124   51.6  0.5321  -43.1
 0.150  0.5959 -140.4  34.266  118.1  0.0128   50.7  0.5057  -44.6
 0.200  0.6235 -150.7  27.198  110.3  0.0136   52.0  0.4213  -46.7
 0.250  0.6424 -157.9  22.424  104.9  0.0159   50.8  0.3646  -47.2
 0.300  0.6501 -162.9  18.971  101.1  0.0170   52.4  0.3262  -46.9
 0.350  0.6537 -166.3  16.729   98.6  0.0181   54.1  0.3035  -46.3
 0.400  0.6596 -169.7  14.527   95.4  0.0193   55.6  0.2809  -45.7
 0.450  0.6602 -172.2  13.108   93.6  0.0208   57.2  0.2688  -45.2
 0.500  0.6620 -174.6  11.704   91.4  0.0223   58.5  0.2567  -44.6
 0.600  0.6679 -178.4   9.816   88.1  0.0258   60.4  0.2407  -44.0
 0.700  0.6688  178.5   8.426   85.3  0.0286   63.7  0.2311  -43.6
 0.800  0.6710  175.6   7.401   82.5  0.0323   64.6  0.2261  -44.0
 0.900  0.6709  173.0   6.570   80.1  0.0358   65.6  0.2210  -44.9
 1.000  0.6738  170.7   5.938   77.9  0.0392   66.7  0.2183  -45.6
 1.100  0.6771  168.6   5.405   75.8  0.0424   66.7  0.2172  -46.9
 1.200  0.6777  166.3   4.956   73.6  0.0457   67.2  0.2156  -48.0
 1.300  0.6780  164.3   4.579   71.5  0.0494   67.3  0.2151  -49.6
 1.400  0.6802  162.4   4.267   69.5  0.0527   67.9  0.2130  -51.3
 1.500  0.6834  160.6   3.979   67.6  0.0565   67.6  0.2125  -53.1
 1.600  0.6869  158.7   3.741   65.6  0.0598   67.6  0.2128  -54.9
 1.700  0.6885  156.8   3.528   63.7  0.0637   67.6  0.2122  -57.2
 1.800  0.6915  155.0   3.345   61.7  0.0674   67.0  0.2118  -59.5
 1.900  0.6950  153.4   3.169   60.0  0.0709   67.1  0.2117  -61.7
 2.000  0.6970  151.5   3.010   58.0  0.0741   66.7  0.2123  -64.2
 2.100  0.6995  149.7   2.874   56.2  0.0779   66.2  0.2121  -66.8
 2.200  0.7026  148.0   2.742   54.2  0.0817   65.8  0.2123  -69.4
 2.300  0.7058  146.4   2.628   52.5  0.0854   65.3  0.2129  -72.1
 2.400  0.7096  144.8   2.517   50.6  0.0892   64.9  0.2140  -74.8
 2.500  0.7121  143.3   2.418   48.9  0.0926   64.4  0.2151  -77.7
 2.600  0.7151  141.8   2.322   47.1  0.0960   64.0  0.2167  -80.5
 2.700  0.7187  140.3   2.237   45.4  0.0995   63.4  0.2183  -83.3
 2.800  0.7227  138.8   2.155   43.6  0.1031   62.8  0.2204  -86.0
 2.900  0.7254  137.3   2.081   42.0  0.1067   62.1  0.2217  -88.8
 3.000  0.7285  135.8   2.009   40.2  0.1103   61.5  0.2235  -91.5
 3.100  0.7313  134.4   1.948   38.7  0.1139   60.9  0.2247  -94.3
 3.200  0.7345  132.9   1.889   37.2  0.1176   60.3  0.2265  -97.0
 3.300  0.7382  131.5   1.831   35.5  0.1212   59.8  0.2287  -99.7
 3.400  0.7423  130.1   1.775   33.8  0.1249   59.3  0.2315 -102.3
 3.500  0.7469  128.7   1.720   31.9  0.1286   58.8  0.2347 -104.9
 3.600  0.7498  127.4   1.674   30.5  0.1321   58.0  0.2361 -107.7
 3.700  0.7530  126.1   1.628   29.0  0.1356   57.3  0.2382 -110.5
 3.800  0.7567  124.8   1.584   27.4  0.1392   56.6  0.2407 -113.3
 3.900  0.7607  123.5   1.541   25.8  0.1427   55.9  0.2439 -116.0
 4.000  0.7651  122.2   1.500   24.0  0.1463   55.3  0.2475 -118.6
 4.100  0.7674  121.0   1.462   22.6  0.1498   54.5  0.2501 -121.6
 4.200  0.7700  119.8   1.425   21.2  0.1533   53.7  0.2534 -124.5
 4.300  0.7730  118.6   1.390   19.7  0.1568   52.9  0.2573 -127.4
 4.400  0.7763  117.4   1.355   18.1  0.1604   52.2  0.2618 -130.1
 4.500  0.7799  116.2   1.321   16.4  0.1640   51.5  0.2669 -132.8
 4.600  0.7827  115.3   1.289   15.2  0.1675   50.8  0.2720 -135.6
 4.700  0.7858  114.3   1.258   14.0  0.1710   50.1  0.2778 -138.3
 4.800  0.7890  113.4   1.227   12.7  0.1746   49.5  0.2842 -140.9
 4.900  0.7925  112.5   1.197   11.3  0.1781   48.9  0.2911 -143.4
 5.000  0.7961  111.6   1.168    9.9  0.1817   48.3  0.2985 -145.7
 5.100  0.7978  110.7   1.144    8.8  0.1853   47.5  0.3066 -147.9
 5.200  0.7998  109.8   1.121    7.6  0.1889   46.8  0.3152 -150.0
 5.300  0.8019  108.9   1.099    6.3  0.1926   46.1  0.3242 -152.0
 5.400  0.8042  108.1   1.077    5.0  0.1963   45.4  0.3335 -153.8
 5.500  0.8067  107.2   1.055    3.7  0.2000   44.8  0.3432 -155.6
 5.600  0.8072  106.3   1.034    2.7  0.2036   44.0  0.3510 -157.2
 5.700  0.8078  105.4   1.013    1.6  0.2072   43.2  0.3590 -158.6
 5.800  0.8086  104.6   0.993    0.5  0.2108   42.4  0.3673 -160.1
 5.900  0.8097  103.7   0.973   -0.7  0.2145   41.6  0.3758 -161.4
 6.000  0.8109  102.8   0.953   -1.9  0.2182   40.9  0.3845 -162.7
!
!  f       NFmin   Gammaopt  rn/50
! GHz       dB    MAG  ANG    -
!
! noise parameter not available yet for this operation point!
!
! (c) 2017  Infineon Technologies AG, Munich