! Infineon Technologies  Discrete & RF Semiconductors
! BFP183W
! VCE =  2.0 V,  IC =  60 mA
! Common Emitter S-Parameters:                            Jan 2017
# GHz  S  MA  R  50
!  f         S11            S21            S12            S22
! GHz     MAG   ANG      MAG   ANG      MAG   ANG      MAG   ANG
 0.010  0.1742  -90.3  55.573  168.9  0.0026   74.4  0.7400  -10.0
 0.020  0.3176 -107.9  52.421  157.4  0.0045   72.3  0.7021  -20.2
 0.030  0.3974 -120.9  47.137  150.9  0.0059   62.5  0.6363  -25.9
 0.040  0.4906 -129.2  42.614  142.8  0.0074   56.6  0.5784  -32.9
 0.050  0.5907 -134.8  39.116  133.1  0.0090   52.7  0.5308  -41.3
 0.060  0.6126 -139.6  35.913  130.5  0.0096   51.1  0.4912  -43.2
 0.070  0.6385 -144.1  32.797  127.4  0.0101   49.7  0.4523  -45.5
 0.080  0.6679 -148.2  29.797  123.7  0.0107   48.4  0.4142  -48.2
 0.090  0.7005 -151.9  26.950  119.2  0.0113   47.3  0.3772  -51.4
 0.100  0.7358 -155.3  24.311  113.6  0.0119   46.3  0.3417  -55.3
 0.110  0.7433 -157.2  22.835  112.3  0.0122   45.3  0.3233  -55.9
 0.120  0.7515 -159.1  21.374  110.8  0.0125   44.3  0.3049  -56.5
 0.130  0.7606 -160.9  19.929  109.0  0.0128   43.3  0.2866  -57.3
 0.140  0.7704 -162.7  18.505  107.0  0.0132   42.4  0.2683  -58.1
 0.150  0.7809 -164.4  17.108  104.7  0.0135   41.6  0.2501  -59.1
 0.200  0.7928 -169.6  13.046   99.0  0.0143   45.4  0.2033  -59.6
 0.250  0.8008 -173.3  10.549   95.2  0.0158   48.3  0.1759  -59.4
 0.300  0.8036 -175.9   8.827   92.3  0.0171   49.8  0.1577  -58.6
 0.350  0.8055 -177.9   7.744   90.4  0.0185   53.1  0.1483  -58.4
 0.400  0.8083 -179.9   6.672   87.8  0.0200   55.9  0.1390  -58.1
 0.450  0.8070  178.6   6.003   86.2  0.0218   57.4  0.1346  -58.2
 0.500  0.8063  177.1   5.339   84.3  0.0236   58.7  0.1302  -58.4
 0.600  0.8087  174.5   4.462   81.2  0.0271   61.8  0.1257  -59.7
 0.700  0.8081  172.3   3.822   78.5  0.0305   63.7  0.1239  -60.6
 0.800  0.8111  170.0   3.350   75.7  0.0356   65.8  0.1252  -62.8
 0.900  0.8074  167.9   2.972   73.2  0.0382   66.5  0.1266  -65.1
 1.000  0.8122  166.1   2.686   70.7  0.0421   67.3  0.1274  -67.6
 1.100  0.8122  164.1   2.444   68.4  0.0461   67.8  0.1309  -70.1
 1.200  0.8132  162.3   2.242   65.9  0.0499   68.2  0.1332  -72.9
 1.300  0.8134  160.4   2.070   63.6  0.0535   68.0  0.1363  -75.5
 1.400  0.8157  158.6   1.931   61.4  0.0577   68.3  0.1388  -78.4
 1.500  0.8190  156.9   1.799   59.1  0.0622   68.5  0.1413  -81.5
 1.600  0.8212  155.3   1.690   56.9  0.0661   68.0  0.1457  -84.2
 1.700  0.8218  153.2   1.597   54.7  0.0703   68.1  0.1487  -87.7
 1.800  0.8270  151.4   1.514   52.4  0.0742   67.2  0.1526  -91.0
 1.900  0.8292  149.9   1.434   50.5  0.0785   67.2  0.1564  -93.9
 2.000  0.8291  148.0   1.362   48.2  0.0822   66.6  0.1613  -97.2
 2.100  0.8312  146.2   1.300   46.2  0.0863   66.1  0.1655 -100.5
 2.200  0.8341  144.5   1.239   43.9  0.0904   65.6  0.1703 -103.6
 2.300  0.8360  142.9   1.188   42.0  0.0947   65.0  0.1757 -106.8
 2.400  0.8385  141.3   1.138   39.9  0.0990   64.5  0.1817 -109.8
 2.500  0.8393  139.7   1.092   38.1  0.1031   63.9  0.1875 -112.8
 2.600  0.8408  138.2   1.048   36.1  0.1073   63.3  0.1938 -115.7
 2.700  0.8430  136.6   1.009   34.4  0.1112   62.5  0.1999 -118.5
 2.800  0.8458  135.1   0.971   32.5  0.1151   61.8  0.2065 -121.2
 2.900  0.8469  133.6   0.937   30.8  0.1190   61.1  0.2123 -124.0
 3.000  0.8485  132.1   0.904   28.9  0.1229   60.4  0.2186 -126.7
 3.100  0.8497  130.6   0.876   27.5  0.1269   59.7  0.2240 -129.4
 3.200  0.8515  129.2   0.849   25.9  0.1310   59.0  0.2300 -132.0
 3.300  0.8538  127.8   0.822   24.3  0.1351   58.4  0.2363 -134.4
 3.400  0.8567  126.3   0.796   22.6  0.1392   57.8  0.2431 -136.7
 3.500  0.8601  124.9   0.771   20.7  0.1433   57.2  0.2502 -138.9
 3.600  0.8609  123.6   0.750   19.4  0.1472   56.3  0.2559 -141.6
 3.700  0.8622  122.2   0.729   18.1  0.1512   55.5  0.2620 -144.1
 3.800  0.8640  120.9   0.708   16.6  0.1552   54.7  0.2687 -146.5
 3.900  0.8662  119.5   0.688   15.1  0.1592   53.9  0.2758 -148.8
 4.000  0.8689  118.2   0.669   13.5  0.1633   53.2  0.2834 -151.0
 4.100  0.8689  117.0   0.652   12.4  0.1670   52.2  0.2900 -153.6
 4.200  0.8694  115.8   0.635   11.2  0.1708   51.3  0.2972 -156.1
 4.300  0.8702  114.5   0.618    9.9  0.1746   50.4  0.3050 -158.4
 4.400  0.8715  113.3   0.601    8.6  0.1785   49.6  0.3132 -160.7
 4.500  0.8731  112.1   0.585    7.2  0.1824   48.8  0.3219 -162.8
 4.600  0.8738  111.1   0.571    6.4  0.1862   48.0  0.3302 -165.0
 4.700  0.8748  110.2   0.557    5.6  0.1900   47.2  0.3389 -167.1
 4.800  0.8760  109.2   0.543    4.7  0.1938   46.4  0.3481 -169.1
 4.900  0.8775  108.3   0.529    3.8  0.1977   45.7  0.3577 -170.9
 5.000  0.8792  107.3   0.515    2.8  0.2016   45.0  0.3676 -172.7
 5.100  0.8794  106.4   0.505    2.1  0.2053   44.1  0.3771 -174.3
 5.200  0.8799  105.6   0.496    1.4  0.2091   43.3  0.3868 -175.8
 5.300  0.8805  104.7   0.486    0.7  0.2129   42.5  0.3968 -177.3
 5.400  0.8814  103.9   0.476   -0.1  0.2167   41.7  0.4070 -178.7
 5.500  0.8824  103.0   0.467   -0.9  0.2206   41.0  0.4175  180.0
 5.600  0.8813  102.1   0.458   -1.3  0.2243   40.1  0.4249  178.8
 5.700  0.8804  101.2   0.450   -1.8  0.2280   39.2  0.4326  177.7
 5.800  0.8797  100.2   0.441   -2.3  0.2317   38.3  0.4404  176.6
 5.900  0.8792   99.3   0.433   -2.8  0.2355   37.5  0.4483  175.5
 6.000  0.8790   98.4   0.424   -3.3  0.2394   36.7  0.4564  174.5
!
!  f       NFmin   Gammaopt  rn/50
! GHz       dB    MAG  ANG    -
!
! noise parameter not available yet for this operation point!
!
! (c) 2017  Infineon Technologies AG, Munich