! Infineon Technologies  Discrete & RF Semiconductors
! BFP183W
! VCE =  7.0 V,  IC =  7.0 mA
! Common Emitter S-Parameters:                            Jan 2017
# GHz  S  MA  R  50
!  f         S11            S21            S12            S22
! GHz     MAG   ANG      MAG   ANG      MAG   ANG      MAG   ANG
 0.010  0.8064   -3.0  21.994  178.6  0.0019   85.2  0.9961   -1.7
 0.020  0.7866   -8.7  21.645  175.6  0.0034   88.8  0.9909   -3.5
 0.030  0.7825  -11.9  21.526  173.5  0.0056   83.5  0.9867   -5.1
 0.040  0.7809  -15.2  21.435  171.4  0.0077   81.2  0.9834   -6.8
 0.050  0.7818  -18.5  21.373  169.3  0.0099   79.9  0.9808   -8.4
 0.060  0.7749  -22.1  21.140  167.3  0.0117   78.2  0.9715   -9.9
 0.070  0.7710  -25.7  20.933  165.2  0.0135   77.0  0.9628  -11.5
 0.080  0.7703  -29.4  20.753  163.2  0.0153   76.0  0.9549  -13.1
 0.090  0.7727  -33.0  20.601  161.0  0.0172   75.3  0.9477  -14.7
 0.100  0.7782  -36.6  20.478  158.9  0.0190   74.7  0.9413  -16.3
 0.110  0.7684  -39.9  20.181  157.1  0.0206   72.3  0.9293  -17.6
 0.120  0.7612  -43.2  19.905  155.3  0.0222   70.2  0.9178  -19.0
 0.130  0.7567  -46.6  19.649  153.4  0.0238   68.4  0.9068  -20.4
 0.140  0.7548  -50.1  19.415  151.5  0.0254   66.8  0.8964  -21.8
 0.150  0.7557  -53.5  19.204  149.5  0.0271   65.4  0.8866  -23.3
 0.200  0.7425  -68.0  17.766  141.0  0.0329   59.4  0.8264  -29.0
 0.250  0.7227  -81.1  16.344  133.6  0.0387   52.5  0.7651  -33.6
 0.300  0.7046  -92.4  14.943  127.5  0.0422   48.1  0.7075  -37.4
 0.350  0.6862 -101.2  13.731  123.0  0.0447   45.2  0.6601  -39.8
 0.400  0.6845 -110.2  12.622  117.6  0.0474   42.6  0.6141  -42.6
 0.450  0.6714 -116.9  11.656  114.2  0.0491   40.3  0.5788  -44.1
 0.500  0.6676 -123.7  10.738  110.2  0.0509   38.2  0.5439  -45.7
 0.600  0.6588 -134.5   9.306  104.1  0.0536   35.9  0.4909  -47.6
 0.700  0.6516 -142.9   8.150   99.1  0.0547   34.8  0.4520  -48.9
 0.800  0.6480 -150.0   7.263   94.7  0.0568   34.4  0.4240  -49.8
 0.900  0.6432 -155.9   6.510   90.9  0.0582   33.6  0.4016  -50.7
 1.000  0.6429 -161.2   5.926   87.6  0.0593   33.5  0.3835  -51.5
 1.100  0.6444 -165.8   5.418   84.6  0.0607   34.6  0.3716  -52.2
 1.200  0.6433 -170.1   4.986   81.5  0.0618   34.5  0.3596  -53.0
 1.300  0.6419 -173.7   4.619   78.8  0.0631   35.2  0.3516  -53.9
 1.400  0.6456 -177.1   4.314   76.3  0.0644   36.3  0.3434  -55.0
 1.500  0.6491  179.7   4.035   73.8  0.0659   36.8  0.3372  -56.1
 1.600  0.6504  176.7   3.795   71.3  0.0676   37.4  0.3334  -57.2
 1.700  0.6520  173.7   3.584   69.1  0.0687   38.4  0.3281  -58.8
 1.800  0.6569  171.1   3.407   66.7  0.0707   39.3  0.3238  -60.2
 1.900  0.6597  168.5   3.230   64.7  0.0720   40.1  0.3203  -61.7
 2.000  0.6624  165.8   3.072   62.4  0.0742   40.5  0.3185  -63.3
 2.100  0.6652  163.3   2.935   60.3  0.0760   41.2  0.3160  -65.1
 2.200  0.6692  160.9   2.803   58.0  0.0779   41.9  0.3138  -67.0
 2.300  0.6729  158.7   2.688   56.0  0.0800   42.6  0.3128  -69.0
 2.400  0.6775  156.6   2.576   53.8  0.0822   43.2  0.3122  -71.0
 2.500  0.6802  154.5   2.474   51.9  0.0842   43.7  0.3113  -73.1
 2.600  0.6838  152.5   2.375   49.9  0.0862   44.1  0.3108  -75.2
 2.700  0.6874  150.4   2.290   48.1  0.0885   44.7  0.3110  -77.3
 2.800  0.6918  148.4   2.208   46.1  0.0909   45.3  0.3117  -79.4
 2.900  0.6948  146.5   2.134   44.2  0.0933   45.6  0.3109  -81.5
 3.000  0.6985  144.7   2.062   42.2  0.0957   45.8  0.3106  -83.6
 3.100  0.7016  142.9   1.999   40.6  0.0984   46.1  0.3108  -85.8
 3.200  0.7054  141.2   1.937   39.0  0.1011   46.4  0.3114  -88.1
 3.300  0.7098  139.5   1.877   37.2  0.1038   46.7  0.3126  -90.3
 3.400  0.7149  137.8   1.819   35.3  0.1065   47.0  0.3141  -92.5
 3.500  0.7206  136.1   1.763   33.3  0.1092   47.3  0.3162  -94.7
 3.600  0.7234  134.5   1.715   31.8  0.1122   47.3  0.3164  -97.1
 3.700  0.7267  133.0   1.669   30.1  0.1153   47.2  0.3172  -99.5
 3.800  0.7306  131.4   1.624   28.4  0.1183   47.2  0.3185 -101.9
 3.900  0.7350  129.9   1.581   26.6  0.1214   47.1  0.3204 -104.3
 4.000  0.7399  128.4   1.539   24.7  0.1244   47.1  0.3228 -106.6
 4.100  0.7428  127.0   1.500   23.2  0.1277   46.9  0.3239 -109.3
 4.200  0.7462  125.6   1.461   21.7  0.1309   46.7  0.3256 -112.0
 4.300  0.7500  124.3   1.424   20.0  0.1342   46.5  0.3281 -114.6
 4.400  0.7543  122.9   1.388   18.3  0.1374   46.4  0.3312 -117.2
 4.500  0.7589  121.6   1.353   16.5  0.1407   46.2  0.3350 -119.7
 4.600  0.7618  120.5   1.319   15.2  0.1442   45.9  0.3387 -122.4
 4.700  0.7650  119.4   1.286   13.9  0.1476   45.6  0.3431 -125.1
 4.800  0.7685  118.3   1.254   12.5  0.1511   45.4  0.3482 -127.7
 4.900  0.7723  117.2   1.223   11.0  0.1545   45.1  0.3540 -130.2
 5.000  0.7763  116.1   1.192    9.4  0.1580   44.9  0.3605 -132.6
 5.100  0.7789  115.1   1.167    8.2  0.1617   44.5  0.3676 -135.0
 5.200  0.7816  114.2   1.143    7.0  0.1654   44.0  0.3754 -137.3
 5.300  0.7846  113.2   1.119    5.7  0.1691   43.6  0.3837 -139.5
 5.400  0.7879  112.2   1.096    4.3  0.1728   43.3  0.3925 -141.6
 5.500  0.7913  111.3   1.073    2.9  0.1765   42.9  0.4019 -143.6
 5.600  0.7919  110.3   1.050    1.8  0.1803   42.3  0.4095 -145.4
 5.700  0.7927  109.4   1.028    0.7  0.1842   41.7  0.4174 -147.2
 5.800  0.7937  108.4   1.006   -0.5  0.1880   41.1  0.4257 -148.8
 5.900  0.7949  107.5   0.984   -1.7  0.1919   40.5  0.4344 -150.5
 6.000  0.7964  106.5   0.963   -3.0  0.1958   40.0  0.4434 -152.0
!
!  f       NFmin   Gammaopt  rn/50
! GHz       dB    MAG  ANG    -
 0.450      0.82  0.16   68   0.11
 0.900      0.91  0.21  112   0.10
 1.900      1.45  0.39  172   0.07
 2.400      1.71  0.45 -173   0.09
!
! (c) 2017  Infineon Technologies AG, Munich