! Infineon Technologies  Discrete & RF Semiconductors
! BFP183W
! VCE =  11. V,  IC =  22 mA
! Common Emitter S-Parameters:                            Jan 2017
# GHz  S  MA  R  50
!  f         S11            S21            S12            S22
! GHz     MAG   ANG      MAG   ANG      MAG   ANG      MAG   ANG
 0.010  0.5811   -6.3  47.282  175.9  0.0013   67.0  0.9717   -2.9
 0.020  0.5729  -16.0  46.191  171.8  0.0028   89.5  0.9583   -6.2
 0.030  0.5653  -22.8  45.365  168.4  0.0048   80.0  0.9462   -9.2
 0.040  0.5658  -29.7  44.700  165.0  0.0068   76.0  0.9366  -12.2
 0.050  0.5745  -36.5  44.204  161.4  0.0088   73.9  0.9298  -15.3
 0.060  0.5629  -42.6  42.934  158.6  0.0099   70.8  0.9063  -17.6
 0.070  0.5579  -48.9  41.772  155.7  0.0111   68.4  0.8842  -20.0
 0.080  0.5596  -55.2  40.726  152.6  0.0122   66.4  0.8638  -22.5
 0.090  0.5681  -61.4  39.806  149.3  0.0134   64.8  0.8452  -25.1
 0.100  0.5829  -67.3  39.021  145.9  0.0146   63.4  0.8284  -27.9
 0.110  0.5757  -72.1  37.791  143.8  0.0154   61.7  0.8043  -29.5
 0.120  0.5727  -76.9  36.616  141.5  0.0163   60.2  0.7809  -31.2
 0.130  0.5737  -81.8  35.502  139.1  0.0172   58.8  0.7582  -33.0
 0.140  0.5788  -86.6  34.453  136.6  0.0180   57.5  0.7364  -35.0
 0.150  0.5880  -91.3  33.476  133.9  0.0189   56.4  0.7154  -37.0
 0.200  0.5930 -108.0  28.557  124.7  0.0216   51.4  0.6207  -42.9
 0.250  0.5948 -121.2  24.628  117.7  0.0239   47.8  0.5444  -46.8
 0.300  0.5954 -130.9  21.429  112.5  0.0253   46.1  0.4835  -49.3
 0.350  0.5949 -137.8  19.147  109.0  0.0268   46.0  0.4416  -50.5
 0.400  0.6030 -144.6  16.954  104.6  0.0283   46.0  0.3999  -51.9
 0.450  0.5998 -149.2  15.397  102.1  0.0295   46.3  0.3739  -52.4
 0.500  0.6004 -153.8  13.876   99.1  0.0307   46.6  0.3480  -53.0
 0.600  0.6042 -160.8  11.755   94.7  0.0334   47.4  0.3120  -53.3
 0.700  0.6070 -166.3  10.143   91.1  0.0353   49.6  0.2873  -53.2
 0.800  0.6094 -171.0   8.938   87.8  0.0386   51.3  0.2711  -53.4
 0.900  0.6065 -175.1   7.952   84.9  0.0409   52.1  0.2584  -53.7
 1.000  0.6098 -178.4   7.201   82.4  0.0436   53.3  0.2483  -54.0
 1.100  0.6116  178.5   6.560   80.0  0.0465   54.6  0.2425  -54.3
 1.200  0.6131  175.4   6.020   77.5  0.0492   55.0  0.2362  -55.0
 1.300  0.6126  172.8   5.562   75.4  0.0524   55.5  0.2319  -55.8
 1.400  0.6160  170.3   5.186   73.2  0.0557   56.3  0.2277  -57.0
 1.500  0.6205  168.1   4.838   71.2  0.0581   56.8  0.2246  -58.1
 1.600  0.6229  165.7   4.547   69.1  0.0615   57.4  0.2233  -59.3
 1.700  0.6245  163.4   4.290   67.2  0.0645   58.0  0.2206  -61.0
 1.800  0.6288  161.4   4.069   65.2  0.0679   57.9  0.2186  -62.6
 1.900  0.6317  159.4   3.855   63.4  0.0710   58.0  0.2170  -64.3
 2.000  0.6349  157.3   3.660   61.3  0.0742   57.9  0.2164  -66.2
 2.100  0.6379  155.3   3.496   59.5  0.0773   57.8  0.2151  -68.3
 2.200  0.6417  153.3   3.335   57.5  0.0805   57.8  0.2142  -70.5
 2.300  0.6453  151.5   3.197   55.7  0.0839   57.7  0.2140  -72.8
 2.400  0.6496  149.7   3.062   53.8  0.0873   57.6  0.2141  -75.2
 2.500  0.6529  148.0   2.941   52.1  0.0904   57.3  0.2142  -77.6
 2.600  0.6568  146.3   2.822   50.3  0.0936   57.0  0.2147  -80.0
 2.700  0.6611  144.6   2.720   48.7  0.0968   56.7  0.2154  -82.5
 2.800  0.6659  143.0   2.620   46.9  0.1001   56.5  0.2164  -84.9
 2.900  0.6696  141.4   2.531   45.2  0.1033   56.0  0.2168  -87.4
 3.000  0.6738  139.8   2.445   43.4  0.1065   55.6  0.2177  -89.9
 3.100  0.6770  138.3   2.371   42.0  0.1098   55.2  0.2182  -92.4
 3.200  0.6807  136.7   2.298   40.4  0.1131   54.9  0.2192  -94.8
 3.300  0.6849  135.2   2.228   38.8  0.1164   54.6  0.2205  -97.3
 3.400  0.6896  133.8   2.159   37.1  0.1198   54.3  0.2222  -99.6
 3.500  0.6947  132.3   2.092   35.2  0.1231   54.0  0.2243 -102.0
 3.600  0.6980  130.9   2.036   33.8  0.1264   53.4  0.2250 -104.7
 3.700  0.7017  129.5   1.981   32.3  0.1297   52.8  0.2262 -107.3
 3.800  0.7058  128.1   1.928   30.7  0.1330   52.2  0.2279 -110.0
 3.900  0.7104  126.7   1.877   29.0  0.1363   51.7  0.2300 -112.6
 4.000  0.7153  125.4   1.827   27.2  0.1396   51.2  0.2326 -115.1
 4.100  0.7183  124.1   1.781   25.8  0.1428   50.5  0.2344 -118.0
 4.200  0.7216  122.9   1.737   24.4  0.1461   49.9  0.2367 -120.9
 4.300  0.7253  121.6   1.693   22.8  0.1493   49.3  0.2396 -123.6
 4.400  0.7293  120.4   1.651   21.2  0.1526   48.7  0.2431 -126.4
 4.500  0.7336  119.2   1.610   19.5  0.1559   48.2  0.2471 -129.0
 4.600  0.7370  118.2   1.571   18.3  0.1591   47.6  0.2515 -131.8
 4.700  0.7406  117.2   1.534   17.0  0.1623   47.1  0.2565 -134.5
 4.800  0.7444  116.2   1.496   15.7  0.1656   46.5  0.2621 -137.1
 4.900  0.7484  115.3   1.460   14.3  0.1688   46.0  0.2682 -139.5
 5.000  0.7527  114.3   1.425   12.8  0.1721   45.5  0.2747 -141.9
 5.100  0.7553  113.4   1.397   11.6  0.1755   44.9  0.2823 -144.1
 5.200  0.7581  112.5   1.369   10.4  0.1790   44.3  0.2903 -146.2
 5.300  0.7611  111.6   1.343    9.2  0.1824   43.8  0.2987 -148.2
 5.400  0.7642  110.7   1.316    7.9  0.1859   43.2  0.3074 -150.1
 5.500  0.7676  109.8   1.291    6.5  0.1894   42.7  0.3164 -151.9
 5.600  0.7688  108.9   1.265    5.4  0.1929   41.9  0.3240 -153.4
 5.700  0.7702  108.0   1.240    4.2  0.1965   41.2  0.3317 -154.9
 5.800  0.7718  107.1   1.216    3.0  0.2001   40.5  0.3397 -156.2
 5.900  0.7735  106.2   1.191    1.8  0.2037   39.9  0.3479 -157.5
 6.000  0.7755  105.3   1.168    0.5  0.2073   39.2  0.3562 -158.8
!
!  f       NFmin   Gammaopt  rn/50
! GHz       dB    MAG  ANG    -
 0.450      1.22  0.22  174   0.10
 0.900      1.25  0.26  177   0.09
 1.900      1.73  0.41 -161   0.09
 2.400      1.96  0.46 -155   0.12
!
! (c) 2017  Infineon Technologies AG, Munich