! Infineon Technologies  Discrete & RF Semiconductors
! BFP183W
! VCE =  2.0 V,  IC =  22 mA
! Common Emitter S-Parameters:                            Jan 2017
# GHz  S  MA  R  50
!  f         S11            S21            S12            S22
! GHz     MAG   ANG      MAG   ANG      MAG   ANG      MAG   ANG
 0.010  0.4687  -11.1  49.973  176.0  0.0018   89.3  0.9741   -4.3
 0.020  0.4661  -24.4  49.147  170.5  0.0038   80.9  0.9573   -8.8
 0.030  0.4607  -34.5  47.822  166.2  0.0058   75.2  0.9351  -12.8
 0.040  0.4697  -44.5  46.777  161.8  0.0078   72.4  0.9177  -17.0
 0.050  0.4923  -53.9  46.029  157.1  0.0098   70.8  0.9053  -21.3
 0.060  0.4861  -61.9  44.198  154.0  0.0111   67.4  0.8710  -24.1
 0.070  0.4895  -69.8  42.509  150.6  0.0124   64.7  0.8389  -27.1
 0.080  0.5021  -77.6  40.979  147.0  0.0137   62.6  0.8092  -30.3
 0.090  0.5234  -84.8  39.627  143.1  0.0150   60.8  0.7824  -33.8
 0.100  0.5523  -91.4  38.471  138.9  0.0164   59.3  0.7586  -37.5
 0.110  0.5530  -96.3  36.920  136.8  0.0172   57.3  0.7294  -39.3
 0.120  0.5578 -101.2  35.423  134.5  0.0180   55.4  0.7009  -41.2
 0.130  0.5665 -106.0  33.985  132.1  0.0188   53.7  0.6733  -43.3
 0.140  0.5791 -110.5  32.617  129.4  0.0196   52.1  0.6467  -45.6
 0.150  0.5951 -114.9  31.325  126.5  0.0205   50.7  0.6212  -48.1
 0.200  0.6196 -129.7  25.789  117.7  0.0222   47.0  0.5182  -54.7
 0.250  0.6352 -140.2  21.717  111.2  0.0241   44.0  0.4423  -59.0
 0.300  0.6442 -148.0  18.619  106.6  0.0256   44.1  0.3846  -61.9
 0.350  0.6474 -153.2  16.511  103.6  0.0272   44.9  0.3468  -63.5
 0.400  0.6558 -158.3  14.463   99.7  0.0289   45.7  0.3093  -65.4
 0.450  0.6556 -161.8  13.083   97.5  0.0301   46.3  0.2865  -66.2
 0.500  0.6577 -165.2  11.727   94.8  0.0313   46.9  0.2638  -67.2
 0.600  0.6627 -170.5   9.871   90.8  0.0340   48.8  0.2337  -68.4
 0.700  0.6651 -174.8   8.490   87.6  0.0370   51.0  0.2117  -69.1
 0.800  0.6681 -178.5   7.464   84.5  0.0398   52.7  0.1985  -69.9
 0.900  0.6662  178.3   6.630   81.8  0.0429   54.1  0.1875  -70.9
 1.000  0.6708  175.6   5.997   79.4  0.0459   55.2  0.1794  -71.7
 1.100  0.6734  173.0   5.460   77.1  0.0493   56.0  0.1749  -72.5
 1.200  0.6740  170.4   5.008   74.6  0.0527   56.3  0.1706  -73.7
 1.300  0.6753  168.1   4.625   72.5  0.0556   56.8  0.1675  -75.0
 1.400  0.6775  165.9   4.311   70.4  0.0597   58.2  0.1644  -76.5
 1.500  0.6813  163.9   4.022   68.4  0.0628   58.2  0.1621  -78.3
 1.600  0.6842  161.8   3.781   66.2  0.0666   58.1  0.1619  -79.8
 1.700  0.6848  159.5   3.565   64.3  0.0700   58.7  0.1607  -82.2
 1.800  0.6895  157.8   3.382   62.2  0.0736   58.4  0.1604  -84.4
 1.900  0.6936  156.0   3.204   60.4  0.0769   58.5  0.1606  -86.6
 2.000  0.6949  154.0   3.041   58.3  0.0808   58.3  0.1613  -89.0
 2.100  0.6972  152.1   2.904   56.4  0.0843   58.0  0.1621  -91.6
 2.200  0.7003  150.2   2.771   54.4  0.0878   57.8  0.1632  -94.2
 2.300  0.7045  148.5   2.656   52.6  0.0914   57.4  0.1651  -96.9
 2.400  0.7094  146.8   2.543   50.6  0.0951   57.0  0.1674  -99.6
 2.500  0.7114  145.2   2.442   48.9  0.0985   56.7  0.1697 -102.3
 2.600  0.7139  143.6   2.344   47.1  0.1020   56.5  0.1723 -105.0
 2.700  0.7177  142.0   2.258   45.4  0.1054   56.1  0.1754 -107.6
 2.800  0.7220  140.4   2.175   43.6  0.1088   55.7  0.1788 -110.1
 2.900  0.7248  138.8   2.100   41.9  0.1123   55.1  0.1812 -112.8
 3.000  0.7282  137.3   2.028   40.0  0.1158   54.5  0.1841 -115.5
 3.100  0.7310  135.8   1.966   38.5  0.1193   54.0  0.1869 -118.1
 3.200  0.7343  134.3   1.906   37.0  0.1228   53.6  0.1901 -120.6
 3.300  0.7381  132.8   1.847   35.3  0.1263   53.2  0.1936 -123.0
 3.400  0.7423  131.3   1.790   33.6  0.1298   52.8  0.1974 -125.3
 3.500  0.7471  129.9   1.734   31.7  0.1333   52.4  0.2016 -127.5
 3.600  0.7497  128.5   1.687   30.3  0.1367   51.7  0.2049 -130.2
 3.700  0.7527  127.1   1.641   28.8  0.1402   51.1  0.2087 -132.7
 3.800  0.7561  125.8   1.597   27.2  0.1437   50.4  0.2128 -135.2
 3.900  0.7599  124.4   1.554   25.5  0.1472   49.9  0.2174 -137.6
 4.000  0.7642  123.1   1.512   23.7  0.1507   49.3  0.2223 -139.9
 4.100  0.7665  121.9   1.474   22.3  0.1540   48.6  0.2268 -142.6
 4.200  0.7691  120.7   1.436   20.9  0.1573   47.9  0.2318 -145.2
 4.300  0.7721  119.5   1.400   19.4  0.1607   47.2  0.2372 -147.6
 4.400  0.7754  118.3   1.364   17.8  0.1640   46.5  0.2431 -150.0
 4.500  0.7791  117.1   1.330   16.1  0.1674   45.9  0.2493 -152.2
 4.600  0.7817  116.1   1.298   14.9  0.1707   45.3  0.2560 -154.5
 4.700  0.7846  115.1   1.267   13.7  0.1740   44.7  0.2631 -156.7
 4.800  0.7877  114.1   1.236   12.3  0.1774   44.2  0.2706 -158.7
 4.900  0.7910  113.2   1.206   11.0  0.1807   43.6  0.2784 -160.7
 5.000  0.7946  112.2   1.177    9.5  0.1841   43.1  0.2865 -162.5
 5.100  0.7965  111.3   1.154    8.4  0.1875   42.4  0.2953 -164.2
 5.200  0.7986  110.5   1.131    7.2  0.1909   41.8  0.3043 -165.7
 5.300  0.8009  109.6   1.108    6.0  0.1943   41.1  0.3135 -167.2
 5.400  0.8034  108.7   1.086    4.8  0.1978   40.5  0.3229 -168.6
 5.500  0.8060  107.9   1.065    3.5  0.2013   39.9  0.3325 -169.9
 5.600  0.8064  107.0   1.044    2.5  0.2048   39.1  0.3399 -171.0
 5.700  0.8070  106.1   1.023    1.4  0.2083   38.4  0.3475 -172.1
 5.800  0.8078  105.2   1.003    0.3  0.2118   37.7  0.3552 -173.1
 5.900  0.8088  104.3   0.983   -0.9  0.2154   37.0  0.3629 -174.1
 6.000  0.8100  103.4   0.964   -2.1  0.2190   36.3  0.3708 -175.0
!
!  f       NFmin   Gammaopt  rn/50
! GHz       dB    MAG  ANG    -
 0.450      1.22  0.22  174   0.10
 0.900      1.25  0.26  177   0.09
 1.900      1.73  0.41 -161   0.09
 2.400      1.96  0.46 -155   0.12
!
! (c) 2017  Infineon Technologies AG, Munich