! Infineon Technologies  Discrete & RF Semiconductors
! BFP183W
! VCE =  6.0 V,  IC =  7.0 mA
! Common Emitter S-Parameters:                            Jan 2017
# GHz  S  MA  R  50
!  f         S11            S21            S12            S22
! GHz     MAG   ANG      MAG   ANG      MAG   ANG      MAG   ANG
 0.010  0.8022   -3.0  22.061  178.6  0.0018   93.3  0.9966   -1.8
 0.020  0.7913   -8.9  21.966  175.5  0.0038   89.8  0.9850   -3.5
 0.030  0.7840  -12.2  21.763  173.4  0.0061   83.5  0.9826   -5.2
 0.040  0.7794  -15.5  21.589  171.3  0.0084   80.7  0.9811   -6.9
 0.050  0.7774  -18.9  21.444  169.2  0.0108   79.1  0.9805   -8.6
 0.060  0.7708  -22.5  21.201  167.2  0.0125   77.4  0.9707  -10.2
 0.070  0.7673  -26.2  20.986  165.1  0.0143   76.0  0.9616  -11.8
 0.080  0.7669  -29.8  20.799  163.0  0.0161   75.0  0.9533  -13.4
 0.090  0.7696  -33.5  20.641  160.8  0.0178   74.2  0.9457  -15.0
 0.100  0.7755  -37.1  20.513  158.6  0.0196   73.5  0.9390  -16.7
 0.110  0.7658  -40.4  20.211  156.8  0.0212   71.1  0.9268  -18.1
 0.120  0.7588  -43.9  19.930  154.9  0.0228   69.0  0.9151  -19.4
 0.130  0.7545  -47.3  19.671  153.0  0.0244   67.2  0.9040  -20.9
 0.140  0.7530  -50.8  19.433  151.1  0.0260   65.7  0.8934  -22.3
 0.150  0.7543  -54.3  19.219  149.1  0.0277   64.3  0.8834  -23.8
 0.200  0.7391  -68.9  17.736  140.6  0.0335   58.5  0.8223  -29.6
 0.250  0.7233  -82.2  16.299  133.1  0.0389   52.7  0.7599  -34.3
 0.300  0.7027  -93.6  14.878  127.0  0.0425   47.3  0.7014  -38.1
 0.350  0.6854 -102.3  13.665  122.5  0.0451   44.4  0.6536  -40.5
 0.400  0.6847 -111.3  12.551  117.2  0.0478   41.8  0.6072  -43.3
 0.450  0.6723 -118.0  11.581  113.8  0.0494   39.7  0.5718  -44.8
 0.500  0.6695 -124.9  10.659  109.8  0.0511   37.7  0.5368  -46.4
 0.600  0.6590 -135.4   9.228  103.7  0.0539   35.7  0.4840  -48.5
 0.700  0.6520 -143.9   8.073   98.8  0.0551   34.4  0.4446  -49.7
 0.800  0.6503 -150.8   7.194   94.4  0.0566   34.4  0.4170  -50.7
 0.900  0.6453 -156.8   6.448   90.6  0.0587   33.4  0.3950  -51.6
 1.000  0.6464 -161.8   5.865   87.3  0.0596   33.7  0.3769  -52.3
 1.100  0.6456 -166.3   5.363   84.3  0.0608   34.1  0.3643  -53.0
 1.200  0.6454 -170.6   4.934   81.3  0.0626   34.5  0.3529  -53.9
 1.300  0.6448 -174.2   4.572   78.6  0.0630   35.1  0.3447  -54.8
 1.400  0.6481 -177.5   4.270   76.0  0.0648   36.0  0.3370  -55.9
 1.500  0.6517  179.2   3.993   73.6  0.0664   36.4  0.3306  -57.1
 1.600  0.6533  176.2   3.756   71.1  0.0680   37.4  0.3269  -58.1
 1.700  0.6556  173.3   3.547   68.8  0.0697   38.3  0.3219  -59.7
 1.800  0.6591  170.5   3.370   66.5  0.0717   39.0  0.3179  -61.2
 1.900  0.6633  168.0   3.195   64.5  0.0726   39.7  0.3144  -62.7
 2.000  0.6647  165.5   3.039   62.1  0.0746   40.4  0.3121  -64.4
 2.100  0.6673  163.0   2.904   60.0  0.0767   41.1  0.3098  -66.2
 2.200  0.6711  160.6   2.773   57.7  0.0788   41.7  0.3079  -68.0
 2.300  0.6750  158.3   2.659   55.7  0.0807   42.5  0.3068  -70.0
 2.400  0.6799  156.1   2.548   53.6  0.0827   43.2  0.3060  -72.1
 2.500  0.6835  154.1   2.448   51.7  0.0848   43.7  0.3054  -74.2
 2.600  0.6879  152.2   2.351   49.7  0.0870   44.1  0.3052  -76.4
 2.700  0.6912  150.2   2.267   47.8  0.0894   44.7  0.3054  -78.5
 2.800  0.6953  148.2   2.185   45.8  0.0918   45.2  0.3060  -80.6
 2.900  0.6980  146.3   2.111   43.9  0.0943   45.4  0.3056  -82.7
 3.000  0.7014  144.5   2.040   41.9  0.0969   45.5  0.3056  -84.9
 3.100  0.7044  142.7   1.978   40.3  0.0996   45.9  0.3058  -87.2
 3.200  0.7080  141.0   1.917   38.7  0.1023   46.2  0.3064  -89.4
 3.300  0.7123  139.3   1.857   36.9  0.1049   46.5  0.3075  -91.7
 3.400  0.7172  137.6   1.800   35.0  0.1076   46.8  0.3091  -93.9
 3.500  0.7227  135.9   1.745   33.0  0.1103   47.1  0.3112  -96.1
 3.600  0.7258  134.3   1.698   31.5  0.1133   47.0  0.3116  -98.5
 3.700  0.7295  132.8   1.652   29.9  0.1164   46.9  0.3126 -101.0
 3.800  0.7337  131.2   1.607   28.2  0.1194   46.8  0.3141 -103.4
 3.900  0.7385  129.7   1.564   26.4  0.1225   46.8  0.3162 -105.8
 4.000  0.7437  128.2   1.522   24.5  0.1255   46.7  0.3188 -108.1
 4.100  0.7462  126.8   1.483   23.0  0.1287   46.5  0.3200 -110.8
 4.200  0.7491  125.4   1.445   21.5  0.1320   46.3  0.3220 -113.5
 4.300  0.7525  124.1   1.409   19.8  0.1352   46.1  0.3246 -116.2
 4.400  0.7562  122.7   1.373   18.1  0.1385   45.9  0.3279 -118.8
 4.500  0.7604  121.4   1.339   16.3  0.1417   45.7  0.3319 -121.3
 4.600  0.7634  120.3   1.305   15.0  0.1451   45.4  0.3358 -124.0
 4.700  0.7667  119.2   1.272   13.7  0.1485   45.1  0.3404 -126.7
 4.800  0.7704  118.1   1.240   12.3  0.1520   44.9  0.3458 -129.2
 4.900  0.7742  117.0   1.209   10.8  0.1554   44.6  0.3518 -131.7
 5.000  0.7784  115.9   1.178    9.2  0.1588   44.4  0.3584 -134.1
 5.100  0.7806  114.9   1.153    8.0  0.1624   44.0  0.3656 -136.5
 5.200  0.7830  114.0   1.129    6.8  0.1661   43.6  0.3734 -138.7
 5.300  0.7856  113.0   1.105    5.5  0.1698   43.3  0.3817 -140.9
 5.400  0.7884  112.0   1.082    4.1  0.1734   42.9  0.3906 -143.0
 5.500  0.7915  111.1   1.060    2.7  0.1771   42.6  0.4000 -145.0
 5.600  0.7922  110.2   1.038    1.6  0.1810   41.9  0.4076 -146.8
 5.700  0.7930  109.2   1.016    0.5  0.1848   41.3  0.4156 -148.5
 5.800  0.7941  108.3   0.994   -0.7  0.1887   40.7  0.4240 -150.1
 5.900  0.7954  107.3   0.973   -2.0  0.1927   40.2  0.4327 -151.7
 6.000  0.7969  106.4   0.953   -3.3  0.1966   39.6  0.4417 -153.2
!
!  f       NFmin   Gammaopt  rn/50
! GHz       dB    MAG  ANG    -
 0.450      0.82  0.16   68   0.11
 0.900      0.91  0.21  112   0.10
 1.900      1.45  0.39  172   0.07
 2.400      1.71  0.45 -173   0.09
!
! (c) 2017  Infineon Technologies AG, Munich