! Infineon Technologies  Discrete & RF Semiconductors
! BFP183W
! VCE =  1.0 V,  IC =  28 mA
! Common Emitter S-Parameters:                            Jan 2017
# GHz  S  MA  R  50
!  f         S11            S21            S12            S22
! GHz     MAG   ANG      MAG   ANG      MAG   ANG      MAG   ANG
 0.010  0.3652  -25.4  51.622  172.5  0.0026   83.5  0.8771   -8.0
 0.020  0.3945  -49.9  49.984  163.9  0.0054   82.5  0.8459  -16.1
 0.030  0.4067  -67.5  46.725  158.0  0.0078   70.3  0.7941  -22.1
 0.040  0.4534  -82.8  44.034  151.3  0.0104   63.9  0.7522  -28.9
 0.050  0.5256  -94.6  42.020  143.8  0.0130   60.1  0.7218  -36.3
 0.060  0.5334 -102.9  39.185  140.8  0.0140   56.3  0.6742  -39.3
 0.070  0.5519 -110.7  36.479  137.2  0.0150   53.0  0.6286  -42.7
 0.080  0.5800 -117.9  33.930  133.2  0.0161   50.2  0.5856  -46.6
 0.090  0.6164 -124.4  31.579  128.5  0.0172   47.7  0.5458  -51.1
 0.100  0.6597 -130.1  29.472  123.1  0.0184   45.5  0.5099  -56.3
 0.110  0.6660 -133.5  27.849  121.4  0.0189   43.9  0.4829  -57.9
 0.120  0.6746 -136.8  26.254  119.5  0.0194   42.5  0.4563  -59.7
 0.130  0.6854 -140.1  24.690  117.4  0.0200   41.1  0.4302  -61.7
 0.140  0.6984 -143.2  23.166  115.0  0.0205   39.8  0.4047  -64.0
 0.150  0.7133 -146.2  21.689  112.2  0.0211   38.5  0.3799  -66.6
 0.200  0.7334 -155.7  16.888  105.2  0.0218   37.9  0.3026  -72.7
 0.250  0.7470 -162.0  13.767  100.3  0.0236   38.3  0.2521  -76.5
 0.300  0.7513 -166.4  11.588   96.9  0.0245   39.2  0.2176  -79.5
 0.350  0.7539 -169.6  10.188   94.6  0.0259   41.8  0.1964  -81.2
 0.400  0.7588 -172.8   8.810   91.6  0.0273   44.2  0.1754  -83.3
 0.450  0.7588 -175.0   7.934   89.9  0.0288   45.6  0.1641  -84.6
 0.500  0.7600 -177.2   7.068   87.7  0.0303   46.8  0.1529  -86.0
 0.600  0.7630  179.4   5.918   84.4  0.0337   50.1  0.1382  -88.7
 0.700  0.7641  176.6   5.072   81.6  0.0361   53.3  0.1290  -90.3
 0.800  0.7643  173.7   4.449   78.6  0.0409   55.4  0.1253  -92.0
 0.900  0.7643  171.3   3.948   76.1  0.0435   55.9  0.1226  -94.0
 1.000  0.7656  169.1   3.571   73.7  0.0477   57.0  0.1202  -95.8
 1.100  0.7685  166.9   3.249   71.5  0.0510   58.3  0.1215  -97.3
 1.200  0.7681  164.7   2.979   69.0  0.0545   58.6  0.1212  -99.1
 1.300  0.7681  162.8   2.751   66.8  0.0585   59.2  0.1228 -101.0
 1.400  0.7709  160.8   2.567   64.6  0.0628   59.6  0.1238 -103.4
 1.500  0.7756  159.2   2.394   62.5  0.0666   59.9  0.1260 -105.4
 1.600  0.7781  157.2   2.251   60.3  0.0705   59.8  0.1288 -107.5
 1.700  0.7781  155.3   2.126   58.2  0.0741   60.0  0.1318 -110.1
 1.800  0.7837  153.4   2.016   56.0  0.0785   59.8  0.1351 -112.7
 1.900  0.7839  151.8   1.911   54.1  0.0823   60.0  0.1390 -114.8
 2.000  0.7870  149.9   1.812   51.9  0.0863   59.5  0.1437 -117.2
 2.100  0.7884  148.1   1.730   49.9  0.0901   59.1  0.1480 -119.8
 2.200  0.7905  146.3   1.651   47.7  0.0939   58.7  0.1525 -122.3
 2.300  0.7932  144.6   1.583   45.8  0.0981   58.3  0.1576 -124.7
 2.400  0.7966  143.0   1.516   43.8  0.1023   58.0  0.1630 -127.0
 2.500  0.7980  141.4   1.456   42.0  0.1059   57.5  0.1687 -129.4
 2.600  0.8000  139.9   1.398   40.0  0.1096   57.0  0.1747 -131.6
 2.700  0.8026  138.3   1.347   38.3  0.1135   56.5  0.1806 -133.7
 2.800  0.8058  136.8   1.298   36.4  0.1174   56.0  0.1868 -135.7
 2.900  0.8075  135.2   1.253   34.6  0.1211   55.3  0.1926 -137.9
 3.000  0.8099  133.6   1.209   32.7  0.1248   54.6  0.1987 -140.0
 3.100  0.8117  132.1   1.173   31.2  0.1286   54.0  0.2042 -142.2
 3.200  0.8140  130.7   1.137   29.7  0.1324   53.4  0.2099 -144.3
 3.300  0.8168  129.2   1.102   28.0  0.1362   52.9  0.2160 -146.2
 3.400  0.8201  127.8   1.069   26.3  0.1400   52.4  0.2222 -148.1
 3.500  0.8239  126.4   1.036   24.4  0.1438   51.9  0.2287 -149.8
 3.600  0.8253  125.0   1.008   23.0  0.1475   51.1  0.2346 -152.0
 3.700  0.8271  123.7   0.980   21.5  0.1512   50.4  0.2409 -154.2
 3.800  0.8294  122.4   0.953   20.0  0.1549   49.6  0.2474 -156.2
 3.900  0.8321  121.0   0.927   18.3  0.1587   49.0  0.2543 -158.1
 4.000  0.8353  119.7   0.902   16.6  0.1625   48.3  0.2614 -159.9
 4.100  0.8359  118.5   0.879   15.3  0.1660   47.5  0.2683 -162.1
 4.200  0.8368  117.2   0.857   13.9  0.1696   46.7  0.2756 -164.2
 4.300  0.8382  116.0   0.835   12.5  0.1732   46.0  0.2833 -166.2
 4.400  0.8399  114.8   0.814   11.0  0.1768   45.3  0.2913 -168.1
 4.500  0.8420  113.6   0.793    9.4  0.1805   44.6  0.2996 -169.9
 4.600  0.8433  112.6   0.774    8.4  0.1840   43.9  0.3079 -171.7
 4.700  0.8448  111.7   0.755    7.4  0.1875   43.2  0.3165 -173.4
 4.800  0.8466  110.7   0.736    6.3  0.1910   42.5  0.3254 -175.0
 4.900  0.8486  109.8   0.717    5.1  0.1946   41.8  0.3345 -176.6
 5.000  0.8508  108.8   0.699    3.9  0.1982   41.2  0.3438 -178.0
 5.100  0.8516  107.9   0.686    3.0  0.2018   40.5  0.3532 -179.3
 5.200  0.8526  107.1   0.673    2.1  0.2054   39.8  0.3628  179.5
 5.300  0.8538  106.2   0.661    1.1  0.2090   39.1  0.3726  178.3
 5.400  0.8552  105.4   0.648    0.1  0.2127   38.4  0.3825  177.2
 5.500  0.8568  104.5   0.636   -1.0  0.2164   37.8  0.3926  176.1
 5.600  0.8565  103.6   0.623   -1.8  0.2198   37.0  0.3999  175.2
 5.700  0.8564  102.7   0.611   -2.6  0.2232   36.2  0.4074  174.2
 5.800  0.8566  101.8   0.598   -3.5  0.2267   35.4  0.4149  173.4
 5.900  0.8569  100.9   0.586   -4.4  0.2302   34.7  0.4226  172.5
 6.000  0.8575  100.0   0.574   -5.3  0.2338   34.0  0.4303  171.7
!
!  f       NFmin   Gammaopt  rn/50
! GHz       dB    MAG  ANG    -
 0.450      1.35  0.26  179   0.09
 0.900      1.38  0.29 -179   0.10
 1.900      1.87  0.44 -157   0.10
 2.400      2.12  0.49 -152   0.14
!
! (c) 2017  Infineon Technologies AG, Munich