! Infineon Technologies  Discrete & RF Semiconductors
! BFP183W
! VCE =  3.0 V,  IC =  28 mA
! Common Emitter S-Parameters:                            Jan 2017
# GHz  S  MA  R  50
!  f         S11            S21            S12            S22
! GHz     MAG   ANG      MAG   ANG      MAG   ANG      MAG   ANG
 0.010  0.3988  -12.8  56.571  175.5  0.0014   81.3  0.9696   -4.3
 0.020  0.4000  -28.1  55.913  169.7  0.0034   89.2  0.9576   -9.1
 0.030  0.3990  -39.8  54.126  165.3  0.0050   78.3  0.9312  -13.2
 0.040  0.4142  -51.0  52.686  160.5  0.0066   72.6  0.9097  -17.5
 0.050  0.4439  -61.1  51.621  155.6  0.0083   69.3  0.8937  -22.0
 0.060  0.4423  -69.5  49.384  152.5  0.0094   66.1  0.8576  -24.7
 0.070  0.4502  -77.8  47.309  149.1  0.0106   63.6  0.8236  -27.7
 0.080  0.4671  -85.6  45.417  145.3  0.0117   61.6  0.7921  -30.9
 0.090  0.4920  -92.8  43.732  141.3  0.0129   60.0  0.7632  -34.4
 0.100  0.5239  -99.2  42.278  137.0  0.0141   58.6  0.7373  -38.1
 0.110  0.5277 -104.0  40.488  135.0  0.0147   56.5  0.7078  -39.8
 0.120  0.5352 -108.7  38.755  132.7  0.0153   54.5  0.6789  -41.6
 0.130  0.5461 -113.2  37.086  130.3  0.0160   52.7  0.6507  -43.5
 0.140  0.5603 -117.5  35.491  127.6  0.0166   51.0  0.6234  -45.7
 0.150  0.5775 -121.6  33.980  124.7  0.0173   49.5  0.5970  -48.0
 0.200  0.6043 -135.4  27.718  116.0  0.0191   47.8  0.4949  -53.8
 0.250  0.6216 -145.1  23.230  109.8  0.0210   46.4  0.4220  -57.4
 0.300  0.6328 -152.0  19.846  105.4  0.0226   46.2  0.3677  -59.5
 0.350  0.6360 -156.7  17.570  102.5  0.0236   47.1  0.3326  -60.5
 0.400  0.6435 -161.4  15.353   98.7  0.0247   48.0  0.2976  -61.7
 0.450  0.6440 -164.6  13.876   96.6  0.0263   49.3  0.2765  -62.1
 0.500  0.6465 -167.8  12.422   94.1  0.0280   50.5  0.2555  -62.6
 0.600  0.6526 -172.7  10.456   90.3  0.0310   52.7  0.2275  -63.2
 0.700  0.6545 -176.6   8.990   87.2  0.0334   55.8  0.2090  -63.3
 0.800  0.6569  179.9   7.899   84.2  0.0372   57.8  0.1976  -63.7
 0.900  0.6569  177.0   7.016   81.6  0.0402   58.2  0.1879  -64.3
 1.000  0.6615  174.3   6.345   79.2  0.0435   59.5  0.1804  -64.9
 1.100  0.6625  171.8   5.775   77.0  0.0471   60.3  0.1770  -65.7
 1.200  0.6644  169.3   5.295   74.7  0.0498   60.0  0.1725  -66.6
 1.300  0.6648  167.1   4.891   72.6  0.0535   60.5  0.1707  -67.9
 1.400  0.6667  165.0   4.558   70.5  0.0576   61.3  0.1677  -69.3
 1.500  0.6708  163.3   4.250   68.6  0.0609   61.3  0.1660  -70.9
 1.600  0.6741  161.1   3.994   66.5  0.0647   61.2  0.1657  -72.6
 1.700  0.6756  159.1   3.768   64.6  0.0681   61.8  0.1654  -74.8
 1.800  0.6787  157.1   3.571   62.6  0.0713   61.7  0.1641  -76.9
 1.900  0.6827  155.4   3.385   60.8  0.0754   61.3  0.1641  -79.0
 2.000  0.6847  153.5   3.211   58.7  0.0790   61.0  0.1647  -81.5
 2.100  0.6865  151.6   3.066   56.9  0.0825   60.6  0.1651  -84.2
 2.200  0.6891  149.8   2.925   54.9  0.0861   60.3  0.1659  -86.8
 2.300  0.6940  148.1   2.803   53.1  0.0896   59.9  0.1674  -89.5
 2.400  0.6994  146.5   2.684   51.2  0.0932   59.6  0.1693  -92.2
 2.500  0.7014  144.9   2.578   49.5  0.0967   59.1  0.1711  -95.0
 2.600  0.7039  143.4   2.474   47.7  0.1002   58.7  0.1733  -97.7
 2.700  0.7081  141.7   2.383   46.1  0.1038   58.3  0.1760 -100.4
 2.800  0.7128  140.1   2.294   44.3  0.1075   57.9  0.1790 -103.1
 2.900  0.7154  138.5   2.216   42.6  0.1108   57.3  0.1811 -105.8
 3.000  0.7186  137.0   2.141   40.8  0.1141   56.8  0.1836 -108.5
 3.100  0.7217  135.6   2.076   39.4  0.1175   56.2  0.1859 -111.2
 3.200  0.7252  134.1   2.012   37.8  0.1210   55.7  0.1886 -113.8
 3.300  0.7291  132.7   1.949   36.2  0.1245   55.2  0.1917 -116.3
 3.400  0.7336  131.3   1.889   34.5  0.1279   54.7  0.1951 -118.7
 3.500  0.7384  129.9   1.830   32.6  0.1314   54.3  0.1989 -121.1
 3.600  0.7410  128.5   1.781   31.2  0.1349   53.6  0.2016 -123.9
 3.700  0.7440  127.2   1.733   29.7  0.1385   52.9  0.2048 -126.6
 3.800  0.7474  125.8   1.686   28.1  0.1420   52.2  0.2084 -129.2
 3.900  0.7513  124.5   1.640   26.5  0.1456   51.6  0.2125 -131.7
 4.000  0.7555  123.2   1.596   24.7  0.1492   51.0  0.2169 -134.1
 4.100  0.7580  122.0   1.556   23.3  0.1525   50.2  0.2208 -136.9
 4.200  0.7609  120.7   1.516   21.9  0.1558   49.5  0.2253 -139.6
 4.300  0.7642  119.5   1.478   20.3  0.1592   48.8  0.2303 -142.2
 4.400  0.7678  118.3   1.440   18.7  0.1625   48.1  0.2357 -144.7
 4.500  0.7717  117.1   1.404   17.0  0.1659   47.5  0.2415 -147.1
 4.600  0.7744  116.1   1.370   15.8  0.1692   46.9  0.2479 -149.6
 4.700  0.7774  115.2   1.337   14.6  0.1726   46.2  0.2547 -152.0
 4.800  0.7805  114.2   1.304   13.3  0.1760   45.6  0.2619 -154.2
 4.900  0.7839  113.2   1.272   11.9  0.1794   45.1  0.2695 -156.3
 5.000  0.7875  112.3   1.241   10.5  0.1828   44.5  0.2774 -158.3
 5.100  0.7895  111.4   1.217    9.4  0.1862   43.8  0.2859 -160.1
 5.200  0.7916  110.6   1.193    8.2  0.1895   43.2  0.2947 -161.7
 5.300  0.7940  109.7   1.170    7.0  0.1929   42.5  0.3037 -163.3
 5.400  0.7965  108.8   1.147    5.7  0.1964   41.9  0.3130 -164.7
 5.500  0.7992  108.0   1.125    4.4  0.1998   41.3  0.3224 -166.1
 5.600  0.7999  107.1   1.103    3.4  0.2031   40.5  0.3300 -167.3
 5.700  0.8008  106.2   1.081    2.3  0.2065   39.7  0.3378 -168.4
 5.800  0.8019  105.3   1.060    1.2  0.2099   39.0  0.3457 -169.5
 5.900  0.8032  104.4   1.039    0.0  0.2133   38.3  0.3537 -170.5
 6.000  0.8047  103.5   1.019   -1.2  0.2168   37.6  0.3618 -171.5
!
!  f       NFmin   Gammaopt  rn/50
! GHz       dB    MAG  ANG    -
 0.450      1.35  0.26  179   0.09
 0.900      1.38  0.29 -179   0.10
 1.900      1.87  0.44 -157   0.10
 2.400      2.12  0.49 -152   0.14
!
! (c) 2017  Infineon Technologies AG, Munich