! Infineon Technologies  Discrete & RF Semiconductors
! BFP183W
! VCE =  2.0 V,  IC =  54 mA
! Common Emitter S-Parameters:                            Jan 2017
# GHz  S  MA  R  50
!  f         S11            S21            S12            S22
! GHz     MAG   ANG      MAG   ANG      MAG   ANG      MAG   ANG
 0.010  0.1763  -69.7  57.754  170.0  0.0023   87.1  0.7849   -9.0
 0.020  0.2983  -94.9  54.909  159.3  0.0044   74.7  0.7463  -18.2
 0.030  0.3680 -110.6  49.916  152.9  0.0059   62.6  0.6847  -23.8
 0.040  0.4559 -120.8  45.685  145.1  0.0075   55.6  0.6310  -30.5
 0.050  0.5535 -127.5  42.446  136.0  0.0092   51.1  0.5874  -38.3
 0.060  0.5755 -133.1  39.113  133.3  0.0099   49.7  0.5454  -40.3
 0.070  0.6026 -138.3  35.885  130.0  0.0105   48.4  0.5042  -42.6
 0.080  0.6342 -143.0  32.793  126.2  0.0112   47.3  0.4640  -45.4
 0.090  0.6696 -147.2  29.879  121.6  0.0118   46.3  0.4250  -48.6
 0.100  0.7083 -151.0  27.201  116.0  0.0125   45.4  0.3877  -52.5
 0.110  0.7160 -153.1  25.576  114.6  0.0127   44.6  0.3674  -53.2
 0.120  0.7247 -155.2  23.969  113.0  0.0130   43.9  0.3471  -53.9
 0.130  0.7343 -157.2  22.383  111.2  0.0132   43.2  0.3269  -54.7
 0.140  0.7448 -159.2  20.824  109.0  0.0135   42.5  0.3067  -55.6
 0.150  0.7562 -161.1  19.297  106.6  0.0137   41.9  0.2867  -56.7
 0.200  0.7705 -167.0  14.783  100.6  0.0142   44.6  0.2332  -57.3
 0.250  0.7809 -171.3  11.977   96.5  0.0162   46.3  0.2016  -57.0
 0.300  0.7851 -174.3  10.024   93.6  0.0175   47.5  0.1802  -56.3
 0.350  0.7871 -176.5   8.799   91.6  0.0191   51.2  0.1687  -55.8
 0.400  0.7902 -178.6   7.588   88.9  0.0207   54.3  0.1573  -55.3
 0.450  0.7901  179.7   6.830   87.3  0.0225   56.0  0.1519  -55.2
 0.500  0.7907  178.1   6.079   85.4  0.0243   57.4  0.1466  -55.0
 0.600  0.7924  175.4   5.079   82.3  0.0272   60.7  0.1405  -55.6
 0.700  0.7932  173.0   4.353   79.6  0.0308   63.0  0.1374  -56.6
 0.800  0.7935  170.7   3.812   76.8  0.0348   65.1  0.1374  -58.1
 0.900  0.7923  168.7   3.382   74.3  0.0383   65.9  0.1374  -60.3
 1.000  0.7944  166.6   3.061   71.9  0.0420   66.3  0.1376  -62.3
 1.100  0.7969  164.7   2.782   69.7  0.0458   67.2  0.1407  -64.6
 1.200  0.7956  162.7   2.551   67.3  0.0492   67.5  0.1419  -67.1
 1.300  0.7978  160.8   2.356   65.1  0.0531   67.5  0.1447  -69.6
 1.400  0.7999  159.1   2.198   62.9  0.0573   67.5  0.1458  -72.4
 1.500  0.8030  157.4   2.047   60.7  0.0611   67.5  0.1481  -75.3
 1.600  0.8062  155.7   1.925   58.5  0.0649   67.5  0.1514  -78.0
 1.700  0.8073  153.6   1.817   56.4  0.0687   67.3  0.1540  -81.3
 1.800  0.8100  151.9   1.723   54.2  0.0731   66.9  0.1567  -84.4
 1.900  0.8118  150.3   1.632   52.3  0.0771   66.6  0.1601  -87.3
 2.000  0.8134  148.4   1.549   50.1  0.0813   66.1  0.1644  -90.6
 2.100  0.8149  146.6   1.479   48.1  0.0853   65.7  0.1677  -93.9
 2.200  0.8171  144.9   1.411   45.9  0.0894   65.4  0.1716  -97.1
 2.300  0.8197  143.3   1.352   44.0  0.0933   64.8  0.1762 -100.4
 2.400  0.8230  141.7   1.295   41.9  0.0973   64.3  0.1814 -103.5
 2.500  0.8235  140.1   1.244   40.1  0.1010   63.6  0.1863 -106.6
 2.600  0.8247  138.6   1.194   38.2  0.1048   63.0  0.1917 -109.6
 2.700  0.8274  137.1   1.150   36.5  0.1089   62.5  0.1971 -112.5
 2.800  0.8307  135.6   1.107   34.6  0.1130   62.1  0.2029 -115.3
 2.900  0.8321  134.1   1.069   32.9  0.1168   61.3  0.2083 -118.1
 3.000  0.8341  132.6   1.032   31.0  0.1207   60.5  0.2141 -120.8
 3.100  0.8354  131.1   1.000   29.5  0.1247   59.8  0.2189 -123.6
 3.200  0.8372  129.7   0.969   28.0  0.1287   59.1  0.2242 -126.3
 3.300  0.8395  128.3   0.939   26.3  0.1327   58.5  0.2300 -128.9
 3.400  0.8424  126.8   0.910   24.6  0.1367   57.9  0.2363 -131.3
 3.500  0.8458  125.4   0.881   22.7  0.1407   57.3  0.2429 -133.6
 3.600  0.8470  124.0   0.857   21.4  0.1446   56.4  0.2481 -136.3
 3.700  0.8486  122.7   0.833   20.0  0.1486   55.6  0.2539 -139.0
 3.800  0.8507  121.3   0.810   18.5  0.1526   54.8  0.2601 -141.5
 3.900  0.8533  119.9   0.787   16.9  0.1566   54.1  0.2668 -143.8
 4.000  0.8564  118.6   0.765   15.2  0.1607   53.4  0.2740 -146.1
 4.100  0.8566  117.4   0.745   14.0  0.1644   52.5  0.2802 -148.8
 4.200  0.8573  116.2   0.726   12.7  0.1681   51.6  0.2871 -151.3
 4.300  0.8583  115.0   0.707   11.4  0.1718   50.8  0.2945 -153.8
 4.400  0.8596  113.8   0.689   10.0  0.1756   50.0  0.3023 -156.1
 4.500  0.8614  112.6   0.671    8.5  0.1794   49.2  0.3107 -158.3
 4.600  0.8624  111.7   0.654    7.6  0.1831   48.4  0.3188 -160.6
 4.700  0.8636  110.7   0.638    6.7  0.1869   47.6  0.3273 -162.8
 4.800  0.8650  109.8   0.622    5.7  0.1907   46.9  0.3363 -164.8
 4.900  0.8667  108.8   0.606    4.6  0.1945   46.2  0.3457 -166.8
 5.000  0.8686  107.9   0.590    3.5  0.1984   45.5  0.3555 -168.6
 5.100  0.8694  107.0   0.579    2.7  0.2022   44.7  0.3650 -170.3
 5.200  0.8703  106.2   0.568    1.8  0.2060   43.9  0.3748 -171.9
 5.300  0.8715  105.3   0.557    1.0  0.2099   43.1  0.3849 -173.5
 5.400  0.8728  104.5   0.546    0.1  0.2138   42.3  0.3953 -174.9
 5.500  0.8744  103.6   0.535   -0.9  0.2177   41.6  0.4059 -176.3
 5.600  0.8732  102.7   0.525   -1.5  0.2214   40.7  0.4136 -177.5
 5.700  0.8722  101.8   0.514   -2.1  0.2252   39.8  0.4214 -178.7
 5.800  0.8714  101.0   0.504   -2.7  0.2291   38.9  0.4294 -179.8
 5.900  0.8708  100.1   0.494   -3.4  0.2330   38.0  0.4376  179.1
 6.000  0.8704   99.2   0.484   -4.1  0.2369   37.2  0.4459  178.0
!
!  f       NFmin   Gammaopt  rn/50
! GHz       dB    MAG  ANG    -
!
! noise parameter not available yet for this operation point!
!
! (c) 2017  Infineon Technologies AG, Munich