! Infineon Technologies  Discrete & RF Semiconductors
! BFP183W
! VCE =  7.0 V,  IC =  25 mA
! Common Emitter S-Parameters:                            Jan 2017
# GHz  S  MA  R  50
!  f         S11            S21            S12            S22
! GHz     MAG   ANG      MAG   ANG      MAG   ANG      MAG   ANG
 0.010  0.4991   -8.4  52.501  175.9  0.0014   91.7  0.9790   -3.5
 0.020  0.4956  -19.8  51.480  171.1  0.0029   92.1  0.9647   -7.3
 0.030  0.4886  -28.3  50.349  167.3  0.0045   81.9  0.9477  -10.7
 0.040  0.4925  -36.8  49.448  163.4  0.0063   77.3  0.9342  -14.2
 0.050  0.5069  -45.0  48.789  159.3  0.0080   74.6  0.9243  -17.8
 0.060  0.4980  -52.2  47.131  156.3  0.0091   71.1  0.8956  -20.3
 0.070  0.4970  -59.5  45.609  153.2  0.0102   68.4  0.8688  -22.9
 0.080  0.5041  -66.7  44.236  149.8  0.0114   66.2  0.8439  -25.7
 0.090  0.5188  -73.6  43.028  146.2  0.0125   64.5  0.8211  -28.7
 0.100  0.5406  -80.0  41.997  142.4  0.0137   63.0  0.8006  -31.8
 0.110  0.5376  -85.0  40.480  140.3  0.0145   61.2  0.7735  -33.4
 0.120  0.5386  -90.0  39.022  138.0  0.0153   59.7  0.7471  -35.2
 0.130  0.5437  -94.9  37.631  135.6  0.0161   58.2  0.7215  -37.1
 0.140  0.5527  -99.7  36.313  132.9  0.0169   57.0  0.6967  -39.1
 0.150  0.5654 -104.3  35.078  130.1  0.0177   55.8  0.6728  -41.3
 0.200  0.5827 -120.1  29.349  121.1  0.0201   51.4  0.5730  -47.1
 0.250  0.5926 -132.1  24.971  114.3  0.0222   47.7  0.4952  -50.8
 0.300  0.6008 -140.7  21.546  109.4  0.0230   47.9  0.4362  -53.1
 0.350  0.6015 -146.6  19.171  106.2  0.0245   48.1  0.3969  -54.1
 0.400  0.6087 -152.5  16.872  102.1  0.0260   48.3  0.3577  -55.4
 0.450  0.6085 -156.5  15.282   99.8  0.0274   48.5  0.3334  -55.7
 0.500  0.6112 -160.5  13.722   97.0  0.0289   48.7  0.3091  -56.1
 0.600  0.6162 -166.5  11.588   92.8  0.0313   50.6  0.2773  -56.4
 0.700  0.6178 -171.2   9.978   89.5  0.0337   53.0  0.2548  -56.3
 0.800  0.6205 -175.4   8.782   86.3  0.0375   55.3  0.2402  -56.4
 0.900  0.6196 -178.9   7.806   83.6  0.0404   55.4  0.2289  -56.7
 1.000  0.6246  178.2   7.064   81.2  0.0434   56.9  0.2202  -57.0
 1.100  0.6248  175.3   6.434   78.9  0.0460   57.9  0.2150  -57.5
 1.200  0.6266  172.6   5.901   76.5  0.0491   58.0  0.2099  -58.2
 1.300  0.6274  170.1   5.448   74.4  0.0520   58.4  0.2065  -59.2
 1.400  0.6304  167.9   5.080   72.3  0.0557   59.3  0.2029  -60.3
 1.500  0.6349  165.7   4.739   70.3  0.0591   59.5  0.2002  -61.6
 1.600  0.6368  163.5   4.454   68.3  0.0622   60.0  0.1991  -62.9
 1.700  0.6394  161.3   4.199   66.3  0.0657   60.0  0.1969  -64.9
 1.800  0.6414  159.4   3.983   64.4  0.0693   60.2  0.1957  -66.5
 1.900  0.6461  157.5   3.772   62.6  0.0722   60.3  0.1947  -68.4
 2.000  0.6478  155.6   3.584   60.6  0.0763   59.9  0.1941  -70.5
 2.100  0.6507  153.7   3.422   58.8  0.0793   59.8  0.1935  -72.8
 2.200  0.6543  151.8   3.263   56.8  0.0823   59.7  0.1933  -75.1
 2.300  0.6589  150.0   3.127   55.1  0.0858   59.4  0.1934  -77.6
 2.400  0.6641  148.3   2.995   53.2  0.0893   59.1  0.1938  -80.1
 2.500  0.6665  146.7   2.877   51.5  0.0926   58.7  0.1944  -82.7
 2.600  0.6694  145.1   2.761   49.7  0.0959   58.4  0.1955  -85.3
 2.700  0.6739  143.4   2.661   48.1  0.0993   58.0  0.1968  -87.8
 2.800  0.6790  141.8   2.563   46.3  0.1028   57.7  0.1984  -90.3
 2.900  0.6819  140.2   2.475   44.6  0.1061   57.2  0.1993  -93.0
 3.000  0.6853  138.6   2.390   42.8  0.1095   56.8  0.2006  -95.6
 3.100  0.6885  137.1   2.318   41.4  0.1128   56.3  0.2017  -98.2
 3.200  0.6921  135.6   2.247   39.9  0.1160   55.8  0.2032 -100.8
 3.300  0.6963  134.1   2.178   38.2  0.1193   55.4  0.2051 -103.3
 3.400  0.7009  132.6   2.110   36.5  0.1226   55.0  0.2073 -105.8
 3.500  0.7059  131.2   2.045   34.7  0.1259   54.6  0.2100 -108.2
 3.600  0.7091  129.8   1.990   33.3  0.1293   53.9  0.2113 -111.0
 3.700  0.7126  128.5   1.937   31.8  0.1328   53.3  0.2130 -113.7
 3.800  0.7166  127.1   1.885   30.2  0.1363   52.6  0.2153 -116.3
 3.900  0.7210  125.8   1.835   28.6  0.1398   52.1  0.2180 -119.0
 4.000  0.7257  124.5   1.786   26.8  0.1433   51.5  0.2211 -121.5
 4.100  0.7287  123.3   1.741   25.4  0.1465   50.8  0.2236 -124.4
 4.200  0.7321  122.1   1.698   24.0  0.1498   50.2  0.2267 -127.3
 4.300  0.7358  120.9   1.655   22.4  0.1531   49.6  0.2304 -130.1
 4.400  0.7398  119.7   1.614   20.8  0.1564   49.0  0.2345 -132.8
 4.500  0.7441  118.5   1.574   19.1  0.1597   48.4  0.2392 -135.4
 4.600  0.7472  117.5   1.536   17.9  0.1630   47.8  0.2443 -138.1
 4.700  0.7506  116.5   1.499   16.7  0.1663   47.2  0.2498 -140.7
 4.800  0.7542  115.5   1.462   15.3  0.1696   46.6  0.2559 -143.2
 4.900  0.7580  114.6   1.427   14.0  0.1729   46.0  0.2624 -145.6
 5.000  0.7620  113.6   1.392   12.5  0.1763   45.5  0.2694 -147.8
 5.100  0.7646  112.7   1.365   11.4  0.1796   44.8  0.2774 -149.9
 5.200  0.7673  111.8   1.338   10.2  0.1830   44.2  0.2857 -151.9
 5.300  0.7702  110.9   1.312    8.9  0.1864   43.6  0.2944 -153.7
 5.400  0.7733  110.1   1.286    7.6  0.1898   43.0  0.3033 -155.5
 5.500  0.7766  109.2   1.261    6.3  0.1932   42.4  0.3125 -157.1
 5.600  0.7773  108.3   1.236    5.2  0.1966   41.6  0.3201 -158.5
 5.700  0.7781  107.4   1.211    4.1  0.1999   40.9  0.3278 -159.8
 5.800  0.7792  106.6   1.187    2.9  0.2034   40.2  0.3357 -161.1
 5.900  0.7804  105.7   1.164    1.7  0.2068   39.5  0.3438 -162.3
 6.000  0.7818  104.8   1.141    0.4  0.2103   38.8  0.3520 -163.4
!
!  f       NFmin   Gammaopt  rn/50
! GHz       dB    MAG  ANG    -
 0.450      1.29  0.25  177   0.10
 0.900      1.32  0.28  180   0.09
 1.900      1.80  0.43 -158   0.09
 2.400      2.04  0.48 -154   0.13
!
! (c) 2017  Infineon Technologies AG, Munich