! Infineon Technologies  Discrete & RF Semiconductors
! BFP183W
! VCE =  1.0 V,  IC =  22 mA
! Common Emitter S-Parameters:                            Jan 2017
# GHz  S  MA  R  50
!  f         S11            S21            S12            S22
! GHz     MAG   ANG      MAG   ANG      MAG   ANG      MAG   ANG
 0.010  0.4545  -15.6  48.293  174.6  0.0026   87.2  0.9394   -5.9
 0.020  0.4571  -32.8  47.305  167.8  0.0054   79.2  0.9240  -12.0
 0.030  0.4534  -46.0  45.313  162.7  0.0078   71.1  0.8873  -17.0
 0.040  0.4735  -58.8  43.706  157.2  0.0102   66.9  0.8580  -22.4
 0.050  0.5146  -70.0  42.528  151.4  0.0127   64.3  0.8367  -28.1
 0.060  0.5117  -78.6  40.295  148.2  0.0139   60.6  0.7939  -31.2
 0.070  0.5202  -87.1  38.199  144.7  0.0152   57.6  0.7536  -34.6
 0.080  0.5396  -95.1  36.264  140.8  0.0166   55.0  0.7162  -38.3
 0.090  0.5688 -102.5  34.517  136.5  0.0179   52.9  0.6823  -42.5
 0.100  0.6064 -109.0  32.987  131.7  0.0193   51.0  0.6524  -47.1
 0.110  0.6099 -113.4  31.423  129.7  0.0201   49.6  0.6218  -49.0
 0.120  0.6170 -117.8  29.900  127.6  0.0209   48.3  0.5920  -51.0
 0.130  0.6275 -122.0  28.424  125.2  0.0217   47.1  0.5629  -53.2
 0.140  0.6414 -126.1  27.003  122.5  0.0225   46.0  0.5348  -55.7
 0.150  0.6584 -130.0  25.646  119.6  0.0233   45.0  0.5079  -58.5
 0.200  0.6833 -142.5  20.528  111.5  0.0244   40.9  0.4129  -65.4
 0.250  0.6975 -151.1  16.978  105.7  0.0266   38.9  0.3462  -70.0
 0.300  0.7060 -157.2  14.403  101.6  0.0277   39.9  0.2991  -73.3
 0.350  0.7085 -161.5  12.718   98.9  0.0290   40.7  0.2687  -75.2
 0.400  0.7149 -165.8  11.069   95.4  0.0303   41.5  0.2386  -77.6
 0.450  0.7160 -168.6   9.989   93.5  0.0318   42.5  0.2208  -79.0
 0.500  0.7188 -171.4   8.923   91.1  0.0333   43.4  0.2032  -80.6
 0.600  0.7214 -175.7   7.484   87.4  0.0361   46.3  0.1805  -83.1
 0.700  0.7225 -179.3   6.430   84.4  0.0381   48.3  0.1645  -84.6
 0.800  0.7249  177.5   5.644   81.4  0.0424   51.5  0.1554  -86.4
 0.900  0.7241  174.7   5.009   78.7  0.0454   52.4  0.1485  -88.3
 1.000  0.7276  172.2   4.530   76.3  0.0487   53.4  0.1431  -90.0
 1.100  0.7288  169.9   4.125   74.0  0.0525   55.0  0.1413  -91.5
 1.200  0.7300  167.4   3.782   71.6  0.0555   55.4  0.1383  -93.0
 1.300  0.7295  165.3   3.492   69.4  0.0590   55.8  0.1380  -94.8
 1.400  0.7334  163.4   3.258   67.2  0.0629   56.7  0.1373  -97.1
 1.500  0.7378  161.5   3.037   65.1  0.0668   57.0  0.1374  -99.2
 1.600  0.7400  159.4   2.857   62.9  0.0700   57.0  0.1384 -100.9
 1.700  0.7407  157.4   2.697   60.9  0.0744   57.6  0.1402 -103.5
 1.800  0.7452  155.5   2.557   58.7  0.0780   57.2  0.1420 -105.9
 1.900  0.7471  153.8   2.422   56.8  0.0817   57.1  0.1435 -108.3
 2.000  0.7486  151.9   2.298   54.6  0.0858   56.9  0.1473 -110.6
 2.100  0.7512  150.0   2.195   52.6  0.0892   56.7  0.1501 -113.3
 2.200  0.7546  148.1   2.094   50.5  0.0927   56.5  0.1533 -115.9
 2.300  0.7571  146.4   2.007   48.7  0.0966   56.2  0.1574 -118.5
 2.400  0.7602  144.8   1.923   46.7  0.1006   55.9  0.1618 -120.9
 2.500  0.7622  143.2   1.847   44.9  0.1043   55.5  0.1663 -123.4
 2.600  0.7647  141.6   1.772   43.0  0.1080   55.1  0.1710 -125.7
 2.700  0.7682  140.0   1.708   41.2  0.1115   54.7  0.1758 -128.0
 2.800  0.7722  138.4   1.645   39.3  0.1151   54.3  0.1808 -130.1
 2.900  0.7738  136.8   1.587   37.6  0.1186   53.8  0.1858 -132.5
 3.000  0.7760  135.3   1.531   35.7  0.1222   53.3  0.1910 -134.7
 3.100  0.7783  133.8   1.485   34.2  0.1259   52.7  0.1955 -136.9
 3.200  0.7811  132.3   1.439   32.6  0.1296   52.2  0.2004 -139.1
 3.300  0.7844  130.9   1.395   31.0  0.1333   51.7  0.2055 -141.1
 3.400  0.7883  129.4   1.352   29.2  0.1370   51.2  0.2108 -143.1
 3.500  0.7926  128.0   1.311   27.3  0.1407   50.7  0.2164 -144.9
 3.600  0.7944  126.6   1.276   25.9  0.1442   50.0  0.2216 -147.2
 3.700  0.7967  125.3   1.241   24.4  0.1478   49.3  0.2272 -149.5
 3.800  0.7994  123.9   1.207   22.8  0.1514   48.7  0.2330 -151.6
 3.900  0.8026  122.5   1.175   21.1  0.1550   48.1  0.2392 -153.6
 4.000  0.8062  121.2   1.143   19.3  0.1586   47.5  0.2457 -155.5
 4.100  0.8078  120.0   1.114   18.0  0.1620   46.8  0.2519 -157.8
 4.200  0.8098  118.7   1.086   16.5  0.1655   46.1  0.2584 -160.0
 4.300  0.8121  117.5   1.058   15.0  0.1690   45.4  0.2654 -162.1
 4.400  0.8148  116.3   1.031   13.5  0.1725   44.7  0.2726 -164.1
 4.500  0.8179  115.1   1.005   11.8  0.1760   44.1  0.2802 -166.0
 4.600  0.8195  114.1   0.981   10.7  0.1793   43.4  0.2881 -167.9
 4.700  0.8213  113.2   0.956    9.5  0.1826   42.7  0.2964 -169.7
 4.800  0.8234  112.2   0.933    8.3  0.1860   42.1  0.3049 -171.4
 4.900  0.8257  111.2   0.910    7.0  0.1893   41.5  0.3136 -173.0
 5.000  0.8282  110.3   0.887    5.6  0.1927   40.9  0.3226 -174.5
 5.100  0.8299  109.4   0.870    4.6  0.1962   40.2  0.3317 -175.8
 5.200  0.8318  108.6   0.853    3.5  0.1997   39.6  0.3410 -177.1
 5.300  0.8338  107.7   0.836    2.4  0.2033   38.9  0.3504 -178.2
 5.400  0.8361  106.9   0.820    1.2  0.2069   38.3  0.3600 -179.3
 5.500  0.8385  106.0   0.804    0.0  0.2105   37.7  0.3697  179.6
 5.600  0.8380  105.1   0.788   -0.9  0.2139   36.9  0.3771  178.6
 5.700  0.8377  104.2   0.773   -1.9  0.2173   36.1  0.3846  177.7
 5.800  0.8376  103.3   0.758   -2.9  0.2207   35.3  0.3922  176.9
 5.900  0.8378  102.4   0.743   -3.9  0.2242   34.6  0.3999  176.0
 6.000  0.8381  101.5   0.728   -5.0  0.2277   33.9  0.4077  175.2
!
!  f       NFmin   Gammaopt  rn/50
! GHz       dB    MAG  ANG    -
 0.450      1.22  0.22  174   0.10
 0.900      1.25  0.26  177   0.09
 1.900      1.73  0.41 -161   0.09
 2.400      1.96  0.46 -155   0.12
!
! (c) 2017  Infineon Technologies AG, Munich