! Infineon Technologies  Discrete & RF Semiconductors
! BFP183W
! VCE =  10. V,  IC =  33 mA
! Common Emitter S-Parameters:                            Jan 2017
# GHz  S  MA  R  50
!  f         S11            S21            S12            S22
! GHz     MAG   ANG      MAG   ANG      MAG   ANG      MAG   ANG
 0.010  0.4713   -8.8  57.796  175.1  0.0014   75.7  0.9653   -3.5
 0.020  0.4704  -21.4  56.684  170.2  0.0031   86.7  0.9567   -7.5
 0.030  0.4636  -30.8  55.220  166.3  0.0045   78.6  0.9361  -11.0
 0.040  0.4693  -40.2  54.031  162.1  0.0059   74.3  0.9191  -14.7
 0.050  0.4872  -49.1  53.137  157.8  0.0073   71.7  0.9061  -18.5
 0.060  0.4788  -56.6  51.133  154.8  0.0084   69.5  0.8753  -21.0
 0.070  0.4788  -64.2  49.284  151.5  0.0096   67.9  0.8462  -23.6
 0.080  0.4872  -71.7  47.609  148.0  0.0108   66.6  0.8190  -26.4
 0.090  0.5036  -78.8  46.127  144.2  0.0119   65.6  0.7939  -29.4
 0.100  0.5272  -85.4  44.856  140.2  0.0131   64.7  0.7711  -32.6
 0.110  0.5255  -90.4  43.131  138.1  0.0137   61.9  0.7439  -34.1
 0.120  0.5279  -95.4  41.467  135.9  0.0143   59.3  0.7173  -35.8
 0.130  0.5342 -100.3  39.872  133.5  0.0149   56.9  0.6913  -37.5
 0.140  0.5443 -105.0  38.354  130.8  0.0156   54.7  0.6660  -39.4
 0.150  0.5580 -109.6  36.923  128.0  0.0163   52.7  0.6415  -41.5
 0.200  0.5735 -125.0  30.568  119.1  0.0180   50.7  0.5427  -46.7
 0.250  0.5875 -136.3  25.842  112.5  0.0203   48.3  0.4685  -49.6
 0.300  0.5965 -144.3  22.201  107.8  0.0214   47.3  0.4134  -51.3
 0.350  0.5966 -149.9  19.707  104.7  0.0227   49.0  0.3776  -51.8
 0.400  0.6024 -155.4  17.285  100.8  0.0241   50.5  0.3418  -52.5
 0.450  0.6026 -159.2  15.647   98.6  0.0254   51.2  0.3202  -52.5
 0.500  0.6054 -162.9  14.037   95.9  0.0268   51.8  0.2987  -52.6
 0.600  0.6078 -168.6  11.828   92.0  0.0298   53.2  0.2704  -52.4
 0.700  0.6105 -172.8  10.178   88.8  0.0323   55.4  0.2513  -51.9
 0.800  0.6127 -176.8   8.952   85.7  0.0356   57.9  0.2395  -51.8
 0.900  0.6140  179.8   7.955   83.1  0.0383   58.3  0.2297  -52.1
 1.000  0.6162  176.9   7.195   80.7  0.0414   60.0  0.2220  -52.4
 1.100  0.6177  174.2   6.552   78.5  0.0452   60.1  0.2182  -52.9
 1.200  0.6190  171.6   6.007   76.2  0.0478   60.5  0.2144  -53.4
 1.300  0.6211  169.2   5.549   74.1  0.0509   61.4  0.2116  -54.5
 1.400  0.6226  167.0   5.172   72.0  0.0548   61.8  0.2085  -55.6
 1.500  0.6274  165.0   4.824   70.1  0.0577   61.8  0.2057  -56.9
 1.600  0.6290  162.7   4.533   68.0  0.0612   61.8  0.2051  -58.2
 1.700  0.6312  160.7   4.273   66.1  0.0649   61.9  0.2032  -60.2
 1.800  0.6340  158.8   4.051   64.2  0.0683   62.0  0.2025  -61.8
 1.900  0.6392  157.1   3.837   62.4  0.0715   61.7  0.2011  -63.7
 2.000  0.6403  155.0   3.645   60.5  0.0750   61.5  0.2009  -65.9
 2.100  0.6440  153.1   3.480   58.7  0.0785   61.3  0.2001  -68.1
 2.200  0.6484  151.3   3.319   56.7  0.0820   61.2  0.1996  -70.4
 2.300  0.6523  149.6   3.181   55.0  0.0854   60.9  0.1998  -72.9
 2.400  0.6567  147.9   3.047   53.1  0.0888   60.7  0.2003  -75.4
 2.500  0.6593  146.3   2.926   51.4  0.0921   60.2  0.2009  -78.0
 2.600  0.6625  144.7   2.807   49.6  0.0955   59.7  0.2019  -80.5
 2.700  0.6666  143.0   2.705   48.0  0.0987   59.4  0.2028  -83.1
 2.800  0.6712  141.4   2.606   46.3  0.1020   59.1  0.2041  -85.6
 2.900  0.6748  139.9   2.517   44.6  0.1055   58.4  0.2048  -88.2
 3.000  0.6789  138.4   2.431   42.8  0.1090   57.8  0.2059  -90.8
 3.100  0.6821  136.9   2.358   41.4  0.1124   57.3  0.2067  -93.4
 3.200  0.6858  135.5   2.286   39.9  0.1157   56.9  0.2079  -96.0
 3.300  0.6899  134.0   2.216   38.2  0.1191   56.5  0.2095  -98.6
 3.400  0.6944  132.6   2.147   36.5  0.1225   56.1  0.2116 -101.1
 3.500  0.6994  131.2   2.081   34.7  0.1259   55.7  0.2140 -103.6
 3.600  0.7029  129.8   2.025   33.3  0.1292   55.0  0.2149 -106.3
 3.700  0.7068  128.4   1.971   31.8  0.1325   54.3  0.2164 -109.1
 3.800  0.7112  127.1   1.918   30.2  0.1358   53.7  0.2183 -111.7
 3.900  0.7159  125.7   1.867   28.6  0.1391   53.1  0.2207 -114.3
 4.000  0.7210  124.4   1.817   26.8  0.1425   52.5  0.2235 -116.9
 4.100  0.7240  123.2   1.771   25.4  0.1458   51.8  0.2256 -119.8
 4.200  0.7272  122.0   1.727   24.0  0.1491   51.0  0.2282 -122.7
 4.300  0.7308  120.8   1.683   22.5  0.1525   50.4  0.2314 -125.5
 4.400  0.7348  119.6   1.641   20.9  0.1558   49.7  0.2351 -128.3
 4.500  0.7390  118.4   1.600   19.2  0.1592   49.1  0.2394 -130.9
 4.600  0.7423  117.4   1.562   18.0  0.1625   48.5  0.2440 -133.7
 4.700  0.7458  116.4   1.524   16.8  0.1658   47.9  0.2493 -136.5
 4.800  0.7495  115.4   1.488   15.4  0.1691   47.4  0.2550 -139.1
 4.900  0.7534  114.5   1.452   14.1  0.1724   46.8  0.2613 -141.5
 5.000  0.7576  113.5   1.417   12.6  0.1757   46.3  0.2680 -143.9
 5.100  0.7602  112.6   1.389   11.4  0.1791   45.6  0.2758 -146.1
 5.200  0.7630  111.8   1.361   10.2  0.1826   44.9  0.2840 -148.2
 5.300  0.7659  110.9   1.335    8.9  0.1860   44.3  0.2925 -150.2
 5.400  0.7690  110.0   1.308    7.6  0.1895   43.7  0.3013 -152.0
 5.500  0.7723  109.2   1.283    6.2  0.1930   43.1  0.3105 -153.8
 5.600  0.7730  108.3   1.258    5.1  0.1964   42.3  0.3181 -155.3
 5.700  0.7740  107.4   1.233    4.0  0.1999   41.6  0.3258 -156.6
 5.800  0.7751  106.5   1.208    2.9  0.2033   40.9  0.3338 -157.9
 5.900  0.7764  105.6   1.184    1.7  0.2069   40.2  0.3419 -159.2
 6.000  0.7779  104.7   1.161    0.4  0.2104   39.5  0.3502 -160.4
!
!  f       NFmin   Gammaopt  rn/50
! GHz       dB    MAG  ANG    -
 0.450      1.47  0.28 -179   0.10
 0.900      1.51  0.31 -177   0.10
 1.900      2.00  0.46 -156   0.11
 2.400      2.24  0.51 -151   0.16
!
! (c) 2017  Infineon Technologies AG, Munich