! Infineon Technologies  Discrete & RF Semiconductors
! BFP183W
! VCE =  4.0 V,  IC =  65 mA
! Common Emitter S-Parameters:                            Jan 2017
# GHz  S  MA  R  50
!  f         S11            S21            S12            S22
! GHz     MAG   ANG      MAG   ANG      MAG   ANG      MAG   ANG
 0.010  0.1547  -59.9  62.824  171.6  0.0017   79.5  0.8423   -6.1
 0.020  0.2489  -86.3  60.607  162.5  0.0031   81.5  0.8194  -13.3
 0.030  0.3111 -102.8  56.152  156.3  0.0044   69.2  0.7680  -18.0
 0.040  0.3899 -113.2  52.456  149.2  0.0058   62.7  0.7225  -23.3
 0.050  0.4772 -120.0  49.689  141.1  0.0072   58.7  0.6840  -29.3
 0.060  0.5010 -126.3  46.119  138.2  0.0077   56.9  0.6433  -31.0
 0.070  0.5302 -131.9  42.690  134.8  0.0083   55.3  0.6032  -33.0
 0.080  0.5640 -136.9  39.438  130.8  0.0088   53.8  0.5639  -35.2
 0.090  0.6017 -141.3  36.411  126.1  0.0094   52.6  0.5256  -37.8
 0.100  0.6424 -145.2  33.670  120.6  0.0099   51.5  0.4885  -40.7
 0.110  0.6519 -147.7  31.755  119.0  0.0104   50.5  0.4667  -41.1
 0.120  0.6627 -150.1  29.866  117.2  0.0108   49.6  0.4450  -41.5
 0.130  0.6746 -152.5  28.011  115.2  0.0113   48.7  0.4233  -42.0
 0.140  0.6876 -154.7  26.195  112.9  0.0117   47.9  0.4016  -42.5
 0.150  0.7016 -156.9  24.427  110.3  0.0122   47.2  0.3800  -43.1
 0.200  0.7218 -163.7  18.900  103.8  0.0126   48.9  0.3217  -42.5
 0.250  0.7343 -168.6  15.370   99.4  0.0145   51.0  0.2872  -41.3
 0.300  0.7402 -171.9  12.898   96.2  0.0154   51.9  0.2646  -39.8
 0.350  0.7413 -174.4  11.343   94.1  0.0168   55.1  0.2526  -38.9
 0.400  0.7438 -176.9   9.809   91.3  0.0183   57.8  0.2407  -38.0
 0.450  0.7451 -178.7   8.835   89.7  0.0199   59.3  0.2352  -37.7
 0.500  0.7470  179.6   7.869   87.8  0.0216   60.6  0.2298  -37.3
 0.600  0.7515  176.6   6.582   84.8  0.0247   63.0  0.2228  -37.6
 0.700  0.7497  174.3   5.647   82.1  0.0274   66.0  0.2191  -38.0
 0.800  0.7522  171.7   4.955   79.4  0.0314   67.9  0.2174  -39.3
 0.900  0.7513  169.5   4.396   77.1  0.0347   67.8  0.2161  -41.2
 1.000  0.7537  167.5   3.976   74.8  0.0383   69.4  0.2156  -42.7
 1.100  0.7562  165.5   3.619   72.7  0.0417   69.4  0.2163  -44.7
 1.200  0.7562  163.5   3.318   70.4  0.0452   69.6  0.2168  -46.6
 1.300  0.7556  161.7   3.065   68.3  0.0490   69.6  0.2176  -48.8
 1.400  0.7593  159.8   2.858   66.2  0.0522   70.3  0.2172  -51.1
 1.500  0.7628  158.1   2.665   64.2  0.0560   69.8  0.2178  -53.4
 1.600  0.7647  156.3   2.506   62.1  0.0600   69.6  0.2188  -55.8
 1.700  0.7662  154.3   2.365   60.1  0.0635   69.6  0.2193  -58.6
 1.800  0.7697  152.7   2.244   58.1  0.0671   69.6  0.2200  -61.2
 1.900  0.7707  151.0   2.125   56.3  0.0710   69.4  0.2211  -63.8
 2.000  0.7722  149.2   2.018   54.1  0.0747   69.0  0.2226  -66.7
 2.100  0.7737  147.4   1.927   52.2  0.0786   68.6  0.2234  -69.6
 2.200  0.7760  145.7   1.839   50.2  0.0825   68.2  0.2247  -72.5
 2.300  0.7798  144.1   1.763   48.4  0.0863   67.7  0.2266  -75.7
 2.400  0.7842  142.5   1.689   46.4  0.0902   67.2  0.2291  -78.8
 2.500  0.7857  141.0   1.622   44.7  0.0938   66.6  0.2312  -81.8
 2.600  0.7878  139.5   1.557   42.8  0.0974   66.1  0.2339  -84.8
 2.700  0.7904  137.9   1.501   41.1  0.1013   65.5  0.2367  -87.8
 2.800  0.7935  136.4   1.447   39.3  0.1053   65.0  0.2401  -90.7
 2.900  0.7954  134.9   1.398   37.6  0.1090   64.2  0.2427  -93.7
 3.000  0.7979  133.4   1.350   35.7  0.1128   63.5  0.2460  -96.6
 3.100  0.7996  132.0   1.309   34.3  0.1166   62.9  0.2481  -99.5
 3.200  0.8019  130.5   1.269   32.7  0.1205   62.3  0.2509 -102.4
 3.300  0.8046  129.1   1.230   31.1  0.1243   61.8  0.2543 -105.2
 3.400  0.8079  127.7   1.192   29.4  0.1282   61.3  0.2583 -108.0
 3.500  0.8116  126.3   1.155   27.5  0.1321   60.8  0.2628 -110.6
 3.600  0.8133  125.0   1.124   26.1  0.1359   59.9  0.2653 -113.5
 3.700  0.8155  123.6   1.093   24.6  0.1398   59.1  0.2685 -116.4
 3.800  0.8180  122.3   1.063   23.1  0.1437   58.3  0.2724 -119.2
 3.900  0.8211  121.0   1.034   21.4  0.1476   57.5  0.2768 -121.9
 4.000  0.8245  119.7   1.006   19.7  0.1516   56.8  0.2819 -124.5
 4.100  0.8256  118.5   0.981   18.4  0.1553   55.9  0.2855 -127.5
 4.200  0.8270  117.3   0.956   17.0  0.1590   55.1  0.2899 -130.5
 4.300  0.8289  116.1   0.932   15.5  0.1628   54.3  0.2951 -133.3
 4.400  0.8311  114.9   0.908   14.0  0.1666   53.5  0.3009 -136.1
 4.500  0.8336  113.7   0.885   12.4  0.1704   52.8  0.3074 -138.7
 4.600  0.8351  112.8   0.863   11.3  0.1741   52.0  0.3136 -141.5
 4.700  0.8369  111.8   0.842   10.2  0.1779   51.2  0.3205 -144.1
 4.800  0.8388  110.9   0.821    9.0  0.1817   50.5  0.3281 -146.6
 4.900  0.8410  110.0   0.800    7.8  0.1855   49.8  0.3363 -149.0
 5.000  0.8434  109.1   0.780    6.5  0.1894   49.1  0.3450 -151.3
 5.100  0.8445  108.2   0.765    5.5  0.1932   48.3  0.3537 -153.5
 5.200  0.8459  107.4   0.749    4.5  0.1971   47.5  0.3629 -155.5
 5.300  0.8474  106.5   0.734    3.4  0.2011   46.7  0.3725 -157.5
 5.400  0.8491  105.7   0.719    2.3  0.2050   46.0  0.3826 -159.3
 5.500  0.8510  104.8   0.705    1.2  0.2090   45.3  0.3930 -161.1
 5.600  0.8506  103.9   0.691    0.4  0.2128   44.4  0.4007 -162.7
 5.700  0.8504  103.0   0.677   -0.5  0.2166   43.4  0.4088 -164.2
 5.800  0.8504  102.1   0.664   -1.4  0.2205   42.6  0.4171 -165.6
 5.900  0.8507  101.2   0.650   -2.4  0.2245   41.7  0.4256 -167.0
 6.000  0.8511  100.3   0.637   -3.4  0.2285   40.9  0.4344 -168.3
!
!  f       NFmin   Gammaopt  rn/50
! GHz       dB    MAG  ANG    -
!
! noise parameter not available yet for this operation point!
!
! (c) 2017  Infineon Technologies AG, Munich