! Infineon Technologies  Discrete & RF Semiconductors
! BFP183W
! VCE =  10. V,  IC =  15 mA
! Common Emitter S-Parameters:                            Jan 2017
# GHz  S  MA  R  50
!  f         S11            S21            S12            S22
! GHz     MAG   ANG      MAG   ANG      MAG   ANG      MAG   ANG
 0.010  0.6623   -5.0  38.188  176.9  0.0014   85.6  0.9850   -2.6
 0.020  0.6505  -13.0  37.516  173.2  0.0033   91.1  0.9807   -5.3
 0.030  0.6431  -18.4  37.012  170.3  0.0051   83.3  0.9698   -7.8
 0.040  0.6415  -23.8  36.603  167.4  0.0069   79.6  0.9608  -10.3
 0.050  0.6456  -29.2  36.293  164.4  0.0088   77.5  0.9537  -12.9
 0.060  0.6348  -34.4  35.513  161.8  0.0102   74.1  0.9351  -15.0
 0.070  0.6294  -39.7  34.808  159.1  0.0117   71.5  0.9178  -17.1
 0.080  0.6294  -45.0  34.183  156.4  0.0131   69.5  0.9018  -19.4
 0.090  0.6348  -50.3  33.641  153.5  0.0146   67.9  0.8872  -21.7
 0.100  0.6456  -55.5  33.187  150.5  0.0161   66.6  0.8742  -24.1
 0.110  0.6357  -59.8  32.336  148.4  0.0172   64.4  0.8540  -25.7
 0.120  0.6295  -64.3  31.530  146.3  0.0182   62.4  0.8345  -27.4
 0.130  0.6272  -68.8  30.771  144.0  0.0193   60.7  0.8157  -29.1
 0.140  0.6288  -73.3  30.063  141.6  0.0205   59.2  0.7978  -31.0
 0.150  0.6343  -77.8  29.410  139.1  0.0216   57.8  0.7807  -32.9
 0.200  0.6299  -94.8  25.775  129.8  0.0250   53.2  0.6918  -39.1
 0.250  0.6238 -108.6  22.654  122.4  0.0276   47.7  0.6157  -43.5
 0.300  0.6183 -119.4  19.969  116.8  0.0295   46.2  0.5517  -46.6
 0.350  0.6121 -127.1  17.964  113.0  0.0310   44.4  0.5059  -48.2
 0.400  0.6171 -134.9  16.060  108.2  0.0326   42.8  0.4606  -50.2
 0.450  0.6124 -140.3  14.635  105.4  0.0340   43.0  0.4303  -51.0
 0.500  0.6132 -145.8  13.251  102.1  0.0354   43.1  0.4000  -51.9
 0.600  0.6117 -153.9  11.285   97.2  0.0378   42.6  0.3585  -52.8
 0.700  0.6124 -160.2   9.763   93.2  0.0393   44.5  0.3283  -53.1
 0.800  0.6139 -165.6   8.626   89.6  0.0419   45.8  0.3085  -53.5
 0.900  0.6116 -170.1   7.683   86.5  0.0443   46.7  0.2932  -53.9
 1.000  0.6151 -174.1   6.967   83.8  0.0463   47.8  0.2801  -54.2
 1.100  0.6170 -177.5   6.352   81.3  0.0484   48.5  0.2724  -54.6
 1.200  0.6176  179.2   5.829   78.7  0.0515   49.4  0.2652  -55.2
 1.300  0.6167  176.2   5.390   76.4  0.0537   50.4  0.2597  -56.1
 1.400  0.6204  173.6   5.027   74.1  0.0567   51.4  0.2540  -57.0
 1.500  0.6249  171.0   4.692   72.0  0.0597   52.0  0.2501  -58.3
 1.600  0.6275  168.4   4.411   69.8  0.0619   52.2  0.2480  -59.3
 1.700  0.6283  166.2   4.161   67.8  0.0649   53.5  0.2444  -60.9
 1.800  0.6327  163.7   3.949   65.7  0.0680   53.5  0.2421  -62.4
 1.900  0.6364  161.6   3.742   63.9  0.0702   53.9  0.2403  -64.1
 2.000  0.6383  159.5   3.555   61.8  0.0739   54.2  0.2388  -65.9
 2.100  0.6415  157.3   3.395   59.9  0.0767   54.4  0.2372  -67.9
 2.200  0.6456  155.2   3.240   57.8  0.0796   54.5  0.2358  -69.9
 2.300  0.6494  153.3   3.105   56.0  0.0827   54.6  0.2354  -72.1
 2.400  0.6539  151.4   2.974   54.0  0.0859   54.6  0.2353  -74.3
 2.500  0.6570  149.6   2.857   52.3  0.0887   54.5  0.2352  -76.7
 2.600  0.6607  147.9   2.743   50.5  0.0915   54.5  0.2354  -79.0
 2.700  0.6651  146.1   2.644   48.8  0.0947   54.3  0.2360  -81.3
 2.800  0.6701  144.3   2.547   46.9  0.0980   54.2  0.2369  -83.5
 2.900  0.6729  142.6   2.461   45.2  0.1009   53.9  0.2369  -85.9
 3.000  0.6762  141.0   2.377   43.3  0.1038   53.6  0.2373  -88.3
 3.100  0.6797  139.4   2.305   41.8  0.1070   53.4  0.2377  -90.7
 3.200  0.6837  137.9   2.235   40.3  0.1102   53.1  0.2384  -93.1
 3.300  0.6882  136.3   2.166   38.6  0.1133   52.9  0.2396  -95.5
 3.400  0.6931  134.8   2.100   36.9  0.1165   52.7  0.2412  -97.8
 3.500  0.6986  133.3   2.035   35.0  0.1197   52.5  0.2432 -100.1
 3.600  0.7017  131.8   1.980   33.6  0.1230   52.0  0.2437 -102.7
 3.700  0.7053  130.4   1.927   32.0  0.1263   51.6  0.2447 -105.3
 3.800  0.7094  129.0   1.876   30.4  0.1296   51.1  0.2462 -107.8
 3.900  0.7138  127.6   1.825   28.7  0.1329   50.7  0.2482 -110.3
 4.000  0.7187  126.2   1.777   26.9  0.1362   50.3  0.2506 -112.8
 4.100  0.7217  124.9   1.732   25.5  0.1394   49.8  0.2521 -115.6
 4.200  0.7250  123.6   1.689   24.0  0.1425   49.2  0.2543 -118.4
 4.300  0.7288  122.3   1.646   22.5  0.1457   48.7  0.2570 -121.2
 4.400  0.7329  121.1   1.605   20.8  0.1489   48.3  0.2603 -123.9
 4.500  0.7373  119.8   1.565   19.1  0.1521   47.8  0.2642 -126.5
 4.600  0.7409  118.8   1.527   17.9  0.1554   47.3  0.2684 -129.3
 4.700  0.7447  117.8   1.490   16.6  0.1587   46.8  0.2733 -132.0
 4.800  0.7488  116.8   1.454   15.2  0.1621   46.3  0.2787 -134.5
 4.900  0.7531  115.8   1.418   13.8  0.1654   45.8  0.2846 -137.0
 5.000  0.7576  114.8   1.384   12.3  0.1688   45.4  0.2911 -139.4
 5.100  0.7598  113.9   1.356   11.1  0.1722   44.8  0.2986 -141.7
 5.200  0.7622  112.9   1.329    9.9  0.1757   44.2  0.3065 -143.8
 5.300  0.7649  112.0   1.302    8.6  0.1792   43.7  0.3149 -145.8
 5.400  0.7677  111.1   1.276    7.3  0.1827   43.1  0.3236 -147.8
 5.500  0.7707  110.2   1.251    5.9  0.1862   42.6  0.3327 -149.6
 5.600  0.7719  109.3   1.226    4.8  0.1897   41.9  0.3402 -151.2
 5.700  0.7734  108.4   1.202    3.7  0.1933   41.2  0.3480 -152.7
 5.800  0.7750  107.5   1.178    2.5  0.1969   40.5  0.3560 -154.2
 5.900  0.7768  106.6   1.155    1.3  0.2005   39.9  0.3643 -155.6
 6.000  0.7788  105.7   1.132    0.0  0.2041   39.3  0.3727 -156.9
!
!  f       NFmin   Gammaopt  rn/50
! GHz       dB    MAG  ANG    -
 0.450      1.05  0.15  158   0.10
 0.900      1.09  0.21  163   0.09
 1.900      1.56  0.39 -168   0.08
 2.400      1.80  0.44 -161   0.11
!
! (c) 2017  Infineon Technologies AG, Munich