! Infineon Technologies  Discrete & RF Semiconductors
! BFP183W
! VCE =  4.0 V,  IC =  24 mA
! Common Emitter S-Parameters:                            Jan 2017
# GHz  S  MA  R  50
!  f         S11            S21            S12            S22
! GHz     MAG   ANG      MAG   ANG      MAG   ANG      MAG   ANG
 0.010  0.4684   -9.9  52.260  176.0  0.0016   85.1  0.9774   -3.8
 0.020  0.4659  -22.6  51.818  170.8  0.0032   97.9  0.9621   -7.9
 0.030  0.4606  -31.9  50.442  166.8  0.0049   83.2  0.9431  -11.6
 0.040  0.4674  -41.1  49.322  162.6  0.0068   76.3  0.9281  -15.4
 0.050  0.4859  -49.9  48.475  158.3  0.0087   72.4  0.9174  -19.3
 0.060  0.4792  -57.5  46.689  155.3  0.0098   69.0  0.8859  -21.9
 0.070  0.4811  -65.2  45.045  152.0  0.0110   66.4  0.8563  -24.7
 0.080  0.4914  -72.7  43.558  148.5  0.0122   64.2  0.8290  -27.7
 0.090  0.5097  -79.7  42.245  144.8  0.0134   62.5  0.8041  -30.9
 0.100  0.5352  -86.2  41.123  140.8  0.0146   61.0  0.7818  -34.3
 0.110  0.5347  -91.2  39.559  138.7  0.0153   59.3  0.7537  -36.0
 0.120  0.5382  -96.2  38.052  136.4  0.0161   57.8  0.7264  -37.8
 0.130  0.5456 -101.0  36.610  134.0  0.0168   56.4  0.6998  -39.8
 0.140  0.5569 -105.7  35.239  131.3  0.0175   55.2  0.6742  -41.9
 0.150  0.5718 -110.2  33.950  128.5  0.0183   54.0  0.6495  -44.2
 0.200  0.5940 -125.4  28.196  119.5  0.0203   49.2  0.5479  -50.4
 0.250  0.6075 -136.7  23.875  112.9  0.0227   45.8  0.4711  -54.2
 0.300  0.6162 -144.6  20.530  108.1  0.0236   45.9  0.4121  -56.8
 0.350  0.6186 -150.2  18.233  104.9  0.0252   47.0  0.3732  -58.0
 0.400  0.6269 -155.8  16.007  100.9  0.0268   48.0  0.3345  -59.4
 0.450  0.6274 -159.5  14.489   98.7  0.0282   48.6  0.3111  -59.9
 0.500  0.6305 -163.1  12.998   96.0  0.0296   49.2  0.2877  -60.5
 0.600  0.6340 -168.7  10.958   92.0  0.0324   50.0  0.2563  -61.2
 0.700  0.6373 -173.2   9.433   88.7  0.0344   52.8  0.2341  -61.3
 0.800  0.6405 -176.9   8.297   85.5  0.0377   54.9  0.2204  -61.6
 0.900  0.6387  179.5   7.375   82.9  0.0411   55.8  0.2093  -62.2
 1.000  0.6419  176.7   6.671   80.4  0.0438   56.9  0.2001  -62.7
 1.100  0.6463  174.0   6.073   78.2  0.0475   58.1  0.1957  -63.2
 1.200  0.6463  171.5   5.570   75.8  0.0503   57.7  0.1905  -64.1
 1.300  0.6463  168.9   5.147   73.7  0.0533   58.7  0.1873  -65.1
 1.400  0.6500  166.8   4.796   71.6  0.0575   59.4  0.1836  -66.5
 1.500  0.6535  164.8   4.473   69.6  0.0608   59.4  0.1813  -67.9
 1.600  0.6573  162.6   4.205   67.5  0.0642   59.6  0.1804  -69.3
 1.700  0.6579  160.6   3.964   65.6  0.0673   60.1  0.1786  -71.4
 1.800  0.6628  158.6   3.761   63.6  0.0708   59.8  0.1776  -73.4
 1.900  0.6650  156.8   3.562   61.8  0.0742   60.2  0.1770  -75.4
 2.000  0.6678  154.8   3.383   59.8  0.0777   59.5  0.1771  -77.6
 2.100  0.6707  152.9   3.229   57.9  0.0812   59.4  0.1768  -80.1
 2.200  0.6744  151.0   3.079   55.9  0.0848   59.3  0.1768  -82.6
 2.300  0.6782  149.3   2.951   54.2  0.0882   58.9  0.1779  -85.3
 2.400  0.6825  147.6   2.826   52.3  0.0917   58.6  0.1793  -87.9
 2.500  0.6853  146.0   2.715   50.6  0.0950   58.2  0.1805  -90.6
 2.600  0.6887  144.4   2.606   48.7  0.0983   57.9  0.1822  -93.3
 2.700  0.6921  142.8   2.510   47.1  0.1018   57.5  0.1841  -95.8
 2.800  0.6961  141.2   2.417   45.3  0.1053   57.1  0.1864  -98.3
 2.900  0.6990  139.6   2.335   43.6  0.1087   56.5  0.1880 -101.0
 3.000  0.7025  138.0   2.255   41.8  0.1121   56.0  0.1901 -103.7
 3.100  0.7057  136.5   2.187   40.4  0.1155   55.5  0.1919 -106.3
 3.200  0.7095  135.0   2.120   38.8  0.1188   55.1  0.1940 -108.9
 3.300  0.7137  133.6   2.054   37.2  0.1222   54.7  0.1966 -111.5
 3.400  0.7183  132.1   1.991   35.5  0.1256   54.3  0.1995 -113.9
 3.500  0.7234  130.7   1.929   33.6  0.1290   53.9  0.2028 -116.3
 3.600  0.7265  129.3   1.877   32.2  0.1324   53.2  0.2049 -119.0
 3.700  0.7299  128.0   1.827   30.7  0.1358   52.6  0.2074 -121.7
 3.800  0.7338  126.6   1.778   29.2  0.1393   51.9  0.2103 -124.3
 3.900  0.7380  125.3   1.730   27.5  0.1427   51.4  0.2137 -126.9
 4.000  0.7427  124.0   1.684   25.8  0.1462   50.8  0.2175 -129.3
 4.100  0.7453  122.8   1.641   24.4  0.1496   50.1  0.2209 -132.2
 4.200  0.7483  121.5   1.600   23.0  0.1529   49.3  0.2248 -135.0
 4.300  0.7516  120.3   1.559   21.4  0.1563   48.7  0.2292 -137.7
 4.400  0.7552  119.1   1.520   19.8  0.1598   48.0  0.2341 -140.2
 4.500  0.7592  117.9   1.482   18.1  0.1632   47.4  0.2394 -142.7
 4.600  0.7621  116.9   1.446   16.9  0.1664   46.8  0.2453 -145.3
 4.700  0.7652  116.0   1.411   15.7  0.1696   46.2  0.2516 -147.8
 4.800  0.7685  115.0   1.377   14.3  0.1729   45.6  0.2584 -150.1
 4.900  0.7721  114.0   1.344   13.0  0.1761   45.0  0.2656 -152.3
 5.000  0.7758  113.1   1.311   11.5  0.1794   44.5  0.2732 -154.4
 5.100  0.7780  112.2   1.285   10.4  0.1828   43.8  0.2816 -156.3
 5.200  0.7803  111.3   1.260    9.2  0.1862   43.2  0.2902 -158.1
 5.300  0.7829  110.4   1.235    7.9  0.1896   42.6  0.2991 -159.7
 5.400  0.7856  109.6   1.211    6.6  0.1930   42.0  0.3082 -161.3
 5.500  0.7885  108.7   1.187    5.3  0.1965   41.4  0.3176 -162.8
 5.600  0.7892  107.8   1.164    4.2  0.1999   40.7  0.3252 -164.1
 5.700  0.7901  106.9   1.141    3.2  0.2034   39.9  0.3330 -165.3
 5.800  0.7912  106.0   1.118    2.0  0.2068   39.2  0.3409 -166.4
 5.900  0.7925  105.1   1.096    0.8  0.2104   38.6  0.3489 -167.5
 6.000  0.7940  104.2   1.075   -0.4  0.2139   37.9  0.3571 -168.6
!
!  f       NFmin   Gammaopt  rn/50
! GHz       dB    MAG  ANG    -
 0.450      1.27  0.23  176   0.10
 0.900      1.29  0.27  178   0.09
 1.900      1.78  0.43 -159   0.09
 2.400      2.01  0.47 -154   0.13
!
! (c) 2017  Infineon Technologies AG, Munich