! Infineon Technologies  Discrete & RF Semiconductors
! BFP183W
! VCE =  5.0 V,  IC =  30 mA
! Common Emitter S-Parameters:                            Jan 2017
# GHz  S  MA  R  50
!  f         S11            S21            S12            S22
! GHz     MAG   ANG      MAG   ANG      MAG   ANG      MAG   ANG
 0.010  0.4118  -11.5  58.081  175.5  0.0014   93.3  0.9726   -4.0
 0.020  0.4137  -25.8  57.425  170.0  0.0030   90.2  0.9537   -8.4
 0.030  0.4111  -36.5  55.698  165.8  0.0046   79.2  0.9322  -12.3
 0.040  0.4225  -46.9  54.293  161.3  0.0063   74.0  0.9151  -16.3
 0.050  0.4471  -56.5  53.236  156.6  0.0080   71.0  0.9027  -20.5
 0.060  0.4431  -64.6  51.051  153.5  0.0090   68.4  0.8688  -23.1
 0.070  0.4481  -72.8  49.028  150.1  0.0100   66.3  0.8368  -25.9
 0.080  0.4618  -80.6  47.188  146.5  0.0110   64.6  0.8070  -29.0
 0.090  0.4835  -87.8  45.553  142.6  0.0120   63.2  0.7797  -32.2
 0.100  0.5122  -94.3  44.146  138.4  0.0130   62.0  0.7550  -35.7
 0.110  0.5146  -99.2  42.356  136.3  0.0137   59.5  0.7262  -37.3
 0.120  0.5207 -104.1  40.626  134.1  0.0144   57.3  0.6980  -39.1
 0.130  0.5304 -108.7  38.964  131.6  0.0152   55.3  0.6706  -41.0
 0.140  0.5436 -113.2  37.379  129.0  0.0159   53.5  0.6439  -43.1
 0.150  0.5599 -117.5  35.881  126.1  0.0167   51.9  0.6182  -45.3
 0.200  0.5843 -131.8  29.459  117.3  0.0178   50.9  0.5179  -50.8
 0.250  0.6011 -142.1  24.773  111.1  0.0201   48.0  0.4430  -54.1
 0.300  0.6103 -149.4  21.218  106.5  0.0216   48.0  0.3879  -56.1
 0.350  0.6145 -154.5  18.806  103.5  0.0227   49.2  0.3521  -57.0
 0.400  0.6235 -159.5  16.460   99.7  0.0238   50.3  0.3164  -58.0
 0.450  0.6236 -162.8  14.883   97.6  0.0255   51.3  0.2949  -58.2
 0.500  0.6258 -166.1  13.331   95.0  0.0272   52.2  0.2734  -58.4
 0.600  0.6307 -171.3  11.230   91.1  0.0301   53.8  0.2455  -58.6
 0.700  0.6333 -175.3   9.655   88.0  0.0326   56.7  0.2254  -58.3
 0.800  0.6378 -179.0   8.492   84.9  0.0365   57.7  0.2134  -58.6
 0.900  0.6358  178.0   7.540   82.4  0.0393   59.2  0.2039  -59.0
 1.000  0.6389  175.1   6.821   80.0  0.0424   60.1  0.1962  -59.3
 1.100  0.6411  172.7   6.209   77.8  0.0457   60.8  0.1927  -59.9
 1.200  0.6441  170.1   5.692   75.5  0.0491   61.2  0.1883  -60.7
 1.300  0.6433  167.9   5.258   73.4  0.0526   61.3  0.1855  -61.8
 1.400  0.6477  165.7   4.900   71.3  0.0563   62.0  0.1826  -63.0
 1.500  0.6508  163.8   4.570   69.4  0.0596   62.1  0.1803  -64.6
 1.600  0.6541  161.7   4.295   67.3  0.0628   61.9  0.1797  -65.9
 1.700  0.6528  159.5   4.051   65.4  0.0661   62.2  0.1784  -68.1
 1.800  0.6576  157.7   3.841   63.5  0.0701   62.2  0.1773  -70.1
 1.900  0.6618  156.0   3.636   61.7  0.0731   62.1  0.1769  -72.0
 2.000  0.6644  154.0   3.454   59.7  0.0772   61.4  0.1773  -74.3
 2.100  0.6667  152.2   3.298   57.9  0.0806   61.2  0.1770  -76.8
 2.200  0.6696  150.4   3.145   55.9  0.0841   61.0  0.1771  -79.3
 2.300  0.6740  148.7   3.014   54.2  0.0877   60.6  0.1779  -81.9
 2.400  0.6790  147.1   2.886   52.3  0.0913   60.3  0.1790  -84.5
 2.500  0.6813  145.5   2.772   50.6  0.0947   59.9  0.1803  -87.3
 2.600  0.6841  144.0   2.660   48.8  0.0982   59.6  0.1820  -90.0
 2.700  0.6886  142.3   2.563   47.2  0.1017   59.1  0.1835  -92.7
 2.800  0.6937  140.7   2.469   45.4  0.1053   58.6  0.1854  -95.3
 2.900  0.6963  139.2   2.384   43.8  0.1084   58.1  0.1871  -98.1
 3.000  0.6993  137.7   2.301   42.0  0.1116   57.6  0.1893 -100.9
 3.100  0.7024  136.2   2.231   40.6  0.1151   57.1  0.1909 -103.5
 3.200  0.7060  134.7   2.163   39.1  0.1185   56.6  0.1928 -106.1
 3.300  0.7100  133.3   2.097   37.4  0.1220   56.1  0.1952 -108.6
 3.400  0.7145  131.8   2.032   35.7  0.1255   55.6  0.1979 -111.1
 3.500  0.7195  130.4   1.969   33.9  0.1290   55.2  0.2010 -113.5
 3.600  0.7224  129.0   1.916   32.5  0.1324   54.4  0.2029 -116.3
 3.700  0.7257  127.7   1.865   31.0  0.1359   53.7  0.2053 -119.1
 3.800  0.7295  126.3   1.815   29.4  0.1393   53.1  0.2082 -121.8
 3.900  0.7336  125.0   1.766   27.8  0.1428   52.4  0.2116 -124.4
 4.000  0.7381  123.7   1.719   26.0  0.1463   51.8  0.2153 -126.9
 4.100  0.7410  122.5   1.676   24.6  0.1495   51.0  0.2184 -129.8
 4.200  0.7442  121.3   1.633   23.2  0.1528   50.3  0.2220 -132.7
 4.300  0.7477  120.1   1.592   21.7  0.1561   49.6  0.2261 -135.4
 4.400  0.7515  118.9   1.552   20.1  0.1594   48.9  0.2308 -138.1
 4.500  0.7557  117.7   1.513   18.4  0.1627   48.3  0.2359 -140.6
 4.600  0.7590  116.7   1.477   17.2  0.1661   47.7  0.2416 -143.3
 4.700  0.7625  115.8   1.441   16.0  0.1695   47.1  0.2478 -145.8
 4.800  0.7662  114.8   1.406   14.6  0.1729   46.5  0.2544 -148.2
 4.900  0.7701  113.8   1.372   13.3  0.1763   45.9  0.2615 -150.4
 5.000  0.7742  112.9   1.339   11.8  0.1798   45.4  0.2689 -152.6
 5.100  0.7762  112.0   1.312   10.7  0.1831   44.7  0.2772 -154.5
 5.200  0.7784  111.2   1.286    9.5  0.1864   44.0  0.2858 -156.4
 5.300  0.7808  110.3   1.260    8.2  0.1897   43.4  0.2946 -158.1
 5.400  0.7833  109.4   1.235    6.9  0.1931   42.7  0.3038 -159.7
 5.500  0.7860  108.6   1.211    5.6  0.1965   42.1  0.3131 -161.2
 5.600  0.7869  107.7   1.187    4.5  0.2000   41.3  0.3206 -162.5
 5.700  0.7880  106.8   1.164    3.4  0.2035   40.6  0.3283 -163.7
 5.800  0.7893  105.9   1.142    2.3  0.2071   39.9  0.3361 -164.9
 5.900  0.7907  105.0   1.120    1.1  0.2107   39.2  0.3441 -166.0
 6.000  0.7924  104.1   1.098   -0.2  0.2143   38.5  0.3522 -167.1
!
!  f       NFmin   Gammaopt  rn/50
! GHz       dB    MAG  ANG    -
 0.450      1.39  0.27  180   0.10
 0.900      1.43  0.30 -178   0.09
 1.900      1.92  0.45 -156   0.10
 2.400      2.17  0.50 -152   0.15
!
! (c) 2017  Infineon Technologies AG, Munich