! Infineon Technologies  Discrete & RF Semiconductors
! BFP183W
! VCE =  10. V,  IC =  2.0 mA
! Common Emitter S-Parameters:                            Jan 2017
# GHz  S  MA  R  50
!  f         S11            S21            S12            S22
! GHz     MAG   ANG      MAG   ANG      MAG   ANG      MAG   ANG
 0.010  0.9567   -1.0   7.027  180.0  0.0016   92.0  1.0000   -0.7
 0.020  0.9436   -5.0   7.026  177.8  0.0041   93.7  0.9906   -1.5
 0.030  0.9378   -6.3   6.991  176.7  0.0062   88.6  0.9920   -2.2
 0.040  0.9325   -7.6   6.959  175.6  0.0084   86.1  0.9936   -2.8
 0.050  0.9276   -8.9   6.930  174.5  0.0106   84.6  0.9953   -3.5
 0.060  0.9279  -10.7   6.911  173.3  0.0127   83.1  0.9932   -4.2
 0.070  0.9290  -12.5   6.895  172.2  0.0148   82.0  0.9913   -4.9
 0.080  0.9311  -14.3   6.882  171.0  0.0169   81.2  0.9895   -5.5
 0.090  0.9342  -16.1   6.872  169.9  0.0190   80.5  0.9879   -6.2
 0.100  0.9381  -17.9   6.864  168.7  0.0211   80.0  0.9864   -6.9
 0.110  0.9328  -19.7   6.837  167.6  0.0230   78.5  0.9838   -7.6
 0.120  0.9284  -21.6   6.812  166.4  0.0250   77.3  0.9814   -8.3
 0.130  0.9250  -23.4   6.791  165.2  0.0270   76.2  0.9791   -9.0
 0.140  0.9225  -25.3   6.772  164.1  0.0289   75.3  0.9770   -9.7
 0.150  0.9211  -27.2   6.756  162.9  0.0309   74.5  0.9750  -10.4
 0.200  0.9176  -35.6   6.605  157.1  0.0396   71.1  0.9587  -13.5
 0.250  0.9050  -44.2   6.466  151.6  0.0489   65.3  0.9394  -16.5
 0.300  0.8860  -52.3   6.252  146.4  0.0561   60.8  0.9161  -19.3
 0.350  0.8682  -59.5   6.026  141.9  0.0627   56.3  0.8922  -21.6
 0.400  0.8645  -66.9   5.841  137.0  0.0696   52.7  0.8699  -24.1
 0.450  0.8425  -73.5   5.589  133.1  0.0743   48.9  0.8459  -26.0
 0.500  0.8320  -80.3   5.365  128.8  0.0792   45.6  0.8228  -28.0
 0.600  0.8081  -92.1   4.939  121.3  0.0868   40.3  0.7808  -31.1
 0.700  0.7880 -102.6   4.525  114.6  0.0916   35.8  0.7432  -33.6
 0.800  0.7695 -111.9   4.177  108.7  0.0954   31.6  0.7124  -35.8
 0.900  0.7533 -120.1   3.846  103.5  0.0980   27.9  0.6859  -37.8
 1.000  0.7439 -127.3   3.567   98.9  0.0997   24.9  0.6642  -39.4
 1.100  0.7365 -134.0   3.315   94.6  0.1008   22.6  0.6466  -40.9
 1.200  0.7286 -140.2   3.088   90.5  0.1011   20.0  0.6304  -42.4
 1.300  0.7227 -145.6   2.890   86.7  0.1010   18.2  0.6170  -43.9
 1.400  0.7201 -150.6   2.720   83.2  0.1010   16.6  0.6057  -45.5
 1.500  0.7216 -155.5   2.568   79.9  0.1004   15.3  0.5963  -47.0
 1.600  0.7196 -160.0   2.422   76.6  0.0995   14.2  0.5895  -48.4
 1.700  0.7185 -164.1   2.303   73.8  0.0984   13.4  0.5811  -50.1
 1.800  0.7220 -168.1   2.202   70.8  0.0973   12.7  0.5741  -51.6
 1.900  0.7243 -171.9   2.096   68.2  0.0956   12.3  0.5682  -53.2
 2.000  0.7239 -175.6   2.004   65.2  0.0945   11.8  0.5646  -54.8
 2.100  0.7246 -179.0   1.920   62.6  0.0929   11.8  0.5608  -56.5
 2.200  0.7279  177.6   1.841   59.7  0.0913   11.7  0.5576  -58.3
 2.300  0.7300  174.5   1.767   57.2  0.0898   12.0  0.5552  -60.2
 2.400  0.7341  171.5   1.697   54.5  0.0883   12.3  0.5535  -62.2
 2.500  0.7357  168.7   1.632   52.2  0.0867   12.8  0.5515  -64.1
 2.600  0.7390  166.0   1.569   49.7  0.0852   13.4  0.5501  -66.1
 2.700  0.7415  163.3   1.515   47.5  0.0838   14.5  0.5496  -68.0
 2.800  0.7457  160.6   1.464   45.1  0.0825   15.6  0.5497  -70.0
 2.900  0.7477  158.2   1.417   42.8  0.0816   16.8  0.5486  -71.9
 3.000  0.7511  155.8   1.373   40.3  0.0808   18.1  0.5481  -73.9
 3.100  0.7526  153.5   1.330   38.5  0.0804   20.1  0.5474  -76.1
 3.200  0.7552  151.3   1.287   36.6  0.0802   22.1  0.5475  -78.2
 3.300  0.7590  149.1   1.247   34.6  0.0800   24.1  0.5483  -80.4
 3.400  0.7640  146.9   1.208   32.4  0.0800   26.1  0.5500  -82.6
 3.500  0.7700  144.7   1.171   30.1  0.0800   28.1  0.5524  -84.7
 3.600  0.7716  142.7   1.138   28.4  0.0813   30.1  0.5516  -87.0
 3.700  0.7742  140.8   1.107   26.6  0.0827   32.0  0.5517  -89.3
 3.800  0.7776  138.8   1.076   24.7  0.0842   33.8  0.5526  -91.6
 3.900  0.7819  136.9   1.047   22.7  0.0858   35.6  0.5545  -93.8
 4.000  0.7871  135.0   1.019   20.6  0.0874   37.3  0.5572  -96.1
 4.100  0.7888  133.3   0.991   19.0  0.0902   38.8  0.5565  -98.6
 4.200  0.7913  131.6   0.964   17.3  0.0930   40.2  0.5570 -101.2
 4.300  0.7943  130.0   0.938   15.6  0.0960   41.5  0.5585 -103.7
 4.400  0.7981  128.3   0.913   13.7  0.0989   42.7  0.5611 -106.2
 4.500  0.8025  126.7   0.889   11.7  0.1019   43.9  0.5648 -108.7
 4.600  0.8047  125.4   0.865   10.4  0.1059   44.7  0.5661 -111.3
 4.700  0.8074  124.0   0.841    9.0  0.1099   45.5  0.5685 -114.0
 4.800  0.8105  122.7   0.818    7.6  0.1140   46.2  0.5722 -116.5
 4.900  0.8140  121.4   0.795    6.0  0.1180   46.9  0.5770 -119.1
 5.000  0.8179  120.1   0.773    4.4  0.1221   47.5  0.5829 -121.6
 5.100  0.8198  118.9   0.755    3.3  0.1267   47.6  0.5878 -124.1
 5.200  0.8220  117.8   0.736    2.2  0.1314   47.7  0.5938 -126.5
 5.300  0.8245  116.7   0.719    1.0  0.1360   47.8  0.6008 -128.8
 5.400  0.8273  115.5   0.701   -0.3  0.1407   47.8  0.6088 -131.2
 5.500  0.8305  114.4   0.684   -1.6  0.1453   47.9  0.6178 -133.4
 5.600  0.8308  113.3   0.668   -2.5  0.1504   47.4  0.6234 -135.5
 5.700  0.8313  112.2   0.652   -3.5  0.1555   47.0  0.6298 -137.6
 5.800  0.8322  111.1   0.636   -4.5  0.1606   46.6  0.6371 -139.7
 5.900  0.8334  110.0   0.620   -5.5  0.1657   46.3  0.6451 -141.7
 6.000  0.8349  108.9   0.605   -6.6  0.1708   45.9  0.6539 -143.6
!
!  f       NFmin   Gammaopt  rn/50
! GHz       dB    MAG  ANG    -
 0.450      0.76  0.48   45   0.22
 0.900      0.95  0.41   86   0.19
 1.900      1.77  0.52  156   0.09
 2.400      2.08  0.55  173   0.09
!
! (c) 2017  Infineon Technologies AG, Munich