! Infineon Technologies  Discrete & RF Semiconductors
! BFP183W
! VCE =  7.0 V,  IC =  28 mA
! Common Emitter S-Parameters:                            Jan 2017
# GHz  S  MA  R  50
!  f         S11            S21            S12            S22
! GHz     MAG   ANG      MAG   ANG      MAG   ANG      MAG   ANG
 0.010  0.4667   -9.2  55.562  175.7  0.0013   85.4  0.9757   -3.6
 0.020  0.4651  -21.5  54.698  170.6  0.0030   88.2  0.9586   -7.6
 0.030  0.4591  -30.8  53.302  166.6  0.0048   80.0  0.9406  -11.2
 0.040  0.4652  -40.1  52.173  162.5  0.0066   76.2  0.9264  -14.9
 0.050  0.4831  -48.9  51.328  158.2  0.0084   74.1  0.9162  -18.7
 0.060  0.4755  -56.4  49.437  155.2  0.0093   70.9  0.8856  -21.2
 0.070  0.4763  -64.1  47.694  151.9  0.0103   68.3  0.8569  -23.9
 0.080  0.4854  -71.6  46.116  148.5  0.0113   66.1  0.8301  -26.7
 0.090  0.5025  -78.7  44.720  144.7  0.0123   64.3  0.8056  -29.8
 0.100  0.5267  -85.2  43.523  140.8  0.0133   62.8  0.7834  -33.0
 0.110  0.5252  -90.2  41.877  138.7  0.0140   60.6  0.7556  -34.6
 0.120  0.5277  -95.1  40.291  136.4  0.0147   58.6  0.7285  -36.4
 0.130  0.5340 -100.0  38.774  134.0  0.0154   56.8  0.7021  -38.3
 0.140  0.5442 -104.8  37.333  131.3  0.0162   55.2  0.6765  -40.3
 0.150  0.5579 -109.3  35.978  128.5  0.0169   53.7  0.6519  -42.5
 0.200  0.5791 -124.7  29.866  119.6  0.0189   51.5  0.5517  -48.1
 0.250  0.5927 -135.9  25.291  113.0  0.0208   48.8  0.4756  -51.6
 0.300  0.6007 -144.0  21.753  108.2  0.0226   48.4  0.4179  -53.6
 0.350  0.6024 -149.6  19.324  105.1  0.0239   48.5  0.3801  -54.5
 0.400  0.6098 -155.2  16.968  101.1  0.0252   48.6  0.3425  -55.5
 0.450  0.6095 -159.0  15.358   98.9  0.0263   49.4  0.3193  -55.7
 0.500  0.6118 -162.8  13.776   96.2  0.0275   50.2  0.2962  -56.0
 0.600  0.6169 -168.2  11.621   92.2  0.0308   52.4  0.2661  -56.1
 0.700  0.6196 -172.7  10.000   88.9  0.0330   55.4  0.2452  -55.9
 0.800  0.6220 -176.7   8.796   85.8  0.0363   56.8  0.2318  -56.1
 0.900  0.6219  180.0   7.815   83.2  0.0396   57.8  0.2218  -56.4
 1.000  0.6244  177.0   7.075   80.8  0.0424   58.9  0.2131  -56.6
 1.100  0.6276  174.2   6.439   78.5  0.0458   59.6  0.2090  -57.2
 1.200  0.6277  171.7   5.903   76.2  0.0486   59.8  0.2040  -57.7
 1.300  0.6298  169.2   5.454   74.1  0.0519   60.3  0.2013  -58.9
 1.400  0.6320  166.9   5.084   72.0  0.0559   60.8  0.1972  -60.0
 1.500  0.6366  165.0   4.742   70.1  0.0587   60.9  0.1954  -61.3
 1.600  0.6377  162.8   4.455   68.0  0.0621   61.2  0.1944  -62.6
 1.700  0.6402  160.7   4.203   66.1  0.0657   61.1  0.1925  -64.6
 1.800  0.6434  158.7   3.985   64.2  0.0690   61.0  0.1917  -66.3
 1.900  0.6470  157.1   3.774   62.4  0.0725   61.2  0.1903  -68.2
 2.000  0.6499  155.0   3.585   60.4  0.0761   60.9  0.1905  -70.4
 2.100  0.6526  153.1   3.423   58.6  0.0793   60.7  0.1897  -72.7
 2.200  0.6559  151.3   3.265   56.6  0.0826   60.6  0.1892  -75.1
 2.300  0.6597  149.5   3.128   54.9  0.0862   60.3  0.1897  -77.7
 2.400  0.6642  147.8   2.995   53.0  0.0898   60.1  0.1905  -80.2
 2.500  0.6672  146.2   2.877   51.3  0.0932   59.5  0.1912  -82.9
 2.600  0.6707  144.6   2.762   49.5  0.0966   59.0  0.1923  -85.5
 2.700  0.6750  143.0   2.661   47.9  0.1000   58.6  0.1934  -88.1
 2.800  0.6798  141.4   2.562   46.1  0.1034   58.3  0.1949  -90.6
 2.900  0.6832  139.8   2.475   44.5  0.1066   57.7  0.1960  -93.3
 3.000  0.6871  138.3   2.390   42.7  0.1099   57.1  0.1975  -95.9
 3.100  0.6903  136.8   2.318   41.3  0.1132   56.6  0.1986  -98.5
 3.200  0.6939  135.3   2.247   39.8  0.1166   56.2  0.2001 -101.1
 3.300  0.6980  133.9   2.178   38.1  0.1200   55.8  0.2020 -103.6
 3.400  0.7026  132.4   2.111   36.4  0.1233   55.4  0.2043 -106.1
 3.500  0.7076  131.0   2.046   34.6  0.1267   55.0  0.2069 -108.5
 3.600  0.7108  129.6   1.991   33.2  0.1301   54.3  0.2084 -111.3
 3.700  0.7144  128.3   1.938   31.7  0.1336   53.7  0.2103 -114.0
 3.800  0.7184  126.9   1.886   30.1  0.1370   53.0  0.2127 -116.7
 3.900  0.7228  125.6   1.835   28.5  0.1405   52.5  0.2156 -119.4
 4.000  0.7276  124.3   1.786   26.7  0.1440   51.9  0.2189 -121.9
 4.100  0.7304  123.1   1.741   25.3  0.1472   51.2  0.2214 -124.8
 4.200  0.7336  121.9   1.697   23.9  0.1504   50.5  0.2245 -127.7
 4.300  0.7371  120.7   1.655   22.4  0.1537   49.8  0.2282 -130.5
 4.400  0.7410  119.5   1.613   20.8  0.1569   49.1  0.2323 -133.2
 4.500  0.7451  118.3   1.573   19.1  0.1602   48.5  0.2370 -135.8
 4.600  0.7482  117.3   1.535   17.9  0.1635   47.9  0.2421 -138.5
 4.700  0.7516  116.3   1.498   16.7  0.1669   47.3  0.2477 -141.2
 4.800  0.7551  115.3   1.462   15.3  0.1702   46.8  0.2539 -143.7
 4.900  0.7589  114.4   1.427   14.0  0.1736   46.2  0.2605 -146.0
 5.000  0.7629  113.4   1.392   12.5  0.1770   45.7  0.2675 -148.3
 5.100  0.7654  112.5   1.364   11.4  0.1804   45.0  0.2756 -150.4
 5.200  0.7681  111.6   1.337   10.2  0.1837   44.4  0.2840 -152.3
 5.300  0.7710  110.7   1.311    8.9  0.1871   43.8  0.2927 -154.1
 5.400  0.7741  109.9   1.285    7.6  0.1906   43.2  0.3017 -155.9
 5.500  0.7773  109.0   1.260    6.3  0.1940   42.6  0.3109 -157.5
 5.600  0.7780  108.1   1.235    5.2  0.1974   41.8  0.3184 -158.9
 5.700  0.7788  107.2   1.211    4.1  0.2009   41.0  0.3261 -160.2
 5.800  0.7799  106.4   1.188    2.9  0.2044   40.2  0.3340 -161.5
 5.900  0.7811  105.5   1.165    1.7  0.2079   39.5  0.3420 -162.7
 6.000  0.7825  104.6   1.142    0.4  0.2115   38.8  0.3502 -163.8
!
!  f       NFmin   Gammaopt  rn/50
! GHz       dB    MAG  ANG    -
 0.450      1.35  0.26  179   0.09
 0.900      1.38  0.29 -179   0.10
 1.900      1.87  0.44 -157   0.10
 2.400      2.12  0.49 -152   0.14
!
! (c) 2017  Infineon Technologies AG, Munich