! Infineon Technologies  Discrete & RF Semiconductors
! BFP183W
! VCE =  5.0 V,  IC =  33 mA
! Common Emitter S-Parameters:                            Jan 2017
# GHz  S  MA  R  50
!  f         S11            S21            S12            S22
! GHz     MAG   ANG      MAG   ANG      MAG   ANG      MAG   ANG
 0.010  0.3819  -12.7  60.502  175.3  0.0016   86.4  0.9680   -4.1
 0.020  0.3854  -27.6  59.489  169.6  0.0031   84.8  0.9518   -8.7
 0.030  0.3836  -39.6  57.662  165.2  0.0046   76.6  0.9277  -12.7
 0.040  0.3982  -51.1  56.200  160.5  0.0061   72.5  0.9085  -16.9
 0.050  0.4276  -61.5  55.132  155.6  0.0076   70.0  0.8943  -21.3
 0.060  0.4270  -69.9  52.736  152.5  0.0086   67.4  0.8589  -23.9
 0.070  0.4355  -78.1  50.510  149.1  0.0096   65.3  0.8254  -26.8
 0.080  0.4524  -85.8  48.477  145.4  0.0106   63.6  0.7941  -29.8
 0.090  0.4770  -92.9  46.662  141.4  0.0117   62.3  0.7653  -33.1
 0.100  0.5081  -99.2  45.093  137.1  0.0127   61.1  0.7392  -36.7
 0.110  0.5115 -104.0  43.195  135.0  0.0133   59.0  0.7099  -38.3
 0.120  0.5185 -108.8  41.357  132.8  0.0140   57.1  0.6812  -40.0
 0.130  0.5290 -113.4  39.588  130.4  0.0146   55.3  0.6531  -41.8
 0.140  0.5427 -117.8  37.897  127.7  0.0153   53.8  0.6258  -43.8
 0.150  0.5594 -121.9  36.296  124.8  0.0160   52.3  0.5993  -46.0
 0.200  0.5855 -135.4  29.612  116.2  0.0174   50.2  0.4990  -51.4
 0.250  0.6047 -145.1  24.818  110.0  0.0192   48.3  0.4266  -54.4
 0.300  0.6150 -152.0  21.193  105.5  0.0207   48.9  0.3735  -56.0
 0.350  0.6175 -156.8  18.768  102.6  0.0221   49.9  0.3391  -56.7
 0.400  0.6243 -161.5  16.404   98.9  0.0235   50.8  0.3047  -57.5
 0.450  0.6256 -164.7  14.824   96.8  0.0248   51.9  0.2846  -57.6
 0.500  0.6288 -167.8  13.267   94.3  0.0262   52.9  0.2645  -57.8
 0.600  0.6326 -172.6  11.166   90.6  0.0288   56.5  0.2379  -57.8
 0.700  0.6354 -176.6   9.603   87.5  0.0321   57.7  0.2195  -57.5
 0.800  0.6394 -179.9   8.435   84.5  0.0354   59.6  0.2085  -57.5
 0.900  0.6390  177.1   7.490   82.0  0.0384   59.5  0.1994  -58.0
 1.000  0.6419  174.4   6.778   79.6  0.0421   61.2  0.1925  -58.6
 1.100  0.6450  171.9   6.169   77.5  0.0458   62.2  0.1892  -59.0
 1.200  0.6461  169.5   5.653   75.2  0.0490   62.1  0.1855  -59.7
 1.300  0.6475  167.3   5.223   73.1  0.0520   62.4  0.1832  -61.0
 1.400  0.6500  165.1   4.868   71.1  0.0559   63.1  0.1803  -62.3
 1.500  0.6535  163.3   4.540   69.1  0.0593   63.2  0.1786  -63.8
 1.600  0.6564  161.2   4.266   67.1  0.0628   63.0  0.1779  -65.2
 1.700  0.6573  159.2   4.022   65.2  0.0666   63.2  0.1768  -67.2
 1.800  0.6616  157.2   3.814   63.2  0.0700   62.7  0.1762  -69.5
 1.900  0.6640  155.6   3.612   61.5  0.0733   62.9  0.1755  -71.3
 2.000  0.6678  153.7   3.429   59.5  0.0769   62.4  0.1761  -73.8
 2.100  0.6701  151.8   3.274   57.7  0.0806   62.2  0.1760  -76.3
 2.200  0.6731  150.0   3.122   55.7  0.0843   62.0  0.1762  -78.8
 2.300  0.6771  148.3   2.992   54.0  0.0877   61.5  0.1770  -81.5
 2.400  0.6817  146.7   2.865   52.1  0.0911   61.0  0.1781  -84.2
 2.500  0.6842  145.1   2.751   50.4  0.0946   60.4  0.1795  -86.9
 2.600  0.6872  143.6   2.640   48.6  0.0982   59.9  0.1813  -89.6
 2.700  0.6912  142.0   2.544   47.0  0.1016   59.5  0.1830  -92.3
 2.800  0.6957  140.4   2.451   45.2  0.1051   59.2  0.1851  -94.9
 2.900  0.6987  138.9   2.367   43.6  0.1085   58.5  0.1867  -97.7
 3.000  0.7022  137.4   2.285   41.8  0.1120   57.8  0.1887 -100.5
 3.100  0.7053  135.9   2.216   40.4  0.1154   57.3  0.1903 -103.2
 3.200  0.7089  134.4   2.148   38.9  0.1189   56.8  0.1922 -105.8
 3.300  0.7130  133.0   2.081   37.2  0.1223   56.3  0.1946 -108.4
 3.400  0.7175  131.5   2.017   35.5  0.1257   55.8  0.1974 -110.9
 3.500  0.7225  130.1   1.954   33.7  0.1292   55.4  0.2005 -113.3
 3.600  0.7256  128.8   1.902   32.3  0.1326   54.6  0.2025 -116.1
 3.700  0.7291  127.5   1.850   30.8  0.1361   53.9  0.2050 -118.9
 3.800  0.7330  126.2   1.800   29.2  0.1396   53.3  0.2079 -121.6
 3.900  0.7372  124.9   1.752   27.6  0.1431   52.6  0.2113 -124.2
 4.000  0.7418  123.6   1.705   25.8  0.1466   52.0  0.2151 -126.7
 4.100  0.7442  122.4   1.662   24.4  0.1499   51.3  0.2183 -129.7
 4.200  0.7470  121.2   1.620   23.0  0.1532   50.6  0.2220 -132.5
 4.300  0.7501  120.0   1.579   21.5  0.1565   49.9  0.2263 -135.3
 4.400  0.7535  118.8   1.539   19.9  0.1598   49.3  0.2310 -138.0
 4.500  0.7573  117.6   1.501   18.2  0.1632   48.7  0.2363 -140.5
 4.600  0.7604  116.6   1.465   17.0  0.1665   48.1  0.2420 -143.1
 4.700  0.7637  115.7   1.430   15.8  0.1699   47.4  0.2482 -145.6
 4.800  0.7673  114.7   1.395   14.4  0.1732   46.8  0.2549 -148.0
 4.900  0.7710  113.7   1.361   13.1  0.1766   46.3  0.2619 -150.3
 5.000  0.7750  112.8   1.328   11.6  0.1800   45.7  0.2694 -152.4
 5.100  0.7772  111.9   1.302   10.5  0.1834   45.0  0.2776 -154.4
 5.200  0.7796  111.0   1.276    9.3  0.1869   44.3  0.2862 -156.2
 5.300  0.7821  110.1   1.251    8.1  0.1904   43.7  0.2951 -158.0
 5.400  0.7849  109.3   1.227    6.8  0.1939   43.1  0.3042 -159.6
 5.500  0.7878  108.4   1.203    5.5  0.1974   42.5  0.3135 -161.2
 5.600  0.7885  107.5   1.179    4.4  0.2007   41.7  0.3212 -162.5
 5.700  0.7895  106.7   1.156    3.3  0.2041   40.9  0.3290 -163.7
 5.800  0.7906  105.8   1.133    2.2  0.2076   40.1  0.3370 -164.9
 5.900  0.7918  105.0   1.111    1.0  0.2110   39.4  0.3451 -166.0
 6.000  0.7933  104.1   1.089   -0.3  0.2145   38.7  0.3533 -167.1
!
!  f       NFmin   Gammaopt  rn/50
! GHz       dB    MAG  ANG    -
 0.450      1.47  0.28 -179   0.10
 0.900      1.51  0.31 -177   0.10
 1.900      2.00  0.46 -156   0.11
 2.400      2.24  0.51 -151   0.16
!
! (c) 2017  Infineon Technologies AG, Munich