! Infineon Technologies  Discrete & RF Semiconductors
! BFP183W
! VCE =  3.0 V,  IC =  17 mA
! Common Emitter S-Parameters:                            Jan 2017
# GHz  S  MA  R  50
!  f         S11            S21            S12            S22
! GHz     MAG   ANG      MAG   ANG      MAG   ANG      MAG   ANG
 0.010  0.5663   -7.7  42.846  176.8  0.0018   86.8  0.9847   -3.4
 0.020  0.5601  -17.8  42.581  172.2  0.0037   90.8  0.9717   -6.9
 0.030  0.5524  -25.2  41.687  168.6  0.0057   83.2  0.9569  -10.2
 0.040  0.5539  -32.6  40.962  164.9  0.0078   79.6  0.9454  -13.6
 0.050  0.5647  -39.9  40.414  161.1  0.0099   77.5  0.9372  -17.0
 0.060  0.5540  -46.4  39.205  158.2  0.0113   73.4  0.9110  -19.5
 0.070  0.5506  -53.0  38.101  155.2  0.0128   70.2  0.8867  -22.2
 0.080  0.5547  -59.7  37.112  151.9  0.0143   67.6  0.8644  -25.0
 0.090  0.5661  -66.2  36.246  148.5  0.0159   65.6  0.8442  -27.9
 0.100  0.5844  -72.3  35.514  145.0  0.0174   63.9  0.8264  -31.0
 0.110  0.5794  -77.2  34.354  142.9  0.0183   61.5  0.8007  -32.8
 0.120  0.5786  -82.1  33.244  140.6  0.0192   59.3  0.7758  -34.7
 0.130  0.5821  -87.0  32.191  138.2  0.0202   57.3  0.7518  -36.7
 0.140  0.5898  -91.8  31.200  135.6  0.0212   55.5  0.7287  -38.8
 0.150  0.6016  -96.5  30.277  132.8  0.0222   53.9  0.7068  -41.1
 0.200  0.6153 -113.3  25.675  123.5  0.0252   48.8  0.6068  -47.9
 0.250  0.6239 -125.9  22.062  116.5  0.0272   45.2  0.5271  -52.5
 0.300  0.6279 -135.1  19.136  111.4  0.0291   43.9  0.4635  -55.7
 0.350  0.6281 -141.7  17.072  107.9  0.0305   43.6  0.4200  -57.4
 0.400  0.6366 -148.2  15.088  103.5  0.0319   43.4  0.3769  -59.6
 0.450  0.6350 -152.6  13.693  101.1  0.0331   43.6  0.3498  -60.5
 0.500  0.6372 -157.0  12.328   98.1  0.0343   43.7  0.3229  -61.6
 0.600  0.6406 -163.4  10.420   93.7  0.0367   44.5  0.2858  -62.8
 0.700  0.6433 -168.6   8.983   90.1  0.0388   46.1  0.2595  -63.3
 0.800  0.6447 -173.2   7.913   86.7  0.0419   48.9  0.2425  -63.9
 0.900  0.6463 -177.0   7.040   83.9  0.0446   49.4  0.2287  -64.6
 1.000  0.6487  179.9   6.373   81.3  0.0468   51.0  0.2177  -65.4
 1.100  0.6517  176.9   5.805   78.9  0.0503   51.9  0.2115  -66.0
 1.200  0.6528  174.0   5.323   76.4  0.0528   52.4  0.2054  -66.8
 1.300  0.6522  171.4   4.921   74.2  0.0556   53.0  0.2004  -68.0
 1.400  0.6560  169.0   4.588   72.0  0.0590   54.0  0.1961  -69.4
 1.500  0.6595  167.0   4.280   69.9  0.0621   54.3  0.1930  -70.8
 1.600  0.6619  164.5   4.025   67.8  0.0652   55.0  0.1915  -72.1
 1.700  0.6648  162.2   3.795   65.8  0.0686   55.4  0.1894  -74.1
 1.800  0.6675  160.3   3.600   63.7  0.0721   55.5  0.1880  -76.1
 1.900  0.6707  158.4   3.410   61.9  0.0748   55.7  0.1868  -78.1
 2.000  0.6746  156.2   3.240   59.8  0.0783   55.6  0.1865  -80.3
 2.100  0.6773  154.3   3.093   57.9  0.0817   55.6  0.1862  -82.6
 2.200  0.6807  152.4   2.950   55.9  0.0850   55.6  0.1863  -85.0
 2.300  0.6843  150.6   2.828   54.1  0.0883   55.4  0.1872  -87.5
 2.400  0.6885  148.8   2.710   52.1  0.0916   55.2  0.1885  -90.0
 2.500  0.6910  147.1   2.602   50.4  0.0949   55.0  0.1896  -92.7
 2.600  0.6940  145.5   2.497   48.5  0.0983   54.8  0.1912  -95.3
 2.700  0.6978  143.7   2.406   46.8  0.1016   54.5  0.1929  -97.8
 2.800  0.7023  142.0   2.317   45.0  0.1050   54.2  0.1950 -100.2
 2.900  0.7054  140.4   2.238   43.3  0.1081   53.8  0.1966 -102.9
 3.000  0.7091  138.8   2.161   41.4  0.1113   53.4  0.1987 -105.6
 3.100  0.7121  137.3   2.095   39.9  0.1147   53.0  0.2006 -108.1
 3.200  0.7156  135.8   2.031   38.4  0.1181   52.7  0.2029 -110.6
 3.300  0.7196  134.2   1.969   36.7  0.1215   52.4  0.2055 -113.1
 3.400  0.7241  132.8   1.908   35.0  0.1249   52.1  0.2085 -115.4
 3.500  0.7291  131.3   1.849   33.1  0.1283   51.8  0.2119 -117.7
 3.600  0.7319  129.9   1.799   31.7  0.1317   51.2  0.2141 -120.4
 3.700  0.7351  128.5   1.751   30.2  0.1350   50.6  0.2168 -123.1
 3.800  0.7387  127.1   1.704   28.6  0.1384   50.0  0.2200 -125.7
 3.900  0.7428  125.8   1.658   26.9  0.1418   49.5  0.2236 -128.2
 4.000  0.7473  124.4   1.614   25.1  0.1452   49.0  0.2276 -130.6
 4.100  0.7498  123.1   1.573   23.7  0.1485   48.3  0.2311 -133.4
 4.200  0.7528  121.9   1.533   22.2  0.1518   47.7  0.2352 -136.2
 4.300  0.7560  120.6   1.494   20.7  0.1551   47.1  0.2398 -138.8
 4.400  0.7596  119.4   1.456   19.0  0.1584   46.5  0.2449 -141.4
 4.500  0.7636  118.2   1.420   17.3  0.1618   46.0  0.2505 -143.8
 4.600  0.7667  117.2   1.386   16.1  0.1651   45.4  0.2564 -146.3
 4.700  0.7701  116.2   1.352   14.9  0.1684   44.9  0.2628 -148.7
 4.800  0.7737  115.2   1.319   13.5  0.1717   44.4  0.2697 -150.9
 4.900  0.7776  114.3   1.287   12.2  0.1750   43.9  0.2769 -153.1
 5.000  0.7816  113.3   1.256   10.7  0.1783   43.4  0.2845 -155.1
 5.100  0.7835  112.4   1.231    9.6  0.1817   42.8  0.2930 -157.0
 5.200  0.7855  111.5   1.207    8.4  0.1851   42.1  0.3018 -158.7
 5.300  0.7878  110.6   1.183    7.1  0.1886   41.5  0.3109 -160.4
 5.400  0.7902  109.8   1.160    5.8  0.1920   41.0  0.3202 -161.9
 5.500  0.7928  108.9   1.137    4.5  0.1955   40.4  0.3297 -163.4
 5.600  0.7939  108.0   1.114    3.5  0.1990   39.7  0.3372 -164.7
 5.700  0.7951  107.1   1.092    2.4  0.2025   39.0  0.3448 -165.9
 5.800  0.7966  106.2   1.070    1.2  0.2060   38.3  0.3526 -167.0
 5.900  0.7982  105.3   1.049    0.0  0.2095   37.6  0.3605 -168.1
 6.000  0.8001  104.4   1.028   -1.2  0.2131   37.0  0.3686 -169.2
!
!  f       NFmin   Gammaopt  rn/50
! GHz       dB    MAG  ANG    -
 0.450      1.12  0.17  164  -0.02
 0.900      1.15  0.23  169   0.09
 1.900      1.61  0.40 -165   0.08
 2.400      1.84  0.44 -159   0.11
!
! (c) 2017  Infineon Technologies AG, Munich