! Infineon Technologies  Discrete & RF Semiconductors
! BFP183W
! VCE =  2.0 V,  IC =  9.0 mA
! Common Emitter S-Parameters:                            Jan 2017
# GHz  S  MA  R  50
!  f         S11            S21            S12            S22
! GHz     MAG   ANG      MAG   ANG      MAG   ANG      MAG   ANG
 0.010  0.7342   -4.6  27.274  178.2  0.0020   90.1  0.9926   -2.5
 0.020  0.7214  -11.6  27.019  174.4  0.0042   90.0  0.9857   -5.0
 0.030  0.7133  -16.3  26.733  171.7  0.0066   83.7  0.9777   -7.4
 0.040  0.7101  -21.0  26.507  169.0  0.0091   80.8  0.9714   -9.8
 0.050  0.7118  -25.8  26.343  166.2  0.0116   79.1  0.9669  -12.3
 0.060  0.7019  -30.5  25.873  163.8  0.0136   75.9  0.9507  -14.4
 0.070  0.6967  -35.3  25.450  161.3  0.0157   73.5  0.9358  -16.5
 0.080  0.6965  -40.1  25.078  158.7  0.0177   71.6  0.9223  -18.8
 0.090  0.7013  -44.9  24.759  156.0  0.0198   70.2  0.9102  -21.1
 0.100  0.7108  -49.6  24.494  153.3  0.0219   69.0  0.8996  -23.4
 0.110  0.7008  -53.7  23.962  151.3  0.0234   66.4  0.8811  -25.1
 0.120  0.6944  -57.8  23.462  149.1  0.0249   64.2  0.8635  -26.9
 0.130  0.6917  -62.1  22.995  146.9  0.0265   62.2  0.8467  -28.7
 0.140  0.6928  -66.3  22.564  144.6  0.0281   60.5  0.8308  -30.6
 0.150  0.6977  -70.5  22.172  142.2  0.0297   58.9  0.8159  -32.6
 0.200  0.6900  -87.3  19.760  133.0  0.0349   52.3  0.7325  -39.6
 0.250  0.6825 -101.2  17.612  125.4  0.0392   47.1  0.6562  -45.0
 0.300  0.6748 -112.4  15.690  119.5  0.0426   43.0  0.5909  -49.1
 0.350  0.6647 -120.6  14.193  115.4  0.0443   41.0  0.5405  -51.6
 0.400  0.6686 -128.9  12.786  110.3  0.0460   39.1  0.4913  -54.7
 0.450  0.6624 -134.7  11.692  107.3  0.0472   37.6  0.4575  -56.2
 0.500  0.6630 -140.5  10.637  103.7  0.0485   36.2  0.4241  -58.0
 0.600  0.6613 -149.3   9.087   98.4  0.0513   35.1  0.3754  -60.2
 0.700  0.6578 -156.4   7.882   94.0  0.0524   35.8  0.3400  -61.6
 0.800  0.6604 -162.2   6.980   90.1  0.0545   36.1  0.3156  -62.7
 0.900  0.6584 -167.1   6.227   86.7  0.0566   36.3  0.2963  -63.9
 1.000  0.6611 -171.3   5.648   83.7  0.0582   37.1  0.2804  -64.8
 1.100  0.6629 -175.0   5.154   81.0  0.0597   37.6  0.2705  -65.7
 1.200  0.6638 -178.6   4.734   78.1  0.0619   38.2  0.2608  -66.7
 1.300  0.6638  178.3   4.379   75.7  0.0639   39.3  0.2539  -67.9
 1.400  0.6669  175.4   4.089   73.2  0.0661   40.3  0.2473  -69.3
 1.500  0.6712  172.8   3.817   70.9  0.0684   40.9  0.2421  -70.7
 1.600  0.6729  170.1   3.589   68.5  0.0709   41.6  0.2396  -72.0
 1.700  0.6735  167.5   3.389   66.4  0.0726   42.6  0.2357  -73.9
 1.800  0.6787  165.1   3.218   64.1  0.0755   43.3  0.2326  -75.7
 1.900  0.6819  162.9   3.049   62.2  0.0774   44.0  0.2302  -77.5
 2.000  0.6856  160.6   2.897   59.9  0.0799   44.1  0.2298  -79.5
 2.100  0.6877  158.4   2.768   57.8  0.0826   44.6  0.2285  -81.7
 2.200  0.6908  156.2   2.643   55.6  0.0853   45.1  0.2276  -84.0
 2.300  0.6950  154.2   2.533   53.7  0.0881   45.4  0.2280  -86.4
 2.400  0.7000  152.2   2.427   51.6  0.0910   45.6  0.2287  -88.7
 2.500  0.7021  150.3   2.332   49.8  0.0937   45.9  0.2294  -91.1
 2.600  0.7049  148.5   2.239   47.8  0.0964   46.1  0.2306  -93.5
 2.700  0.7087  146.6   2.157   46.0  0.0993   46.2  0.2320  -95.9
 2.800  0.7133  144.8   2.078   44.0  0.1022   46.3  0.2338  -98.2
 2.900  0.7162  143.0   2.007   42.2  0.1049   46.2  0.2348 -100.7
 3.000  0.7197  141.3   1.939   40.2  0.1076   46.2  0.2362 -103.1
 3.100  0.7225  139.6   1.880   38.7  0.1106   46.2  0.2378 -105.5
 3.200  0.7259  138.0   1.822   37.0  0.1137   46.3  0.2399 -108.0
 3.300  0.7298  136.4   1.766   35.3  0.1167   46.3  0.2424 -110.3
 3.400  0.7344  134.8   1.712   33.5  0.1198   46.4  0.2452 -112.6
 3.500  0.7395  133.2   1.659   31.5  0.1228   46.4  0.2485 -114.9
 3.600  0.7422  131.7   1.614   30.0  0.1260   46.1  0.2507 -117.5
 3.700  0.7454  130.2   1.570   28.5  0.1292   45.8  0.2534 -120.0
 3.800  0.7491  128.8   1.528   26.8  0.1324   45.5  0.2566 -122.5
 3.900  0.7533  127.3   1.487   25.0  0.1357   45.2  0.2602 -124.9
 4.000  0.7579  125.9   1.447   23.2  0.1389   44.9  0.2643 -127.3
 4.100  0.7604  124.6   1.410   21.8  0.1421   44.5  0.2676 -130.0
 4.200  0.7634  123.2   1.374   20.2  0.1453   44.1  0.2716 -132.7
 4.300  0.7668  121.9   1.339   18.6  0.1485   43.7  0.2761 -135.3
 4.400  0.7705  120.6   1.305   17.0  0.1517   43.3  0.2811 -137.8
 4.500  0.7747  119.3   1.272   15.2  0.1549   43.0  0.2867 -140.2
 4.600  0.7772  118.3   1.241   14.0  0.1582   42.6  0.2927 -142.7
 4.700  0.7799  117.2   1.210   12.7  0.1615   42.2  0.2992 -145.2
 4.800  0.7829  116.2   1.180   11.3  0.1648   41.9  0.3062 -147.5
 4.900  0.7861  115.2   1.151    9.9  0.1682   41.5  0.3137 -149.7
 5.000  0.7896  114.2   1.122    8.4  0.1715   41.2  0.3216 -151.8
 5.100  0.7918  113.2   1.099    7.2  0.1750   40.7  0.3301 -153.8
 5.200  0.7942  112.3   1.077    6.0  0.1786   40.2  0.3390 -155.6
 5.300  0.7969  111.4   1.055    4.8  0.1821   39.7  0.3482 -157.4
 5.400  0.7997  110.4   1.034    3.5  0.1857   39.2  0.3577 -159.1
 5.500  0.8028  109.5   1.013    2.1  0.1893   38.8  0.3675 -160.7
 5.600  0.8030  108.6   0.992    1.1  0.1929   38.1  0.3753 -162.1
 5.700  0.8034  107.7   0.972   -0.0  0.1965   37.5  0.3833 -163.5
 5.800  0.8040  106.7   0.952   -1.1  0.2002   36.9  0.3916 -164.8
 5.900  0.8048  105.8   0.932   -2.3  0.2039   36.3  0.4000 -166.0
 6.000  0.8058  104.9   0.913   -3.5  0.2076   35.7  0.4086 -167.2
!
!  f       NFmin   Gammaopt  rn/50
! GHz       dB    MAG  ANG    -
 0.450      0.90  0.11   89   0.11
 0.900      0.95  0.18  132   0.10
 1.900      1.46  0.37  179   0.07
 2.400      1.71  0.44 -170   0.09
!
! (c) 2017  Infineon Technologies AG, Munich