! Infineon Technologies  Discrete & RF Semiconductors
! BFP183W
! VCE =  12. V,  IC =  17 mA
! Common Emitter S-Parameters:                            Jan 2017
# GHz  S  MA  R  50
!  f         S11            S21            S12            S22
! GHz     MAG   ANG      MAG   ANG      MAG   ANG      MAG   ANG
 0.010  0.6500   -5.2  40.764  176.5  0.0017   71.7  0.9718   -2.6
 0.020  0.6447  -13.6  40.281  172.7  0.0029   85.6  0.9612   -5.4
 0.030  0.6345  -19.2  39.598  169.8  0.0047   78.9  0.9515   -8.0
 0.040  0.6304  -24.9  39.023  166.7  0.0066   76.0  0.9437  -10.7
 0.050  0.6327  -30.6  38.561  163.6  0.0085   74.4  0.9381  -13.4
 0.060  0.6218  -35.9  37.663  161.0  0.0099   71.9  0.9186  -15.5
 0.070  0.6165  -41.4  36.846  158.3  0.0114   70.1  0.9005  -17.7
 0.080  0.6169  -46.9  36.116  155.4  0.0129   68.7  0.8837  -20.0
 0.090  0.6229  -52.4  35.480  152.5  0.0143   67.5  0.8684  -22.4
 0.100  0.6345  -57.7  34.941  149.4  0.0158   66.6  0.8547  -24.9
 0.110  0.6248  -62.1  34.005  147.3  0.0167   64.0  0.8339  -26.5
 0.120  0.6189  -66.7  33.116  145.1  0.0176   61.7  0.8138  -28.2
 0.130  0.6169  -71.3  32.279  142.8  0.0185   59.6  0.7944  -29.9
 0.140  0.6189  -75.9  31.497  140.4  0.0194   57.7  0.7758  -31.8
 0.150  0.6249  -80.4  30.775  137.8  0.0204   56.0  0.7580  -33.7
 0.200  0.6201  -97.5  26.789  128.5  0.0239   52.0  0.6682  -39.9
 0.250  0.6160 -111.1  23.437  121.2  0.0270   47.9  0.5918  -44.1
 0.300  0.6107 -122.0  20.598  115.7  0.0283   45.2  0.5293  -47.1
 0.350  0.6050 -129.5  18.495  112.0  0.0301   44.0  0.4853  -48.6
 0.400  0.6099 -137.1  16.490  107.3  0.0319   42.9  0.4416  -50.3
 0.450  0.6058 -142.2  15.011  104.6  0.0328   43.0  0.4125  -51.0
 0.500  0.6066 -147.4  13.572  101.3  0.0338   43.1  0.3834  -51.8
 0.600  0.6069 -155.3  11.535   96.6  0.0364   43.6  0.3440  -52.5
 0.700  0.6065 -161.6   9.976   92.7  0.0381   45.3  0.3156  -52.6
 0.800  0.6072 -166.9   8.807   89.2  0.0405   47.0  0.2974  -52.8
 0.900  0.6063 -171.3   7.843   86.2  0.0432   47.4  0.2824  -53.3
 1.000  0.6094 -175.0   7.108   83.5  0.0450   49.3  0.2707  -53.5
 1.100  0.6112 -178.5   6.479   81.0  0.0485   50.6  0.2639  -54.1
 1.200  0.6118  178.3   5.946   78.5  0.0507   51.1  0.2568  -54.6
 1.300  0.6131  175.4   5.499   76.2  0.0529   52.0  0.2517  -55.3
 1.400  0.6150  172.8   5.125   74.0  0.0564   52.9  0.2467  -56.4
 1.500  0.6183  170.4   4.785   71.9  0.0590   53.3  0.2430  -57.6
 1.600  0.6217  167.8   4.496   69.7  0.0620   53.9  0.2407  -58.6
 1.700  0.6249  165.5   4.243   67.7  0.0647   54.6  0.2377  -60.3
 1.800  0.6275  163.2   4.026   65.7  0.0674   54.5  0.2353  -61.8
 1.900  0.6308  161.1   3.813   63.9  0.0708   55.1  0.2335  -63.4
 2.000  0.6343  158.9   3.623   61.8  0.0737   55.0  0.2325  -65.3
 2.100  0.6373  156.9   3.460   59.9  0.0769   55.2  0.2311  -67.3
 2.200  0.6411  154.9   3.302   57.9  0.0801   55.3  0.2300  -69.3
 2.300  0.6450  152.9   3.165   56.1  0.0831   55.4  0.2296  -71.5
 2.400  0.6496  151.0   3.031   54.2  0.0862   55.4  0.2296  -73.8
 2.500  0.6527  149.3   2.912   52.5  0.0891   55.1  0.2293  -76.1
 2.600  0.6564  147.6   2.795   50.6  0.0921   54.9  0.2294  -78.5
 2.700  0.6603  145.8   2.694   48.9  0.0951   54.8  0.2298  -80.8
 2.800  0.6648  144.0   2.595   47.1  0.0981   54.8  0.2306  -83.1
 2.900  0.6680  142.4   2.507   45.4  0.1013   54.5  0.2308  -85.5
 3.000  0.6718  140.8   2.422   43.5  0.1046   54.2  0.2314  -87.9
 3.100  0.6753  139.2   2.349   42.1  0.1078   53.9  0.2317  -90.3
 3.200  0.6793  137.6   2.277   40.5  0.1110   53.6  0.2324  -92.7
 3.300  0.6838  136.1   2.206   38.9  0.1143   53.4  0.2336  -95.1
 3.400  0.6889  134.5   2.138   37.2  0.1175   53.1  0.2351  -97.5
 3.500  0.6944  133.0   2.072   35.3  0.1207   52.9  0.2370  -99.8
 3.600  0.6975  131.6   2.017   33.9  0.1239   52.4  0.2375 -102.4
 3.700  0.7009  130.2   1.963   32.3  0.1271   51.9  0.2385 -105.0
 3.800  0.7048  128.8   1.911   30.7  0.1303   51.5  0.2400 -107.5
 3.900  0.7092  127.4   1.860   29.0  0.1336   51.0  0.2420 -110.0
 4.000  0.7139  126.0   1.811   27.2  0.1368   50.6  0.2444 -112.5
 4.100  0.7171  124.7   1.766   25.8  0.1400   50.0  0.2459 -115.4
 4.200  0.7207  123.5   1.721   24.3  0.1432   49.4  0.2481 -118.2
 4.300  0.7246  122.2   1.678   22.8  0.1465   48.8  0.2508 -121.0
 4.400  0.7289  121.0   1.636   21.1  0.1497   48.3  0.2541 -123.7
 4.500  0.7335  119.8   1.596   19.4  0.1530   47.8  0.2580 -126.3
 4.600  0.7368  118.8   1.557   18.2  0.1563   47.3  0.2621 -129.1
 4.700  0.7404  117.7   1.519   16.9  0.1596   46.8  0.2668 -131.8
 4.800  0.7443  116.7   1.482   15.5  0.1629   46.4  0.2720 -134.4
 4.900  0.7483  115.7   1.446   14.1  0.1663   45.9  0.2778 -136.9
 5.000  0.7526  114.7   1.411   12.6  0.1696   45.5  0.2841 -139.3
 5.100  0.7549  113.8   1.383   11.4  0.1729   44.9  0.2916 -141.6
 5.200  0.7575  112.8   1.355   10.2  0.1763   44.2  0.2995 -143.8
 5.300  0.7602  111.9   1.328    9.0  0.1797   43.6  0.3078 -145.8
 5.400  0.7631  111.0   1.302    7.7  0.1831   43.1  0.3165 -147.8
 5.500  0.7662  110.1   1.276    6.3  0.1865   42.5  0.3255 -149.6
 5.600  0.7673  109.2   1.251    5.2  0.1900   41.8  0.3331 -151.2
 5.700  0.7685  108.4   1.226    4.0  0.1935   41.1  0.3409 -152.7
 5.800  0.7699  107.5   1.202    2.8  0.1970   40.4  0.3489 -154.1
 5.900  0.7715  106.7   1.178    1.6  0.2005   39.8  0.3572 -155.5
 6.000  0.7732  105.8   1.155    0.3  0.2041   39.2  0.3656 -156.8
!
!  f       NFmin   Gammaopt  rn/50
! GHz       dB    MAG  ANG    -
 0.450      1.12  0.17  164  -0.02
 0.900      1.15  0.23  169   0.09
 1.900      1.61  0.40 -165   0.08
 2.400      1.84  0.44 -159   0.11
!
! (c) 2017  Infineon Technologies AG, Munich