! Infineon Technologies  Discrete & RF Semiconductors
! BFP183W
! VCE =  2.0 V,  IC =  45 mA
! Common Emitter S-Parameters:                            Jan 2017
# GHz  S  MA  R  50
!  f         S11            S21            S12            S22
! GHz     MAG   ANG      MAG   ANG      MAG   ANG      MAG   ANG
 0.010  0.2156  -42.6  60.256  171.8  0.0022   85.0  0.8560   -7.4
 0.020  0.2857  -71.5  58.014  162.6  0.0043   77.6  0.8264  -15.2
 0.030  0.3317  -90.3  53.829  156.5  0.0059   66.7  0.7724  -20.6
 0.040  0.4036 -103.5  50.361  149.4  0.0077   60.6  0.7262  -26.7
 0.050  0.4902 -112.4  47.766  141.4  0.0095   56.8  0.6894  -33.6
 0.060  0.5101 -119.4  44.355  138.5  0.0102   54.7  0.6444  -35.8
 0.070  0.5371 -125.9  41.079  135.0  0.0110   52.9  0.6005  -38.4
 0.080  0.5701 -131.6  37.975  131.0  0.0117   51.3  0.5581  -41.4
 0.090  0.6082 -136.7  35.087  126.4  0.0124   49.8  0.5174  -44.9
 0.100  0.6505 -141.1  32.474  120.9  0.0132   48.6  0.4789  -48.9
 0.110  0.6595 -143.9  30.634  119.3  0.0135   47.2  0.4547  -49.8
 0.120  0.6700 -146.5  28.822  117.5  0.0138   45.8  0.4307  -50.8
 0.130  0.6819 -149.1  27.042  115.4  0.0141   44.5  0.4068  -51.9
 0.140  0.6952 -151.6  25.302  113.1  0.0144   43.3  0.3830  -53.2
 0.150  0.7097 -154.0  23.610  110.4  0.0147   42.1  0.3595  -54.6
 0.200  0.7288 -161.7  18.272  103.8  0.0151   43.8  0.2920  -56.2
 0.250  0.7431 -166.8  14.856   99.3  0.0170   47.1  0.2494  -56.6
 0.300  0.7474 -170.4  12.474   96.1  0.0182   47.4  0.2214  -56.1
 0.350  0.7496 -173.1  10.967   93.9  0.0198   50.5  0.2052  -55.5
 0.400  0.7534 -175.8   9.482   91.0  0.0215   53.1  0.1890  -54.9
 0.450  0.7538 -177.7   8.537   89.4  0.0229   54.3  0.1807  -54.8
 0.500  0.7550 -179.5   7.600   87.3  0.0243   55.4  0.1725  -54.6
 0.600  0.7571  177.4   6.358   84.2  0.0280   58.5  0.1630  -54.5
 0.700  0.7591  174.8   5.451   81.5  0.0306   61.1  0.1570  -54.8
 0.800  0.7595  172.3   4.778   78.6  0.0348   64.0  0.1558  -55.9
 0.900  0.7596  170.1   4.239   76.2  0.0381   64.1  0.1538  -57.5
 1.000  0.7622  168.0   3.832   73.9  0.0417   65.4  0.1524  -59.1
 1.100  0.7644  165.9   3.485   71.7  0.0459   65.8  0.1538  -60.9
 1.200  0.7642  164.0   3.195   69.4  0.0490   65.8  0.1546  -62.8
 1.300  0.7651  161.9   2.950   67.2  0.0524   65.8  0.1556  -65.0
 1.400  0.7690  160.2   2.750   65.1  0.0567   66.7  0.1560  -67.4
 1.500  0.7720  158.5   2.564   63.0  0.0604   66.3  0.1571  -69.9
 1.600  0.7729  156.6   2.409   60.9  0.0641   66.3  0.1598  -72.4
 1.700  0.7745  154.6   2.273   58.8  0.0682   66.5  0.1611  -75.4
 1.800  0.7786  152.9   2.155   56.7  0.0722   66.3  0.1630  -78.2
 1.900  0.7800  151.3   2.042   54.9  0.0758   65.8  0.1650  -81.1
 2.000  0.7811  149.4   1.938   52.7  0.0800   65.2  0.1682  -84.1
 2.100  0.7834  147.6   1.850   50.8  0.0838   64.7  0.1706  -87.3
 2.200  0.7865  145.8   1.764   48.7  0.0877   64.3  0.1735  -90.4
 2.300  0.7891  144.2   1.691   46.8  0.0916   64.0  0.1771  -93.6
 2.400  0.7924  142.6   1.620   44.8  0.0955   63.8  0.1813  -96.6
 2.500  0.7938  141.1   1.556   43.0  0.0993   63.1  0.1850  -99.8
 2.600  0.7958  139.6   1.494   41.1  0.1032   62.4  0.1892 -102.8
 2.700  0.7986  138.0   1.439   39.4  0.1069   61.8  0.1936 -105.7
 2.800  0.8019  136.5   1.385   37.5  0.1107   61.3  0.1984 -108.4
 2.900  0.8036  135.0   1.337   35.8  0.1145   60.6  0.2029 -111.4
 3.000  0.8058  133.5   1.291   33.9  0.1184   59.9  0.2080 -114.2
 3.100  0.8077  132.0   1.251   32.4  0.1222   59.3  0.2120 -117.0
 3.200  0.8101  130.6   1.213   30.9  0.1260   58.7  0.2166 -119.8
 3.300  0.8130  129.1   1.175   29.2  0.1298   58.1  0.2216 -122.4
 3.400  0.8164  127.7   1.139   27.5  0.1337   57.6  0.2270 -124.8
 3.500  0.8203  126.3   1.103   25.6  0.1375   57.1  0.2329 -127.2
 3.600  0.8217  125.0   1.073   24.2  0.1413   56.3  0.2373 -130.0
 3.700  0.8236  123.6   1.044   22.7  0.1452   55.5  0.2423 -132.7
 3.800  0.8259  122.3   1.015   21.2  0.1491   54.7  0.2477 -135.3
 3.900  0.8286  121.0   0.987   19.5  0.1530   54.0  0.2537 -137.8
 4.000  0.8318  119.7   0.960   17.8  0.1569   53.3  0.2601 -140.1
 4.100  0.8327  118.5   0.936   16.5  0.1605   52.4  0.2656 -142.9
 4.200  0.8339  117.2   0.912   15.2  0.1642   51.6  0.2718 -145.6
 4.300  0.8356  116.0   0.888   13.8  0.1678   50.8  0.2785 -148.2
 4.400  0.8376  114.8   0.865   12.3  0.1716   50.0  0.2857 -150.6
 4.500  0.8400  113.6   0.843   10.7  0.1753   49.3  0.2934 -152.9
 4.600  0.8413  112.7   0.822    9.6  0.1790   48.5  0.3010 -155.3
 4.700  0.8428  111.7   0.802    8.5  0.1827   47.8  0.3092 -157.5
 4.800  0.8445  110.8   0.782    7.3  0.1864   47.1  0.3177 -159.7
 4.900  0.8464  109.8   0.762    6.1  0.1902   46.4  0.3267 -161.7
 5.000  0.8486  108.9   0.743    4.8  0.1940   45.8  0.3361 -163.6
 5.100  0.8499  108.0   0.728    3.9  0.1977   45.0  0.3456 -165.4
 5.200  0.8514  107.2   0.714    2.9  0.2015   44.2  0.3554 -167.1
 5.300  0.8531  106.3   0.700    1.9  0.2053   43.5  0.3655 -168.7
 5.400  0.8549  105.5   0.686    0.8  0.2091   42.8  0.3758 -170.2
 5.500  0.8570  104.6   0.672   -0.3  0.2130   42.1  0.3864 -171.6
 5.600  0.8567  103.7   0.659   -1.1  0.2165   41.2  0.3943 -172.9
 5.700  0.8566  102.8   0.646   -2.0  0.2201   40.3  0.4023 -174.1
 5.800  0.8566  102.0   0.633   -2.8  0.2238   39.5  0.4106 -175.3
 5.900  0.8569  101.1   0.620   -3.7  0.2275   38.7  0.4190 -176.5
 6.000  0.8574  100.2   0.608   -4.7  0.2312   37.9  0.4276 -177.6
!
!  f       NFmin   Gammaopt  rn/50
! GHz       dB    MAG  ANG    -
!
! noise parameter not available yet for this operation point!
!
! (c) 2017  Infineon Technologies AG, Munich