! Infineon Technologies  Discrete & RF Semiconductors
! BFP183W
! VCE =  6.0 V,  IC =  24 mA
! Common Emitter S-Parameters:                            Jan 2017
# GHz  S  MA  R  50
!  f         S11            S21            S12            S22
! GHz     MAG   ANG      MAG   ANG      MAG   ANG      MAG   ANG
 0.010  0.4971   -8.6  51.727  176.0  0.0016   94.4  0.9803   -3.5
 0.020  0.4941  -19.9  50.902  171.2  0.0028   89.0  0.9667   -7.3
 0.030  0.4867  -28.5  49.744  167.4  0.0047   78.9  0.9492  -10.7
 0.040  0.4903  -37.1  48.816  163.4  0.0067   74.8  0.9351  -14.3
 0.050  0.5048  -45.4  48.131  159.3  0.0087   72.5  0.9248  -17.9
 0.060  0.4963  -52.6  46.487  156.3  0.0098   69.5  0.8958  -20.4
 0.070  0.4959  -59.9  44.978  153.1  0.0109   67.2  0.8687  -23.1
 0.080  0.5035  -67.2  43.618  149.7  0.0120   65.2  0.8435  -25.9
 0.090  0.5188  -74.1  42.422  146.1  0.0132   63.6  0.8206  -28.9
 0.100  0.5412  -80.5  41.404  142.3  0.0143   62.3  0.8000  -32.1
 0.110  0.5385  -85.5  39.911  140.2  0.0151   60.6  0.7730  -33.8
 0.120  0.5398  -90.4  38.476  137.9  0.0158   59.0  0.7467  -35.5
 0.130  0.5451  -95.3  37.105  135.5  0.0166   57.6  0.7211  -37.5
 0.140  0.5543 -100.1  35.805  132.9  0.0174   56.4  0.6964  -39.5
 0.150  0.5673 -104.7  34.586  130.1  0.0182   55.2  0.6727  -41.7
 0.200  0.5842 -120.7  28.948  121.0  0.0200   51.1  0.5722  -47.7
 0.250  0.5985 -132.5  24.626  114.3  0.0227   47.2  0.4940  -51.4
 0.300  0.6035 -141.0  21.242  109.4  0.0233   46.7  0.4346  -53.9
 0.350  0.6053 -146.9  18.893  106.2  0.0250   46.5  0.3953  -55.0
 0.400  0.6135 -152.7  16.621  102.0  0.0267   46.4  0.3561  -56.3
 0.450  0.6130 -156.7  15.057   99.7  0.0280   47.4  0.3314  -56.7
 0.500  0.6154 -160.7  13.523   96.9  0.0293   48.4  0.3068  -57.2
 0.600  0.6202 -166.7  11.423   92.8  0.0321   50.4  0.2739  -57.7
 0.700  0.6220 -171.3   9.839   89.4  0.0338   52.3  0.2517  -57.5
 0.800  0.6247 -175.5   8.657   86.3  0.0374   55.0  0.2373  -57.7
 0.900  0.6246 -178.9   7.693   83.5  0.0404   55.4  0.2258  -58.2
 1.000  0.6294  178.1   6.963   81.1  0.0434   56.5  0.2165  -58.6
 1.100  0.6303  175.3   6.341   78.8  0.0463   57.7  0.2118  -59.0
 1.200  0.6315  172.5   5.815   76.4  0.0494   57.9  0.2061  -59.7
 1.300  0.6326  170.0   5.373   74.3  0.0527   58.1  0.2027  -60.7
 1.400  0.6359  167.9   5.008   72.2  0.0563   59.3  0.1990  -61.9
 1.500  0.6390  165.6   4.671   70.2  0.0590   59.0  0.1963  -63.2
 1.600  0.6419  163.4   4.390   68.1  0.0627   59.4  0.1950  -64.5
 1.700  0.6422  161.3   4.140   66.2  0.0663   59.8  0.1935  -66.5
 1.800  0.6478  159.4   3.926   64.2  0.0697   59.8  0.1914  -68.3
 1.900  0.6506  157.5   3.719   62.5  0.0725   59.7  0.1904  -70.1
 2.000  0.6533  155.4   3.533   60.4  0.0762   59.5  0.1907  -72.3
 2.100  0.6558  153.5   3.373   58.6  0.0795   59.4  0.1899  -74.6
 2.200  0.6591  151.6   3.217   56.6  0.0829   59.3  0.1895  -77.0
 2.300  0.6636  149.9   3.083   54.9  0.0864   59.1  0.1900  -79.5
 2.400  0.6686  148.2   2.952   53.0  0.0899   59.0  0.1908  -82.0
 2.500  0.6714  146.6   2.836   51.3  0.0930   58.5  0.1915  -84.7
 2.600  0.6747  145.0   2.722   49.5  0.0962   58.0  0.1926  -87.3
 2.700  0.6790  143.3   2.623   47.9  0.0998   57.7  0.1939  -89.8
 2.800  0.6839  141.7   2.526   46.1  0.1034   57.4  0.1956  -92.3
 2.900  0.6859  140.1   2.440   44.4  0.1067   56.8  0.1967  -95.0
 3.000  0.6885  138.5   2.357   42.6  0.1101   56.2  0.1983  -97.6
 3.100  0.6919  137.0   2.285   41.2  0.1134   55.8  0.1995 -100.2
 3.200  0.6959  135.5   2.215   39.6  0.1168   55.4  0.2011 -102.7
 3.300  0.7002  134.1   2.147   38.0  0.1201   55.0  0.2031 -105.3
 3.400  0.7050  132.6   2.080   36.3  0.1235   54.6  0.2055 -107.7
 3.500  0.7103  131.2   2.016   34.4  0.1268   54.3  0.2082 -110.1
 3.600  0.7135  129.8   1.962   33.0  0.1301   53.6  0.2097 -112.9
 3.700  0.7172  128.5   1.909   31.5  0.1335   52.9  0.2117 -115.6
 3.800  0.7212  127.1   1.858   29.9  0.1369   52.3  0.2141 -118.3
 3.900  0.7256  125.8   1.808   28.3  0.1403   51.7  0.2171 -120.9
 4.000  0.7304  124.5   1.760   26.5  0.1437   51.1  0.2204 -123.4
 4.100  0.7332  123.3   1.716   25.1  0.1470   50.4  0.2231 -126.3
 4.200  0.7363  122.0   1.673   23.7  0.1503   49.7  0.2265 -129.2
 4.300  0.7397  120.8   1.631   22.2  0.1536   49.1  0.2303 -132.0
 4.400  0.7435  119.6   1.590   20.6  0.1569   48.5  0.2347 -134.6
 4.500  0.7476  118.4   1.551   18.9  0.1603   47.9  0.2396 -137.2
 4.600  0.7510  117.4   1.514   17.7  0.1635   47.3  0.2449 -139.9
 4.700  0.7547  116.4   1.477   16.4  0.1668   46.8  0.2507 -142.5
 4.800  0.7586  115.4   1.441   15.1  0.1701   46.2  0.2569 -144.9
 4.900  0.7627  114.5   1.406   13.7  0.1734   45.7  0.2637 -147.3
 5.000  0.7670  113.5   1.372   12.2  0.1767   45.2  0.2708 -149.5
 5.100  0.7693  112.6   1.345   11.1  0.1801   44.5  0.2788 -151.5
 5.200  0.7717  111.7   1.318    9.9  0.1835   43.9  0.2872 -153.4
 5.300  0.7744  110.8   1.292    8.7  0.1869   43.3  0.2959 -155.2
 5.400  0.7773  109.9   1.266    7.4  0.1903   42.7  0.3048 -156.9
 5.500  0.7803  109.0   1.241    6.1  0.1938   42.1  0.3140 -158.5
 5.600  0.7808  108.1   1.217    5.0  0.1973   41.3  0.3216 -159.8
 5.700  0.7815  107.3   1.193    3.9  0.2008   40.6  0.3294 -161.1
 5.800  0.7823  106.4   1.169    2.7  0.2044   39.9  0.3374 -162.3
 5.900  0.7833  105.6   1.146    1.5  0.2080   39.3  0.3455 -163.5
 6.000  0.7845  104.7   1.124    0.2  0.2116   38.6  0.3537 -164.6
!
!  f       NFmin   Gammaopt  rn/50
! GHz       dB    MAG  ANG    -
 0.450      1.27  0.23  176   0.10
 0.900      1.29  0.27  178   0.09
 1.900      1.78  0.43 -159   0.09
 2.400      2.01  0.47 -154   0.13
!
! (c) 2017  Infineon Technologies AG, Munich