! Infineon Technologies  Discrete & RF Semiconductors
! BFP183W
! VCE =  6.0 V,  IC =  52 mA
! Common Emitter S-Parameters:                            Jan 2017
# GHz  S  MA  R  50
!  f         S11            S21            S12            S22
! GHz     MAG   ANG      MAG   ANG      MAG   ANG      MAG   ANG
 0.010  0.2656  -21.4  67.885  174.0  0.0012   79.4  0.9375   -4.4
 0.020  0.2877  -44.3  66.863  167.3  0.0027   92.2  0.9220   -9.9
 0.030  0.3034  -60.7  63.817  162.1  0.0040   79.1  0.8879  -14.3
 0.040  0.3404  -74.4  61.335  156.5  0.0054   72.6  0.8594  -18.9
 0.050  0.3929  -85.0  59.489  150.5  0.0069   68.8  0.8370  -23.9
 0.060  0.4042  -93.7  56.237  147.3  0.0077   65.6  0.7967  -26.2
 0.070  0.4242 -101.7  53.177  143.8  0.0085   63.0  0.7578  -28.8
 0.080  0.4517 -108.9  50.343  139.9  0.0093   60.8  0.7207  -31.7
 0.090  0.4855 -115.2  47.775  135.5  0.0101   59.0  0.6855  -34.8
 0.100  0.5243 -120.6  45.520  130.6  0.0109   57.4  0.6526  -38.3
 0.110  0.5325 -124.5  43.286  128.7  0.0114   55.8  0.6245  -39.4
 0.120  0.5430 -128.3  41.105  126.6  0.0119   54.4  0.5967  -40.6
 0.130  0.5559 -132.0  38.985  124.3  0.0124   53.1  0.5692  -42.0
 0.140  0.5709 -135.4  36.936  121.7  0.0130   51.9  0.5420  -43.5
 0.150  0.5879 -138.7  34.972  118.8  0.0135   50.8  0.5152  -45.1
 0.200  0.6167 -149.3  27.831  110.9  0.0145   51.2  0.4283  -47.7
 0.250  0.6343 -156.6  22.986  105.5  0.0159   49.7  0.3702  -48.4
 0.300  0.6431 -161.9  19.465  101.6  0.0171   52.5  0.3294  -48.3
 0.350  0.6468 -165.5  17.176   99.1  0.0184   54.6  0.3051  -47.8
 0.400  0.6530 -169.0  14.931   95.8  0.0198   56.4  0.2809  -47.3
 0.450  0.6542 -171.6  13.472   94.0  0.0214   57.4  0.2677  -46.8
 0.500  0.6566 -174.1  12.031   91.7  0.0230   58.3  0.2546  -46.2
 0.600  0.6612 -177.8  10.090   88.3  0.0262   61.1  0.2385  -45.6
 0.700  0.6634  179.0   8.663   85.5  0.0289   62.7  0.2275  -45.1
 0.800  0.6663  176.0   7.604   82.7  0.0332   64.5  0.2215  -45.3
 0.900  0.6644  173.5   6.752   80.3  0.0358   65.5  0.2166  -46.1
 1.000  0.6677  171.2   6.105   78.1  0.0388   66.1  0.2131  -46.8
 1.100  0.6703  168.9   5.555   76.0  0.0427   67.0  0.2123  -48.0
 1.200  0.6712  166.7   5.090   73.7  0.0462   66.8  0.2104  -49.1
 1.300  0.6724  164.6   4.702   71.7  0.0493   66.8  0.2095  -50.6
 1.400  0.6756  162.7   4.382   69.7  0.0533   67.2  0.2078  -52.2
 1.500  0.6792  161.0   4.087   67.8  0.0571   67.2  0.2068  -54.0
 1.600  0.6811  158.9   3.840   65.7  0.0603   67.6  0.2075  -55.8
 1.700  0.6816  157.1   3.623   63.9  0.0641   67.2  0.2068  -58.0
 1.800  0.6855  155.2   3.433   61.9  0.0675   66.9  0.2062  -60.1
 1.900  0.6894  153.7   3.253   60.2  0.0708   66.8  0.2058  -62.4
 2.000  0.6909  151.8   3.089   58.1  0.0749   66.3  0.2068  -64.9
 2.100  0.6935  150.0   2.950   56.3  0.0783   65.8  0.2065  -67.5
 2.200  0.6968  148.3   2.814   54.4  0.0817   65.3  0.2066  -70.1
 2.300  0.7005  146.7   2.697   52.6  0.0856   64.9  0.2073  -72.8
 2.400  0.7047  145.1   2.582   50.7  0.0895   64.5  0.2085  -75.5
 2.500  0.7074  143.5   2.481   49.0  0.0928   64.0  0.2095  -78.3
 2.600  0.7106  142.0   2.382   47.2  0.0962   63.5  0.2110  -81.1
 2.700  0.7145  140.5   2.295   45.6  0.0999   62.9  0.2126  -83.9
 2.800  0.7189  139.0   2.211   43.8  0.1037   62.4  0.2146  -86.6
 2.900  0.7212  137.5   2.136   42.1  0.1069   61.8  0.2160  -89.4
 3.000  0.7239  136.1   2.062   40.3  0.1102   61.3  0.2180  -92.2
 3.100  0.7267  134.7   1.999   38.9  0.1138   60.7  0.2193  -94.9
 3.200  0.7299  133.2   1.938   37.4  0.1174   60.1  0.2211  -97.6
 3.300  0.7336  131.8   1.879   35.7  0.1210   59.6  0.2234 -100.3
 3.400  0.7377  130.4   1.820   34.0  0.1247   59.1  0.2262 -102.9
 3.500  0.7423  129.0   1.764   32.2  0.1283   58.6  0.2294 -105.4
 3.600  0.7451  127.7   1.717   30.8  0.1318   57.8  0.2308 -108.2
 3.700  0.7484  126.3   1.670   29.3  0.1354   57.0  0.2328 -111.0
 3.800  0.7520  125.0   1.625   27.7  0.1390   56.3  0.2353 -113.8
 3.900  0.7561  123.7   1.581   26.1  0.1426   55.6  0.2383 -116.5
 4.000  0.7605  122.4   1.539   24.3  0.1462   55.0  0.2419 -119.1
 4.100  0.7631  121.2   1.500   22.9  0.1496   54.2  0.2445 -122.1
 4.200  0.7660  120.0   1.462   21.5  0.1531   53.4  0.2478 -125.1
 4.300  0.7692  118.8   1.425   19.9  0.1566   52.7  0.2517 -128.0
 4.400  0.7727  117.7   1.390   18.3  0.1602   52.0  0.2562 -130.7
 4.500  0.7766  116.5   1.355   16.6  0.1637   51.3  0.2613 -133.4
 4.600  0.7791  115.5   1.322   15.4  0.1672   50.6  0.2665 -136.2
 4.700  0.7819  114.6   1.290   14.2  0.1707   49.9  0.2724 -138.9
 4.800  0.7849  113.6   1.259   12.9  0.1743   49.3  0.2788 -141.4
 4.900  0.7881  112.6   1.228   11.5  0.1778   48.7  0.2858 -143.9
 5.000  0.7915  111.7   1.198   10.1  0.1814   48.1  0.2932 -146.2
 5.100  0.7939  110.8   1.174    9.0  0.1849   47.3  0.3014 -148.4
 5.200  0.7964  110.0   1.150    7.8  0.1884   46.6  0.3099 -150.5
 5.300  0.7992  109.1   1.127    6.6  0.1919   45.9  0.3189 -152.4
 5.400  0.8021  108.2   1.105    5.3  0.1955   45.2  0.3282 -154.3
 5.500  0.8052  107.4   1.083    4.0  0.1991   44.6  0.3378 -156.0
 5.600  0.8055  106.5   1.061    3.0  0.2027   43.8  0.3457 -157.5
 5.700  0.8059  105.6   1.040    1.9  0.2064   43.0  0.3537 -159.0
 5.800  0.8065  104.8   1.019    0.8  0.2101   42.2  0.3620 -160.3
 5.900  0.8074  103.9   0.999   -0.4  0.2138   41.4  0.3705 -161.6
 6.000  0.8084  103.0   0.979   -1.6  0.2176   40.7  0.3792 -162.9
!
!  f       NFmin   Gammaopt  rn/50
! GHz       dB    MAG  ANG    -
!
! noise parameter not available yet for this operation point!
!
! (c) 2017  Infineon Technologies AG, Munich