! Infineon Technologies  Discrete & RF Semiconductors
! BFP183W
! VCE =  3.0 V,  IC =  30 mA
! Common Emitter S-Parameters:                            Jan 2017
# GHz  S  MA  R  50
!  f         S11            S21            S12            S22
! GHz     MAG   ANG      MAG   ANG      MAG   ANG      MAG   ANG
 0.010  0.3757  -14.3  58.339  175.3  0.0016   92.7  0.9665   -4.5
 0.020  0.3798  -30.4  57.496  169.3  0.0031   86.8  0.9514   -9.4
 0.030  0.3806  -42.8  55.570  164.7  0.0048   76.4  0.9240  -13.6
 0.040  0.3988  -54.7  54.019  159.9  0.0067   71.5  0.9018  -18.1
 0.050  0.4322  -65.1  52.876  154.8  0.0085   68.8  0.8854  -22.7
 0.060  0.4328  -73.7  50.477  151.6  0.0096   66.2  0.8479  -25.4
 0.070  0.4429  -82.1  48.248  148.2  0.0107   64.2  0.8125  -28.4
 0.080  0.4620  -89.9  46.213  144.4  0.0118   62.5  0.7795  -31.6
 0.090  0.4889  -97.0  44.398  140.2  0.0129   61.2  0.7491  -35.1
 0.100  0.5226 -103.3  42.831  135.8  0.0140   60.0  0.7218  -38.9
 0.110  0.5273 -108.0  40.958  133.8  0.0145   57.8  0.6920  -40.5
 0.120  0.5355 -112.6  39.140  131.6  0.0150   55.8  0.6629  -42.3
 0.130  0.5470 -117.0  37.386  129.2  0.0155   53.9  0.6345  -44.3
 0.140  0.5616 -121.2  35.705  126.5  0.0160   52.2  0.6068  -46.4
 0.150  0.5791 -125.2  34.108  123.6  0.0166   50.5  0.5801  -48.7
 0.200  0.6069 -138.2  27.694  115.1  0.0187   49.4  0.4802  -54.2
 0.250  0.6260 -147.5  23.141  108.9  0.0203   47.3  0.4081  -57.6
 0.300  0.6346 -153.9  19.734  104.6  0.0213   47.0  0.3555  -59.6
 0.350  0.6384 -158.5  17.461  101.8  0.0228   48.0  0.3220  -60.5
 0.400  0.6463 -163.0  15.243   98.1  0.0244   48.9  0.2885  -61.5
 0.450  0.6474 -166.1  13.778   96.1  0.0259   50.8  0.2682  -61.8
 0.500  0.6504 -169.2  12.335   93.6  0.0275   52.4  0.2480  -62.2
 0.600  0.6551 -173.7  10.360   89.9  0.0307   54.9  0.2222  -62.6
 0.700  0.6576 -177.5   8.904   86.8  0.0329   57.0  0.2040  -62.5
 0.800  0.6605  179.1   7.823   83.8  0.0365   59.2  0.1936  -62.8
 0.900  0.6608  176.2   6.947   81.3  0.0402   58.6  0.1844  -63.5
 1.000  0.6642  173.6   6.279   78.9  0.0433   60.4  0.1772  -64.4
 1.100  0.6657  171.2   5.719   76.8  0.0467   61.0  0.1744  -64.9
 1.200  0.6668  168.9   5.242   74.4  0.0497   60.8  0.1706  -65.9
 1.300  0.6674  166.6   4.840   72.3  0.0534   61.4  0.1693  -67.0
 1.400  0.6699  164.6   4.513   70.3  0.0572   62.3  0.1660  -68.7
 1.500  0.6753  162.7   4.206   68.3  0.0607   62.4  0.1647  -70.4
 1.600  0.6777  160.7   3.954   66.2  0.0643   62.5  0.1647  -71.8
 1.700  0.6788  158.7   3.728   64.3  0.0680   62.3  0.1638  -74.1
 1.800  0.6834  156.7   3.536   62.3  0.0715   62.3  0.1632  -76.3
 1.900  0.6855  155.1   3.349   60.6  0.0748   62.1  0.1631  -78.3
 2.000  0.6888  153.1   3.179   58.5  0.0792   61.9  0.1643  -80.8
 2.100  0.6908  151.3   3.035   56.7  0.0827   61.4  0.1648  -83.5
 2.200  0.6935  149.6   2.894   54.7  0.0862   60.9  0.1657  -86.2
 2.300  0.6973  147.9   2.774   52.9  0.0897   60.6  0.1673  -89.0
 2.400  0.7017  146.2   2.656   51.0  0.0932   60.3  0.1692  -91.8
 2.500  0.7041  144.6   2.551   49.3  0.0966   59.8  0.1710  -94.7
 2.600  0.7071  143.1   2.448   47.5  0.1001   59.4  0.1733  -97.5
 2.700  0.7109  141.5   2.358   45.8  0.1037   58.9  0.1760 -100.1
 2.800  0.7153  140.0   2.271   44.0  0.1073   58.4  0.1790 -102.7
 2.900  0.7180  138.4   2.193   42.4  0.1108   57.8  0.1812 -105.5
 3.000  0.7213  136.9   2.117   40.6  0.1143   57.2  0.1838 -108.2
 3.100  0.7243  135.4   2.053   39.1  0.1178   56.6  0.1861 -110.9
 3.200  0.7278  134.0   1.990   37.6  0.1213   56.1  0.1888 -113.5
 3.300  0.7318  132.5   1.928   35.9  0.1248   55.6  0.1919 -116.0
 3.400  0.7362  131.1   1.869   34.2  0.1284   55.1  0.1953 -118.4
 3.500  0.7411  129.7   1.811   32.3  0.1319   54.6  0.1991 -120.8
 3.600  0.7438  128.3   1.762   30.9  0.1354   53.9  0.2019 -123.6
 3.700  0.7469  127.0   1.714   29.4  0.1389   53.2  0.2051 -126.3
 3.800  0.7504  125.6   1.668   27.8  0.1424   52.5  0.2088 -128.9
 3.900  0.7544  124.3   1.623   26.2  0.1459   51.9  0.2130 -131.5
 4.000  0.7587  123.0   1.579   24.4  0.1495   51.3  0.2175 -133.9
 4.100  0.7610  121.8   1.539   23.0  0.1528   50.5  0.2215 -136.7
 4.200  0.7636  120.5   1.500   21.6  0.1561   49.8  0.2260 -139.5
 4.300  0.7665  119.3   1.462   20.1  0.1595   49.1  0.2310 -142.1
 4.400  0.7698  118.1   1.425   18.6  0.1628   48.4  0.2364 -144.6
 4.500  0.7735  116.9   1.389   16.9  0.1662   47.8  0.2423 -147.0
 4.600  0.7764  115.9   1.356   15.7  0.1696   47.2  0.2487 -149.5
 4.700  0.7795  115.0   1.323   14.5  0.1731   46.5  0.2555 -151.8
 4.800  0.7828  114.1   1.291   13.1  0.1765   45.9  0.2628 -154.0
 4.900  0.7864  113.1   1.260   11.8  0.1800   45.4  0.2704 -156.1
 5.000  0.7901  112.2   1.229   10.3  0.1835   44.8  0.2783 -158.1
 5.100  0.7922  111.3   1.205    9.2  0.1869   44.1  0.2869 -159.9
 5.200  0.7945  110.5   1.181    8.0  0.1903   43.4  0.2958 -161.6
 5.300  0.7970  109.6   1.158    6.8  0.1937   42.7  0.3049 -163.1
 5.400  0.7997  108.7   1.135    5.5  0.1971   42.1  0.3143 -164.6
 5.500  0.8025  107.9   1.113    4.2  0.2006   41.5  0.3238 -166.0
 5.600  0.8028  107.0   1.091    3.1  0.2040   40.7  0.3314 -167.2
 5.700  0.8033  106.1   1.069    2.1  0.2075   39.9  0.3391 -168.4
 5.800  0.8041  105.2   1.048    0.9  0.2109   39.2  0.3470 -169.4
 5.900  0.8050  104.3   1.027   -0.3  0.2145   38.5  0.3550 -170.5
 6.000  0.8061  103.4   1.007   -1.5  0.2180   37.8  0.3631 -171.5
!
!  f       NFmin   Gammaopt  rn/50
! GHz       dB    MAG  ANG    -
 0.450      1.39  0.27  180   0.10
 0.900      1.43  0.30 -178   0.09
 1.900      1.92  0.45 -156   0.10
 2.400      2.17  0.50 -152   0.15
!
! (c) 2017  Infineon Technologies AG, Munich