! Infineon Technologies  Discrete & RF Semiconductors
! BFP183W
! VCE =  10. V,  IC =  40 mA
! Common Emitter S-Parameters:                            Jan 2017
# GHz  S  MA  R  50
!  f         S11            S21            S12            S22
! GHz     MAG   ANG      MAG   ANG      MAG   ANG      MAG   ANG
 0.010  0.4545  -10.0  51.519  174.6  0.0014   74.9  0.9334   -3.1
 0.020  0.4503  -23.6  50.725  169.1  0.0032   84.7  0.9235   -7.0
 0.030  0.4414  -33.2  48.891  164.9  0.0046   76.0  0.9019  -10.2
 0.040  0.4451  -42.9  47.344  160.3  0.0060   71.3  0.8832  -13.5
 0.050  0.4612  -52.2  46.114  155.5  0.0074   68.4  0.8676  -16.9
 0.060  0.4534  -59.7  44.116  152.6  0.0085   65.6  0.8401  -18.9
 0.070  0.4536  -67.3  42.239  149.5  0.0097   63.5  0.8136  -21.0
 0.080  0.4616  -74.7  40.500  146.1  0.0109   61.8  0.7883  -23.2
 0.090  0.4772  -81.8  38.916  142.4  0.0120   60.4  0.7643  -25.6
 0.100  0.4995  -88.4  37.508  138.4  0.0132   59.3  0.7417  -28.1
 0.110  0.4990  -92.9  35.991  136.6  0.0139   58.3  0.7196  -29.2
 0.120  0.5015  -97.4  34.515  134.6  0.0146   57.5  0.6979  -30.4
 0.130  0.5070 -101.8  33.083  132.4  0.0153   56.7  0.6764  -31.7
 0.140  0.5155 -106.1  31.703  130.1  0.0160   56.0  0.6553  -33.1
 0.150  0.5268 -110.2  30.381  127.5  0.0167   55.3  0.6346  -34.5
 0.200  0.5564 -125.0  25.275  119.4  0.0183   52.5  0.5543  -38.3
 0.250  0.5736 -135.4  21.466  113.5  0.0212   49.8  0.4954  -40.5
 0.300  0.5915 -143.1  18.597  109.0  0.0219   49.0  0.4484  -41.9
 0.350  0.5969 -148.7  16.582  106.1  0.0235   48.6  0.4184  -42.4
 0.400  0.6078 -154.1  14.623  102.3  0.0251   48.2  0.3884  -43.0
 0.450  0.6098 -158.0  13.279  100.1  0.0264   48.9  0.3695  -43.2
 0.500  0.6146 -161.8  11.960   97.4  0.0277   49.6  0.3507  -43.4
 0.600  0.6238 -167.6  10.122   93.4  0.0305   50.5  0.3251  -43.7
 0.700  0.6292 -172.0   8.748   90.1  0.0321   53.1  0.3076  -43.8
 0.800  0.6314 -176.2   7.722   87.0  0.0354   55.4  0.2968  -44.5
 0.900  0.6323 -179.8   6.879   84.3  0.0385   55.3  0.2881  -45.4
 1.000  0.6358  177.4   6.240   81.9  0.0409   57.2  0.2811  -46.2
 1.100  0.6384  174.6   5.692   79.6  0.0446   58.6  0.2765  -47.2
 1.200  0.6402  171.9   5.231   77.2  0.0467   58.6  0.2720  -48.4
 1.300  0.6419  169.3   4.842   75.0  0.0499   59.2  0.2687  -49.7
 1.400  0.6433  167.3   4.519   72.8  0.0533   60.5  0.2651  -51.2
 1.500  0.6486  165.2   4.222   70.8  0.0562   60.9  0.2627  -52.8
 1.600  0.6501  163.1   3.974   68.7  0.0594   61.0  0.2610  -54.3
 1.700  0.6520  160.8   3.754   66.7  0.0632   61.3  0.2588  -56.3
 1.800  0.6556  158.7   3.565   64.7  0.0660   61.1  0.2566  -58.2
 1.900  0.6603  156.9   3.378   63.0  0.0691   61.6  0.2550  -60.2
 2.000  0.6615  154.9   3.213   60.9  0.0725   61.4  0.2545  -62.3
 2.100  0.6640  153.0   3.071   59.0  0.0758   61.3  0.2531  -64.5
 2.200  0.6671  151.2   2.932   56.9  0.0792   61.3  0.2521  -66.8
 2.300  0.6716  149.4   2.813   55.1  0.0827   61.1  0.2517  -69.2
 2.400  0.6768  147.7   2.697   53.2  0.0862   60.9  0.2517  -71.7
 2.500  0.6793  146.1   2.592   51.5  0.0893   60.5  0.2515  -74.2
 2.600  0.6824  144.5   2.490   49.6  0.0925   60.1  0.2518  -76.7
 2.700  0.6861  142.9   2.401   47.9  0.0959   59.9  0.2525  -79.2
 2.800  0.6903  141.3   2.314   46.1  0.0994   59.7  0.2536  -81.6
 2.900  0.6933  139.7   2.236   44.4  0.1026   59.1  0.2537  -84.1
 3.000  0.6969  138.1   2.160   42.5  0.1058   58.6  0.2542  -86.6
 3.100  0.7001  136.6   2.095   41.0  0.1093   58.2  0.2545  -89.1
 3.200  0.7038  135.1   2.032   39.5  0.1127   57.8  0.2552  -91.6
 3.300  0.7080  133.6   1.970   37.8  0.1162   57.4  0.2564  -94.1
 3.400  0.7127  132.1   1.910   36.1  0.1197   57.0  0.2581  -96.6
 3.500  0.7178  130.7   1.852   34.2  0.1232   56.7  0.2603  -99.0
 3.600  0.7209  129.3   1.803   32.7  0.1266   56.0  0.2606 -101.6
 3.700  0.7244  128.0   1.755   31.2  0.1301   55.4  0.2615 -104.3
 3.800  0.7284  126.6   1.708   29.6  0.1335   54.8  0.2630 -106.9
 3.900  0.7327  125.3   1.663   27.9  0.1370   54.2  0.2650 -109.5
 4.000  0.7374  124.0   1.619   26.1  0.1405   53.7  0.2675 -112.0
 4.100  0.7401  122.8   1.579   24.7  0.1439   53.0  0.2690 -114.9
 4.200  0.7431  121.5   1.539   23.2  0.1472   52.3  0.2711 -117.8
 4.300  0.7464  120.3   1.501   21.7  0.1506   51.6  0.2739 -120.6
 4.400  0.7501  119.1   1.464   20.0  0.1541   51.0  0.2773 -123.3
 4.500  0.7541  117.9   1.428   18.3  0.1575   50.4  0.2814 -126.0
 4.600  0.7574  116.9   1.394   17.1  0.1610   49.8  0.2856 -128.8
 4.700  0.7609  115.9   1.360   15.8  0.1645   49.2  0.2904 -131.5
 4.800  0.7647  114.9   1.327   14.4  0.1680   48.6  0.2958 -134.2
 4.900  0.7686  114.0   1.294   13.0  0.1715   48.1  0.3019 -136.7
 5.000  0.7728  113.0   1.263   11.5  0.1750   47.6  0.3085 -139.1
 5.100  0.7749  112.1   1.238   10.3  0.1785   46.9  0.3158 -141.4
 5.200  0.7772  111.2   1.213    9.1  0.1821   46.3  0.3236 -143.6
 5.300  0.7796  110.3   1.189    7.9  0.1857   45.7  0.3319 -145.7
 5.400  0.7823  109.5   1.165    6.6  0.1893   45.1  0.3406 -147.7
 5.500  0.7851  108.6   1.142    5.2  0.1929   44.5  0.3497 -149.6
 5.600  0.7860  107.7   1.119    4.1  0.1965   43.7  0.3572 -151.2
 5.700  0.7870  106.8   1.097    3.0  0.2000   42.9  0.3649 -152.8
 5.800  0.7883  105.9   1.075    1.8  0.2037   42.2  0.3729 -154.3
 5.900  0.7898  105.0   1.054    0.6  0.2073   41.5  0.3811 -155.7
 6.000  0.7914  104.1   1.033   -0.7  0.2110   40.8  0.3896 -157.1
!
!  f       NFmin   Gammaopt  rn/50
! GHz       dB    MAG  ANG    -
!
! noise parameter not available yet for this operation point!
!
! (c) 2017  Infineon Technologies AG, Munich