! Infineon Technologies  Discrete & RF Semiconductors
! BFP183W
! VCE =  6.0 V,  IC =  59 mA
! Common Emitter S-Parameters:                            Jan 2017
# GHz  S  MA  R  50
!  f         S11            S21            S12            S22
! GHz     MAG   ANG      MAG   ANG      MAG   ANG      MAG   ANG
 0.010  0.2270  -28.0  67.200  173.4  0.0013   77.7  0.9150   -4.6
 0.020  0.2630  -54.4  65.974  166.1  0.0030   81.3  0.8940  -10.4
 0.030  0.2899  -72.3  62.500  160.7  0.0042   70.8  0.8569  -14.8
 0.040  0.3393  -86.0  59.651  154.6  0.0056   65.2  0.8254  -19.6
 0.050  0.4029  -95.9  57.522  148.1  0.0069   61.7  0.8000  -24.7
 0.060  0.4194 -104.1  54.068  145.0  0.0076   60.3  0.7593  -26.8
 0.070  0.4438 -111.6  50.798  141.4  0.0083   59.1  0.7198  -29.1
 0.080  0.4749 -118.2  47.750  137.4  0.0091   58.2  0.6816  -31.7
 0.090  0.5115 -123.9  44.970  132.8  0.0098   57.3  0.6449  -34.6
 0.100  0.5524 -128.8  42.510  127.7  0.0105   56.6  0.6101  -37.8
 0.110  0.5615 -132.3  40.321  125.9  0.0109   55.5  0.5839  -38.6
 0.120  0.5727 -135.7  38.177  123.9  0.0113   54.4  0.5578  -39.6
 0.130  0.5858 -139.0  36.085  121.6  0.0118   53.4  0.5318  -40.6
 0.140  0.6007 -142.1  34.055  119.1  0.0122   52.5  0.5061  -41.7
 0.150  0.6173 -145.0  32.099  116.3  0.0126   51.7  0.4805  -42.9
 0.200  0.6448 -154.2  25.305  108.9  0.0135   50.2  0.4036  -44.2
 0.250  0.6604 -160.8  20.783  103.7  0.0155   51.0  0.3535  -43.8
 0.300  0.6668 -165.2  17.549  100.1  0.0165   52.0  0.3206  -43.1
 0.350  0.6716 -168.4  15.466   97.8  0.0175   54.8  0.3013  -42.4
 0.400  0.6785 -171.6  13.416   94.7  0.0186   57.2  0.2820  -41.5
 0.450  0.6790 -174.0  12.101   93.0  0.0204   58.7  0.2722  -41.0
 0.500  0.6806 -176.3  10.800   90.8  0.0223   60.0  0.2624  -40.5
 0.600  0.6836 -179.8   9.054   87.6  0.0251   61.7  0.2496  -40.1
 0.700  0.6866  177.3   7.779   84.9  0.0277   64.9  0.2418  -40.1
 0.800  0.6891  174.4   6.831   82.1  0.0317   66.8  0.2382  -40.7
 0.900  0.6873  172.1   6.066   79.8  0.0351   67.3  0.2346  -41.9
 1.000  0.6900  169.9   5.489   77.6  0.0384   67.7  0.2320  -43.0
 1.100  0.6925  167.7   4.995   75.5  0.0421   68.0  0.2318  -44.4
 1.200  0.6931  165.5   4.581   73.3  0.0450   68.0  0.2302  -45.7
 1.300  0.6938  163.7   4.233   71.3  0.0483   68.9  0.2298  -47.6
 1.400  0.6957  161.7   3.947   69.3  0.0526   69.0  0.2281  -49.4
 1.500  0.6989  159.9   3.683   67.3  0.0557   68.4  0.2277  -51.4
 1.600  0.7027  158.1   3.465   65.3  0.0592   68.4  0.2283  -53.4
 1.700  0.7031  156.2   3.268   63.4  0.0630   68.5  0.2275  -55.7
 1.800  0.7067  154.3   3.100   61.4  0.0665   68.3  0.2270  -58.0
 1.900  0.7098  152.7   2.937   59.7  0.0699   68.1  0.2268  -60.3
 2.000  0.7126  151.0   2.790   57.7  0.0734   67.5  0.2271  -62.8
 2.100  0.7145  149.2   2.665   55.8  0.0772   67.2  0.2269  -65.4
 2.200  0.7172  147.4   2.543   53.8  0.0811   66.9  0.2272  -68.0
 2.300  0.7203  145.8   2.438   52.0  0.0849   66.4  0.2279  -70.8
 2.400  0.7240  144.2   2.336   50.1  0.0888   66.0  0.2291  -73.5
 2.500  0.7261  142.7   2.245   48.4  0.0921   65.5  0.2301  -76.4
 2.600  0.7287  141.2   2.156   46.6  0.0955   65.0  0.2317  -79.2
 2.700  0.7323  139.6   2.079   44.9  0.0991   64.5  0.2331  -82.0
 2.800  0.7365  138.1   2.003   43.1  0.1028   64.0  0.2351  -84.7
 2.900  0.7389  136.6   1.935   41.5  0.1065   63.2  0.2365  -87.5
 3.000  0.7417  135.2   1.869   39.7  0.1102   62.4  0.2384  -90.3
 3.100  0.7442  133.8   1.812   38.2  0.1138   61.8  0.2395  -93.1
 3.200  0.7472  132.4   1.757   36.7  0.1175   61.3  0.2412  -95.8
 3.300  0.7507  131.0   1.703   35.0  0.1211   60.7  0.2435  -98.5
 3.400  0.7546  129.6   1.651   33.3  0.1247   60.3  0.2462 -101.1
 3.500  0.7589  128.2   1.600   31.4  0.1284   59.8  0.2495 -103.7
 3.600  0.7617  126.9   1.557   30.0  0.1320   59.0  0.2509 -106.6
 3.700  0.7648  125.5   1.516   28.5  0.1356   58.2  0.2529 -109.4
 3.800  0.7684  124.2   1.475   26.9  0.1393   57.5  0.2555 -112.2
 3.900  0.7724  122.9   1.436   25.2  0.1429   56.8  0.2587 -114.9
 4.000  0.7768  121.6   1.398   23.4  0.1466   56.2  0.2624 -117.5
 4.100  0.7788  120.4   1.362   22.0  0.1501   55.4  0.2649 -120.5
 4.200  0.7811  119.2   1.328   20.6  0.1537   54.6  0.2680 -123.4
 4.300  0.7837  118.0   1.294   19.1  0.1573   53.8  0.2719 -126.3
 4.400  0.7867  116.9   1.261   17.5  0.1609   53.1  0.2764 -129.0
 4.500  0.7900  115.7   1.229   15.8  0.1646   52.4  0.2815 -131.7
 4.600  0.7926  114.8   1.199   14.6  0.1682   51.7  0.2866 -134.5
 4.700  0.7954  113.8   1.170   13.4  0.1718   51.0  0.2924 -137.3
 4.800  0.7984  112.9   1.141   12.1  0.1754   50.3  0.2988 -139.9
 4.900  0.8016  112.0   1.113   10.7  0.1790   49.6  0.3058 -142.4
 5.000  0.8050  111.1   1.086    9.3  0.1827   49.0  0.3134 -144.8
 5.100  0.8066  110.2   1.064    8.2  0.1863   48.2  0.3215 -147.0
 5.200  0.8083  109.3   1.043    7.0  0.1900   47.5  0.3301 -149.2
 5.300  0.8103  108.4   1.022    5.8  0.1937   46.8  0.3392 -151.2
 5.400  0.8125  107.6   1.001    4.6  0.1974   46.1  0.3486 -153.1
 5.500  0.8148  106.7   0.981    3.3  0.2012   45.5  0.3584 -154.9
 5.600  0.8153  105.8   0.961    2.3  0.2049   44.6  0.3661 -156.5
 5.700  0.8159  105.0   0.942    1.2  0.2086   43.7  0.3741 -158.0
 5.800  0.8167  104.1   0.923    0.1  0.2123   42.9  0.3824 -159.5
 5.900  0.8177  103.3   0.904   -1.0  0.2162   42.1  0.3909 -160.9
 6.000  0.8189  102.4   0.886   -2.2  0.2200   41.3  0.3996 -162.2
!
!  f       NFmin   Gammaopt  rn/50
! GHz       dB    MAG  ANG    -
!
! noise parameter not available yet for this operation point!
!
! (c) 2017  Infineon Technologies AG, Munich