! Infineon Technologies  Discrete & RF Semiconductors
! BFP183W
! VCE =  1.0 V,  IC =  63 mA
! Common Emitter S-Parameters:                            Jan 2017
# GHz  S  MA  R  50
!  f         S11            S21            S12            S22
! GHz     MAG   ANG      MAG   ANG      MAG   ANG      MAG   ANG
 0.010  0.2820 -123.7  44.184  162.9  0.0042   66.0  0.5269  -22.8
 0.020  0.4862 -132.3  39.179  147.3  0.0075   55.0  0.4736  -43.4
 0.030  0.5645 -140.9  33.598  141.1  0.0091   47.3  0.4055  -53.6
 0.040  0.6523 -147.3  28.558  132.6  0.0109   42.0  0.3550  -67.3
 0.050  0.7464 -152.2  24.396  120.9  0.0127   38.2  0.3303  -84.2
 0.060  0.7605 -155.3  22.157  118.9  0.0131   37.8  0.3055  -89.0
 0.070  0.7767 -158.3  19.950  116.5  0.0135   37.4  0.2831  -94.6
 0.080  0.7949 -161.2  17.789  113.4  0.0138   37.0  0.2639 -101.0
 0.090  0.8151 -163.9  15.692  109.5  0.0142   36.6  0.2485 -108.4
 0.100  0.8370 -166.5  13.689  104.5  0.0146   36.3  0.2378 -116.6
 0.110  0.8407 -167.6  12.811  103.5  0.0150   36.3  0.2305 -119.5
 0.120  0.8448 -168.8  11.939  102.3  0.0153   36.3  0.2238 -122.5
 0.130  0.8492 -169.9  11.072  101.0  0.0157   36.2  0.2177 -125.7
 0.140  0.8539 -171.0  10.212   99.4  0.0160   36.2  0.2124 -129.1
 0.150  0.8589 -172.1   9.361   97.5  0.0164   36.2  0.2079 -132.7
 0.200  0.8639 -175.6   7.066   92.8  0.0168   41.9  0.1965 -141.3
 0.250  0.8678 -178.2   5.666   89.3  0.0193   44.8  0.1903 -147.1
 0.300  0.8672  180.0   4.724   86.7  0.0209   46.6  0.1875 -150.7
 0.350  0.8673  178.4   4.138   84.7  0.0227   50.2  0.1865 -152.8
 0.400  0.8680  176.8   3.559   82.1  0.0246   53.3  0.1858 -154.9
 0.450  0.8665  175.6   3.200   80.4  0.0266   55.3  0.1862 -156.0
 0.500  0.8655  174.3   2.845   78.3  0.0286   57.0  0.1867 -157.0
 0.600  0.8670  172.2   2.375   74.8  0.0332   59.8  0.1902 -158.4
 0.700  0.8684  170.3   2.036   71.6  0.0373   62.4  0.1923 -159.0
 0.800  0.8685  168.2   1.782   68.2  0.0424   63.8  0.1961 -159.4
 0.900  0.8671  166.3   1.581   65.2  0.0470   65.2  0.2009 -159.7
 1.000  0.8687  164.4   1.428   62.2  0.0518   65.4  0.2058 -160.3
 1.100  0.8708  162.8   1.301   59.4  0.0566   66.0  0.2109 -160.3
 1.200  0.8698  160.8   1.191   56.3  0.0614   65.9  0.2156 -160.9
 1.300  0.8720  159.1   1.100   53.8  0.0661   65.7  0.2220 -161.4
 1.400  0.8739  157.4   1.026   50.9  0.0715   65.9  0.2289 -162.3
 1.500  0.8766  155.6   0.956   48.3  0.0763   65.4  0.2351 -163.0
 1.600  0.8789  153.9   0.898   45.6  0.0812   65.0  0.2423 -163.8
 1.700  0.8795  151.9   0.848   43.1  0.0861   64.6  0.2498 -164.8
 1.800  0.8855  150.2   0.803   40.5  0.0913   64.2  0.2574 -165.7
 1.900  0.8858  148.6   0.759   38.4  0.0959   63.4  0.2650 -166.8
 2.000  0.8851  146.8   0.720   35.8  0.1009   62.5  0.2733 -167.8
 2.100  0.8864  144.9   0.686   33.7  0.1059   61.7  0.2816 -169.1
 2.200  0.8886  143.1   0.654   31.4  0.1109   60.9  0.2901 -170.3
 2.300  0.8905  141.5   0.625   29.5  0.1158   60.1  0.2986 -171.5
 2.400  0.8931  139.9   0.597   27.4  0.1208   59.4  0.3072 -172.7
 2.500  0.8936  138.3   0.571   25.6  0.1255   58.4  0.3156 -174.0
 2.600  0.8948  136.7   0.546   23.7  0.1302   57.5  0.3241 -175.2
 2.700  0.8962  135.1   0.525   22.2  0.1347   56.7  0.3321 -176.5
 2.800  0.8982  133.5   0.505   20.6  0.1393   55.9  0.3402 -177.7
 2.900  0.8976  132.0   0.486   19.2  0.1436   54.9  0.3479 -179.1
 3.000  0.8976  130.5   0.467   17.7  0.1479   53.9  0.3558  179.5
 3.100  0.8980  129.0   0.452   16.7  0.1521   52.9  0.3625  178.0
 3.200  0.8990  127.6   0.438   15.6  0.1564   52.0  0.3694  176.5
 3.300  0.9006  126.1   0.424   14.5  0.1607   51.1  0.3766  175.1
 3.400  0.9028  124.6   0.410   13.3  0.1651   50.3  0.3840  173.8
 3.500  0.9056  123.2   0.396   12.0  0.1695   49.5  0.3916  172.5
 3.600  0.9051  121.8   0.386   11.4  0.1734   48.4  0.3983  170.9
 3.700  0.9051  120.4   0.375   10.8  0.1773   47.4  0.4053  169.4
 3.800  0.9056  119.0   0.365   10.2  0.1812   46.4  0.4125  168.0
 3.900  0.9067  117.6   0.355    9.5  0.1852   45.5  0.4200  166.6
 4.000  0.9083  116.2   0.345    8.8  0.1893   44.6  0.4278  165.2
 4.100  0.9067  115.0   0.338    8.4  0.1929   43.6  0.4347  163.6
 4.200  0.9056  113.8   0.331    8.1  0.1965   42.6  0.4419  162.1
 4.300  0.9048  112.5   0.323    7.7  0.2002   41.7  0.4494  160.7
 4.400  0.9045  111.3   0.316    7.2  0.2039   40.8  0.4572  159.3
 4.500  0.9046  110.1   0.309    6.8  0.2077   39.9  0.4653  157.9
 4.600  0.9040  109.2   0.304    6.9  0.2110   39.0  0.4722  156.6
 4.700  0.9037  108.2   0.299    6.9  0.2144   38.1  0.4793  155.4
 4.800  0.9036  107.3   0.294    7.0  0.2178   37.3  0.4867  154.2
 4.900  0.9038  106.3   0.289    7.0  0.2212   36.5  0.4942  153.0
 5.000  0.9042  105.4   0.284    7.1  0.2247   35.7  0.5020  151.9
 5.100  0.9039  104.6   0.283    7.2  0.2279   34.8  0.5085  151.0
 5.200  0.9037  103.7   0.281    7.3  0.2312   33.9  0.5151  150.1
 5.300  0.9038  102.9   0.280    7.4  0.2345   33.1  0.5218  149.3
 5.400  0.9041  102.0   0.278    7.5  0.2379   32.3  0.5287  148.4
 5.500  0.9045  101.2   0.277    7.6  0.2413   31.5  0.5356  147.6
 5.600  0.9025  100.3   0.276    7.7  0.2442   30.6  0.5387  146.9
 5.700  0.9007   99.4   0.275    7.8  0.2471   29.7  0.5418  146.2
 5.800  0.8991   98.6   0.275    7.9  0.2501   28.9  0.5451  145.5
 5.900  0.8978   97.7   0.274    8.0  0.2531   28.0  0.5484  144.9
 6.000  0.8966   96.8   0.273    8.1  0.2562   27.2  0.5518  144.2
!
!  f       NFmin   Gammaopt  rn/50
! GHz       dB    MAG  ANG    -
!
! noise parameter not available yet for this operation point!
!
! (c) 2017  Infineon Technologies AG, Munich