! Infineon Technologies  Discrete & RF Semiconductors
! BFP183W
! VCE =  3.0 V,  IC =  40 mA
! Common Emitter S-Parameters:                            Jan 2017
# GHz  S  MA  R  50
!  f         S11            S21            S12            S22
! GHz     MAG   ANG      MAG   ANG      MAG   ANG      MAG   ANG
 0.010  0.2749  -22.6  63.980  174.2  0.0013   94.6  0.9412   -5.2
 0.020  0.2961  -45.3  62.839  167.2  0.0037   84.3  0.9176  -10.9
 0.030  0.3131  -61.9  59.937  162.0  0.0052   74.5  0.8822  -15.6
 0.040  0.3528  -75.7  57.585  156.2  0.0068   69.2  0.8532  -20.6
 0.050  0.4084  -86.3  55.852  150.1  0.0084   65.9  0.8313  -26.0
 0.060  0.4201  -95.0  52.732  146.9  0.0091   63.4  0.7891  -28.6
 0.070  0.4408 -103.0  49.794  143.4  0.0098   61.2  0.7486  -31.5
 0.080  0.4693 -110.1  47.071  139.4  0.0106   59.4  0.7103  -34.6
 0.090  0.5043 -116.4  44.604  134.9  0.0113   57.8  0.6744  -38.2
 0.100  0.5444 -121.8  42.435  130.0  0.0121   56.4  0.6413  -42.1
 0.110  0.5528 -125.7  40.347  128.1  0.0127   54.9  0.6120  -43.4
 0.120  0.5637 -129.4  38.307  126.0  0.0133   53.4  0.5831  -44.9
 0.130  0.5769 -133.0  36.324  123.7  0.0139   52.2  0.5546  -46.5
 0.140  0.5923 -136.5  34.408  121.1  0.0145   51.0  0.5266  -48.2
 0.150  0.6097 -139.7  32.571  118.2  0.0151   49.9  0.4991  -50.2
 0.200  0.6397 -149.9  25.883  110.4  0.0158   49.7  0.4091  -53.9
 0.250  0.6567 -157.2  21.353  105.0  0.0176   46.9  0.3476  -55.6
 0.300  0.6675 -162.2  18.080  101.1  0.0184   48.6  0.3048  -56.4
 0.350  0.6705 -165.8  15.944   98.6  0.0200   50.9  0.2789  -56.4
 0.400  0.6762 -169.4  13.848   95.3  0.0216   52.9  0.2530  -56.4
 0.450  0.6776 -171.9  12.494   93.5  0.0231   54.4  0.2382  -56.2
 0.500  0.6803 -174.3  11.155   91.2  0.0246   55.8  0.2234  -55.9
 0.600  0.6845 -178.2   9.355   87.7  0.0281   57.1  0.2046  -55.5
 0.700  0.6856  178.7   8.028   84.9  0.0303   60.9  0.1922  -55.2
 0.800  0.6895  175.8   7.045   82.0  0.0344   62.5  0.1854  -55.6
 0.900  0.6874  173.2   6.250   79.6  0.0382   62.8  0.1798  -56.3
 1.000  0.6918  170.8   5.652   77.2  0.0412   63.7  0.1756  -57.1
 1.100  0.6938  168.7   5.141   75.1  0.0450   64.2  0.1748  -58.1
 1.200  0.6938  166.4   4.715   72.8  0.0485   64.2  0.1734  -59.3
 1.300  0.6953  164.5   4.352   70.8  0.0519   64.9  0.1726  -60.8
 1.400  0.6970  162.6   4.055   68.7  0.0561   65.5  0.1709  -62.6
 1.500  0.7014  160.7   3.780   66.7  0.0592   65.6  0.1704  -64.3
 1.600  0.7046  158.9   3.553   64.7  0.0629   65.3  0.1711  -66.2
 1.700  0.7070  156.9   3.350   62.7  0.0671   65.4  0.1707  -68.7
 1.800  0.7095  155.0   3.177   60.7  0.0706   65.0  0.1711  -71.0
 1.900  0.7128  153.5   3.007   59.0  0.0738   64.7  0.1717  -73.4
 2.000  0.7140  151.6   2.855   56.9  0.0780   64.3  0.1730  -76.0
 2.100  0.7167  149.8   2.725   55.0  0.0817   63.8  0.1738  -78.8
 2.200  0.7200  148.1   2.599   53.0  0.0854   63.3  0.1750  -81.5
 2.300  0.7236  146.5   2.490   51.2  0.0892   63.0  0.1769  -84.5
 2.400  0.7277  144.9   2.384   49.3  0.0930   62.8  0.1792  -87.4
 2.500  0.7295  143.3   2.289   47.6  0.0963   62.3  0.1814  -90.4
 2.600  0.7318  141.7   2.197   45.7  0.0997   61.8  0.1841  -93.3
 2.700  0.7354  140.2   2.118   44.1  0.1034   61.2  0.1867  -96.0
 2.800  0.7396  138.7   2.040   42.3  0.1072   60.6  0.1898  -98.7
 2.900  0.7423  137.2   1.969   40.6  0.1108   60.0  0.1924 -101.6
 3.000  0.7455  135.7   1.900   38.8  0.1145   59.4  0.1955 -104.5
 3.100  0.7481  134.2   1.842   37.3  0.1181   58.8  0.1980 -107.3
 3.200  0.7512  132.8   1.785   35.8  0.1217   58.2  0.2010 -110.0
 3.300  0.7548  131.3   1.730   34.1  0.1253   57.7  0.2044 -112.6
 3.400  0.7589  129.9   1.676   32.4  0.1289   57.2  0.2082 -115.2
 3.500  0.7634  128.5   1.624   30.5  0.1325   56.7  0.2124 -117.6
 3.600  0.7658  127.2   1.580   29.1  0.1360   55.9  0.2152 -120.5
 3.700  0.7686  125.9   1.537   27.6  0.1396   55.1  0.2185 -123.2
 3.800  0.7719  124.6   1.495   26.0  0.1432   54.4  0.2224 -125.9
 3.900  0.7755  123.3   1.454   24.4  0.1468   53.7  0.2267 -128.5
 4.000  0.7795  122.0   1.415   22.6  0.1504   53.1  0.2314 -131.0
 4.100  0.7815  120.8   1.379   21.2  0.1538   52.3  0.2355 -133.9
 4.200  0.7839  119.6   1.344   19.8  0.1573   51.6  0.2401 -136.7
 4.300  0.7867  118.4   1.310   18.3  0.1608   50.8  0.2454 -139.4
 4.400  0.7898  117.2   1.276   16.7  0.1643   50.2  0.2511 -142.0
 4.500  0.7932  116.0   1.244   15.0  0.1678   49.5  0.2573 -144.4
 4.600  0.7957  115.0   1.214   13.8  0.1713   48.8  0.2638 -147.0
 4.700  0.7984  114.1   1.184   12.6  0.1748   48.1  0.2709 -149.4
 4.800  0.8013  113.1   1.155   11.4  0.1783   47.4  0.2784 -151.7
 4.900  0.8045  112.1   1.127   10.0  0.1819   46.7  0.2863 -153.8
 5.000  0.8079  111.2   1.099    8.6  0.1855   46.1  0.2946 -155.9
 5.100  0.8095  110.3   1.077    7.5  0.1891   45.4  0.3034 -157.8
 5.200  0.8113  109.5   1.055    6.3  0.1927   44.7  0.3125 -159.6
 5.300  0.8134  108.6   1.034    5.1  0.1964   44.0  0.3219 -161.4
 5.400  0.8155  107.8   1.013    3.9  0.2001   43.3  0.3316 -163.0
 5.500  0.8179  106.9   0.993    2.6  0.2038   42.7  0.3415 -164.5
 5.600  0.8184  106.0   0.973    1.6  0.2072   41.9  0.3493 -165.8
 5.700  0.8190  105.1   0.954    0.5  0.2106   41.1  0.3573 -167.1
 5.800  0.8198  104.3   0.935   -0.6  0.2141   40.3  0.3655 -168.3
 5.900  0.8209  103.4   0.916   -1.7  0.2176   39.5  0.3738 -169.4
 6.000  0.8221  102.5   0.898   -2.9  0.2212   38.8  0.3823 -170.5
!
!  f       NFmin   Gammaopt  rn/50
! GHz       dB    MAG  ANG    -
!
! noise parameter not available yet for this operation point!
!
! (c) 2017  Infineon Technologies AG, Munich