! Infineon Technologies  Discrete & RF Semiconductors
! BFP183W
! VCE =  2.0 V,  IC =  37 mA
! Common Emitter S-Parameters:                            Jan 2017
# GHz  S  MA  R  50
!  f         S11            S21            S12            S22
! GHz     MAG   ANG      MAG   ANG      MAG   ANG      MAG   ANG
 0.010  0.2797  -26.0  60.461  173.5  0.0019   87.6  0.9164   -6.1
 0.020  0.3104  -50.7  59.292  165.7  0.0034   81.3  0.8964  -12.6
 0.030  0.3312  -68.2  56.020  160.2  0.0051   71.4  0.8525  -17.6
 0.040  0.3783  -82.6  53.330  154.0  0.0068   66.5  0.8158  -23.1
 0.050  0.4432  -93.2  51.316  147.3  0.0086   63.6  0.7873  -29.1
 0.060  0.4565 -101.5  48.168  144.2  0.0096   60.3  0.7427  -31.7
 0.070  0.4788 -109.3  45.183  140.6  0.0106   57.6  0.6998  -34.6
 0.080  0.5090 -116.2  42.394  136.6  0.0116   55.4  0.6589  -37.9
 0.090  0.5457 -122.2  39.843  132.1  0.0126   53.6  0.6205  -41.5
 0.100  0.5877 -127.5  37.578  126.9  0.0137   52.0  0.5849  -45.7
 0.110  0.5967 -131.1  35.623  125.1  0.0141   50.7  0.5567  -47.0
 0.120  0.6080 -134.6  33.709  123.1  0.0146   49.5  0.5289  -48.4
 0.130  0.6215 -138.0  31.841  120.8  0.0150   48.3  0.5013  -49.9
 0.140  0.6370 -141.2  30.029  118.3  0.0154   47.2  0.4742  -51.7
 0.150  0.6545 -144.3  28.284  115.4  0.0159   46.2  0.4476  -53.6
 0.200  0.6804 -153.7  22.256  108.0  0.0168   46.0  0.3635  -57.1
 0.250  0.6977 -160.4  18.241  102.8  0.0186   46.0  0.3075  -58.7
 0.300  0.7039 -165.0  15.375   99.1  0.0195   47.1  0.2693  -59.3
 0.350  0.7072 -168.3  13.551   96.7  0.0211   49.1  0.2460  -59.3
 0.400  0.7129 -171.6  11.757   93.6  0.0227   50.9  0.2227  -59.3
 0.450  0.7137 -173.9  10.597   91.8  0.0241   52.4  0.2101  -59.1
 0.500  0.7157 -176.2   9.450   89.6  0.0256   53.8  0.1976  -58.9
 0.600  0.7205 -179.8   7.913   86.3  0.0288   57.0  0.1819  -59.0
 0.700  0.7198  177.4   6.789   83.5  0.0319   58.9  0.1715  -58.8
 0.800  0.7218  174.5   5.956   80.6  0.0360   60.9  0.1667  -59.4
 0.900  0.7210  172.2   5.283   78.2  0.0388   61.9  0.1623  -60.4
 1.000  0.7238  169.8   4.776   75.8  0.0424   63.3  0.1590  -61.7
 1.100  0.7278  167.7   4.346   73.7  0.0460   63.5  0.1589  -62.9
 1.200  0.7281  165.5   3.982   71.3  0.0497   64.0  0.1584  -64.3
 1.300  0.7273  163.6   3.677   69.2  0.0534   64.2  0.1582  -66.3
 1.400  0.7319  161.7   3.427   67.1  0.0569   64.8  0.1576  -68.2
 1.500  0.7330  160.0   3.195   65.1  0.0610   64.5  0.1577  -70.5
 1.600  0.7377  158.0   3.005   63.0  0.0646   64.3  0.1592  -72.7
 1.700  0.7392  156.2   2.834   61.0  0.0686   64.9  0.1599  -75.1
 1.800  0.7428  154.3   2.687   58.9  0.0719   64.1  0.1609  -77.7
 1.900  0.7448  152.6   2.543   57.1  0.0757   64.0  0.1624  -80.4
 2.000  0.7463  150.7   2.413   54.9  0.0796   63.9  0.1647  -83.2
 2.100  0.7484  148.9   2.304   53.0  0.0833   63.4  0.1665  -86.2
 2.200  0.7511  147.2   2.198   51.0  0.0871   63.0  0.1687  -89.1
 2.300  0.7545  145.6   2.106   49.2  0.0910   62.6  0.1714  -92.2
 2.400  0.7585  144.0   2.017   47.2  0.0950   62.2  0.1746  -95.1
 2.500  0.7606  142.4   1.937   45.5  0.0985   61.6  0.1780  -98.1
 2.600  0.7632  140.9   1.858   43.6  0.1021   61.1  0.1818 -100.9
 2.700  0.7659  139.3   1.790   41.9  0.1058   60.6  0.1856 -103.8
 2.800  0.7692  137.8   1.724   40.0  0.1096   60.1  0.1899 -106.6
 2.900  0.7714  136.3   1.665   38.3  0.1133   59.4  0.1933 -109.4
 3.000  0.7741  134.8   1.607   36.5  0.1171   58.8  0.1971 -112.1
 3.100  0.7766  133.3   1.558   35.0  0.1208   58.2  0.2006 -114.9
 3.200  0.7797  131.9   1.509   33.5  0.1244   57.6  0.2045 -117.6
 3.300  0.7832  130.4   1.462   31.8  0.1281   57.1  0.2089 -120.2
 3.400  0.7873  129.0   1.416   30.0  0.1318   56.6  0.2136 -122.6
 3.500  0.7918  127.6   1.372   28.1  0.1355   56.1  0.2188 -125.0
 3.600  0.7936  126.2   1.335   26.7  0.1392   55.3  0.2226 -127.8
 3.700  0.7958  124.9   1.298   25.2  0.1429   54.5  0.2270 -130.5
 3.800  0.7985  123.6   1.263   23.6  0.1466   53.8  0.2318 -133.1
 3.900  0.8016  122.2   1.228   22.0  0.1503   53.1  0.2371 -135.5
 4.000  0.8051  120.9   1.195   20.2  0.1541   52.5  0.2428 -137.9
 4.100  0.8066  119.7   1.164   18.8  0.1576   51.7  0.2478 -140.7
 4.200  0.8085  118.5   1.135   17.4  0.1612   50.9  0.2534 -143.4
 4.300  0.8107  117.3   1.106   15.9  0.1648   50.1  0.2596 -145.9
 4.400  0.8133  116.1   1.077   14.3  0.1684   49.4  0.2662 -148.4
 4.500  0.8162  114.9   1.050   12.6  0.1721   48.7  0.2733 -150.7
 4.600  0.8181  113.9   1.024   11.5  0.1756   48.0  0.2806 -153.1
 4.700  0.8203  113.0   0.999   10.3  0.1792   47.3  0.2883 -155.4
 4.800  0.8227  112.1   0.974    9.1  0.1827   46.7  0.2965 -157.5
 4.900  0.8253  111.1   0.950    7.8  0.1863   46.1  0.3051 -159.6
 5.000  0.8281  110.2   0.926    6.4  0.1899   45.5  0.3140 -161.5
 5.100  0.8296  109.4   0.908    5.4  0.1935   44.7  0.3232 -163.3
 5.200  0.8312  108.5   0.889    4.3  0.1972   43.9  0.3327 -165.0
 5.300  0.8330  107.7   0.872    3.1  0.2008   43.2  0.3424 -166.6
 5.400  0.8350  106.8   0.854    1.9  0.2046   42.5  0.3525 -168.1
 5.500  0.8372  106.0   0.837    0.7  0.2083   41.8  0.3627 -169.5
 5.600  0.8371  105.1   0.820   -0.2  0.2118   41.0  0.3706 -170.7
 5.700  0.8372  104.2   0.804   -1.1  0.2154   40.2  0.3786 -171.9
 5.800  0.8375  103.3   0.788   -2.1  0.2190   39.4  0.3868 -173.1
 5.900  0.8381  102.4   0.772   -3.1  0.2226   38.6  0.3951 -174.2
 6.000  0.8388  101.5   0.756   -4.2  0.2263   37.9  0.4036 -175.2
!
!  f       NFmin   Gammaopt  rn/50
! GHz       dB    MAG  ANG    -
!
! noise parameter not available yet for this operation point!
!
! (c) 2017  Infineon Technologies AG, Munich