! Infineon Technologies  Discrete & RF Semiconductors
! BFP183W
! VCE =  9.0 V,  IC =  17 mA
! Common Emitter S-Parameters:                            Jan 2017
# GHz  S  MA  R  50
!  f         S11            S21            S12            S22
! GHz     MAG   ANG      MAG   ANG      MAG   ANG      MAG   ANG
 0.010  0.6250   -5.7  41.557  176.7  0.0015   86.0  0.9850   -2.8
 0.020  0.6128  -14.5  40.763  172.7  0.0035   85.7  0.9735   -5.7
 0.030  0.6063  -20.4  40.166  169.6  0.0051   79.1  0.9630   -8.4
 0.040  0.6064  -26.5  39.689  166.4  0.0067   75.7  0.9547  -11.2
 0.050  0.6132  -32.4  39.337  163.2  0.0084   73.6  0.9487  -14.0
 0.060  0.6015  -38.0  38.372  160.5  0.0099   71.5  0.9277  -16.2
 0.070  0.5957  -43.8  37.497  157.7  0.0115   69.9  0.9082  -18.5
 0.080  0.5961  -49.6  36.716  154.7  0.0130   68.7  0.8902  -20.9
 0.090  0.6027  -55.4  36.036  151.7  0.0146   67.8  0.8738  -23.4
 0.100  0.6152  -61.0  35.464  148.5  0.0161   67.0  0.8592  -26.0
 0.110  0.6064  -65.5  34.468  146.4  0.0170   64.7  0.8370  -27.6
 0.120  0.6016  -70.2  33.521  144.2  0.0180   62.5  0.8154  -29.3
 0.130  0.6007  -74.9  32.626  141.9  0.0189   60.7  0.7946  -31.1
 0.140  0.6038  -79.5  31.789  139.4  0.0199   58.9  0.7747  -33.0
 0.150  0.6109  -84.1  31.014  136.8  0.0209   57.4  0.7556  -35.0
 0.200  0.6116 -101.0  26.858  127.5  0.0235   52.8  0.6638  -41.2
 0.250  0.6124 -114.7  23.397  120.3  0.0264   48.8  0.5852  -45.6
 0.300  0.6103 -125.2  20.503  114.8  0.0285   44.6  0.5223  -48.5
 0.350  0.6064 -132.5  18.386  111.1  0.0297   44.1  0.4773  -50.0
 0.400  0.6123 -139.7  16.364  106.5  0.0309   43.6  0.4327  -51.8
 0.450  0.6089 -144.7  14.888  103.9  0.0321   43.9  0.4039  -52.5
 0.500  0.6102 -149.8  13.449  100.7  0.0334   44.1  0.3752  -53.2
 0.600  0.6118 -157.4  11.415   96.0  0.0360   45.5  0.3355  -53.9
 0.700  0.6126 -163.3   9.861   92.2  0.0380   46.0  0.3080  -54.1
 0.800  0.6135 -168.4   8.701   88.7  0.0408   48.1  0.2893  -54.3
 0.900  0.6128 -172.6   7.748   85.7  0.0431   49.1  0.2748  -54.7
 1.000  0.6158 -176.3   7.021   83.1  0.0450   49.8  0.2631  -55.1
 1.100  0.6173 -179.5   6.400   80.6  0.0480   51.2  0.2561  -55.5
 1.200  0.6185  177.3   5.872   78.1  0.0504   51.7  0.2495  -56.1
 1.300  0.6209  174.4   5.427   75.8  0.0530   52.6  0.2445  -57.0
 1.400  0.6234  172.0   5.061   73.6  0.0564   54.1  0.2394  -58.1
 1.500  0.6260  169.5   4.724   71.6  0.0590   54.3  0.2356  -59.1
 1.600  0.6284  167.1   4.438   69.4  0.0619   54.5  0.2338  -60.4
 1.700  0.6314  164.8   4.188   67.4  0.0650   55.2  0.2307  -62.0
 1.800  0.6336  162.4   3.974   65.4  0.0683   55.3  0.2287  -63.6
 1.900  0.6376  160.6   3.764   63.6  0.0707   55.6  0.2264  -65.2
 2.000  0.6400  158.3   3.576   61.5  0.0742   55.7  0.2259  -67.1
 2.100  0.6426  156.3   3.415   59.6  0.0773   55.9  0.2246  -69.2
 2.200  0.6460  154.3   3.258   57.6  0.0804   56.0  0.2236  -71.3
 2.300  0.6507  152.3   3.123   55.8  0.0835   55.9  0.2232  -73.5
 2.400  0.6562  150.4   2.991   53.8  0.0866   55.9  0.2231  -75.8
 2.500  0.6591  148.8   2.873   52.1  0.0897   55.7  0.2232  -78.2
 2.600  0.6625  147.2   2.758   50.3  0.0929   55.6  0.2236  -80.6
 2.700  0.6666  145.4   2.658   48.6  0.0960   55.3  0.2243  -83.0
 2.800  0.6714  143.7   2.561   46.8  0.0991   55.1  0.2254  -85.3
 2.900  0.6741  142.0   2.474   45.1  0.1023   54.7  0.2255  -87.8
 3.000  0.6773  140.4   2.390   43.2  0.1056   54.4  0.2260  -90.2
 3.100  0.6808  138.8   2.318   41.8  0.1088   54.1  0.2265  -92.6
 3.200  0.6848  137.3   2.247   40.2  0.1120   53.9  0.2275  -95.1
 3.300  0.6893  135.7   2.177   38.6  0.1153   53.6  0.2288  -97.5
 3.400  0.6943  134.2   2.110   36.9  0.1185   53.4  0.2306  -99.9
 3.500  0.6998  132.7   2.045   35.0  0.1217   53.2  0.2327 -102.2
 3.600  0.7031  131.3   1.990   33.6  0.1250   52.6  0.2335 -104.8
 3.700  0.7068  129.9   1.937   32.1  0.1283   52.1  0.2347 -107.4
 3.800  0.7109  128.5   1.885   30.5  0.1316   51.6  0.2364 -110.0
 3.900  0.7154  127.1   1.835   28.8  0.1349   51.1  0.2386 -112.5
 4.000  0.7203  125.8   1.786   27.0  0.1382   50.6  0.2413 -115.0
 4.100  0.7233  124.5   1.741   25.6  0.1414   50.0  0.2431 -117.9
 4.200  0.7267  123.2   1.697   24.1  0.1446   49.4  0.2455 -120.7
 4.300  0.7305  121.9   1.654   22.6  0.1479   48.8  0.2485 -123.5
 4.400  0.7346  120.7   1.612   20.9  0.1511   48.3  0.2520 -126.2
 4.500  0.7391  119.4   1.572   19.2  0.1544   47.8  0.2561 -128.8
 4.600  0.7423  118.4   1.534   18.0  0.1577   47.3  0.2606 -131.6
 4.700  0.7457  117.4   1.497   16.7  0.1611   46.8  0.2656 -134.3
 4.800  0.7494  116.4   1.461   15.3  0.1644   46.3  0.2713 -136.9
 4.900  0.7533  115.4   1.425   13.9  0.1678   45.8  0.2774 -139.3
 5.000  0.7574  114.4   1.391   12.4  0.1712   45.4  0.2841 -141.7
 5.100  0.7600  113.5   1.363   11.2  0.1746   44.8  0.2917 -143.9
 5.200  0.7628  112.6   1.336   10.0  0.1780   44.2  0.2998 -146.0
 5.300  0.7658  111.7   1.309    8.8  0.1815   43.6  0.3082 -148.0
 5.400  0.7690  110.9   1.283    7.5  0.1849   43.0  0.3170 -149.9
 5.500  0.7723  110.0   1.258    6.1  0.1884   42.5  0.3261 -151.7
 5.600  0.7731  109.1   1.233    5.0  0.1919   41.8  0.3336 -153.2
 5.700  0.7740  108.2   1.209    3.9  0.1954   41.1  0.3413 -154.7
 5.800  0.7751  107.3   1.185    2.7  0.1990   40.4  0.3492 -156.1
 5.900  0.7765  106.4   1.162    1.5  0.2026   39.7  0.3574 -157.4
 6.000  0.7780  105.5   1.139    0.2  0.2062   39.1  0.3657 -158.7
!
!  f       NFmin   Gammaopt  rn/50
! GHz       dB    MAG  ANG    -
 0.450      1.12  0.17  164  -0.02
 0.900      1.15  0.23  169   0.09
 1.900      1.61  0.40 -165   0.08
 2.400      1.84  0.44 -159   0.11
!
! (c) 2017  Infineon Technologies AG, Munich