! Infineon Technologies  Discrete & RF Semiconductors
! BFP183W
! VCE =  3.0 V,  IC =  35 mA
! Common Emitter S-Parameters:                            Jan 2017
# GHz  S  MA  R  50
!  f         S11            S21            S12            S22
! GHz     MAG   ANG      MAG   ANG      MAG   ANG      MAG   ANG
 0.010  0.3215  -17.8  61.793  174.8  0.0015   81.7  0.9557   -4.8
 0.020  0.3340  -37.0  60.976  168.3  0.0035   79.6  0.9349  -10.2
 0.030  0.3408  -51.4  58.541  163.4  0.0049   73.9  0.9044  -14.7
 0.040  0.3677  -64.5  56.569  158.1  0.0064   70.8  0.8798  -19.4
 0.050  0.4107  -75.3  55.110  152.5  0.0079   68.8  0.8616  -24.4
 0.060  0.4167  -84.2  52.324  149.3  0.0089   65.2  0.8211  -27.1
 0.070  0.4324  -92.6  49.714  145.8  0.0099   62.3  0.7826  -30.0
 0.080  0.4566 -100.3  47.311  141.9  0.0109   60.0  0.7463  -33.3
 0.090  0.4881 -107.1  45.148  137.7  0.0119   58.0  0.7127  -36.8
 0.100  0.5257 -113.0  43.260  133.0  0.0130   56.4  0.6821  -40.7
 0.110  0.5329 -117.3  41.251  131.0  0.0135   55.0  0.6526  -42.2
 0.120  0.5429 -121.4  39.297  128.9  0.0141   53.7  0.6235  -43.9
 0.130  0.5557 -125.4  37.404  126.5  0.0146   52.5  0.5951  -45.7
 0.140  0.5710 -129.1  35.584  123.8  0.0151   51.4  0.5672  -47.7
 0.150  0.5886 -132.7  33.847  120.9  0.0157   50.4  0.5402  -49.9
 0.200  0.6195 -144.3  27.168  112.7  0.0174   49.9  0.4445  -54.6
 0.250  0.6384 -152.7  22.551  106.9  0.0186   48.0  0.3771  -57.3
 0.300  0.6478 -158.4  19.159  102.8  0.0201   50.0  0.3288  -58.6
 0.350  0.6525 -162.4  16.923  100.1  0.0214   51.2  0.2986  -59.1
 0.400  0.6603 -166.4  14.735   96.7  0.0227   52.3  0.2684  -59.7
 0.450  0.6611 -169.2  13.305   94.8  0.0243   53.0  0.2513  -59.7
 0.500  0.6635 -171.9  11.893   92.4  0.0260   53.7  0.2342  -59.8
 0.600  0.6670 -176.1   9.978   88.8  0.0294   56.2  0.2110  -59.8
 0.700  0.6687 -179.6   8.569   85.8  0.0320   59.6  0.1958  -59.5
 0.800  0.6730  177.3   7.524   82.9  0.0359   60.7  0.1872  -59.8
 0.900  0.6731  174.7   6.681   80.5  0.0384   60.6  0.1800  -60.5
 1.000  0.6752  172.2   6.038   78.1  0.0419   62.3  0.1745  -61.1
 1.100  0.6769  169.9   5.495   76.0  0.0459   62.8  0.1722  -61.9
 1.200  0.6784  167.5   5.038   73.7  0.0493   63.0  0.1694  -62.9
 1.300  0.6801  165.4   4.652   71.6  0.0525   63.1  0.1679  -64.3
 1.400  0.6825  163.5   4.337   69.5  0.0564   64.0  0.1660  -66.0
 1.500  0.6863  161.7   4.043   67.6  0.0602   64.0  0.1653  -67.7
 1.600  0.6887  159.7   3.799   65.5  0.0637   63.7  0.1650  -69.4
 1.700  0.6912  157.7   3.584   63.6  0.0676   63.8  0.1650  -71.7
 1.800  0.6936  155.8   3.396   61.6  0.0713   63.5  0.1648  -73.9
 1.900  0.6963  154.2   3.216   59.8  0.0747   63.4  0.1652  -76.3
 2.000  0.6988  152.4   3.054   57.8  0.0785   63.1  0.1660  -78.7
 2.100  0.7015  150.5   2.916   55.9  0.0820   62.8  0.1667  -81.5
 2.200  0.7049  148.7   2.781   53.9  0.0856   62.6  0.1678  -84.3
 2.300  0.7084  147.1   2.665   52.2  0.0894   62.0  0.1696  -87.1
 2.400  0.7124  145.5   2.551   50.3  0.0933   61.4  0.1719  -89.9
 2.500  0.7145  144.0   2.449   48.6  0.0968   60.9  0.1739  -92.8
 2.600  0.7170  142.5   2.350   46.7  0.1003   60.5  0.1763  -95.6
 2.700  0.7207  140.8   2.265   45.1  0.1038   60.0  0.1791  -98.3
 2.800  0.7249  139.2   2.182   43.3  0.1074   59.5  0.1823 -101.0
 2.900  0.7277  137.7   2.106   41.6  0.1109   58.9  0.1847 -103.8
 3.000  0.7310  136.3   2.032   39.8  0.1144   58.3  0.1876 -106.6
 3.100  0.7339  134.8   1.970   38.4  0.1180   57.7  0.1900 -109.3
 3.200  0.7374  133.4   1.910   36.8  0.1216   57.2  0.1927 -112.0
 3.300  0.7412  131.9   1.851   35.2  0.1252   56.6  0.1959 -114.5
 3.400  0.7456  130.5   1.794   33.5  0.1289   56.2  0.1995 -117.0
 3.500  0.7504  129.1   1.738   31.6  0.1325   55.7  0.2034 -119.4
 3.600  0.7530  127.8   1.691   30.2  0.1360   54.9  0.2062 -122.2
 3.700  0.7560  126.4   1.645   28.7  0.1395   54.2  0.2094 -125.0
 3.800  0.7595  125.1   1.600   27.1  0.1431   53.4  0.2132 -127.6
 3.900  0.7633  123.8   1.557   25.4  0.1466   52.8  0.2173 -130.2
 4.000  0.7675  122.5   1.515   23.6  0.1502   52.1  0.2219 -132.6
 4.100  0.7697  121.3   1.477   22.2  0.1535   51.3  0.2259 -135.5
 4.200  0.7723  120.1   1.439   20.8  0.1568   50.6  0.2305 -138.3
 4.300  0.7752  118.9   1.403   19.3  0.1602   49.8  0.2356 -141.0
 4.400  0.7785  117.7   1.367   17.7  0.1636   49.2  0.2412 -143.6
 4.500  0.7821  116.5   1.333   16.0  0.1670   48.5  0.2473 -146.0
 4.600  0.7847  115.5   1.301   14.8  0.1704   47.8  0.2538 -148.5
 4.700  0.7875  114.6   1.269   13.6  0.1738   47.2  0.2608 -150.9
 4.800  0.7905  113.7   1.237   12.3  0.1773   46.6  0.2681 -153.1
 4.900  0.7937  112.7   1.207   10.9  0.1807   46.0  0.2759 -155.2
 5.000  0.7971  111.8   1.177    9.5  0.1842   45.4  0.2840 -157.2
 5.100  0.7990  110.9   1.154    8.4  0.1877   44.7  0.2927 -159.0
 5.200  0.8011  110.0   1.131    7.2  0.1912   44.0  0.3017 -160.8
 5.300  0.8034  109.1   1.109    6.0  0.1948   43.3  0.3109 -162.4
 5.400  0.8059  108.3   1.087    4.8  0.1984   42.6  0.3204 -164.0
 5.500  0.8086  107.4   1.066    3.5  0.2020   42.0  0.3301 -165.4
 5.600  0.8094  106.5   1.045    2.5  0.2055   41.2  0.3377 -166.6
 5.700  0.8104  105.6   1.024    1.4  0.2091   40.5  0.3455 -167.8
 5.800  0.8116  104.8   1.004    0.3  0.2126   39.8  0.3535 -169.0
 5.900  0.8130  103.9   0.984   -0.9  0.2163   39.1  0.3615 -170.1
 6.000  0.8146  103.0   0.965   -2.1  0.2199   38.4  0.3697 -171.1
!
!  f       NFmin   Gammaopt  rn/50
! GHz       dB    MAG  ANG    -
 0.450      1.51  0.29 -177   0.10
 0.900      1.56  0.32 -176   0.10
 1.900      2.05  0.47 -154   0.11
 2.400      2.31  0.51 -151   0.16
!
! (c) 2017  Infineon Technologies AG, Munich