! Infineon Technologies  Discrete & RF Semiconductors
! BFP183W
! VCE =  1.0 V,  IC =  35 mA
! Common Emitter S-Parameters:                            Jan 2017
# GHz  S  MA  R  50
!  f         S11            S21            S12            S22
! GHz     MAG   ANG      MAG   ANG      MAG   ANG      MAG   ANG
 0.010  0.2893  -42.1  52.127  169.9  0.0033   77.6  0.7912  -11.0
 0.020  0.3702  -72.7  49.350  159.2  0.0064   74.0  0.7510  -21.6
 0.030  0.4089  -91.9  44.861  152.8  0.0087   63.6  0.6833  -28.4
 0.040  0.4836 -106.4  41.052  145.1  0.0111   57.6  0.6275  -36.6
 0.050  0.5806 -116.6  38.126  136.0  0.0136   53.8  0.5867  -46.2
 0.060  0.5949 -123.3  35.118  133.3  0.0143   50.9  0.5412  -49.2
 0.070  0.6170 -129.6  32.205  130.0  0.0151   48.2  0.4973  -52.6
 0.080  0.6459 -135.4  29.414  126.2  0.0159   45.9  0.4557  -56.8
 0.090  0.6809 -140.7  26.785  121.5  0.0168   43.7  0.4169  -61.7
 0.100  0.7211 -145.4  24.370  115.9  0.0176   41.8  0.3818  -67.6
 0.110  0.7279 -147.9  22.913  114.5  0.0180   40.6  0.3599  -69.2
 0.120  0.7360 -150.4  21.473  112.9  0.0184   39.5  0.3384  -71.0
 0.130  0.7455 -152.8  20.052  111.0  0.0188   38.5  0.3173  -73.1
 0.140  0.7563 -155.1  18.655  108.9  0.0192   37.5  0.2966  -75.5
 0.150  0.7683 -157.4  17.288  106.4  0.0196   36.5  0.2765  -78.2
 0.200  0.7807 -164.5  13.242  100.4  0.0198   38.0  0.2204  -84.8
 0.250  0.7888 -169.1  10.719   96.2  0.0217   40.4  0.1838  -89.7
 0.300  0.7933 -172.5   8.976   93.3  0.0231   41.3  0.1613  -93.4
 0.350  0.7947 -175.0   7.876   91.2  0.0245   43.8  0.1475  -96.0
 0.400  0.7975 -177.4   6.790   88.5  0.0259   46.0  0.1340  -99.1
 0.450  0.7971 -179.2   6.112   86.9  0.0275   47.9  0.1273 -100.9
 0.500  0.7975  179.1   5.439   84.9  0.0292   49.5  0.1208 -102.8
 0.600  0.8000  176.1   4.543   81.7  0.0326   52.7  0.1136 -106.4
 0.700  0.8009  173.7   3.895   79.0  0.0356   56.0  0.1088 -108.6
 0.800  0.8012  171.3   3.415   76.1  0.0403   57.8  0.1088 -110.4
 0.900  0.7985  169.0   3.030   73.6  0.0438   58.9  0.1094 -112.3
 1.000  0.8034  167.1   2.739   71.1  0.0475   60.2  0.1096 -114.5
 1.100  0.8039  165.0   2.495   68.8  0.0517   61.2  0.1128 -115.5
 1.200  0.8033  163.1   2.287   66.3  0.0558   61.3  0.1149 -117.1
 1.300  0.8057  161.2   2.113   64.0  0.0593   61.1  0.1182 -118.5
 1.400  0.8060  159.3   1.971   61.7  0.0639   62.0  0.1214 -120.6
 1.500  0.8100  157.7   1.838   59.5  0.0679   62.1  0.1247 -122.5
 1.600  0.8129  155.8   1.731   57.3  0.0724   61.6  0.1291 -124.0
 1.700  0.8140  153.8   1.632   55.1  0.0762   62.2  0.1341 -126.2
 1.800  0.8165  151.9   1.549   52.8  0.0805   61.6  0.1387 -128.1
 1.900  0.8196  150.4   1.468   50.8  0.0843   61.1  0.1437 -130.1
 2.000  0.8203  148.6   1.396   48.5  0.0887   60.9  0.1496 -131.9
 2.100  0.8218  146.8   1.333   46.5  0.0929   60.4  0.1554 -134.1
 2.200  0.8241  145.0   1.271   44.2  0.0971   59.9  0.1615 -136.1
 2.300  0.8265  143.3   1.219   42.3  0.1013   59.4  0.1680 -138.1
 2.400  0.8296  141.7   1.168   40.2  0.1055   59.0  0.1746 -139.9
 2.500  0.8299  140.1   1.122   38.4  0.1094   58.3  0.1813 -141.9
 2.600  0.8308  138.6   1.077   36.4  0.1134   57.7  0.1881 -143.7
 2.700  0.8338  137.0   1.037   34.6  0.1174   57.1  0.1950 -145.4
 2.800  0.8375  135.5   0.999   32.7  0.1214   56.6  0.2020 -147.0
 2.900  0.8379  133.9   0.964   31.0  0.1251   55.8  0.2088 -148.9
 3.000  0.8390  132.4   0.929   29.2  0.1289   55.0  0.2159 -150.6
 3.100  0.8403  130.9   0.901   27.7  0.1328   54.4  0.2222 -152.5
 3.200  0.8422  129.5   0.874   26.2  0.1367   53.7  0.2287 -154.4
 3.300  0.8446  128.1   0.847   24.5  0.1407   53.2  0.2354 -156.1
 3.400  0.8475  126.6   0.821   22.8  0.1446   52.6  0.2424 -157.8
 3.500  0.8510  125.2   0.796   20.9  0.1486   52.1  0.2495 -159.3
 3.600  0.8519  123.8   0.775   19.6  0.1524   51.2  0.2562 -161.3
 3.700  0.8533  122.5   0.753   18.3  0.1562   50.4  0.2632 -163.2
 3.800  0.8552  121.1   0.733   16.8  0.1601   49.6  0.2705 -164.9
 3.900  0.8576  119.7   0.713   15.3  0.1640   48.9  0.2780 -166.6
 4.000  0.8604  118.4   0.693   13.7  0.1679   48.2  0.2858 -168.2
 4.100  0.8604  117.2   0.675   12.6  0.1715   47.4  0.2934 -170.2
 4.200  0.8607  116.0   0.658   11.3  0.1752   46.5  0.3013 -172.1
 4.300  0.8615  114.7   0.640   10.1  0.1789   45.8  0.3095 -174.0
 4.400  0.8627  113.5   0.624    8.7  0.1826   45.0  0.3181 -175.7
 4.500  0.8642  112.3   0.607    7.3  0.1864   44.3  0.3269 -177.3
 4.600  0.8649  111.4   0.593    6.4  0.1899   43.5  0.3355 -179.0
 4.700  0.8659  110.5   0.579    5.5  0.1935   42.8  0.3444  179.5
 4.800  0.8671  109.5   0.565    4.6  0.1970   42.1  0.3536  178.0
 4.900  0.8685  108.6   0.551    3.6  0.2007   41.4  0.3629  176.5
 5.000  0.8701  107.7   0.537    2.5  0.2043   40.7  0.3725  175.2
 5.100  0.8705  106.8   0.527    1.8  0.2078   39.9  0.3818  174.0
 5.200  0.8711  105.9   0.518    1.1  0.2113   39.1  0.3913  172.9
 5.300  0.8719  105.1   0.508    0.4  0.2148   38.4  0.4009  171.8
 5.400  0.8730  104.2   0.498   -0.4  0.2184   37.7  0.4106  170.8
 5.500  0.8742  103.3   0.489   -1.2  0.2220   37.0  0.4205  169.8
 5.600  0.8732  102.4   0.480   -1.8  0.2255   36.1  0.4274  168.9
 5.700  0.8723  101.5   0.472   -2.3  0.2290   35.3  0.4345  168.1
 5.800  0.8717  100.7   0.463   -2.9  0.2326   34.5  0.4416  167.3
 5.900  0.8713   99.8   0.454   -3.6  0.2362   33.7  0.4488  166.5
 6.000  0.8711   98.9   0.446   -4.2  0.2399   32.9  0.4561  165.7
!
!  f       NFmin   Gammaopt  rn/50
! GHz       dB    MAG  ANG    -
 0.450      1.51  0.29 -177   0.10
 0.900      1.56  0.32 -176   0.10
 1.900      2.05  0.47 -154   0.11
 2.400      2.31  0.51 -151   0.16
!
! (c) 2017  Infineon Technologies AG, Munich