! Infineon Technologies  Discrete & RF Semiconductors
! BFP183W
! VCE =  7.0 V,  IC =  13 mA
! Common Emitter S-Parameters:                            Jan 2017
# GHz  S  MA  R  50
!  f         S11            S21            S12            S22
! GHz     MAG   ANG      MAG   ANG      MAG   ANG      MAG   ANG
 0.010  0.6752   -4.9  35.222  177.4  0.0015   80.9  0.9907   -2.5
 0.020  0.6630  -12.5  34.885  173.7  0.0036   86.8  0.9774   -5.0
 0.030  0.6553  -17.7  34.396  170.9  0.0054   80.2  0.9702   -7.5
 0.040  0.6532  -23.0  33.993  168.0  0.0073   76.9  0.9648  -10.0
 0.050  0.6567  -28.3  33.679  165.0  0.0092   75.0  0.9612  -12.5
 0.060  0.6463  -33.3  32.994  162.5  0.0108   73.1  0.9435  -14.6
 0.070  0.6409  -38.5  32.376  159.8  0.0124   71.7  0.9272  -16.7
 0.080  0.6407  -43.6  31.828  157.1  0.0140   70.6  0.9121  -18.9
 0.090  0.6458  -48.8  31.356  154.3  0.0157   69.7  0.8985  -21.2
 0.100  0.6560  -53.8  30.961  151.4  0.0173   69.0  0.8864  -23.6
 0.110  0.6465  -58.1  30.209  149.3  0.0183   66.4  0.8664  -25.2
 0.120  0.6408  -62.5  29.498  147.2  0.0194   64.1  0.8472  -26.9
 0.130  0.6389  -66.9  28.831  144.9  0.0205   62.1  0.8287  -28.6
 0.140  0.6409  -71.4  28.210  142.6  0.0216   60.3  0.8110  -30.5
 0.150  0.6467  -75.8  27.640  140.1  0.0227   58.6  0.7942  -32.4
 0.200  0.6415  -92.7  24.335  130.8  0.0262   52.2  0.7065  -38.7
 0.250  0.6352 -106.5  21.496  123.4  0.0297   48.3  0.6309  -43.4
 0.300  0.6314 -117.4  19.012  117.7  0.0320   45.5  0.5666  -46.6
 0.350  0.6241 -125.3  17.129  113.8  0.0334   43.8  0.5195  -48.4
 0.400  0.6290 -133.3  15.346  108.9  0.0348   42.2  0.4730  -50.6
 0.450  0.6236 -138.8  13.995  106.0  0.0360   41.6  0.4414  -51.6
 0.500  0.6240 -144.3  12.685  102.6  0.0373   41.1  0.4100  -52.7
 0.600  0.6237 -152.7  10.815   97.6  0.0399   40.9  0.3666  -53.7
 0.700  0.6219 -159.2   9.366   93.6  0.0415   42.2  0.3357  -54.2
 0.800  0.6248 -164.7   8.275   89.9  0.0436   44.1  0.3147  -54.6
 0.900  0.6232 -169.2   7.379   86.7  0.0459   44.0  0.2979  -55.2
 1.000  0.6246 -173.3   6.690   83.9  0.0477   45.4  0.2849  -55.6
 1.100  0.6268 -176.9   6.101   81.3  0.0507   46.4  0.2767  -56.1
 1.200  0.6283  179.9   5.602   78.7  0.0531   47.2  0.2687  -56.8
 1.300  0.6275  176.7   5.179   76.3  0.0552   48.0  0.2628  -57.7
 1.400  0.6311  174.2   4.831   74.0  0.0580   49.1  0.2569  -58.7
 1.500  0.6355  171.5   4.512   71.9  0.0606   49.8  0.2525  -59.8
 1.600  0.6379  168.9   4.240   69.6  0.0630   50.1  0.2500  -61.0
 1.700  0.6396  166.5   4.000   67.6  0.0660   51.3  0.2469  -62.6
 1.800  0.6441  164.1   3.796   65.5  0.0688   51.3  0.2444  -64.2
 1.900  0.6476  162.1   3.599   63.6  0.0711   52.1  0.2416  -65.9
 2.000  0.6499  159.7   3.417   61.5  0.0742   52.5  0.2409  -67.8
 2.100  0.6531  157.6   3.265   59.6  0.0770   52.7  0.2392  -69.8
 2.200  0.6571  155.5   3.116   57.5  0.0799   52.9  0.2378  -71.8
 2.300  0.6608  153.6   2.987   55.7  0.0829   53.1  0.2377  -74.0
 2.400  0.6653  151.7   2.861   53.7  0.0860   53.2  0.2379  -76.1
 2.500  0.6680  149.9   2.748   51.9  0.0888   53.0  0.2376  -78.5
 2.600  0.6714  148.1   2.638   50.0  0.0917   52.9  0.2378  -80.9
 2.700  0.6755  146.3   2.543   48.3  0.0948   52.9  0.2385  -83.2
 2.800  0.6802  144.5   2.450   46.4  0.0979   52.9  0.2395  -85.4
 2.900  0.6831  142.8   2.366   44.7  0.1009   52.7  0.2396  -87.8
 3.000  0.6866  141.2   2.285   42.8  0.1039   52.5  0.2402  -90.2
 3.100  0.6898  139.6   2.216   41.3  0.1071   52.3  0.2407  -92.6
 3.200  0.6936  138.0   2.148   39.8  0.1102   52.2  0.2417  -95.0
 3.300  0.6979  136.4   2.081   38.1  0.1134   52.1  0.2431  -97.4
 3.400  0.7027  134.8   2.017   36.3  0.1165   51.9  0.2449  -99.7
 3.500  0.7080  133.3   1.955   34.4  0.1197   51.8  0.2471 -102.0
 3.600  0.7112  131.8   1.903   32.9  0.1229   51.3  0.2478 -104.6
 3.700  0.7148  130.4   1.852   31.4  0.1262   50.8  0.2491 -107.1
 3.800  0.7189  129.0   1.802   29.7  0.1295   50.4  0.2508 -109.7
 3.900  0.7234  127.6   1.754   28.0  0.1327   49.9  0.2530 -112.2
 4.000  0.7283  126.2   1.708   26.2  0.1360   49.5  0.2557 -114.6
 4.100  0.7314  124.9   1.665   24.8  0.1393   49.0  0.2575 -117.5
 4.200  0.7349  123.6   1.623   23.3  0.1425   48.6  0.2598 -120.3
 4.300  0.7387  122.3   1.582   21.8  0.1458   48.1  0.2628 -123.0
 4.400  0.7429  121.1   1.542   20.1  0.1491   47.7  0.2664 -125.7
 4.500  0.7475  119.8   1.504   18.4  0.1524   47.3  0.2706 -128.3
 4.600  0.7507  118.8   1.467   17.2  0.1557   46.8  0.2751 -131.1
 4.700  0.7541  117.7   1.432   15.8  0.1590   46.3  0.2803 -133.7
 4.800  0.7577  116.7   1.397   14.5  0.1624   45.9  0.2860 -136.3
 4.900  0.7616  115.7   1.362   13.0  0.1657   45.4  0.2923 -138.7
 5.000  0.7657  114.7   1.329   11.5  0.1691   45.0  0.2991 -141.1
 5.100  0.7680  113.8   1.302   10.3  0.1726   44.4  0.3068 -143.3
 5.200  0.7705  112.9   1.276    9.1  0.1761   43.8  0.3149 -145.4
 5.300  0.7732  112.0   1.250    7.9  0.1797   43.3  0.3234 -147.4
 5.400  0.7761  111.1   1.225    6.6  0.1832   42.7  0.3323 -149.3
 5.500  0.7792  110.2   1.201    5.2  0.1868   42.2  0.3415 -151.1
 5.600  0.7798  109.3   1.177    4.1  0.1903   41.5  0.3491 -152.7
 5.700  0.7805  108.3   1.153    3.0  0.1938   40.8  0.3570 -154.2
 5.800  0.7815  107.4   1.129    1.8  0.1974   40.2  0.3651 -155.6
 5.900  0.7827  106.4   1.106    0.6  0.2010   39.6  0.3734 -157.0
 6.000  0.7841  105.5   1.084   -0.7  0.2046   39.0  0.3819 -158.3
!
!  f       NFmin   Gammaopt  rn/50
! GHz       dB    MAG  ANG    -
 0.450      1.01  0.12  144   0.10
 0.900      1.04  0.19  155   0.09
 1.900      1.52  0.38 -172   0.08
 2.400      1.75  0.44 -164   0.10
!
! (c) 2017  Infineon Technologies AG, Munich