! Infineon Technologies  Discrete & RF Semiconductors
! BFP183W
! VCE =  3.0 V,  IC =  55 mA
! Common Emitter S-Parameters:                            Jan 2017
# GHz  S  MA  R  50
!  f         S11            S21            S12            S22
! GHz     MAG   ANG      MAG   ANG      MAG   ANG      MAG   ANG
 0.010  0.1758  -50.6  63.086  171.9  0.0018   80.2  0.8567   -6.6
 0.020  0.2589  -78.6  60.834  162.8  0.0036   78.1  0.8272  -13.9
 0.030  0.3132  -96.3  56.527  156.7  0.0050   68.0  0.7769  -18.9
 0.040  0.3879 -108.1  52.961  149.7  0.0064   62.3  0.7332  -24.5
 0.050  0.4735 -115.8  50.294  141.8  0.0079   58.8  0.6975  -30.8
 0.060  0.4957 -122.5  46.730  138.8  0.0085   56.5  0.6546  -32.8
 0.070  0.5241 -128.6  43.311  135.4  0.0091   54.4  0.6125  -35.1
 0.080  0.5578 -134.0  40.075  131.4  0.0097   52.6  0.5716  -37.7
 0.090  0.5958 -138.7  37.070  126.7  0.0104   51.1  0.5320  -40.6
 0.100  0.6374 -142.9  34.356  121.2  0.0110   49.7  0.4941  -44.1
 0.110  0.6469 -145.5  32.420  119.6  0.0114   48.6  0.4706  -44.7
 0.120  0.6576 -148.1  30.512  117.8  0.0117   47.5  0.4471  -45.4
 0.130  0.6697 -150.5  28.638  115.8  0.0121   46.5  0.4237  -46.2
 0.140  0.6829 -152.9  26.805  113.5  0.0124   45.5  0.4004  -47.1
 0.150  0.6973 -155.2  25.023  110.8  0.0128   44.6  0.3772  -48.1
 0.200  0.7186 -162.5  19.382  104.2  0.0141   47.9  0.3127  -48.6
 0.250  0.7318 -167.4  15.773   99.6  0.0153   49.8  0.2726  -47.7
 0.300  0.7373 -170.9  13.242   96.4  0.0161   50.9  0.2468  -46.7
 0.350  0.7400 -173.6  11.646   94.2  0.0178   53.8  0.2325  -45.8
 0.400  0.7443 -176.2  10.072   91.4  0.0196   56.2  0.2182  -44.8
 0.450  0.7448 -178.1   9.070   89.8  0.0212   57.9  0.2111  -44.4
 0.500  0.7460 -179.9   8.077   87.8  0.0228   59.4  0.2041  -44.0
 0.600  0.7476  177.2   6.754   84.7  0.0262   61.0  0.1953  -43.9
 0.700  0.7489  174.6   5.794   82.0  0.0288   64.3  0.1911  -44.2
 0.800  0.7507  172.1   5.079   79.2  0.0329   65.8  0.1890  -45.3
 0.900  0.7515  169.8   4.504   76.9  0.0360   66.5  0.1874  -46.8
 1.000  0.7531  167.9   4.073   74.6  0.0396   68.0  0.1864  -48.2
 1.100  0.7539  165.9   3.704   72.4  0.0431   67.6  0.1872  -50.1
 1.200  0.7540  163.8   3.395   70.1  0.0467   68.2  0.1878  -51.9
 1.300  0.7561  162.0   3.137   68.0  0.0503   68.4  0.1887  -54.2
 1.400  0.7582  160.1   2.924   65.9  0.0542   68.6  0.1889  -56.4
 1.500  0.7610  158.4   2.727   63.9  0.0578   68.5  0.1893  -58.7
 1.600  0.7646  156.5   2.562   61.8  0.0612   68.6  0.1912  -61.2
 1.700  0.7661  154.7   2.417   59.7  0.0657   68.0  0.1920  -64.0
 1.800  0.7678  152.8   2.292   57.7  0.0689   67.9  0.1929  -66.8
 1.900  0.7709  151.3   2.169   55.9  0.0728   68.0  0.1943  -69.5
 2.000  0.7726  149.4   2.061   53.7  0.0765   67.3  0.1963  -72.5
 2.100  0.7742  147.6   1.967   51.8  0.0805   67.0  0.1977  -75.5
 2.200  0.7766  145.8   1.876   49.8  0.0845   66.7  0.1996  -78.5
 2.300  0.7799  144.2   1.799   48.0  0.0884   66.2  0.2021  -81.6
 2.400  0.7838  142.7   1.723   46.0  0.0924   65.8  0.2051  -84.7
 2.500  0.7849  141.1   1.655   44.3  0.0960   65.2  0.2078  -87.8
 2.600  0.7866  139.6   1.588   42.4  0.0996   64.6  0.2112  -90.9
 2.700  0.7897  138.1   1.530   40.7  0.1034   64.0  0.2145  -93.9
 2.800  0.7934  136.6   1.473   38.8  0.1073   63.5  0.2183  -96.8
 2.900  0.7947  135.1   1.422   37.1  0.1110   62.8  0.2216  -99.8
 3.000  0.7965  133.6   1.373   35.2  0.1148   62.2  0.2255 -102.7
 3.100  0.7985  132.2   1.331   33.8  0.1186   61.5  0.2284 -105.7
 3.200  0.8010  130.7   1.291   32.2  0.1224   60.9  0.2319 -108.5
 3.300  0.8040  129.3   1.251   30.6  0.1263   60.3  0.2359 -111.3
 3.400  0.8075  127.9   1.212   28.9  0.1301   59.7  0.2405 -114.0
 3.500  0.8115  126.5   1.175   27.0  0.1340   59.2  0.2456 -116.6
 3.600  0.8133  125.2   1.143   25.6  0.1378   58.4  0.2488 -119.5
 3.700  0.8156  123.8   1.112   24.1  0.1417   57.6  0.2527 -122.3
 3.800  0.8182  122.5   1.081   22.6  0.1456   56.8  0.2571 -125.0
 3.900  0.8214  121.2   1.052   20.9  0.1495   56.1  0.2621 -127.7
 4.000  0.8249  119.9   1.023   19.2  0.1534   55.4  0.2676 -130.2
 4.100  0.8258  118.7   0.997   17.9  0.1571   54.5  0.2720 -133.2
 4.200  0.8270  117.5   0.971   16.5  0.1608   53.7  0.2772 -136.1
 4.300  0.8286  116.3   0.946   15.1  0.1646   52.9  0.2830 -138.9
 4.400  0.8306  115.1   0.922   13.5  0.1684   52.1  0.2895 -141.6
 4.500  0.8329  113.9   0.898   11.9  0.1722   51.4  0.2966 -144.1
 4.600  0.8345  113.0   0.876   10.8  0.1759   50.6  0.3034 -146.7
 4.700  0.8364  112.0   0.855    9.7  0.1797   49.9  0.3108 -149.2
 4.800  0.8385  111.1   0.833    8.5  0.1835   49.2  0.3188 -151.6
 4.900  0.8408  110.1   0.812    7.3  0.1873   48.5  0.3272 -153.9
 5.000  0.8433  109.2   0.792    6.0  0.1911   47.9  0.3362 -156.0
 5.100  0.8445  108.3   0.776    5.0  0.1948   47.1  0.3452 -158.0
 5.200  0.8459  107.4   0.761    4.0  0.1986   46.3  0.3547 -159.9
 5.300  0.8476  106.5   0.746    2.9  0.2024   45.5  0.3645 -161.8
 5.400  0.8494  105.7   0.731    1.8  0.2062   44.7  0.3746 -163.5
 5.500  0.8514  104.8   0.716    0.7  0.2101   44.0  0.3851 -165.1
 5.600  0.8511  103.9   0.702   -0.1  0.2138   43.1  0.3931 -166.5
 5.700  0.8510  103.0   0.688   -1.0  0.2175   42.2  0.4012 -167.9
 5.800  0.8511  102.2   0.674   -1.9  0.2213   41.3  0.4097 -169.2
 5.900  0.8514  101.3   0.660   -2.8  0.2251   40.5  0.4183 -170.5
 6.000  0.8519  100.4   0.647   -3.8  0.2290   39.7  0.4271 -171.7
!
!  f       NFmin   Gammaopt  rn/50
! GHz       dB    MAG  ANG    -
!
! noise parameter not available yet for this operation point!
!
! (c) 2017  Infineon Technologies AG, Munich