! Infineon Technologies  Discrete & RF Semiconductors
! BFP183W
! VCE =  6.0 V,  IC =  25 mA
! Common Emitter S-Parameters:                            Jan 2017
# GHz  S  MA  R  50
!  f         S11            S21            S12            S22
! GHz     MAG   ANG      MAG   ANG      MAG   ANG      MAG   ANG
 0.010  0.4844   -8.9  52.823  175.9  0.0016   91.5  0.9781   -3.6
 0.020  0.4823  -20.7  52.168  171.0  0.0030   93.8  0.9648   -7.5
 0.030  0.4759  -29.5  50.890  167.1  0.0046   82.4  0.9466  -11.0
 0.040  0.4809  -38.3  49.854  163.1  0.0063   77.1  0.9321  -14.6
 0.050  0.4969  -46.8  49.076  158.9  0.0081   74.0  0.9213  -18.3
 0.060  0.4885  -54.1  47.343  155.9  0.0093   71.0  0.8918  -20.8
 0.070  0.4883  -61.6  45.747  152.7  0.0105   68.8  0.8642  -23.5
 0.080  0.4963  -69.0  44.305  149.3  0.0117   67.0  0.8386  -26.4
 0.090  0.5122  -76.0  43.032  145.6  0.0130   65.5  0.8152  -29.4
 0.100  0.5353  -82.5  41.942  141.8  0.0142   64.3  0.7942  -32.6
 0.110  0.5330  -87.4  40.406  139.7  0.0149   61.9  0.7667  -34.2
 0.120  0.5348  -92.4  38.929  137.4  0.0157   59.7  0.7399  -36.0
 0.130  0.5405  -97.3  37.519  135.0  0.0164   57.7  0.7139  -37.9
 0.140  0.5500 -102.0  36.182  132.3  0.0172   55.9  0.6887  -39.9
 0.150  0.5632 -106.6  34.927  129.5  0.0180   54.2  0.6644  -42.1
 0.200  0.5843 -122.4  29.136  120.4  0.0199   50.0  0.5635  -48.1
 0.250  0.5963 -133.9  24.758  113.8  0.0221   46.7  0.4865  -51.8
 0.300  0.6043 -142.2  21.332  108.9  0.0234   46.6  0.4280  -54.2
 0.350  0.6058 -148.0  18.965  105.7  0.0246   47.1  0.3888  -55.2
 0.400  0.6136 -153.8  16.672  101.7  0.0259   47.6  0.3498  -56.5
 0.450  0.6130 -157.7  15.099   99.4  0.0274   48.3  0.3256  -56.9
 0.500  0.6152 -161.5  13.556   96.6  0.0290   48.9  0.3015  -57.3
 0.600  0.6210 -167.2  11.436   92.6  0.0319   50.4  0.2699  -57.7
 0.700  0.6218 -172.1   9.846   89.2  0.0340   53.4  0.2478  -57.6
 0.800  0.6265 -175.8   8.665   86.1  0.0376   55.2  0.2340  -57.7
 0.900  0.6266 -179.5   7.700   83.4  0.0401   56.0  0.2228  -58.1
 1.000  0.6291  177.6   6.967   80.9  0.0430   57.3  0.2135  -58.5
 1.100  0.6305  174.8   6.347   78.7  0.0463   58.3  0.2089  -59.0
 1.200  0.6316  172.3   5.820   76.3  0.0496   58.5  0.2038  -59.6
 1.300  0.6327  169.7   5.376   74.2  0.0526   59.0  0.2007  -60.6
 1.400  0.6344  167.5   5.014   72.1  0.0559   59.9  0.1965  -61.8
 1.500  0.6404  165.4   4.675   70.1  0.0592   59.7  0.1939  -63.2
 1.600  0.6425  163.1   4.393   68.0  0.0628   60.0  0.1935  -64.5
 1.700  0.6436  161.0   4.142   66.1  0.0660   60.3  0.1911  -66.4
 1.800  0.6477  159.1   3.928   64.1  0.0694   60.1  0.1896  -68.3
 1.900  0.6513  157.3   3.722   62.4  0.0726   60.3  0.1888  -70.2
 2.000  0.6537  155.3   3.535   60.4  0.0760   60.1  0.1886  -72.4
 2.100  0.6562  153.3   3.375   58.6  0.0796   59.8  0.1881  -74.7
 2.200  0.6595  151.4   3.219   56.6  0.0832   59.6  0.1879  -77.0
 2.300  0.6640  149.7   3.085   54.8  0.0865   59.3  0.1882  -79.6
 2.400  0.6691  148.0   2.954   52.9  0.0899   59.0  0.1888  -82.2
 2.500  0.6717  146.4   2.837   51.2  0.0934   58.7  0.1898  -84.8
 2.600  0.6747  144.9   2.723   49.4  0.0970   58.4  0.1911  -87.4
 2.700  0.6790  143.2   2.624   47.8  0.1002   58.0  0.1925  -90.0
 2.800  0.6839  141.6   2.527   46.0  0.1034   57.7  0.1943  -92.5
 2.900  0.6866  140.0   2.441   44.4  0.1067   57.1  0.1953  -95.2
 3.000  0.6899  138.4   2.357   42.6  0.1101   56.6  0.1968  -97.8
 3.100  0.6931  136.9   2.286   41.2  0.1135   56.1  0.1981 -100.4
 3.200  0.6968  135.4   2.216   39.7  0.1168   55.7  0.1997 -102.9
 3.300  0.7010  134.0   2.148   38.0  0.1202   55.3  0.2018 -105.5
 3.400  0.7056  132.5   2.081   36.3  0.1236   54.9  0.2042 -107.9
 3.500  0.7106  131.1   2.017   34.5  0.1270   54.5  0.2070 -110.3
 3.600  0.7140  129.7   1.963   33.1  0.1304   53.8  0.2085 -113.1
 3.700  0.7177  128.4   1.910   31.6  0.1337   53.1  0.2105 -115.8
 3.800  0.7219  127.0   1.859   30.0  0.1372   52.5  0.2130 -118.5
 3.900  0.7265  125.7   1.809   28.3  0.1406   51.9  0.2159 -121.1
 4.000  0.7314  124.4   1.761   26.5  0.1440   51.3  0.2193 -123.6
 4.100  0.7341  123.2   1.717   25.1  0.1472   50.6  0.2221 -126.6
 4.200  0.7372  121.9   1.673   23.7  0.1505   49.9  0.2254 -129.4
 4.300  0.7405  120.7   1.631   22.2  0.1538   49.3  0.2293 -132.2
 4.400  0.7443  119.5   1.590   20.6  0.1571   48.7  0.2337 -134.9
 4.500  0.7483  118.3   1.550   18.9  0.1604   48.1  0.2386 -137.5
 4.600  0.7516  117.3   1.513   17.7  0.1638   47.5  0.2438 -140.2
 4.700  0.7551  116.3   1.476   16.4  0.1672   46.9  0.2496 -142.7
 4.800  0.7588  115.3   1.441   15.1  0.1706   46.4  0.2558 -145.2
 4.900  0.7627  114.4   1.406   13.7  0.1740   45.8  0.2625 -147.5
 5.000  0.7669  113.4   1.372   12.2  0.1774   45.3  0.2696 -149.7
 5.100  0.7693  112.5   1.345   11.1  0.1808   44.6  0.2777 -151.7
 5.200  0.7718  111.6   1.318    9.9  0.1841   44.0  0.2862 -153.6
 5.300  0.7745  110.7   1.292    8.6  0.1875   43.4  0.2949 -155.4
 5.400  0.7774  109.9   1.267    7.3  0.1910   42.8  0.3039 -157.1
 5.500  0.7805  109.0   1.242    6.0  0.1944   42.2  0.3132 -158.7
 5.600  0.7811  108.1   1.218    4.9  0.1978   41.4  0.3208 -160.0
 5.700  0.7820  107.2   1.194    3.8  0.2013   40.7  0.3286 -161.3
 5.800  0.7830  106.3   1.171    2.7  0.2047   40.0  0.3365 -162.5
 5.900  0.7842  105.4   1.148    1.5  0.2083   39.3  0.3446 -163.7
 6.000  0.7856  104.5   1.126    0.2  0.2118   38.6  0.3528 -164.8
!
!  f       NFmin   Gammaopt  rn/50
! GHz       dB    MAG  ANG    -
 0.450      1.29  0.25  177   0.10
 0.900      1.32  0.28  180   0.09
 1.900      1.80  0.43 -158   0.09
 2.400      2.04  0.48 -154   0.13
!
! (c) 2017  Infineon Technologies AG, Munich