! Infineon Technologies  Discrete & RF Semiconductors
! BFP183W
! VCE =  10. V,  IC =  10 mA
! Common Emitter S-Parameters:                            Jan 2017
# GHz  S  MA  R  50
!  f         S11            S21            S12            S22
! GHz     MAG   ANG      MAG   ANG      MAG   ANG      MAG   ANG
 0.010  0.7513   -3.6  28.765  177.8  0.0017   90.0  0.9914   -2.0
 0.020  0.7390  -10.2  28.496  174.6  0.0031   92.2  0.9778   -4.1
 0.030  0.7326  -14.2  28.183  172.2  0.0051   84.2  0.9738   -6.1
 0.040  0.7298  -18.2  27.918  169.8  0.0071   80.7  0.9710   -8.2
 0.050  0.7307  -22.3  27.704  167.4  0.0092   78.8  0.9694  -10.2
 0.060  0.7216  -26.4  27.290  165.1  0.0109   76.0  0.9571  -12.0
 0.070  0.7164  -30.7  26.919  162.8  0.0126   74.0  0.9458  -13.8
 0.080  0.7152  -34.9  26.594  160.4  0.0143   72.5  0.9354  -15.6
 0.090  0.7179  -39.2  26.316  158.0  0.0161   71.3  0.9261  -17.5
 0.100  0.7245  -43.4  26.087  155.5  0.0178   70.3  0.9177  -19.4
 0.110  0.7139  -47.1  25.597  153.6  0.0190   68.0  0.9021  -20.9
 0.120  0.7064  -50.9  25.136  151.6  0.0203   66.0  0.8871  -22.4
 0.130  0.7021  -54.8  24.707  149.5  0.0215   64.2  0.8727  -23.9
 0.140  0.7010  -58.7  24.311  147.4  0.0228   62.6  0.8590  -25.5
 0.150  0.7032  -62.6  23.950  145.2  0.0241   61.2  0.8460  -27.2
 0.200  0.6903  -78.4  21.672  136.2  0.0289   56.4  0.7719  -33.2
 0.250  0.6750  -92.2  19.550  128.7  0.0331   50.6  0.7022  -37.8
 0.300  0.6612 -103.7  17.590  122.7  0.0357   46.8  0.6406  -41.3
 0.350  0.6473 -112.2  15.997  118.5  0.0378   44.2  0.5924  -43.4
 0.400  0.6480 -120.8  14.510  113.3  0.0399   41.9  0.5452  -45.9
 0.450  0.6380 -127.1  13.317  110.2  0.0411   40.9  0.5116  -47.0
 0.500  0.6358 -133.5  12.171  106.5  0.0424   39.9  0.4782  -48.3
 0.600  0.6301 -143.0  10.443  100.9  0.0450   38.1  0.4302  -49.8
 0.700  0.6254 -150.7   9.090   96.4  0.0461   38.5  0.3947  -50.5
 0.800  0.6259 -157.1   8.065   92.4  0.0482   39.6  0.3703  -51.2
 0.900  0.6218 -162.6   7.208   89.0  0.0498   39.5  0.3511  -51.8
 1.000  0.6229 -167.0   6.542   85.9  0.0509   40.3  0.3354  -52.3
 1.100  0.6247 -171.2   5.975   83.2  0.0537   41.0  0.3252  -52.8
 1.200  0.6239 -175.0   5.493   80.3  0.0553   41.4  0.3159  -53.5
 1.300  0.6249 -178.3   5.080   77.8  0.0570   42.4  0.3084  -54.4
 1.400  0.6284  178.6   4.743   75.4  0.0593   43.3  0.3022  -55.3
 1.500  0.6311  175.7   4.433   73.1  0.0611   44.4  0.2969  -56.4
 1.600  0.6344  172.8   4.167   70.8  0.0634   44.6  0.2935  -57.5
 1.700  0.6351  170.1   3.933   68.7  0.0660   46.0  0.2894  -59.0
 1.800  0.6386  167.6   3.733   66.5  0.0683   46.4  0.2858  -60.4
 1.900  0.6436  165.4   3.539   64.5  0.0700   47.2  0.2831  -62.0
 2.000  0.6454  162.9   3.365   62.3  0.0729   48.0  0.2812  -63.6
 2.100  0.6484  160.6   3.214   60.3  0.0752   48.3  0.2792  -65.5
 2.200  0.6525  158.3   3.067   58.2  0.0776   48.5  0.2776  -67.4
 2.300  0.6562  156.2   2.941   56.3  0.0803   49.0  0.2766  -69.4
 2.400  0.6607  154.2   2.818   54.2  0.0830   49.4  0.2759  -71.4
 2.500  0.6635  152.3   2.707   52.4  0.0855   49.6  0.2752  -73.6
 2.600  0.6671  150.4   2.599   50.5  0.0880   49.8  0.2750  -75.8
 2.700  0.6715  148.4   2.505   48.7  0.0907   50.1  0.2752  -77.9
 2.800  0.6766  146.5   2.414   46.8  0.0935   50.3  0.2758  -80.0
 2.900  0.6793  144.7   2.333   45.0  0.0962   50.2  0.2754  -82.2
 3.000  0.6827  143.0   2.255   43.1  0.0989   50.2  0.2755  -84.5
 3.100  0.6860  141.3   2.186   41.6  0.1019   50.2  0.2756  -86.8
 3.200  0.6899  139.7   2.119   40.0  0.1050   50.3  0.2762  -89.0
 3.300  0.6943  138.0   2.053   38.3  0.1080   50.3  0.2772  -91.3
 3.400  0.6993  136.4   1.989   36.4  0.1111   50.4  0.2786  -93.5
 3.500  0.7049  134.8   1.928   34.5  0.1141   50.4  0.2804  -95.7
 3.600  0.7080  133.3   1.876   33.0  0.1173   50.1  0.2806  -98.2
 3.700  0.7116  131.8   1.826   31.4  0.1204   49.8  0.2813 -100.6
 3.800  0.7157  130.3   1.777   29.8  0.1236   49.5  0.2826 -103.1
 3.900  0.7203  128.8   1.730   28.0  0.1267   49.3  0.2843 -105.5
 4.000  0.7253  127.4   1.684   26.2  0.1299   49.0  0.2866 -107.9
 4.100  0.7281  126.1   1.641   24.8  0.1331   48.6  0.2876 -110.6
 4.200  0.7313  124.7   1.600   23.2  0.1362   48.2  0.2893 -113.3
 4.300  0.7349  123.4   1.560   21.6  0.1394   47.8  0.2917 -116.0
 4.400  0.7389  122.1   1.521   20.0  0.1426   47.4  0.2946 -118.6
 4.500  0.7433  120.8   1.483   18.2  0.1458   47.1  0.2982 -121.2
 4.600  0.7468  119.7   1.447   16.9  0.1492   46.7  0.3020 -124.0
 4.700  0.7505  118.7   1.411   15.6  0.1526   46.3  0.3064 -126.7
 4.800  0.7545  117.6   1.376   14.2  0.1560   46.0  0.3115 -129.3
 4.900  0.7587  116.6   1.342   12.7  0.1594   45.6  0.3173 -131.8
 5.000  0.7632  115.6   1.309   11.2  0.1628   45.3  0.3236 -134.2
 5.100  0.7655  114.6   1.282   10.0  0.1663   44.8  0.3308 -136.6
 5.200  0.7681  113.7   1.256    8.8  0.1699   44.3  0.3384 -138.8
 5.300  0.7709  112.8   1.230    7.5  0.1734   43.9  0.3466 -141.0
 5.400  0.7738  111.8   1.205    6.1  0.1770   43.4  0.3553 -143.0
 5.500  0.7770  110.9   1.181    4.7  0.1806   43.0  0.3644 -145.0
 5.600  0.7782  110.0   1.157    3.6  0.1843   42.3  0.3719 -146.7
 5.700  0.7796  109.0   1.133    2.5  0.1880   41.7  0.3798 -148.4
 5.800  0.7812  108.1   1.110    1.3  0.1917   41.1  0.3879 -149.9
 5.900  0.7831  107.1   1.087    0.1  0.1954   40.5  0.3963 -151.5
 6.000  0.7851  106.2   1.065   -1.2  0.1992   39.9  0.4050 -152.9
!
!  f       NFmin   Gammaopt  rn/50
! GHz       dB    MAG  ANG    -
 0.450      0.92  0.10  112   0.11
 0.900      0.97  0.18  144   0.09
 1.900      1.47  0.37 -176   0.07
 2.400      1.72  0.44 -167   0.09
!
! (c) 2017  Infineon Technologies AG, Munich