! Infineon Technologies  Discrete & RF Semiconductors
! BFP183W
! VCE =  4.0 V,  IC =  9.0 mA
! Common Emitter S-Parameters:                            Jan 2017
# GHz  S  MA  R  50
!  f         S11            S21            S12            S22
! GHz     MAG   ANG      MAG   ANG      MAG   ANG      MAG   ANG
 0.010  0.7441   -4.1  27.126  178.2  0.0017   76.5  0.9939   -2.2
 0.020  0.7314  -10.9  26.834  174.7  0.0040   89.1  0.9855   -4.5
 0.030  0.7243  -15.1  26.586  172.2  0.0061   83.7  0.9794   -6.6
 0.040  0.7211  -19.4  26.389  169.7  0.0083   81.1  0.9746   -8.7
 0.050  0.7220  -23.7  26.245  167.1  0.0104   79.6  0.9712  -10.9
 0.060  0.7131  -28.0  25.840  164.8  0.0122   76.6  0.9575  -12.8
 0.070  0.7084  -32.5  25.479  162.4  0.0140   74.4  0.9449  -14.7
 0.080  0.7079  -36.9  25.163  160.0  0.0158   72.7  0.9334  -16.7
 0.090  0.7117  -41.3  24.894  157.5  0.0177   71.4  0.9231  -18.7
 0.100  0.7197  -45.7  24.673  154.9  0.0195   70.3  0.9139  -20.8
 0.110  0.7094  -49.6  24.180  152.9  0.0210   67.9  0.8973  -22.3
 0.120  0.7025  -53.6  23.716  150.9  0.0225   65.8  0.8814  -23.9
 0.130  0.6990  -57.6  23.283  148.8  0.0240   63.9  0.8662  -25.6
 0.140  0.6991  -61.7  22.884  146.6  0.0255   62.3  0.8518  -27.3
 0.150  0.7026  -65.7  22.519  144.3  0.0271   60.9  0.8381  -29.1
 0.200  0.6934  -81.7  20.293  135.2  0.0322   54.5  0.7605  -35.6
 0.250  0.6816  -95.7  18.244  127.6  0.0363   49.6  0.6890  -40.5
 0.300  0.6694 -107.1  16.361  121.7  0.0394   45.3  0.6252  -44.3
 0.350  0.6581 -115.5  14.854  117.4  0.0417   42.9  0.5759  -46.5
 0.400  0.6613 -124.0  13.448  112.2  0.0440   40.7  0.5276  -49.2
 0.450  0.6527 -130.1  12.323  109.1  0.0452   39.2  0.4934  -50.5
 0.500  0.6516 -136.2  11.240  105.5  0.0464   37.8  0.4595  -52.1
 0.600  0.6503 -145.5   9.634  100.0  0.0486   36.7  0.4107  -53.9
 0.700  0.6454 -153.1   8.375   95.5  0.0498   36.5  0.3748  -54.9
 0.800  0.6451 -159.1   7.427   91.4  0.0519   37.2  0.3498  -55.7
 0.900  0.6455 -164.3   6.635   88.0  0.0535   36.8  0.3304  -56.7
 1.000  0.6449 -168.8   6.024   84.9  0.0549   37.8  0.3143  -57.4
 1.100  0.6467 -172.8   5.496   82.2  0.0568   38.6  0.3038  -58.0
 1.200  0.6471 -176.4   5.052   79.3  0.0588   39.2  0.2943  -58.8
 1.300  0.6475 -179.8   4.675   76.8  0.0607   40.2  0.2871  -59.8
 1.400  0.6505  177.3   4.363   74.4  0.0628   41.2  0.2804  -60.9
 1.500  0.6548  174.5   4.077   72.1  0.0646   41.7  0.2751  -62.1
 1.600  0.6576  171.7   3.833   69.7  0.0669   42.7  0.2720  -63.3
 1.700  0.6585  169.0   3.616   67.6  0.0688   43.8  0.2677  -65.1
 1.800  0.6615  166.6   3.434   65.3  0.0713   44.2  0.2645  -66.6
 1.900  0.6670  164.4   3.255   63.3  0.0732   45.0  0.2615  -68.3
 2.000  0.6685  161.9   3.095   61.1  0.0762   45.3  0.2599  -70.1
 2.100  0.6714  159.6   2.957   59.1  0.0787   45.8  0.2582  -72.1
 2.200  0.6753  157.4   2.822   56.9  0.0812   46.3  0.2568  -74.1
 2.300  0.6791  155.4   2.705   54.9  0.0837   46.8  0.2565  -76.2
 2.400  0.6838  153.4   2.591   52.8  0.0862   47.2  0.2565  -78.4
 2.500  0.6864  151.5   2.490   51.0  0.0889   47.4  0.2563  -80.8
 2.600  0.6898  149.6   2.391   49.0  0.0917   47.5  0.2566  -83.1
 2.700  0.6939  147.7   2.304   47.2  0.0944   47.8  0.2574  -85.3
 2.800  0.6988  145.8   2.220   45.3  0.0971   48.0  0.2586  -87.5
 2.900  0.7017  144.0   2.145   43.5  0.0998   48.0  0.2588  -89.9
 3.000  0.7053  142.3   2.072   41.5  0.1024   48.0  0.2594  -92.2
 3.100  0.7081  140.6   2.009   40.0  0.1054   48.1  0.2602  -94.6
 3.200  0.7115  139.0   1.947   38.3  0.1084   48.2  0.2614  -97.0
 3.300  0.7154  137.3   1.887   36.6  0.1115   48.3  0.2631  -99.3
 3.400  0.7200  135.7   1.828   34.8  0.1145   48.3  0.2653 -101.6
 3.500  0.7251  134.1   1.772   32.8  0.1175   48.4  0.2678 -103.9
 3.600  0.7282  132.6   1.724   31.3  0.1207   48.1  0.2688 -106.4
 3.700  0.7318  131.1   1.678   29.7  0.1238   47.8  0.2704 -109.0
 3.800  0.7359  129.7   1.633   28.1  0.1270   47.6  0.2725 -111.5
 3.900  0.7404  128.2   1.589   26.3  0.1301   47.3  0.2751 -113.9
 4.000  0.7454  126.8   1.547   24.5  0.1333   47.1  0.2782 -116.3
 4.100  0.7479  125.5   1.508   23.0  0.1365   46.7  0.2803 -119.1
 4.200  0.7508  124.1   1.469   21.5  0.1398   46.2  0.2831 -121.8
 4.300  0.7540  122.8   1.432   19.9  0.1431   45.8  0.2865 -124.5
 4.400  0.7577  121.5   1.396   18.2  0.1463   45.5  0.2905 -127.1
 4.500  0.7618  120.2   1.361   16.4  0.1496   45.1  0.2951 -129.6
 4.600  0.7650  119.1   1.327   15.2  0.1529   44.8  0.3000 -132.3
 4.700  0.7684  118.0   1.294   13.8  0.1563   44.4  0.3055 -134.9
 4.800  0.7721  117.0   1.262   12.5  0.1597   44.1  0.3117 -137.5
 4.900  0.7761  115.9   1.231   11.0  0.1630   43.8  0.3184 -139.9
 5.000  0.7803  114.9   1.200    9.5  0.1664   43.5  0.3257 -142.2
 5.100  0.7824  114.0   1.175    8.3  0.1699   43.0  0.3335 -144.4
 5.200  0.7848  113.0   1.151    7.1  0.1735   42.5  0.3418 -146.5
 5.300  0.7873  112.1   1.128    5.9  0.1770   42.0  0.3505 -148.5
 5.400  0.7901  111.2   1.104    4.6  0.1806   41.5  0.3596 -150.4
 5.500  0.7930  110.3   1.082    3.2  0.1842   41.1  0.3691 -152.2
 5.600  0.7937  109.4   1.060    2.1  0.1879   40.5  0.3769 -153.8
 5.700  0.7946  108.4   1.038    1.0  0.1917   39.8  0.3849 -155.3
 5.800  0.7957  107.5   1.017   -0.1  0.1955   39.2  0.3933 -156.8
 5.900  0.7970  106.5   0.996   -1.3  0.1993   38.7  0.4018 -158.2
 6.000  0.7985  105.6   0.975   -2.6  0.2031   38.1  0.4106 -159.5
!
!  f       NFmin   Gammaopt  rn/50
! GHz       dB    MAG  ANG    -
 0.450      0.90  0.11   89   0.11
 0.900      0.95  0.18  132   0.10
 1.900      1.46  0.37  179   0.07
 2.400      1.71  0.44 -170   0.09
!
! (c) 2017  Infineon Technologies AG, Munich