! Infineon Technologies  Discrete & RF Semiconductors
! BFP183W
! VCE =  4.0 V,  IC =  4.0 mA
! Common Emitter S-Parameters:                            Jan 2017
# GHz  S  MA  R  50
!  f         S11            S21            S12            S22
! GHz     MAG   ANG      MAG   ANG      MAG   ANG      MAG   ANG
 0.010  0.8839   -2.0  13.695  179.5  0.0020   86.3  0.9988   -1.3
 0.020  0.8626   -7.0  13.519  176.8  0.0041   97.0  0.9895   -2.6
 0.030  0.8585   -9.3  13.479  175.1  0.0064   88.7  0.9889   -3.8
 0.040  0.8557  -11.5  13.450  173.5  0.0087   84.8  0.9887   -5.0
 0.050  0.8542  -13.8  13.432  171.8  0.0110   82.6  0.9889   -6.2
 0.060  0.8509  -16.6  13.343  170.2  0.0133   80.5  0.9840   -7.4
 0.070  0.8496  -19.3  13.264  168.5  0.0156   79.0  0.9795   -8.6
 0.080  0.8504  -22.1  13.196  166.9  0.0179   77.9  0.9754   -9.8
 0.090  0.8530  -24.9  13.140  165.2  0.0203   77.1  0.9718  -11.0
 0.100  0.8577  -27.6  13.095  163.5  0.0226   76.4  0.9686  -12.2
 0.110  0.8501  -30.2  12.978  162.0  0.0246   74.4  0.9608  -13.3
 0.120  0.8443  -32.9  12.870  160.4  0.0265   72.8  0.9534  -14.4
 0.130  0.8403  -35.6  12.772  158.8  0.0285   71.3  0.9464  -15.5
 0.140  0.8383  -38.4  12.684  157.2  0.0306   70.1  0.9397  -16.6
 0.150  0.8382  -41.1  12.606  155.6  0.0326   69.0  0.9334  -17.8
 0.200  0.8262  -53.1  12.007  148.0  0.0402   63.5  0.8934  -22.8
 0.250  0.8084  -64.7  11.373  141.1  0.0475   57.2  0.8497  -27.0
 0.300  0.7860  -75.3  10.667  135.1  0.0538   52.6  0.8039  -30.7
 0.350  0.7641  -83.8   9.988  130.3  0.0583   48.4  0.7619  -33.4
 0.400  0.7598  -92.6   9.388  124.9  0.0631   44.9  0.7218  -36.5
 0.450  0.7400  -99.6   8.775  121.1  0.0657   41.7  0.6874  -38.4
 0.500  0.7317 -106.8   8.205  116.8  0.0684   38.7  0.6537  -40.4
 0.600  0.7142 -118.7   7.252  109.9  0.0726   34.5  0.5982  -43.2
 0.700  0.7003 -128.4   6.439  104.1  0.0746   31.4  0.5550  -45.2
 0.800  0.6927 -136.7   5.800   99.0  0.0766   29.4  0.5221  -46.8
 0.900  0.6840 -143.7   5.237   94.6  0.0781   27.3  0.4956  -48.3
 1.000  0.6821 -149.6   4.791   90.8  0.0788   26.1  0.4741  -49.5
 1.100  0.6798 -155.2   4.400   87.3  0.0798   25.3  0.4586  -50.5
 1.200  0.6779 -160.1   4.063   83.8  0.0800   24.4  0.4447  -51.7
 1.300  0.6744 -164.6   3.771   80.7  0.0806   23.9  0.4335  -52.9
 1.400  0.6757 -168.4   3.530   77.7  0.0808   23.8  0.4233  -54.2
 1.500  0.6812 -172.3   3.309   75.0  0.0812   23.9  0.4153  -55.5
 1.600  0.6809 -175.7   3.115   72.2  0.0817   23.7  0.4099  -56.7
 1.700  0.6832 -179.2   2.949   69.7  0.0815   24.6  0.4038  -58.4
 1.800  0.6866  177.7   2.805   67.1  0.0820   24.7  0.3980  -59.9
 1.900  0.6913  174.8   2.662   64.8  0.0815   25.4  0.3936  -61.4
 2.000  0.6925  171.7   2.538   62.2  0.0824   25.8  0.3906  -63.0
 2.100  0.6940  168.9   2.427   59.9  0.0829   26.6  0.3878  -64.8
 2.200  0.6971  166.2   2.320   57.4  0.0834   27.4  0.3855  -66.7
 2.300  0.7010  163.7   2.225   55.2  0.0840   28.2  0.3838  -68.7
 2.400  0.7062  161.2   2.133   52.8  0.0846   29.0  0.3826  -70.7
 2.500  0.7083  158.9   2.049   50.7  0.0853   29.8  0.3815  -72.7
 2.600  0.7116  156.6   1.968   48.5  0.0861   30.6  0.3808  -74.8
 2.700  0.7154  154.4   1.898   46.5  0.0871   31.7  0.3809  -76.9
 2.800  0.7202  152.2   1.830   44.4  0.0882   32.7  0.3815  -78.9
 2.900  0.7229  150.2   1.770   42.3  0.0897   33.5  0.3807  -80.9
 3.000  0.7264  148.2   1.712   40.1  0.0912   34.2  0.3804  -83.0
 3.100  0.7287  146.3   1.659   38.4  0.0929   35.3  0.3807  -85.2
 3.200  0.7318  144.3   1.607   36.7  0.0947   36.3  0.3815  -87.5
 3.300  0.7358  142.4   1.557   34.8  0.0965   37.3  0.3829  -89.7
 3.400  0.7406  140.6   1.509   32.8  0.0983   38.3  0.3849  -91.9
 3.500  0.7461  138.7   1.463   30.7  0.1002   39.2  0.3875  -94.1
 3.600  0.7485  137.0   1.423   29.1  0.1028   39.7  0.3878  -96.5
 3.700  0.7516  135.3   1.383   27.4  0.1055   40.2  0.3887  -98.8
 3.800  0.7553  133.6   1.346   25.6  0.1082   40.7  0.3903 -101.2
 3.900  0.7597  131.9   1.309   23.7  0.1108   41.2  0.3925 -103.5
 4.000  0.7647  130.3   1.274   21.7  0.1135   41.6  0.3954 -105.8
 4.100  0.7671  128.8   1.240   20.2  0.1166   41.9  0.3964 -108.5
 4.200  0.7701  127.3   1.208   18.5  0.1197   42.2  0.3982 -111.1
 4.300  0.7735  125.9   1.176   16.8  0.1227   42.4  0.4009 -113.8
 4.400  0.7775  124.4   1.145   15.0  0.1258   42.7  0.4045 -116.4
 4.500  0.7819  123.0   1.116   13.1  0.1289   42.9  0.4088 -118.9
 4.600  0.7844  121.8   1.087   11.8  0.1325   43.0  0.4123 -121.6
 4.700  0.7872  120.7   1.058   10.4  0.1360   43.0  0.4167 -124.2
 4.800  0.7904  119.5   1.031    9.0  0.1396   43.1  0.4220 -126.8
 4.900  0.7938  118.3   1.003    7.5  0.1431   43.1  0.4282 -129.4
 5.000  0.7976  117.2   0.977    5.9  0.1467   43.2  0.4351 -131.8
 5.100  0.8000  116.2   0.956    4.7  0.1507   43.0  0.4422 -134.2
 5.200  0.8027  115.1   0.934    3.5  0.1547   42.8  0.4500 -136.5
 5.300  0.8057  114.1   0.914    2.2  0.1587   42.6  0.4585 -138.7
 5.400  0.8089  113.1   0.894    0.9  0.1627   42.5  0.4676 -140.8
 5.500  0.8123  112.1   0.874   -0.5  0.1667   42.3  0.4774 -142.9
 5.600  0.8128  111.1   0.855   -1.5  0.1709   41.8  0.4846 -144.8
 5.700  0.8135  110.1   0.836   -2.6  0.1751   41.3  0.4924 -146.7
 5.800  0.8145  109.1   0.817   -3.7  0.1793   40.8  0.5006 -148.5
 5.900  0.8157  108.1   0.799   -4.9  0.1835   40.3  0.5093 -150.2
 6.000  0.8172  107.1   0.781   -6.1  0.1877   39.9  0.5185 -151.9
!
!  f       NFmin   Gammaopt  rn/50
! GHz       dB    MAG  ANG    -
 0.450      0.73  0.32   50   0.29
 0.900      0.90  0.29   94   0.14
 1.900      1.50  0.43  165   0.08
 2.400      1.78  0.48  179   0.08
!
! (c) 2017  Infineon Technologies AG, Munich