! Infineon Technologies  Discrete & RF Semiconductors
! BFP183W
! VCE =  9.0 V,  IC =  45 mA
! Common Emitter S-Parameters:                            Jan 2017
# GHz  S  MA  R  50
!  f         S11            S21            S12            S22
! GHz     MAG   ANG      MAG   ANG      MAG   ANG      MAG   ANG
 0.010  0.3806  -12.6  63.828  174.5  0.0013   88.0  0.9531   -3.7
 0.020  0.3854  -28.9  62.540  168.9  0.0028   84.5  0.9382   -8.3
 0.030  0.3839  -41.2  60.449  164.3  0.0041   75.6  0.9128  -12.2
 0.040  0.3997  -53.0  58.766  159.5  0.0054   71.0  0.8919  -16.4
 0.050  0.4308  -63.5  57.527  154.4  0.0067   68.2  0.8759  -20.7
 0.060  0.4290  -72.0  54.888  151.3  0.0077   65.6  0.8405  -23.1
 0.070  0.4367  -80.4  52.431  147.8  0.0086   63.5  0.8067  -25.7
 0.080  0.4533  -88.4  50.181  144.0  0.0096   61.9  0.7748  -28.5
 0.090  0.4780  -95.6  48.169  139.9  0.0106   60.6  0.7448  -31.6
 0.100  0.5095 -102.1  46.424  135.5  0.0116   59.5  0.7172  -34.9
 0.110  0.5130 -106.8  44.379  133.5  0.0122   57.7  0.6891  -36.2
 0.120  0.5198 -111.4  42.394  131.3  0.0127   56.1  0.6614  -37.6
 0.130  0.5300 -115.9  40.478  128.9  0.0133   54.6  0.6342  -39.1
 0.140  0.5432 -120.2  38.641  126.2  0.0139   53.2  0.6074  -40.8
 0.150  0.5593 -124.2  36.895  123.3  0.0145   52.0  0.5812  -42.6
 0.200  0.5835 -137.5  29.888  114.9  0.0153   52.0  0.4878  -46.2
 0.250  0.6002 -146.8  24.903  108.9  0.0174   48.8  0.4219  -47.9
 0.300  0.6087 -153.4  21.219  104.6  0.0188   50.4  0.3738  -48.5
 0.350  0.6125 -158.0  18.772  101.8  0.0202   51.7  0.3444  -48.4
 0.400  0.6202 -162.6  16.383   98.2  0.0217   52.9  0.3151  -48.2
 0.450  0.6213 -165.7  14.796   96.2  0.0228   54.0  0.2985  -47.9
 0.500  0.6243 -168.8  13.231   93.8  0.0239   55.0  0.2819  -47.5
 0.600  0.6277 -173.4  11.131   90.2  0.0272   57.1  0.2607  -46.9
 0.700  0.6298 -177.3   9.569   87.2  0.0298   60.2  0.2468  -46.3
 0.800  0.6308  179.5   8.405   84.3  0.0336   62.3  0.2389  -46.4
 0.900  0.6325  176.5   7.468   81.8  0.0367   61.9  0.2316  -46.8
 1.000  0.6339  173.9   6.754   79.5  0.0397   63.0  0.2267  -47.4
 1.100  0.6349  171.4   6.145   77.3  0.0434   63.8  0.2251  -48.2
 1.200  0.6368  169.0   5.636   75.0  0.0465   63.6  0.2214  -49.1
 1.300  0.6382  166.8   5.206   73.0  0.0495   64.3  0.2203  -50.3
 1.400  0.6409  164.8   4.851   71.0  0.0537   65.0  0.2178  -51.7
 1.500  0.6453  162.9   4.525   69.1  0.0567   65.1  0.2162  -53.3
 1.600  0.6483  160.8   4.252   67.1  0.0602   65.3  0.2162  -54.8
 1.700  0.6508  158.9   4.008   65.2  0.0640   65.3  0.2147  -56.7
 1.800  0.6529  156.9   3.802   63.3  0.0675   64.7  0.2140  -58.8
 1.900  0.6567  155.3   3.601   61.6  0.0702   64.5  0.2133  -60.8
 2.000  0.6585  153.5   3.420   59.5  0.0748   64.2  0.2133  -63.0
 2.100  0.6615  151.6   3.266   57.7  0.0780   63.9  0.2127  -65.4
 2.200  0.6652  149.8   3.116   55.8  0.0812   63.6  0.2125  -67.8
 2.300  0.6690  148.1   2.987   54.1  0.0848   63.2  0.2125  -70.4
 2.400  0.6733  146.5   2.861   52.2  0.0884   62.9  0.2130  -73.0
 2.500  0.6755  144.9   2.748   50.5  0.0916   62.4  0.2135  -75.6
 2.600  0.6781  143.4   2.637   48.7  0.0949   62.0  0.2145  -78.2
 2.700  0.6828  141.8   2.542   47.1  0.0986   61.5  0.2156  -80.9
 2.800  0.6879  140.3   2.449   45.3  0.1023   61.0  0.2172  -83.5
 2.900  0.6914  138.8   2.366   43.7  0.1055   60.4  0.2181  -86.2
 3.000  0.6953  137.3   2.285   41.9  0.1088   59.8  0.2195  -88.8
 3.100  0.6983  135.8   2.216   40.5  0.1123   59.3  0.2201  -91.4
 3.200  0.7018  134.4   2.148   39.0  0.1158   58.8  0.2213  -94.1
 3.300  0.7058  132.9   2.082   37.3  0.1193   58.3  0.2228  -96.7
 3.400  0.7102  131.5   2.017   35.6  0.1228   57.8  0.2248  -99.2
 3.500  0.7150  130.1   1.955   33.8  0.1263   57.4  0.2273 -101.7
 3.600  0.7180  128.8   1.903   32.4  0.1298   56.6  0.2282 -104.5
 3.700  0.7214  127.5   1.852   30.9  0.1332   55.9  0.2296 -107.2
 3.800  0.7251  126.2   1.802   29.3  0.1367   55.3  0.2315 -109.9
 3.900  0.7292  124.9   1.754   27.7  0.1403   54.6  0.2339 -112.6
 4.000  0.7337  123.6   1.707   25.9  0.1438   54.0  0.2368 -115.2
 4.100  0.7365  122.4   1.664   24.5  0.1471   53.2  0.2387 -118.2
 4.200  0.7396  121.1   1.623   23.1  0.1504   52.5  0.2413 -121.1
 4.300  0.7431  119.9   1.582   21.5  0.1538   51.8  0.2445 -124.0
 4.400  0.7469  118.7   1.543   19.9  0.1571   51.1  0.2482 -126.8
 4.500  0.7510  117.5   1.505   18.2  0.1605   50.5  0.2526 -129.5
 4.600  0.7543  116.5   1.469   17.0  0.1639   49.9  0.2573 -132.3
 4.700  0.7577  115.6   1.433   15.7  0.1673   49.3  0.2627 -135.1
 4.800  0.7614  114.7   1.398   14.4  0.1707   48.7  0.2686 -137.7
 4.900  0.7653  113.7   1.364   13.0  0.1741   48.1  0.2750 -140.2
 5.000  0.7694  112.8   1.331   11.5  0.1776   47.6  0.2820 -142.6
 5.100  0.7720  111.9   1.304   10.4  0.1810   46.9  0.2897 -144.8
 5.200  0.7748  111.1   1.278    9.2  0.1845   46.2  0.2977 -147.0
 5.300  0.7777  110.2   1.253    7.9  0.1880   45.5  0.3062 -149.0
 5.400  0.7808  109.3   1.228    6.6  0.1915   44.8  0.3150 -150.9
 5.500  0.7841  108.5   1.204    5.3  0.1950   44.2  0.3242 -152.7
 5.600  0.7847  107.6   1.180    4.2  0.1986   43.4  0.3319 -154.2
 5.700  0.7856  106.7   1.157    3.1  0.2021   42.7  0.3397 -155.7
 5.800  0.7866  105.9   1.134    2.0  0.2058   42.0  0.3478 -157.1
 5.900  0.7878  105.0   1.111    0.8  0.2094   41.3  0.3561 -158.4
 6.000  0.7892  104.1   1.089   -0.5  0.2131   40.6  0.3646 -159.7
!
!  f       NFmin   Gammaopt  rn/50
! GHz       dB    MAG  ANG    -
!
! noise parameter not available yet for this operation point!
!
! (c) 2017  Infineon Technologies AG, Munich