! Infineon Technologies  Discrete & RF Semiconductors
! BFP183W
! VCE =  3.0 V,  IC =  4.0 mA
! Common Emitter S-Parameters:                            Jan 2017
# GHz  S  MA  R  50
!  f         S11            S21            S12            S22
! GHz     MAG   ANG      MAG   ANG      MAG   ANG      MAG   ANG
 0.010  0.8809   -2.1  13.729  179.4  0.0020   91.3  0.9992   -1.4
 0.020  0.8627   -6.9  13.619  176.8  0.0046   96.9  0.9967   -2.7
 0.030  0.8582   -9.3  13.549  175.1  0.0069   89.0  0.9935   -4.0
 0.040  0.8553  -11.8  13.491  173.3  0.0092   85.1  0.9907   -5.2
 0.050  0.8539  -14.2  13.446  171.6  0.0116   82.8  0.9885   -6.5
 0.060  0.8506  -17.0  13.354  169.9  0.0141   80.4  0.9831   -7.7
 0.070  0.8494  -19.8  13.273  168.3  0.0166   78.7  0.9781   -9.0
 0.080  0.8502  -22.6  13.204  166.6  0.0191   77.4  0.9736  -10.2
 0.090  0.8531  -25.4  13.147  164.8  0.0217   76.5  0.9695  -11.5
 0.100  0.8580  -28.2  13.102  163.1  0.0242   75.7  0.9660  -12.8
 0.110  0.8495  -30.9  12.979  161.6  0.0260   73.9  0.9580  -13.9
 0.120  0.8430  -33.7  12.866  160.0  0.0278   72.3  0.9504  -15.1
 0.130  0.8385  -36.5  12.763  158.4  0.0297   71.0  0.9432  -16.3
 0.140  0.8361  -39.4  12.670  156.7  0.0315   69.8  0.9364  -17.5
 0.150  0.8357  -42.2  12.587  155.1  0.0334   68.7  0.9300  -18.7
 0.200  0.8249  -54.4  11.970  147.4  0.0418   62.4  0.8877  -23.7
 0.250  0.8043  -66.1  11.313  140.4  0.0499   56.1  0.8421  -28.1
 0.300  0.7827  -76.7  10.583  134.4  0.0553   51.6  0.7947  -32.0
 0.350  0.7602  -85.3   9.896  129.6  0.0601   47.6  0.7518  -34.8
 0.400  0.7559  -94.3   9.288  124.1  0.0651   44.2  0.7109  -37.9
 0.450  0.7378 -101.3   8.670  120.3  0.0676   41.0  0.6756  -39.8
 0.500  0.7312 -108.5   8.095  116.0  0.0702   38.1  0.6411  -42.0
 0.600  0.7142 -120.4   7.145  109.2  0.0746   33.8  0.5853  -44.8
 0.700  0.7025 -129.9   6.333  103.4  0.0767   30.7  0.5413  -46.9
 0.800  0.6943 -138.1   5.696   98.4  0.0786   28.9  0.5085  -48.5
 0.900  0.6864 -145.1   5.142   94.0  0.0801   26.8  0.4815  -50.0
 1.000  0.6825 -150.9   4.701   90.1  0.0808   25.6  0.4600  -51.3
 1.100  0.6814 -156.3   4.314   86.7  0.0819   24.6  0.4447  -52.3
 1.200  0.6800 -161.2   3.983   83.2  0.0819   23.6  0.4303  -53.6
 1.300  0.6778 -165.4   3.697   80.1  0.0825   23.4  0.4196  -54.7
 1.400  0.6805 -169.4   3.460   77.2  0.0827   23.2  0.4094  -56.1
 1.500  0.6824 -173.1   3.242   74.4  0.0827   23.3  0.4012  -57.4
 1.600  0.6840 -176.6   3.051   71.6  0.0836   23.3  0.3961  -58.7
 1.700  0.6877 -179.9   2.888   69.2  0.0834   23.7  0.3898  -60.5
 1.800  0.6901  177.0   2.750   66.6  0.0838   24.2  0.3840  -61.9
 1.900  0.6929  174.1   2.609   64.2  0.0840   24.7  0.3801  -63.6
 2.000  0.6952  171.1   2.484   61.6  0.0848   25.2  0.3771  -65.1
 2.100  0.6977  168.3   2.375   59.3  0.0851   26.0  0.3743  -67.0
 2.200  0.7018  165.6   2.271   56.8  0.0855   26.7  0.3720  -68.9
 2.300  0.7049  163.1   2.178   54.6  0.0862   27.5  0.3706  -71.0
 2.400  0.7094  160.6   2.088   52.3  0.0869   28.2  0.3696  -73.1
 2.500  0.7121  158.4   2.006   50.2  0.0877   29.0  0.3688  -75.2
 2.600  0.7159  156.2   1.927   48.0  0.0885   29.8  0.3684  -77.3
 2.700  0.7189  153.9   1.858   46.0  0.0894   30.7  0.3686  -79.4
 2.800  0.7231  151.7   1.792   43.8  0.0904   31.6  0.3693  -81.4
 2.900  0.7260  149.7   1.733   41.8  0.0918   32.4  0.3687  -83.5
 3.000  0.7297  147.7   1.676   39.6  0.0933   33.1  0.3686  -85.6
 3.100  0.7321  145.8   1.624   37.9  0.0951   34.2  0.3690  -87.9
 3.200  0.7353  143.9   1.574   36.2  0.0969   35.3  0.3700  -90.2
 3.300  0.7394  142.0   1.525   34.3  0.0987   36.3  0.3715  -92.4
 3.400  0.7442  140.1   1.478   32.2  0.1006   37.3  0.3737  -94.7
 3.500  0.7498  138.3   1.433   30.1  0.1025   38.2  0.3764  -96.9
 3.600  0.7524  136.6   1.393   28.5  0.1050   38.7  0.3771  -99.3
 3.700  0.7556  134.9   1.355   26.8  0.1076   39.1  0.3784 -101.7
 3.800  0.7595  133.3   1.317   25.0  0.1102   39.6  0.3803 -104.1
 3.900  0.7641  131.6   1.281   23.1  0.1127   40.0  0.3830 -106.4
 4.000  0.7692  130.0   1.247   21.1  0.1153   40.4  0.3862 -108.7
 4.100  0.7713  128.5   1.214   19.6  0.1184   40.7  0.3875 -111.4
 4.200  0.7739  127.0   1.182   17.9  0.1215   41.0  0.3897 -114.1
 4.300  0.7770  125.6   1.151   16.2  0.1246   41.2  0.3928 -116.7
 4.400  0.7806  124.1   1.122   14.4  0.1277   41.5  0.3966 -119.4
 4.500  0.7847  122.7   1.093   12.5  0.1308   41.7  0.4013 -121.9
 4.600  0.7874  121.5   1.064   11.2  0.1344   41.8  0.4052 -124.6
 4.700  0.7904  120.4   1.036    9.9  0.1380   41.9  0.4100 -127.2
 4.800  0.7937  119.2   1.009    8.5  0.1415   42.0  0.4156 -129.7
 4.900  0.7974  118.0   0.982    7.0  0.1451   42.0  0.4220 -132.2
 5.000  0.8014  116.9   0.956    5.4  0.1487   42.1  0.4292 -134.6
 5.100  0.8034  115.9   0.935    4.2  0.1525   41.9  0.4366 -137.0
 5.200  0.8056  114.9   0.915    3.0  0.1564   41.7  0.4447 -139.3
 5.300  0.8080  113.9   0.895    1.7  0.1602   41.5  0.4535 -141.5
 5.400  0.8108  112.9   0.876    0.4  0.1641   41.3  0.4629 -143.6
 5.500  0.8137  111.9   0.857   -1.0  0.1679   41.1  0.4729 -145.6
 5.600  0.8143  110.9   0.838   -2.0  0.1721   40.6  0.4802 -147.5
 5.700  0.8152  109.9   0.819   -3.0  0.1762   40.1  0.4881 -149.3
 5.800  0.8164  108.9   0.800   -4.1  0.1804   39.7  0.4964 -151.1
 5.900  0.8178  107.9   0.782   -5.3  0.1846   39.2  0.5051 -152.8
 6.000  0.8194  106.9   0.764   -6.5  0.1888   38.8  0.5143 -154.4
!
!  f       NFmin   Gammaopt  rn/50
! GHz       dB    MAG  ANG    -
 0.450      0.73  0.32   50   0.29
 0.900      0.90  0.29   94   0.14
 1.900      1.50  0.43  165   0.08
 2.400      1.78  0.48  179   0.08
!
! (c) 2017  Infineon Technologies AG, Munich