! Infineon Technologies  Discrete & RF Semiconductors
! BFP183W
! VCE =  5.0 V,  IC =  20 mA
! Common Emitter S-Parameters:                            Jan 2017
# GHz  S  MA  R  50
!  f         S11            S21            S12            S22
! GHz     MAG   ANG      MAG   ANG      MAG   ANG      MAG   ANG
 0.010  0.5384   -7.8  46.945  176.5  0.0015   82.2  0.9829   -3.3
 0.020  0.5302  -18.3  46.232  171.9  0.0030   99.1  0.9663   -6.9
 0.030  0.5244  -26.0  45.321  168.3  0.0047   84.2  0.9524  -10.2
 0.040  0.5280  -33.6  44.600  164.5  0.0066   77.5  0.9418  -13.6
 0.050  0.5409  -41.1  44.079  160.6  0.0085   73.8  0.9345  -17.0
 0.060  0.5304  -47.8  42.709  157.7  0.0099   70.8  0.9077  -19.5
 0.070  0.5275  -54.7  41.455  154.6  0.0112   68.6  0.8827  -22.0
 0.080  0.5322  -61.6  40.328  151.3  0.0126   66.9  0.8596  -24.8
 0.090  0.5444  -68.2  39.340  147.9  0.0140   65.4  0.8386  -27.7
 0.100  0.5635  -74.5  38.501  144.3  0.0154   64.3  0.8198  -30.7
 0.110  0.5588  -79.4  37.207  142.2  0.0162   61.8  0.7940  -32.4
 0.120  0.5582  -84.3  35.969  139.9  0.0171   59.5  0.7690  -34.2
 0.130  0.5618  -89.2  34.790  137.5  0.0180   57.4  0.7447  -36.1
 0.140  0.5694  -94.0  33.679  134.9  0.0189   55.5  0.7214  -38.2
 0.150  0.5809  -98.7  32.642  132.1  0.0198   53.8  0.6991  -40.4
 0.200  0.5969 -115.2  27.592  122.9  0.0218   50.1  0.5990  -46.7
 0.250  0.6062 -127.6  23.644  116.0  0.0249   47.1  0.5202  -50.9
 0.300  0.6099 -136.8  20.486  110.9  0.0259   46.0  0.4588  -53.7
 0.350  0.6112 -143.1  18.260  107.5  0.0273   45.7  0.4167  -55.0
 0.400  0.6199 -149.3  16.115  103.2  0.0287   45.5  0.3749  -56.7
 0.450  0.6188 -153.6  14.619  100.8  0.0301   46.4  0.3487  -57.3
 0.500  0.6212 -157.9  13.154   97.9  0.0316   47.3  0.3225  -58.1
 0.600  0.6249 -164.3  11.113   93.6  0.0341   48.0  0.2876  -58.8
 0.700  0.6274 -169.3   9.585   90.1  0.0359   49.2  0.2623  -59.0
 0.800  0.6299 -173.7   8.435   86.8  0.0394   51.5  0.2467  -59.3
 0.900  0.6293 -177.3   7.505   84.0  0.0421   52.6  0.2336  -59.7
 1.000  0.6336  179.5   6.795   81.5  0.0445   53.6  0.2230  -60.3
 1.100  0.6366  176.5   6.186   79.2  0.0480   54.6  0.2177  -60.7
 1.200  0.6351  173.7   5.675   76.7  0.0509   55.2  0.2118  -61.3
 1.300  0.6360  171.1   5.244   74.5  0.0537   56.1  0.2081  -62.5
 1.400  0.6399  168.8   4.888   72.4  0.0571   57.0  0.2038  -63.6
 1.500  0.6432  166.7   4.560   70.4  0.0602   56.8  0.2004  -65.0
 1.600  0.6466  164.3   4.286   68.2  0.0633   57.3  0.1993  -66.3
 1.700  0.6482  162.1   4.044   66.3  0.0666   58.1  0.1964  -68.2
 1.800  0.6516  160.1   3.835   64.3  0.0698   57.7  0.1951  -70.0
 1.900  0.6555  158.3   3.632   62.5  0.0727   57.7  0.1941  -71.8
 2.000  0.6586  156.1   3.450   60.4  0.0761   57.8  0.1937  -73.9
 2.100  0.6612  154.2   3.294   58.6  0.0796   57.7  0.1929  -76.2
 2.200  0.6645  152.3   3.142   56.6  0.0832   57.7  0.1925  -78.6
 2.300  0.6688  150.5   3.011   54.8  0.0864   57.4  0.1931  -81.1
 2.400  0.6737  148.7   2.884   52.9  0.0897   57.2  0.1940  -83.6
 2.500  0.6759  147.0   2.770   51.2  0.0932   56.8  0.1947  -86.2
 2.600  0.6786  145.4   2.659   49.3  0.0967   56.5  0.1958  -88.7
 2.700  0.6831  143.8   2.562   47.7  0.0999   56.2  0.1973  -91.2
 2.800  0.6881  142.2   2.468   45.9  0.1031   56.0  0.1992  -93.7
 2.900  0.6911  140.6   2.384   44.2  0.1064   55.5  0.2002  -96.4
 3.000  0.6946  139.0   2.302   42.4  0.1097   55.1  0.2016  -99.0
 3.100  0.6978  137.5   2.232   41.0  0.1130   54.7  0.2030 -101.6
 3.200  0.7015  135.9   2.164   39.4  0.1164   54.4  0.2048 -104.1
 3.300  0.7057  134.4   2.097   37.8  0.1197   54.0  0.2069 -106.6
 3.400  0.7104  133.0   2.032   36.1  0.1231   53.7  0.2095 -109.0
 3.500  0.7155  131.5   1.969   34.2  0.1264   53.4  0.2124 -111.4
 3.600  0.7185  130.1   1.916   32.8  0.1298   52.8  0.2140 -114.1
 3.700  0.7219  128.7   1.865   31.3  0.1332   52.2  0.2160 -116.8
 3.800  0.7257  127.3   1.815   29.7  0.1366   51.6  0.2185 -119.4
 3.900  0.7299  125.9   1.767   28.0  0.1400   51.0  0.2215 -122.0
 4.000  0.7346  124.6   1.720   26.2  0.1434   50.5  0.2249 -124.5
 4.100  0.7373  123.4   1.677   24.8  0.1467   49.8  0.2277 -127.4
 4.200  0.7403  122.1   1.634   23.4  0.1499   49.2  0.2310 -130.2
 4.300  0.7437  120.9   1.593   21.8  0.1532   48.6  0.2349 -133.0
 4.400  0.7474  119.7   1.553   20.2  0.1566   48.0  0.2394 -135.6
 4.500  0.7514  118.5   1.514   18.5  0.1599   47.4  0.2443 -138.2
 4.600  0.7545  117.5   1.478   17.3  0.1632   46.8  0.2497 -140.8
 4.700  0.7578  116.5   1.442   16.1  0.1665   46.3  0.2556 -143.4
 4.800  0.7614  115.5   1.407   14.7  0.1698   45.7  0.2620 -145.8
 4.900  0.7651  114.6   1.372   13.4  0.1732   45.2  0.2689 -148.0
 5.000  0.7691  113.6   1.339   11.9  0.1765   44.7  0.2761 -150.2
 5.100  0.7715  112.7   1.313   10.7  0.1799   44.1  0.2843 -152.2
 5.200  0.7740  111.8   1.287    9.5  0.1832   43.4  0.2928 -154.1
 5.300  0.7767  110.9   1.262    8.3  0.1866   42.8  0.3016 -155.9
 5.400  0.7796  110.1   1.237    7.0  0.1901   42.3  0.3107 -157.6
 5.500  0.7827  109.2   1.213    5.6  0.1935   41.7  0.3200 -159.2
 5.600  0.7834  108.3   1.189    4.5  0.1970   40.9  0.3276 -160.5
 5.700  0.7843  107.4   1.165    3.4  0.2006   40.2  0.3353 -161.8
 5.800  0.7854  106.5   1.142    2.3  0.2042   39.5  0.3432 -163.0
 5.900  0.7867  105.6   1.119    1.1  0.2078   38.9  0.3513 -164.2
 6.000  0.7882  104.7   1.097   -0.2  0.2114   38.2  0.3595 -165.3
!
!  f       NFmin   Gammaopt  rn/50
! GHz       dB    MAG  ANG    -
 0.450      1.17  0.20  171   0.10
 0.900      1.20  0.25  174   0.09
 1.900      1.68  0.41 -163   0.08
 2.400      1.92  0.45 -157   0.12
!
! (c) 2017  Infineon Technologies AG, Munich