! Infineon Technologies  Discrete & RF Semiconductors
! BFP183W
! VCE =  3.0 V,  IC =  2.0 mA
! Common Emitter S-Parameters:                            Jan 2017
# GHz  S  MA  R  50
!  f         S11            S21            S12            S22
! GHz     MAG   ANG      MAG   ANG      MAG   ANG      MAG   ANG
 0.010  0.9481   -1.1   7.204 -180.0  0.0020   89.0  1.0000   -0.9
 0.020  0.9217   -5.2   7.111  177.8  0.0046   96.2  0.9952   -1.7
 0.030  0.9202   -6.7   7.105  176.6  0.0072   90.6  0.9951   -2.5
 0.040  0.9194   -8.3   7.102  175.3  0.0099   88.0  0.9951   -3.3
 0.050  0.9193   -9.8   7.102  174.1  0.0126   86.5  0.9954   -4.1
 0.060  0.9189  -11.8   7.075  172.8  0.0150   84.4  0.9927   -4.9
 0.070  0.9195  -13.7   7.052  171.6  0.0175   82.9  0.9902   -5.6
 0.080  0.9212  -15.7   7.033  170.3  0.0200   81.7  0.9879   -6.4
 0.090  0.9240  -17.7   7.017  169.0  0.0224   80.8  0.9858   -7.2
 0.100  0.9279  -19.6   7.004  167.7  0.0249   80.1  0.9838   -8.0
 0.110  0.9223  -21.6   6.973  166.5  0.0272   78.3  0.9805   -8.8
 0.120  0.9178  -23.6   6.945  165.3  0.0295   76.8  0.9775   -9.6
 0.130  0.9144  -25.6   6.920  164.1  0.0318   75.5  0.9746  -10.4
 0.140  0.9122  -27.7   6.898  162.8  0.0342   74.4  0.9719  -11.2
 0.150  0.9112  -29.7   6.880  161.6  0.0365   73.4  0.9694  -12.0
 0.200  0.9075  -38.8   6.698  155.3  0.0465   68.3  0.9496  -15.6
 0.250  0.8924  -48.0   6.524  149.5  0.0566   63.1  0.9257  -19.0
 0.300  0.8729  -56.7   6.275  144.1  0.0650   58.7  0.8979  -22.1
 0.350  0.8543  -64.3   6.016  139.4  0.0720   54.2  0.8698  -24.7
 0.400  0.8510  -72.0   5.802  134.3  0.0793   50.5  0.8436  -27.5
 0.450  0.8298  -78.7   5.527  130.2  0.0844   46.8  0.8168  -29.5
 0.500  0.8204  -85.6   5.283  125.8  0.0898   43.6  0.7910  -31.7
 0.600  0.7988  -97.6   4.821  118.3  0.0980   37.8  0.7440  -35.1
 0.700  0.7768 -108.1   4.382  111.6  0.1027   32.8  0.7037  -37.8
 0.800  0.7623 -117.3   4.024  105.8  0.1069   29.0  0.6704  -40.1
 0.900  0.7475 -125.3   3.689  100.6  0.1091   25.5  0.6426  -42.0
 1.000  0.7398 -132.4   3.410   96.0  0.1111   22.6  0.6196  -43.8
 1.100  0.7350 -138.8   3.158   91.8  0.1114   20.2  0.6015  -45.4
 1.200  0.7269 -144.8   2.938   87.7  0.1120   17.7  0.5849  -47.0
 1.300  0.7236 -149.9   2.744   84.0  0.1117   16.0  0.5722  -48.6
 1.400  0.7221 -154.6   2.580   80.5  0.1111   14.4  0.5601  -50.2
 1.500  0.7249 -159.4   2.431   77.2  0.1106   13.2  0.5502  -51.8
 1.600  0.7240 -163.6   2.292   74.0  0.1100   11.8  0.5438  -53.3
 1.700  0.7252 -167.8   2.178   71.1  0.1083   11.2  0.5357  -55.2
 1.800  0.7270 -171.4   2.080   68.1  0.1075   10.4  0.5286  -56.7
 1.900  0.7315 -174.9   1.979   65.5  0.1054    9.7  0.5230  -58.5
 2.000  0.7303 -178.6   1.892   62.5  0.1041    9.4  0.5191  -60.2
 2.100  0.7317  178.1   1.812   59.9  0.1025    9.3  0.5155  -62.0
 2.200  0.7354  174.9   1.736   57.0  0.1009    9.1  0.5125  -63.9
 2.300  0.7380  171.9   1.666   54.5  0.0992    9.2  0.5107  -66.0
 2.400  0.7426  169.0   1.599   51.8  0.0976    9.3  0.5096  -68.1
 2.500  0.7442  166.3   1.537   49.5  0.0958    9.8  0.5079  -70.2
 2.600  0.7473  163.7   1.478   47.0  0.0940   10.4  0.5069  -72.3
 2.700  0.7502  161.1   1.427   44.8  0.0926   11.1  0.5069  -74.4
 2.800  0.7546  158.6   1.378   42.4  0.0913   11.9  0.5075  -76.4
 2.900  0.7566  156.2   1.333   40.1  0.0904   13.0  0.5066  -78.5
 3.000  0.7600  153.8   1.290   37.6  0.0895   14.2  0.5064  -80.6
 3.100  0.7615  151.6   1.249   35.8  0.0889   15.9  0.5062  -82.9
 3.200  0.7641  149.5   1.210   33.9  0.0883   17.7  0.5067  -85.2
 3.300  0.7678  147.4   1.172   31.8  0.0879   19.4  0.5080  -87.4
 3.400  0.7725  145.3   1.136   29.6  0.0875   21.2  0.5102  -89.7
 3.500  0.7782  143.2   1.101   27.3  0.0872   23.0  0.5131  -91.9
 3.600  0.7802  141.3   1.070   25.6  0.0883   24.9  0.5131  -94.3
 3.700  0.7831  139.4   1.039   23.8  0.0894   26.7  0.5140  -96.7
 3.800  0.7868  137.5   1.010   21.9  0.0907   28.5  0.5158  -99.1
 3.900  0.7913  135.6   0.982   19.9  0.0920   30.2  0.5185 -101.5
 4.000  0.7967  133.8   0.955   17.8  0.0934   31.9  0.5221 -103.8
 4.100  0.7981  132.2   0.929   16.2  0.0960   33.4  0.5223 -106.5
 4.200  0.8002  130.5   0.904   14.6  0.0986   34.8  0.5237 -109.1
 4.300  0.8029  128.9   0.879   12.9  0.1013   36.1  0.5262 -111.8
 4.400  0.8062  127.3   0.856   11.0  0.1040   37.3  0.5298 -114.4
 4.500  0.8102  125.7   0.833    9.1  0.1068   38.5  0.5345 -117.0
 4.600  0.8124  124.4   0.810    7.8  0.1106   39.4  0.5370 -119.7
 4.700  0.8151  123.1   0.787    6.5  0.1145   40.2  0.5407 -122.3
 4.800  0.8182  121.8   0.765    5.1  0.1183   41.0  0.5455 -124.9
 4.900  0.8217  120.5   0.743    3.6  0.1222   41.7  0.5514 -127.4
 5.000  0.8256  119.2   0.722    2.0  0.1261   42.4  0.5583 -129.9
 5.100  0.8272  118.1   0.705    1.0  0.1306   42.6  0.5642 -132.4
 5.200  0.8291  117.0   0.688   -0.1  0.1351   42.8  0.5712 -134.8
 5.300  0.8313  115.9   0.671   -1.3  0.1396   43.0  0.5791 -137.1
 5.400  0.8339  114.8   0.655   -2.4  0.1441   43.1  0.5879 -139.4
 5.500  0.8367  113.7   0.639   -3.7  0.1486   43.3  0.5977 -141.6
 5.600  0.8373  112.6   0.623   -4.5  0.1536   42.9  0.6038 -143.7
 5.700  0.8382  111.5   0.608   -5.4  0.1586   42.5  0.6107 -145.7
 5.800  0.8393  110.5   0.593   -6.4  0.1636   42.2  0.6184 -147.6
 5.900  0.8408  109.4   0.578   -7.4  0.1686   41.8  0.6267 -149.5
 6.000  0.8426  108.3   0.563   -8.4  0.1736   41.5  0.6357 -151.4
!
!  f       NFmin   Gammaopt  rn/50
! GHz       dB    MAG  ANG    -
 0.450      0.76  0.48   45   0.22
 0.900      0.95  0.41   86   0.19
 1.900      1.77  0.52  156   0.09
 2.400      2.08  0.55  173   0.09
!
! (c) 2017  Infineon Technologies AG, Munich