! Infineon Technologies  Discrete & RF Semiconductors
! BFP183W
! VCE =  6.0 V,  IC =  33 mA
! Common Emitter S-Parameters:                            Jan 2017
# GHz  S  MA  R  50
!  f         S11            S21            S12            S22
! GHz     MAG   ANG      MAG   ANG      MAG   ANG      MAG   ANG
 0.010  0.4023  -11.7  60.160  175.3  0.0014   82.7  0.9696   -3.9
 0.020  0.4024  -26.0  59.296  169.8  0.0027   85.6  0.9545   -8.4
 0.030  0.4004  -37.2  57.500  165.5  0.0041   76.9  0.9317  -12.3
 0.040  0.4134  -48.1  56.046  161.0  0.0055   72.6  0.9133  -16.4
 0.050  0.4403  -58.0  54.963  156.2  0.0069   70.1  0.8998  -20.6
 0.060  0.4369  -66.3  52.669  153.1  0.0081   67.3  0.8654  -23.2
 0.070  0.4426  -74.5  50.542  149.7  0.0093   65.3  0.8328  -26.0
 0.080  0.4572  -82.3  48.607  146.1  0.0105   63.7  0.8024  -29.0
 0.090  0.4797  -89.6  46.885  142.1  0.0118   62.4  0.7744  -32.2
 0.100  0.5091  -96.1  45.401  137.9  0.0130   61.4  0.7491  -35.7
 0.110  0.5114 -100.9  43.521  135.8  0.0136   59.4  0.7204  -37.3
 0.120  0.5172 -105.7  41.701  133.6  0.0142   57.6  0.6922  -38.9
 0.130  0.5266 -110.3  39.952  131.2  0.0148   55.9  0.6647  -40.8
 0.140  0.5391 -114.7  38.281  128.5  0.0154   54.3  0.6379  -42.7
 0.150  0.5548 -118.9  36.701  125.6  0.0160   52.9  0.6119  -44.9
 0.200  0.5816 -133.1  30.073  116.9  0.0172   49.9  0.5116  -50.1
 0.250  0.5976 -143.0  25.246  110.6  0.0196   48.8  0.4381  -53.2
 0.300  0.6064 -150.2  21.596  106.1  0.0207   47.9  0.3843  -54.9
 0.350  0.6097 -155.1  19.134  103.2  0.0220   49.8  0.3493  -55.5
 0.400  0.6174 -160.0  16.736   99.4  0.0234   51.5  0.3143  -56.3
 0.450  0.6182 -163.4  15.136   97.3  0.0249   51.9  0.2936  -56.4
 0.500  0.6211 -166.7  13.561   94.8  0.0265   52.3  0.2729  -56.5
 0.600  0.6269 -171.7  11.413   91.0  0.0295   55.0  0.2464  -56.3
 0.700  0.6282 -175.7   9.811   87.9  0.0320   57.7  0.2274  -55.9
 0.800  0.6312 -179.4   8.623   84.8  0.0358   59.9  0.2162  -56.1
 0.900  0.6316  177.6   7.664   82.3  0.0385   60.1  0.2071  -56.6
 1.000  0.6336  175.0   6.930   79.9  0.0418   60.9  0.1998  -56.9
 1.100  0.6356  172.4   6.307   77.8  0.0451   61.6  0.1960  -57.2
 1.200  0.6384  170.0   5.782   75.5  0.0485   61.6  0.1921  -58.2
 1.300  0.6391  167.7   5.342   73.4  0.0517   62.7  0.1898  -59.2
 1.400  0.6415  165.6   4.976   71.3  0.0553   63.1  0.1871  -60.5
 1.500  0.6464  163.7   4.642   69.4  0.0587   63.2  0.1851  -61.9
 1.600  0.6490  161.6   4.362   67.4  0.0624   62.7  0.1845  -63.3
 1.700  0.6495  159.5   4.113   65.5  0.0656   63.1  0.1832  -65.3
 1.800  0.6536  157.7   3.901   63.6  0.0696   62.8  0.1821  -67.3
 1.900  0.6561  156.1   3.693   61.8  0.0727   62.6  0.1814  -69.2
 2.000  0.6590  153.9   3.507   59.8  0.0765   62.4  0.1819  -71.5
 2.100  0.6612  152.1   3.349   58.0  0.0801   62.0  0.1815  -74.0
 2.200  0.6641  150.3   3.194   56.1  0.0837   61.7  0.1815  -76.6
 2.300  0.6689  148.6   3.060   54.3  0.0872   61.3  0.1820  -79.2
 2.400  0.6743  147.0   2.930   52.4  0.0907   61.0  0.1828  -81.7
 2.500  0.6771  145.4   2.814   50.8  0.0940   60.6  0.1840  -84.4
 2.600  0.6803  143.9   2.701   49.0  0.0974   60.2  0.1856  -87.1
 2.700  0.6843  142.3   2.603   47.4  0.1007   59.6  0.1872  -89.8
 2.800  0.6889  140.7   2.507   45.6  0.1041   59.1  0.1892  -92.4
 2.900  0.6916  139.1   2.421   44.0  0.1077   58.4  0.1905  -95.2
 3.000  0.6949  137.6   2.338   42.2  0.1113   57.8  0.1922  -97.9
 3.100  0.6981  136.1   2.267   40.8  0.1148   57.3  0.1935 -100.6
 3.200  0.7017  134.7   2.198   39.3  0.1182   56.8  0.1953 -103.2
 3.300  0.7058  133.2   2.130   37.6  0.1217   56.3  0.1974 -105.8
 3.400  0.7103  131.8   2.064   35.9  0.1252   55.9  0.2000 -108.3
 3.500  0.7153  130.4   2.000   34.1  0.1287   55.5  0.2029 -110.8
 3.600  0.7183  129.1   1.946   32.7  0.1320   54.8  0.2046 -113.6
 3.700  0.7217  127.8   1.894   31.2  0.1354   54.1  0.2068 -116.4
 3.800  0.7255  126.5   1.843   29.6  0.1388   53.5  0.2095 -119.0
 3.900  0.7296  125.2   1.794   28.0  0.1422   52.9  0.2126 -121.7
 4.000  0.7341  123.9   1.746   26.2  0.1456   52.3  0.2162 -124.2
 4.100  0.7372  122.7   1.702   24.8  0.1489   51.5  0.2190 -127.2
 4.200  0.7406  121.4   1.659   23.4  0.1522   50.8  0.2223 -130.0
 4.300  0.7443  120.2   1.617   21.9  0.1556   50.1  0.2262 -132.8
 4.400  0.7484  119.0   1.576   20.3  0.1589   49.4  0.2306 -135.5
 4.500  0.7528  117.8   1.537   18.6  0.1623   48.8  0.2355 -138.1
 4.600  0.7558  116.8   1.500   17.4  0.1655   48.2  0.2410 -140.8
 4.700  0.7591  115.9   1.464   16.2  0.1688   47.5  0.2469 -143.4
 4.800  0.7625  114.9   1.428   14.8  0.1720   46.9  0.2534 -145.9
 4.900  0.7662  113.9   1.394   13.5  0.1753   46.4  0.2603 -148.2
 5.000  0.7701  113.0   1.360   12.0  0.1786   45.8  0.2676 -150.4
 5.100  0.7723  112.1   1.333   10.9  0.1821   45.1  0.2758 -152.4
 5.200  0.7748  111.3   1.307    9.7  0.1856   44.4  0.2842 -154.3
 5.300  0.7774  110.4   1.281    8.4  0.1891   43.8  0.2930 -156.1
 5.400  0.7802  109.5   1.256    7.1  0.1926   43.2  0.3020 -157.7
 5.500  0.7831  108.7   1.231    5.8  0.1962   42.6  0.3113 -159.3
 5.600  0.7840  107.8   1.207    4.7  0.1996   41.8  0.3190 -160.6
 5.700  0.7852  106.9   1.183    3.7  0.2031   41.1  0.3268 -161.9
 5.800  0.7865  106.1   1.160    2.5  0.2065   40.4  0.3349 -163.1
 5.900  0.7880  105.2   1.137    1.3  0.2101   39.7  0.3430 -164.3
 6.000  0.7897  104.3   1.115    0.1  0.2136   39.0  0.3513 -165.4
!
!  f       NFmin   Gammaopt  rn/50
! GHz       dB    MAG  ANG    -
 0.450      1.47  0.28 -179   0.10
 0.900      1.51  0.31 -177   0.10
 1.900      2.00  0.46 -156   0.11
 2.400      2.24  0.51 -151   0.16
!
! (c) 2017  Infineon Technologies AG, Munich