! Infineon Technologies  Discrete & RF Semiconductors
! BFP183W
! VCE =  9.0 V,  IC =  2.0 mA
! Common Emitter S-Parameters:                            Jan 2017
# GHz  S  MA  R  50
!  f         S11            S21            S12            S22
! GHz     MAG   ANG      MAG   ANG      MAG   ANG      MAG   ANG
 0.010  0.9559   -1.0   7.037  180.0  0.0017   85.9  1.0000   -0.7
 0.020  0.9297   -4.9   6.945  177.9  0.0039   93.7  0.9937   -1.5
 0.030  0.9278   -6.2   6.941  176.8  0.0061   87.6  0.9941   -2.2
 0.040  0.9263   -7.5   6.940  175.6  0.0083   84.7  0.9946   -2.8
 0.050  0.9253   -8.8   6.942  174.5  0.0106   83.1  0.9952   -3.5
 0.060  0.9252  -10.6   6.920  173.3  0.0128   81.9  0.9935   -4.2
 0.070  0.9260  -12.5   6.901  172.2  0.0150   81.1  0.9920   -4.9
 0.080  0.9278  -14.3   6.885  171.0  0.0172   80.5  0.9906   -5.6
 0.090  0.9306  -16.1   6.871  169.8  0.0194   80.0  0.9893   -6.3
 0.100  0.9342  -17.9   6.861  168.6  0.0216   79.6  0.9882   -7.0
 0.110  0.9293  -19.8   6.835  167.5  0.0236   78.2  0.9851   -7.7
 0.120  0.9253  -21.7   6.812  166.3  0.0255   77.1  0.9822   -8.4
 0.130  0.9224  -23.6   6.792  165.2  0.0275   76.1  0.9795   -9.1
 0.140  0.9205  -25.5   6.774  164.1  0.0295   75.2  0.9769   -9.8
 0.150  0.9196  -27.4   6.759  162.9  0.0315   74.5  0.9744  -10.5
 0.200  0.9170  -35.9   6.611  156.9  0.0407   70.3  0.9577  -13.6
 0.250  0.9028  -44.5   6.470  151.4  0.0493   64.7  0.9379  -16.6
 0.300  0.8838  -52.6   6.250  146.3  0.0568   60.4  0.9151  -19.4
 0.350  0.8659  -59.9   6.023  141.7  0.0630   56.3  0.8910  -21.7
 0.400  0.8623  -67.3   5.838  136.8  0.0694   52.9  0.8685  -24.2
 0.450  0.8405  -73.9   5.585  132.9  0.0745   49.1  0.8444  -26.1
 0.500  0.8303  -80.7   5.360  128.6  0.0799   45.8  0.8214  -28.2
 0.600  0.8082  -92.5   4.932  121.1  0.0877   40.4  0.7786  -31.4
 0.700  0.7853 -103.0   4.512  114.4  0.0918   35.3  0.7412  -33.9
 0.800  0.7694 -112.1   4.167  108.6  0.0962   31.3  0.7101  -36.1
 0.900  0.7522 -120.5   3.835  103.3  0.0985   27.7  0.6831  -38.0
 1.000  0.7428 -127.8   3.557   98.6  0.1002   24.7  0.6613  -39.7
 1.100  0.7370 -134.4   3.304   94.4  0.1015   22.7  0.6441  -41.1
 1.200  0.7294 -140.5   3.077   90.3  0.1016   19.9  0.6279  -42.7
 1.300  0.7230 -146.0   2.881   86.5  0.1012   18.1  0.6145  -44.2
 1.400  0.7218 -150.9   2.710   83.1  0.1013   16.6  0.6030  -45.7
 1.500  0.7211 -155.8   2.557   79.8  0.1006   15.3  0.5934  -47.2
 1.600  0.7205 -160.2   2.413   76.5  0.1004   14.0  0.5869  -48.6
 1.700  0.7194 -164.4   2.294   73.7  0.0985   13.1  0.5783  -50.4
 1.800  0.7218 -168.4   2.194   70.7  0.0975   12.6  0.5717  -51.9
 1.900  0.7245 -172.1   2.087   68.0  0.0960   12.2  0.5660  -53.5
 2.000  0.7252 -175.8   1.996   65.0  0.0946   11.7  0.5618  -55.1
 2.100  0.7258 -179.2   1.913   62.4  0.0932   11.6  0.5579  -56.9
 2.200  0.7289  177.4   1.835   59.5  0.0918   11.4  0.5545  -58.7
 2.300  0.7312  174.3   1.761   57.0  0.0902   11.7  0.5523  -60.6
 2.400  0.7355  171.3   1.691   54.3  0.0886   12.1  0.5507  -62.6
 2.500  0.7367  168.5   1.625   52.0  0.0871   12.7  0.5489  -64.5
 2.600  0.7396  165.8   1.562   49.5  0.0856   13.4  0.5478  -66.5
 2.700  0.7421  163.1   1.509   47.3  0.0842   14.4  0.5473  -68.4
 2.800  0.7463  160.4   1.458   44.9  0.0828   15.4  0.5475  -70.4
 2.900  0.7483  158.0   1.411   42.6  0.0821   16.6  0.5463  -72.3
 3.000  0.7517  155.6   1.366   40.2  0.0814   17.9  0.5457  -74.3
 3.100  0.7532  153.3   1.323   38.4  0.0809   19.9  0.5450  -76.5
 3.200  0.7559  151.1   1.282   36.5  0.0805   21.9  0.5452  -78.6
 3.300  0.7598  148.9   1.242   34.4  0.0802   23.9  0.5461  -80.8
 3.400  0.7648  146.7   1.204   32.2  0.0800   25.9  0.5477  -83.0
 3.500  0.7709  144.5   1.168   29.9  0.0799   27.9  0.5502  -85.1
 3.600  0.7728  142.5   1.135   28.2  0.0813   29.8  0.5495  -87.4
 3.700  0.7755  140.6   1.103   26.4  0.0828   31.7  0.5496  -89.7
 3.800  0.7792  138.7   1.072   24.5  0.0843   33.5  0.5507  -92.0
 3.900  0.7837  136.8   1.042   22.5  0.0860   35.2  0.5526  -94.3
 4.000  0.7891  134.9   1.014   20.4  0.0877   36.9  0.5554  -96.6
 4.100  0.7906  133.2   0.986   18.8  0.0905   38.4  0.5548  -99.1
 4.200  0.7927  131.5   0.960   17.1  0.0935   39.9  0.5553 -101.7
 4.300  0.7955  129.9   0.934   15.4  0.0964   41.2  0.5569 -104.2
 4.400  0.7990  128.2   0.909   13.5  0.0994   42.5  0.5596 -106.7
 4.500  0.8031  126.6   0.885   11.5  0.1025   43.7  0.5633 -109.2
 4.600  0.8053  125.3   0.861   10.2  0.1065   44.6  0.5647 -111.8
 4.700  0.8078  123.9   0.837    8.9  0.1106   45.3  0.5673 -114.5
 4.800  0.8109  122.6   0.813    7.4  0.1146   46.1  0.5711 -117.0
 4.900  0.8143  121.3   0.790    5.9  0.1187   46.8  0.5760 -119.6
 5.000  0.8182  120.0   0.768    4.3  0.1228   47.4  0.5820 -122.1
 5.100  0.8202  118.8   0.750    3.2  0.1275   47.5  0.5869 -124.6
 5.200  0.8226  117.7   0.732    2.0  0.1322   47.6  0.5929 -127.0
 5.300  0.8253  116.6   0.715    0.8  0.1369   47.7  0.6000 -129.4
 5.400  0.8283  115.4   0.698   -0.5  0.1416   47.7  0.6081 -131.7
 5.500  0.8316  114.3   0.681   -1.8  0.1463   47.8  0.6171 -134.0
 5.600  0.8316  113.2   0.665   -2.7  0.1513   47.3  0.6227 -136.1
 5.700  0.8320  112.1   0.648   -3.6  0.1564   46.9  0.6291 -138.2
 5.800  0.8326  111.1   0.632   -4.6  0.1614   46.5  0.6363 -140.2
 5.900  0.8336  110.0   0.617   -5.6  0.1664   46.1  0.6444 -142.2
 6.000  0.8348  108.9   0.601   -6.7  0.1715   45.7  0.6531 -144.1
!
!  f       NFmin   Gammaopt  rn/50
! GHz       dB    MAG  ANG    -
 0.450      0.76  0.48   45   0.22
 0.900      0.95  0.41   86   0.19
 1.900      1.77  0.52  156   0.09
 2.400      2.08  0.55  173   0.09
!
! (c) 2017  Infineon Technologies AG, Munich