! Infineon Technologies  Discrete & RF Semiconductors
! BFP183W
! VCE =  8.0 V,  IC =  24 mA
! Common Emitter S-Parameters:                            Jan 2017
# GHz  S  MA  R  50
!  f         S11            S21            S12            S22
! GHz     MAG   ANG      MAG   ANG      MAG   ANG      MAG   ANG
 0.010  0.5232   -7.8  51.015  175.9  0.0013   76.2  0.9787   -3.3
 0.020  0.5164  -18.6  50.169  171.4  0.0034   88.5  0.9624   -6.9
 0.030  0.5095  -26.6  49.088  167.7  0.0048   80.4  0.9479  -10.2
 0.040  0.5128  -34.7  48.215  163.9  0.0062   76.0  0.9365  -13.6
 0.050  0.5260  -42.5  47.563  160.0  0.0077   73.3  0.9285  -17.0
 0.060  0.5160  -49.3  46.016  157.1  0.0090   70.4  0.9010  -19.4
 0.070  0.5135  -56.3  44.599  153.9  0.0102   68.3  0.8752  -22.0
 0.080  0.5187  -63.3  43.323  150.6  0.0115   66.6  0.8512  -24.7
 0.090  0.5313  -70.0  42.201  147.1  0.0128   65.3  0.8293  -27.6
 0.100  0.5508  -76.3  41.247  143.4  0.0141   64.2  0.8096  -30.6
 0.110  0.5467  -81.2  39.821  141.3  0.0149   61.7  0.7837  -32.2
 0.120  0.5466  -86.1  38.454  139.0  0.0157   59.5  0.7585  -34.0
 0.130  0.5504  -90.9  37.151  136.6  0.0165   57.5  0.7341  -35.9
 0.140  0.5582  -95.7  35.920  134.0  0.0173   55.7  0.7105  -37.9
 0.150  0.5697 -100.3  34.768  131.2  0.0182   54.1  0.6878  -40.0
 0.200  0.5849 -116.8  29.244  122.1  0.0201   49.3  0.5874  -45.9
 0.250  0.5940 -129.1  24.969  115.3  0.0228   47.8  0.5106  -49.7
 0.300  0.5984 -138.1  21.612  110.3  0.0239   47.0  0.4506  -52.1
 0.350  0.5995 -144.3  19.246  107.0  0.0251   47.0  0.4104  -53.1
 0.400  0.6076 -150.5  16.963  102.7  0.0264   47.0  0.3704  -54.4
 0.450  0.6070 -154.6  15.374  100.4  0.0277   47.8  0.3454  -54.8
 0.500  0.6096 -158.7  13.816   97.6  0.0291   48.6  0.3204  -55.3
 0.600  0.6111 -165.1  11.672   93.4  0.0315   49.7  0.2871  -55.6
 0.700  0.6136 -169.9  10.058   89.9  0.0340   52.4  0.2636  -55.3
 0.800  0.6166 -174.2   8.851   86.7  0.0373   54.4  0.2493  -55.3
 0.900  0.6143 -177.9   7.873   84.0  0.0404   54.7  0.2379  -55.8
 1.000  0.6185  179.1   7.122   81.5  0.0431   56.1  0.2282  -56.0
 1.100  0.6217  176.1   6.487   79.2  0.0461   57.5  0.2233  -56.4
 1.200  0.6230  173.3   5.950   76.8  0.0490   57.7  0.2179  -57.1
 1.300  0.6229  170.8   5.497   74.7  0.0518   57.7  0.2141  -58.2
 1.400  0.6265  168.6   5.125   72.5  0.0552   59.0  0.2104  -59.2
 1.500  0.6300  166.4   4.779   70.6  0.0585   59.1  0.2070  -60.5
 1.600  0.6324  164.2   4.492   68.5  0.0622   58.9  0.2062  -61.7
 1.700  0.6337  161.9   4.236   66.6  0.0650   59.7  0.2038  -63.4
 1.800  0.6378  159.9   4.017   64.6  0.0688   59.9  0.2024  -65.2
 1.900  0.6430  158.0   3.806   62.9  0.0716   59.7  0.2008  -67.0
 2.000  0.6443  156.0   3.616   60.8  0.0753   59.7  0.2007  -69.1
 2.100  0.6473  154.1   3.452   59.0  0.0786   59.5  0.1998  -71.3
 2.200  0.6509  152.3   3.292   57.0  0.0819   59.3  0.1992  -73.5
 2.300  0.6548  150.5   3.155   55.3  0.0852   59.0  0.1993  -76.0
 2.400  0.6594  148.7   3.022   53.4  0.0885   58.7  0.1998  -78.4
 2.500  0.6623  147.1   2.903   51.7  0.0918   58.4  0.2003  -81.0
 2.600  0.6658  145.5   2.786   49.9  0.0951   58.2  0.2011  -83.5
 2.700  0.6696  143.8   2.684   48.3  0.0985   57.8  0.2020  -86.0
 2.800  0.6740  142.1   2.585   46.5  0.1020   57.4  0.2033  -88.5
 2.900  0.6776  140.5   2.497   44.8  0.1051   56.9  0.2039  -91.1
 3.000  0.6817  139.0   2.412   43.0  0.1083   56.5  0.2049  -93.6
 3.100  0.6850  137.5   2.339   41.6  0.1117   56.1  0.2057  -96.2
 3.200  0.6888  135.9   2.267   40.0  0.1150   55.7  0.2069  -98.7
 3.300  0.6931  134.4   2.197   38.4  0.1184   55.3  0.2085 -101.2
 3.400  0.6979  133.0   2.129   36.7  0.1218   54.9  0.2105 -103.7
 3.500  0.7031  131.5   2.063   34.8  0.1252   54.6  0.2129 -106.1
 3.600  0.7062  130.1   2.008   33.4  0.1285   53.9  0.2140 -108.9
 3.700  0.7097  128.8   1.954   31.9  0.1318   53.3  0.2157 -111.6
 3.800  0.7136  127.4   1.901   30.3  0.1351   52.6  0.2178 -114.3
 3.900  0.7178  126.1   1.850   28.7  0.1384   52.1  0.2204 -116.9
 4.000  0.7225  124.8   1.801   26.9  0.1417   51.5  0.2234 -119.5
 4.100  0.7255  123.5   1.756   25.5  0.1450   50.8  0.2257 -122.4
 4.200  0.7288  122.3   1.712   24.1  0.1484   50.2  0.2287 -125.3
 4.300  0.7325  121.0   1.669   22.6  0.1517   49.6  0.2322 -128.1
 4.400  0.7365  119.8   1.627   21.0  0.1551   49.0  0.2362 -130.8
 4.500  0.7408  118.6   1.587   19.3  0.1585   48.4  0.2407 -133.4
 4.600  0.7440  117.6   1.549   18.1  0.1617   47.8  0.2456 -136.1
 4.700  0.7473  116.7   1.511   16.8  0.1650   47.3  0.2510 -138.7
 4.800  0.7509  115.7   1.474   15.5  0.1682   46.7  0.2569 -141.2
 4.900  0.7547  114.7   1.438   14.1  0.1715   46.2  0.2633 -143.6
 5.000  0.7587  113.8   1.403   12.6  0.1748   45.7  0.2701 -145.9
 5.100  0.7612  112.9   1.375   11.5  0.1781   45.0  0.2778 -148.0
 5.200  0.7638  112.0   1.348   10.3  0.1814   44.4  0.2858 -150.0
 5.300  0.7667  111.1   1.322    9.0  0.1847   43.8  0.2942 -151.9
 5.400  0.7697  110.3   1.296    7.7  0.1880   43.2  0.3029 -153.6
 5.500  0.7729  109.4   1.271    6.4  0.1914   42.6  0.3118 -155.3
 5.600  0.7740  108.5   1.246    5.3  0.1950   41.8  0.3192 -156.7
 5.700  0.7753  107.6   1.221    4.2  0.1986   41.1  0.3268 -158.1
 5.800  0.7767  106.7   1.197    3.0  0.2023   40.4  0.3346 -159.4
 5.900  0.7784  105.9   1.174    1.8  0.2060   39.8  0.3426 -160.7
 6.000  0.7802  105.0   1.151    0.5  0.2097   39.1  0.3507 -161.9
!
!  f       NFmin   Gammaopt  rn/50
! GHz       dB    MAG  ANG    -
 0.450      1.27  0.23  176   0.10
 0.900      1.29  0.27  178   0.09
 1.900      1.78  0.43 -159   0.09
 2.400      2.01  0.47 -154   0.13
!
! (c) 2017  Infineon Technologies AG, Munich