! Infineon Technologies  Discrete & RF Semiconductors
! BFP183W
! VCE =  9.0 V,  IC =  10 mA
! Common Emitter S-Parameters:                            Jan 2017
# GHz  S  MA  R  50
!  f         S11            S21            S12            S22
! GHz     MAG   ANG      MAG   ANG      MAG   ANG      MAG   ANG
 0.010  0.7451   -3.7  28.857  177.9  0.0018   79.5  0.9922   -2.1
 0.020  0.7354  -10.4  28.674  174.5  0.0038   94.3  0.9819   -4.2
 0.030  0.7279  -14.5  28.335  172.1  0.0053   85.1  0.9769   -6.2
 0.040  0.7242  -18.6  28.046  169.7  0.0069   80.0  0.9732   -8.2
 0.050  0.7242  -22.7  27.808  167.2  0.0085   76.8  0.9706  -10.2
 0.060  0.7152  -26.9  27.393  164.9  0.0103   74.3  0.9575  -12.0
 0.070  0.7102  -31.2  27.021  162.6  0.0122   72.5  0.9453  -13.8
 0.080  0.7092  -35.5  26.696  160.2  0.0141   71.2  0.9341  -15.7
 0.090  0.7123  -39.8  26.417  157.8  0.0159   70.2  0.9240  -17.6
 0.100  0.7193  -44.1  26.188  155.3  0.0178   69.4  0.9149  -19.6
 0.110  0.7091  -47.8  25.684  153.4  0.0191   67.2  0.8993  -21.1
 0.120  0.7020  -51.7  25.210  151.4  0.0204   65.2  0.8844  -22.6
 0.130  0.6981  -55.6  24.768  149.3  0.0218   63.5  0.8701  -24.2
 0.140  0.6975  -59.5  24.358  147.2  0.0231   61.9  0.8565  -25.8
 0.150  0.7001  -63.4  23.984  145.0  0.0245   60.6  0.8436  -27.5
 0.200  0.6860  -79.5  21.677  135.9  0.0286   55.6  0.7692  -33.6
 0.250  0.6719  -93.2  19.527  128.4  0.0331   50.1  0.6996  -38.2
 0.300  0.6588 -104.7  17.552  122.4  0.0354   46.3  0.6373  -41.8
 0.350  0.6457 -113.2  15.957  118.2  0.0376   44.1  0.5891  -43.9
 0.400  0.6472 -121.8  14.468  113.0  0.0399   42.2  0.5419  -46.3
 0.450  0.6374 -128.0  13.264  109.9  0.0412   41.0  0.5079  -47.4
 0.500  0.6353 -134.3  12.106  106.2  0.0426   39.8  0.4742  -48.7
 0.600  0.6318 -143.7  10.397  100.7  0.0449   38.9  0.4267  -50.2
 0.700  0.6279 -151.3   9.042   96.2  0.0456   38.4  0.3910  -50.9
 0.800  0.6268 -157.7   8.026   92.2  0.0483   39.9  0.3672  -51.5
 0.900  0.6234 -163.1   7.171   88.8  0.0494   39.4  0.3475  -52.2
 1.000  0.6245 -167.6   6.512   85.7  0.0516   40.1  0.3321  -52.7
 1.100  0.6270 -171.7   5.943   83.0  0.0535   41.1  0.3225  -53.2
 1.200  0.6283 -175.6   5.463   80.2  0.0549   41.7  0.3126  -54.0
 1.300  0.6256 -178.8   5.054   77.7  0.0571   42.7  0.3059  -54.8
 1.400  0.6308  178.3   4.716   75.3  0.0592   43.8  0.2988  -55.8
 1.500  0.6347  175.4   4.408   73.0  0.0615   44.3  0.2939  -56.8
 1.600  0.6370  172.5   4.142   70.7  0.0638   45.0  0.2905  -58.0
 1.700  0.6374  169.9   3.910   68.6  0.0662   46.2  0.2866  -59.5
 1.800  0.6417  167.4   3.712   66.4  0.0682   46.6  0.2828  -61.0
 1.900  0.6446  165.1   3.520   64.4  0.0700   47.0  0.2803  -62.4
 2.000  0.6481  162.6   3.346   62.2  0.0731   47.9  0.2786  -64.1
 2.100  0.6503  160.3   3.196   60.2  0.0756   48.5  0.2764  -66.0
 2.200  0.6535  158.1   3.051   58.1  0.0781   49.0  0.2746  -67.9
 2.300  0.6579  156.0   2.925   56.2  0.0807   49.3  0.2739  -70.0
 2.400  0.6631  154.0   2.802   54.1  0.0834   49.5  0.2735  -72.1
 2.500  0.6663  152.1   2.692   52.3  0.0859   49.7  0.2729  -74.2
 2.600  0.6702  150.2   2.585   50.4  0.0884   49.9  0.2727  -76.3
 2.700  0.6735  148.3   2.492   48.6  0.0910   50.1  0.2729  -78.5
 2.800  0.6776  146.5   2.401   46.7  0.0937   50.3  0.2735  -80.7
 2.900  0.6814  144.7   2.320   44.9  0.0966   50.3  0.2730  -82.9
 3.000  0.6859  142.9   2.242   43.0  0.0995   50.3  0.2730  -85.1
 3.100  0.6889  141.2   2.173   41.5  0.1025   50.3  0.2732  -87.4
 3.200  0.6925  139.6   2.107   39.9  0.1055   50.4  0.2738  -89.7
 3.300  0.6966  137.9   2.041   38.2  0.1084   50.4  0.2749  -92.0
 3.400  0.7013  136.3   1.978   36.3  0.1114   50.5  0.2765  -94.3
 3.500  0.7066  134.7   1.917   34.4  0.1144   50.5  0.2784  -96.5
 3.600  0.7096  133.2   1.866   32.9  0.1176   50.2  0.2787  -99.0
 3.700  0.7132  131.7   1.815   31.3  0.1207   49.9  0.2795 -101.4
 3.800  0.7172  130.2   1.767   29.7  0.1239   49.6  0.2808 -103.9
 3.900  0.7217  128.7   1.719   27.9  0.1271   49.3  0.2827 -106.3
 4.000  0.7266  127.3   1.674   26.1  0.1303   49.0  0.2850 -108.7
 4.100  0.7296  126.0   1.632   24.6  0.1336   48.6  0.2862 -111.5
 4.200  0.7329  124.6   1.590   23.1  0.1369   48.1  0.2880 -114.2
 4.300  0.7367  123.3   1.550   21.5  0.1402   47.7  0.2905 -116.9
 4.400  0.7408  122.0   1.511   19.8  0.1435   47.4  0.2937 -119.5
 4.500  0.7453  120.7   1.474   18.0  0.1468   47.0  0.2974 -122.1
 4.600  0.7485  119.6   1.438   16.8  0.1501   46.7  0.3012 -124.8
 4.700  0.7520  118.6   1.403   15.4  0.1534   46.3  0.3057 -127.5
 4.800  0.7557  117.5   1.368   14.1  0.1567   46.0  0.3109 -130.1
 4.900  0.7596  116.5   1.335   12.6  0.1601   45.7  0.3167 -132.6
 5.000  0.7638  115.5   1.302   11.1  0.1634   45.4  0.3230 -135.0
 5.100  0.7664  114.5   1.275    9.9  0.1670   44.9  0.3302 -137.3
 5.200  0.7693  113.6   1.249    8.7  0.1706   44.3  0.3380 -139.6
 5.300  0.7724  112.7   1.223    7.4  0.1742   43.8  0.3462 -141.7
 5.400  0.7756  111.7   1.198    6.1  0.1779   43.4  0.3549 -143.8
 5.500  0.7791  110.8   1.174    4.7  0.1815   42.9  0.3640 -145.7
 5.600  0.7799  109.9   1.150    3.6  0.1852   42.2  0.3716 -147.4
 5.700  0.7809  109.0   1.127    2.4  0.1888   41.6  0.3794 -149.1
 5.800  0.7822  108.0   1.104    1.2  0.1925   41.0  0.3876 -150.6
 5.900  0.7836  107.1   1.081    0.0  0.1963   40.4  0.3961 -152.2
 6.000  0.7852  106.2   1.059   -1.3  0.2000   39.8  0.4048 -153.6
!
!  f       NFmin   Gammaopt  rn/50
! GHz       dB    MAG  ANG    -
 0.450      0.92  0.10  112   0.11
 0.900      0.97  0.18  144   0.09
 1.900      1.47  0.37 -176   0.07
 2.400      1.72  0.44 -167   0.09
!
! (c) 2017  Infineon Technologies AG, Munich