! Infineon Technologies  Discrete & RF Semiconductors
! BFP183W
! VCE =  3.0 V,  IC =  20 mA
! Common Emitter S-Parameters:                            Jan 2017
# GHz  S  MA  R  50
!  f         S11            S21            S12            S22
! GHz     MAG   ANG      MAG   ANG      MAG   ANG      MAG   ANG
 0.010  0.5134   -9.0  47.310  176.4  0.0018   95.4  0.9818   -3.7
 0.020  0.5095  -20.3  46.869  171.4  0.0037   91.5  0.9657   -7.6
 0.030  0.5025  -28.7  45.774  167.6  0.0054   81.2  0.9484  -11.2
 0.040  0.5066  -37.2  44.894  163.5  0.0071   75.9  0.9349  -14.8
 0.050  0.5213  -45.3  44.242  159.4  0.0089   72.7  0.9253  -18.6
 0.060  0.5123  -52.5  42.731  156.4  0.0103   69.5  0.8960  -21.2
 0.070  0.5115  -59.9  41.344  153.2  0.0117   67.1  0.8686  -24.0
 0.080  0.5192  -67.1  40.094  149.8  0.0131   65.2  0.8434  -26.9
 0.090  0.5348  -74.0  38.995  146.2  0.0146   63.7  0.8206  -30.0
 0.100  0.5578  -80.5  38.059  142.4  0.0160   62.4  0.8003  -33.3
 0.110  0.5553  -85.5  36.695  140.3  0.0168   60.1  0.7728  -35.1
 0.120  0.5571  -90.5  35.386  138.0  0.0176   58.1  0.7462  -37.0
 0.130  0.5630  -95.4  34.136  135.6  0.0185   56.2  0.7204  -39.0
 0.140  0.5730 -100.2  32.954  132.9  0.0193   54.5  0.6956  -41.2
 0.150  0.5869 -104.8  31.846  130.1  0.0202   52.9  0.6719  -43.6
 0.200  0.6052 -120.8  26.639  121.0  0.0228   48.2  0.5698  -50.2
 0.250  0.6185 -132.5  22.691  114.2  0.0253   46.3  0.4909  -54.6
 0.300  0.6251 -141.3  19.583  109.3  0.0266   44.4  0.4303  -57.5
 0.350  0.6274 -147.1  17.421  106.1  0.0277   44.6  0.3895  -59.1
 0.400  0.6361 -152.8  15.330  101.9  0.0288   44.8  0.3490  -61.0
 0.450  0.6358 -156.8  13.893   99.6  0.0302   44.9  0.3236  -61.7
 0.500  0.6386 -160.8  12.485   96.7  0.0317   45.0  0.2983  -62.6
 0.600  0.6417 -166.7  10.526   92.5  0.0350   47.8  0.2643  -63.7
 0.700  0.6466 -171.5   9.070   89.1  0.0363   50.1  0.2404  -64.0
 0.800  0.6471 -175.5   7.978   85.9  0.0399   51.6  0.2251  -64.7
 0.900  0.6478 -179.1   7.095   83.2  0.0427   52.2  0.2128  -65.3
 1.000  0.6512  177.9   6.419   80.6  0.0452   54.2  0.2028  -66.0
 1.100  0.6527  175.1   5.846   78.3  0.0488   54.5  0.1971  -66.7
 1.200  0.6544  172.3   5.362   75.9  0.0519   54.6  0.1918  -67.6
 1.300  0.6543  170.0   4.952   73.7  0.0551   55.8  0.1880  -68.8
 1.400  0.6572  167.7   4.619   71.5  0.0584   56.8  0.1841  -70.2
 1.500  0.6610  165.5   4.308   69.5  0.0620   56.7  0.1816  -71.6
 1.600  0.6645  163.3   4.050   67.4  0.0649   57.2  0.1803  -73.0
 1.700  0.6652  161.2   3.819   65.5  0.0686   57.6  0.1789  -75.3
 1.800  0.6704  159.1   3.623   63.4  0.0718   57.3  0.1775  -77.1
 1.900  0.6730  157.3   3.431   61.6  0.0753   57.7  0.1764  -79.0
 2.000  0.6744  155.3   3.258   59.5  0.0784   57.5  0.1769  -81.4
 2.100  0.6774  153.4   3.111   57.6  0.0819   57.4  0.1767  -83.8
 2.200  0.6812  151.5   2.968   55.6  0.0855   57.4  0.1768  -86.3
 2.300  0.6854  149.7   2.845   53.8  0.0888   57.1  0.1780  -89.0
 2.400  0.6903  148.0   2.724   51.9  0.0922   56.9  0.1795  -91.6
 2.500  0.6925  146.3   2.616   50.2  0.0954   56.5  0.1810  -94.3
 2.600  0.6952  144.7   2.511   48.3  0.0987   56.2  0.1828  -96.9
 2.700  0.6987  143.0   2.419   46.7  0.1022   55.9  0.1850  -99.4
 2.800  0.7029  141.3   2.330   44.9  0.1057   55.6  0.1876 -101.9
 2.900  0.7061  139.8   2.250   43.2  0.1091   55.1  0.1893 -104.6
 3.000  0.7098  138.3   2.172   41.3  0.1125   54.6  0.1915 -107.3
 3.100  0.7129  136.8   2.106   39.9  0.1159   54.2  0.1935 -109.9
 3.200  0.7164  135.3   2.042   38.3  0.1194   53.7  0.1958 -112.4
 3.300  0.7205  133.7   1.979   36.7  0.1229   53.3  0.1985 -114.9
 3.400  0.7251  132.3   1.918   35.0  0.1263   53.0  0.2016 -117.3
 3.500  0.7301  130.8   1.859   33.1  0.1298   52.6  0.2050 -119.6
 3.600  0.7331  129.4   1.809   31.7  0.1332   51.9  0.2075 -122.3
 3.700  0.7365  128.0   1.760   30.2  0.1366   51.3  0.2105 -125.0
 3.800  0.7403  126.7   1.713   28.6  0.1400   50.7  0.2139 -127.5
 3.900  0.7446  125.3   1.667   26.9  0.1434   50.1  0.2177 -130.0
 4.000  0.7492  124.0   1.622   25.1  0.1468   49.6  0.2219 -132.4
 4.100  0.7516  122.8   1.581   23.7  0.1500   48.9  0.2255 -135.2
 4.200  0.7543  121.5   1.540   22.3  0.1533   48.3  0.2297 -137.9
 4.300  0.7574  120.3   1.501   20.7  0.1566   47.7  0.2343 -140.6
 4.400  0.7608  119.1   1.463   19.1  0.1599   47.1  0.2394 -143.1
 4.500  0.7645  117.9   1.426   17.4  0.1632   46.5  0.2450 -145.5
 4.600  0.7674  116.9   1.392   16.2  0.1665   45.9  0.2511 -148.0
 4.700  0.7706  116.0   1.358   15.0  0.1699   45.3  0.2577 -150.3
 4.800  0.7739  115.0   1.325   13.6  0.1733   44.8  0.2648 -152.6
 4.900  0.7775  114.0   1.293   12.3  0.1767   44.2  0.2722 -154.7
 5.000  0.7813  113.1   1.262   10.8  0.1801   43.7  0.2799 -156.7
 5.100  0.7835  112.2   1.237    9.7  0.1835   43.0  0.2884 -158.5
 5.200  0.7860  111.3   1.213    8.5  0.1869   42.4  0.2972 -160.2
 5.300  0.7886  110.4   1.189    7.3  0.1904   41.8  0.3063 -161.8
 5.400  0.7914  109.5   1.166    6.0  0.1938   41.2  0.3156 -163.4
 5.500  0.7944  108.6   1.143    4.7  0.1973   40.6  0.3251 -164.8
 5.600  0.7951  107.7   1.121    3.6  0.2008   39.8  0.3326 -166.0
 5.700  0.7961  106.8   1.098    2.5  0.2043   39.1  0.3403 -167.2
 5.800  0.7972  105.9   1.077    1.4  0.2078   38.4  0.3481 -168.2
 5.900  0.7986  105.0   1.056    0.2  0.2114   37.7  0.3561 -169.3
 6.000  0.8001  104.1   1.035   -1.1  0.2150   37.0  0.3641 -170.3
!
!  f       NFmin   Gammaopt  rn/50
! GHz       dB    MAG  ANG    -
 0.450      1.17  0.20  171   0.10
 0.900      1.20  0.25  174   0.09
 1.900      1.68  0.41 -163   0.08
 2.400      1.92  0.45 -157   0.12
!
! (c) 2017  Infineon Technologies AG, Munich