! Infineon Technologies  Discrete & RF Semiconductors
! BFP183W
! VCE =  6.0 V,  IC =  37 mA
! Common Emitter S-Parameters:                            Jan 2017
# GHz  S  MA  R  50
!  f         S11            S21            S12            S22
! GHz     MAG   ANG      MAG   ANG      MAG   ANG      MAG   ANG
 0.010  0.3660  -13.2  62.843  175.0  0.0015   90.9  0.9650   -4.1
 0.020  0.3704  -29.0  61.774  169.3  0.0029   91.6  0.9507   -8.8
 0.030  0.3712  -41.4  59.773  164.8  0.0045   79.3  0.9252  -12.8
 0.040  0.3888  -53.1  58.165  160.0  0.0061   73.4  0.9045  -17.1
 0.050  0.4210  -63.5  56.984  155.0  0.0078   70.1  0.8890  -21.5
 0.060  0.4205  -72.0  54.447  151.9  0.0088   67.4  0.8528  -24.1
 0.070  0.4293  -80.4  52.087  148.4  0.0097   65.2  0.8184  -26.9
 0.080  0.4468  -88.3  49.931  144.7  0.0107   63.4  0.7862  -29.9
 0.090  0.4720  -95.5  48.005  140.7  0.0117   61.9  0.7564  -33.2
 0.100  0.5038 -101.8  46.338  136.3  0.0127   60.6  0.7293  -36.8
 0.110  0.5079 -106.5  44.333  134.3  0.0131   58.9  0.7001  -38.3
 0.120  0.5153 -111.1  42.389  132.0  0.0136   57.3  0.6715  -39.9
 0.130  0.5260 -115.5  40.515  129.6  0.0141   55.9  0.6434  -41.7
 0.140  0.5397 -119.8  38.722  126.9  0.0145   54.5  0.6160  -43.6
 0.150  0.5562 -123.8  37.021  124.0  0.0150   53.2  0.5893  -45.7
 0.200  0.5833 -137.0  30.108  115.5  0.0165   50.8  0.4909  -50.4
 0.250  0.6016 -146.5  25.184  109.4  0.0186   49.0  0.4200  -53.1
 0.300  0.6109 -153.1  21.490  105.0  0.0196   49.9  0.3682  -54.5
 0.350  0.6143 -157.7  19.019  102.2  0.0211   51.7  0.3353  -54.9
 0.400  0.6215 -162.2  16.607   98.6  0.0226   53.3  0.3025  -55.4
 0.450  0.6229 -165.4  15.005   96.5  0.0241   53.9  0.2833  -55.4
 0.500  0.6262 -168.5  13.426   94.0  0.0256   54.5  0.2642  -55.3
 0.600  0.6305 -173.2  11.300   90.3  0.0286   55.7  0.2395  -55.1
 0.700  0.6322 -176.9   9.707   87.3  0.0311   59.1  0.2221  -54.5
 0.800  0.6369  179.5   8.531   84.4  0.0349   60.7  0.2124  -54.6
 0.900  0.6355  176.6   7.577   81.8  0.0383   61.3  0.2039  -55.0
 1.000  0.6385  174.0   6.853   79.5  0.0413   61.8  0.1977  -55.4
 1.100  0.6421  171.5   6.235   77.4  0.0448   63.0  0.1945  -55.8
 1.200  0.6423  169.2   5.716   75.1  0.0481   63.0  0.1907  -56.7
 1.300  0.6430  166.9   5.278   73.0  0.0511   63.4  0.1890  -57.8
 1.400  0.6467  164.9   4.920   71.0  0.0552   64.1  0.1863  -59.2
 1.500  0.6506  163.0   4.587   69.1  0.0586   63.9  0.1846  -60.7
 1.600  0.6523  161.0   4.312   67.1  0.0622   64.2  0.1842  -62.1
 1.700  0.6537  159.0   4.065   65.2  0.0658   64.1  0.1832  -64.2
 1.800  0.6575  157.1   3.854   63.2  0.0691   63.7  0.1818  -66.2
 1.900  0.6609  155.4   3.648   61.5  0.0727   63.8  0.1818  -68.3
 2.000  0.6642  153.5   3.466   59.5  0.0764   63.1  0.1819  -70.6
 2.100  0.6668  151.6   3.309   57.7  0.0799   62.9  0.1816  -73.0
 2.200  0.6701  149.8   3.155   55.7  0.0834   62.7  0.1816  -75.5
 2.300  0.6741  148.2   3.023   54.0  0.0871   62.2  0.1824  -78.2
 2.400  0.6787  146.6   2.894   52.1  0.0908   61.7  0.1837  -80.9
 2.500  0.6811  145.0   2.780   50.5  0.0941   61.2  0.1848  -83.7
 2.600  0.6839  143.5   2.668   48.7  0.0974   60.8  0.1863  -86.4
 2.700  0.6878  141.9   2.571   47.1  0.1009   60.4  0.1878  -89.1
 2.800  0.6923  140.3   2.476   45.3  0.1044   60.0  0.1897  -91.7
 2.900  0.6953  138.8   2.391   43.7  0.1078   59.3  0.1912  -94.5
 3.000  0.6987  137.4   2.308   41.9  0.1112   58.6  0.1932  -97.2
 3.100  0.7018  135.9   2.238   40.5  0.1147   58.0  0.1945  -99.9
 3.200  0.7053  134.4   2.170   39.0  0.1182   57.5  0.1963 -102.6
 3.300  0.7093  133.0   2.103   37.3  0.1217   57.0  0.1985 -105.2
 3.400  0.7137  131.5   2.038   35.6  0.1252   56.5  0.2010 -107.7
 3.500  0.7186  130.1   1.975   33.8  0.1287   56.1  0.2040 -110.2
 3.600  0.7218  128.8   1.922   32.4  0.1321   55.3  0.2057 -113.0
 3.700  0.7254  127.5   1.870   30.9  0.1355   54.6  0.2079 -115.8
 3.800  0.7294  126.2   1.820   29.3  0.1390   53.9  0.2106 -118.4
 3.900  0.7337  124.9   1.771   27.7  0.1424   53.2  0.2137 -121.1
 4.000  0.7384  123.6   1.724   25.9  0.1459   52.6  0.2173 -123.6
 4.100  0.7412  122.4   1.680   24.5  0.1492   51.9  0.2202 -126.6
 4.200  0.7443  121.2   1.638   23.1  0.1526   51.2  0.2236 -129.5
 4.300  0.7477  120.0   1.596   21.6  0.1559   50.5  0.2276 -132.3
 4.400  0.7515  118.8   1.556   20.0  0.1593   49.8  0.2321 -135.0
 4.500  0.7556  117.6   1.517   18.3  0.1627   49.2  0.2371 -137.6
 4.600  0.7587  116.6   1.481   17.1  0.1660   48.6  0.2425 -140.3
 4.700  0.7620  115.7   1.445   15.9  0.1693   47.9  0.2485 -142.9
 4.800  0.7656  114.7   1.410   14.5  0.1726   47.3  0.2550 -145.4
 4.900  0.7693  113.7   1.376   13.2  0.1759   46.8  0.2619 -147.8
 5.000  0.7733  112.8   1.343   11.7  0.1793   46.2  0.2692 -150.0
 5.100  0.7756  111.9   1.316   10.6  0.1827   45.5  0.2774 -152.0
 5.200  0.7780  111.1   1.290    9.4  0.1861   44.8  0.2859 -153.9
 5.300  0.7806  110.2   1.265    8.2  0.1895   44.1  0.2947 -155.7
 5.400  0.7834  109.3   1.240    6.9  0.1930   43.5  0.3038 -157.4
 5.500  0.7864  108.5   1.216    5.6  0.1965   42.9  0.3131 -159.0
 5.600  0.7869  107.6   1.192    4.5  0.1999   42.1  0.3208 -160.3
 5.700  0.7876  106.7   1.169    3.4  0.2034   41.3  0.3288 -161.6
 5.800  0.7884  105.9   1.146    2.3  0.2070   40.5  0.3368 -162.8
 5.900  0.7895  105.0   1.123    1.1  0.2105   39.8  0.3450 -164.0
 6.000  0.7907  104.1   1.101   -0.2  0.2141   39.1  0.3534 -165.1
!
!  f       NFmin   Gammaopt  rn/50
! GHz       dB    MAG  ANG    -
!
! noise parameter not available yet for this operation point!
!
! (c) 2017  Infineon Technologies AG, Munich