! Infineon Technologies  Discrete & RF Semiconductors
! BFP183W
! VCE =  4.0 V,  IC =  52 mA
! Common Emitter S-Parameters:                            Jan 2017
# GHz  S  MA  R  50
!  f         S11            S21            S12            S22
! GHz     MAG   ANG      MAG   ANG      MAG   ANG      MAG   ANG
 0.010  0.2127  -31.7  66.767  173.3  0.0015   90.3  0.9132   -5.3
 0.020  0.2570  -58.7  65.154  165.7  0.0033   91.8  0.8970  -11.5
 0.030  0.2889  -76.9  61.630  160.1  0.0044   77.4  0.8542  -16.2
 0.040  0.3430  -90.4  58.756  153.9  0.0057   69.2  0.8177  -21.3
 0.050  0.4107  -99.8  56.632  147.2  0.0071   64.1  0.7882  -26.8
 0.060  0.4289 -107.8  53.137  144.1  0.0078   61.5  0.7455  -29.0
 0.070  0.4548 -115.1  49.822  140.5  0.0086   59.4  0.7041  -31.6
 0.080  0.4871 -121.5  46.725  136.5  0.0094   57.6  0.6642  -34.4
 0.090  0.5247 -127.0  43.894  131.9  0.0101   56.1  0.6261  -37.5
 0.100  0.5666 -131.8  41.381  126.7  0.0109   54.8  0.5902  -41.1
 0.110  0.5764 -135.1  39.220  124.9  0.0113   53.4  0.5632  -42.1
 0.120  0.5881 -138.2  37.102  122.9  0.0117   52.1  0.5364  -43.1
 0.130  0.6014 -141.2  35.034  120.7  0.0121   50.9  0.5098  -44.3
 0.140  0.6163 -144.1  33.024  118.2  0.0125   49.8  0.4835  -45.6
 0.150  0.6327 -146.8  31.086  115.4  0.0129   48.7  0.4574  -47.0
 0.200  0.6597 -155.9  24.418  108.0  0.0134   50.2  0.3790  -48.7
 0.250  0.6765 -162.0  20.015  102.9  0.0156   50.5  0.3270  -48.9
 0.300  0.6843 -166.4  16.893   99.3  0.0168   51.3  0.2926  -48.4
 0.350  0.6876 -169.5  14.879   97.0  0.0182   53.5  0.2723  -47.7
 0.400  0.6930 -172.6  12.898   93.9  0.0196   55.4  0.2521  -46.8
 0.450  0.6943 -174.8  11.627   92.2  0.0211   57.0  0.2417  -46.3
 0.500  0.6966 -176.9  10.370   90.0  0.0226   58.3  0.2313  -45.8
 0.600  0.7006  179.8   8.686   86.8  0.0264   60.9  0.2177  -45.3
 0.700  0.7014  176.9   7.452   84.0  0.0290   64.3  0.2100  -45.0
 0.800  0.7030  174.1   6.537   81.2  0.0328   65.2  0.2058  -45.6
 0.900  0.7026  171.7   5.800   78.8  0.0360   66.0  0.2022  -46.7
 1.000  0.7047  169.6   5.245   76.6  0.0394   66.3  0.1998  -47.7
 1.100  0.7081  167.5   4.772   74.5  0.0430   67.4  0.2000  -48.9
 1.200  0.7083  165.3   4.374   72.2  0.0463   66.9  0.1986  -50.5
 1.300  0.7095  163.4   4.037   70.2  0.0496   67.7  0.1989  -52.2
 1.400  0.7118  161.4   3.764   68.1  0.0539   67.8  0.1980  -54.1
 1.500  0.7164  159.8   3.509   66.2  0.0572   68.2  0.1974  -56.0
 1.600  0.7173  158.0   3.299   64.1  0.0610   67.6  0.1988  -58.2
 1.700  0.7208  155.9   3.110   62.2  0.0650   67.8  0.1986  -60.6
 1.800  0.7233  154.3   2.948   60.2  0.0684   67.3  0.1988  -63.0
 1.900  0.7263  152.6   2.793   58.5  0.0714   67.1  0.1991  -65.5
 2.000  0.7279  150.7   2.651   56.3  0.0755   66.7  0.2004  -68.0
 2.100  0.7302  148.9   2.532   54.5  0.0793   66.3  0.2012  -70.8
 2.200  0.7331  147.2   2.415   52.5  0.0831   65.9  0.2024  -73.6
 2.300  0.7363  145.6   2.315   50.7  0.0867   65.5  0.2035  -76.6
 2.400  0.7400  144.0   2.217   48.8  0.0904   65.1  0.2052  -79.5
 2.500  0.7417  142.5   2.129   47.1  0.0940   64.4  0.2071  -82.5
 2.600  0.7440  141.0   2.043   45.2  0.0976   63.8  0.2095  -85.4
 2.700  0.7473  139.4   1.969   43.6  0.1013   63.3  0.2118  -88.3
 2.800  0.7512  137.9   1.896   41.8  0.1050   62.9  0.2146  -91.1
 2.900  0.7541  136.4   1.830   40.1  0.1088   62.3  0.2166  -94.0
 3.000  0.7574  135.0   1.766   38.2  0.1126   61.7  0.2192  -96.8
 3.100  0.7598  133.6   1.712   36.8  0.1163   61.1  0.2212  -99.7
 3.200  0.7627  132.1   1.660   35.2  0.1199   60.5  0.2238 -102.5
 3.300  0.7661  130.7   1.609   33.6  0.1236   59.9  0.2269 -105.2
 3.400  0.7699  129.3   1.559   31.9  0.1273   59.4  0.2305 -107.8
 3.500  0.7742  127.9   1.511   30.0  0.1310   58.9  0.2346 -110.4
 3.600  0.7765  126.6   1.470   28.6  0.1346   58.1  0.2368 -113.3
 3.700  0.7792  125.2   1.430   27.1  0.1382   57.3  0.2397 -116.1
 3.800  0.7823  123.9   1.391   25.5  0.1419   56.6  0.2431 -118.9
 3.900  0.7859  122.6   1.354   23.9  0.1456   55.9  0.2470 -121.6
 4.000  0.7898  121.3   1.317   22.1  0.1493   55.2  0.2515 -124.2
 4.100  0.7918  120.1   1.284   20.7  0.1528   54.4  0.2550 -127.2
 4.200  0.7942  118.9   1.251   19.3  0.1564   53.6  0.2591 -130.1
 4.300  0.7969  117.7   1.220   17.8  0.1600   52.9  0.2639 -132.9
 4.400  0.7999  116.5   1.189   16.2  0.1636   52.2  0.2693 -135.6
 4.500  0.8033  115.3   1.159   14.5  0.1673   51.5  0.2753 -138.2
 4.600  0.8052  114.3   1.131   13.4  0.1709   50.8  0.2813 -140.9
 4.700  0.8074  113.4   1.103   12.2  0.1745   50.1  0.2879 -143.5
 4.800  0.8098  112.5   1.075   10.9  0.1782   49.4  0.2950 -146.0
 4.900  0.8124  111.5   1.048    9.6  0.1819   48.7  0.3027 -148.4
 5.000  0.8152  110.6   1.022    8.2  0.1856   48.1  0.3109 -150.6
 5.100  0.8170  109.7   1.001    7.1  0.1892   47.3  0.3196 -152.7
 5.200  0.8190  108.9   0.981    6.0  0.1929   46.5  0.3287 -154.7
 5.300  0.8212  108.0   0.961    4.8  0.1965   45.8  0.3381 -156.6
 5.400  0.8236  107.2   0.942    3.6  0.2003   45.1  0.3480 -158.4
 5.500  0.8262  106.3   0.923    2.3  0.2040   44.4  0.3581 -160.1
 5.600  0.8263  105.4   0.904    1.3  0.2076   43.5  0.3660 -161.6
 5.700  0.8266  104.5   0.886    0.3  0.2113   42.7  0.3742 -163.0
 5.800  0.8271  103.7   0.868   -0.7  0.2150   41.9  0.3825 -164.3
 5.900  0.8277  102.8   0.850   -1.9  0.2188   41.1  0.3911 -165.6
 6.000  0.8286  101.9   0.833   -3.0  0.2226   40.4  0.3998 -166.8
!
!  f       NFmin   Gammaopt  rn/50
! GHz       dB    MAG  ANG    -
!
! noise parameter not available yet for this operation point!
!
! (c) 2017  Infineon Technologies AG, Munich