! Infineon Technologies  Discrete & RF Semiconductors
! BFP183W
! VCE =  10. V,  IC =  13 mA
! Common Emitter S-Parameters:                            Jan 2017
# GHz  S  MA  R  50
!  f         S11            S21            S12            S22
! GHz     MAG   ANG      MAG   ANG      MAG   ANG      MAG   ANG
 0.010  0.6940   -4.5  34.710  177.2  0.0014   85.2  0.9879   -2.3
 0.020  0.6835  -11.9  34.174  173.7  0.0032   88.3  0.9816   -4.9
 0.030  0.6758  -16.7  33.765  171.0  0.0051   79.1  0.9728   -7.2
 0.040  0.6729  -21.6  33.432  168.3  0.0070   74.9  0.9657   -9.5
 0.050  0.6750  -26.5  33.176  165.5  0.0089   72.5  0.9601  -11.9
 0.060  0.6647  -31.3  32.542  163.0  0.0104   71.3  0.9438  -13.9
 0.070  0.6592  -36.2  31.971  160.5  0.0118   70.4  0.9286  -15.9
 0.080  0.6585  -41.1  31.466  157.8  0.0133   69.7  0.9146  -18.0
 0.090  0.6628  -46.1  31.030  155.1  0.0147   69.2  0.9019  -20.2
 0.100  0.6719  -50.9  30.666  152.3  0.0162   68.7  0.8905  -22.4
 0.110  0.6617  -55.1  29.960  150.3  0.0174   66.4  0.8718  -24.0
 0.120  0.6550  -59.3  29.293  148.1  0.0185   64.4  0.8537  -25.6
 0.130  0.6520  -63.6  28.668  145.9  0.0197   62.6  0.8364  -27.3
 0.140  0.6528  -68.0  28.088  143.6  0.0210   61.0  0.8198  -29.1
 0.150  0.6573  -72.3  27.556  141.2  0.0222   59.6  0.8041  -30.9
 0.200  0.6497  -88.9  24.426  132.0  0.0261   53.8  0.7205  -37.1
 0.250  0.6402 -102.9  21.651  124.6  0.0302   49.2  0.6452  -41.6
 0.300  0.6322 -114.0  19.211  118.8  0.0319   45.2  0.5822  -44.9
 0.350  0.6226 -122.0  17.344  114.8  0.0335   44.2  0.5351  -46.7
 0.400  0.6254 -130.1  15.580  109.9  0.0351   43.3  0.4886  -48.8
 0.450  0.6196 -135.8  14.226  107.0  0.0363   42.2  0.4570  -49.7
 0.500  0.6200 -141.6  12.916  103.5  0.0376   41.2  0.4256  -50.8
 0.600  0.6183 -150.3  11.025   98.4  0.0402   40.8  0.3818  -51.9
 0.700  0.6157 -157.3   9.558   94.3  0.0415   42.0  0.3497  -52.4
 0.800  0.6167 -162.9   8.454   90.5  0.0439   43.2  0.3283  -52.7
 0.900  0.6153 -167.6   7.541   87.3  0.0458   43.8  0.3109  -53.3
 1.000  0.6167 -171.7   6.841   84.5  0.0483   45.3  0.2980  -53.6
 1.100  0.6194 -175.4   6.237   81.9  0.0502   46.6  0.2898  -54.1
 1.200  0.6196 -179.0   5.726   79.2  0.0526   46.7  0.2814  -54.8
 1.300  0.6198  177.8   5.296   76.8  0.0548   47.5  0.2752  -55.5
 1.400  0.6232  175.2   4.940   74.6  0.0569   48.5  0.2696  -56.5
 1.500  0.6269  172.4   4.613   72.4  0.0597   49.1  0.2649  -57.6
 1.600  0.6289  170.0   4.336   70.1  0.0626   50.0  0.2623  -58.7
 1.700  0.6287  167.3   4.091   68.1  0.0653   50.8  0.2585  -60.3
 1.800  0.6339  165.0   3.883   66.0  0.0680   51.3  0.2563  -61.8
 1.900  0.6395  162.9   3.681   64.1  0.0703   51.8  0.2531  -63.4
 2.000  0.6409  160.5   3.497   62.0  0.0732   51.9  0.2523  -65.1
 2.100  0.6434  158.4   3.341   60.1  0.0760   52.2  0.2504  -67.1
 2.200  0.6468  156.3   3.189   58.0  0.0788   52.5  0.2489  -69.1
 2.300  0.6512  154.3   3.057   56.1  0.0818   52.8  0.2483  -71.2
 2.400  0.6563  152.3   2.928   54.1  0.0849   53.0  0.2481  -73.4
 2.500  0.6595  150.5   2.813   52.4  0.0877   52.9  0.2477  -75.6
 2.600  0.6633  148.7   2.700   50.5  0.0906   52.9  0.2477  -77.8
 2.700  0.6675  146.8   2.602   48.8  0.0935   52.9  0.2480  -80.1
 2.800  0.6724  145.0   2.507   46.9  0.0964   52.9  0.2487  -82.3
 2.900  0.6752  143.3   2.422   45.2  0.0995   52.7  0.2487  -84.7
 3.000  0.6785  141.7   2.339   43.3  0.1026   52.5  0.2491  -87.0
 3.100  0.6817  140.1   2.268   41.8  0.1057   52.4  0.2494  -89.4
 3.200  0.6854  138.5   2.198   40.3  0.1088   52.2  0.2501  -91.7
 3.300  0.6897  136.9   2.131   38.6  0.1118   52.1  0.2512  -94.0
 3.400  0.6945  135.3   2.065   36.8  0.1149   52.0  0.2528  -96.3
 3.500  0.6998  133.8   2.001   34.9  0.1180   51.9  0.2547  -98.6
 3.600  0.7032  132.3   1.947   33.4  0.1212   51.5  0.2551 -101.1
 3.700  0.7070  130.9   1.895   31.9  0.1245   51.0  0.2560 -103.6
 3.800  0.7113  129.4   1.845   30.2  0.1277   50.6  0.2574 -106.1
 3.900  0.7160  128.0   1.795   28.5  0.1309   50.3  0.2593 -108.6
 4.000  0.7212  126.6   1.748   26.7  0.1342   49.9  0.2616 -111.0
 4.100  0.7242  125.3   1.704   25.3  0.1375   49.4  0.2630 -113.8
 4.200  0.7276  124.0   1.661   23.8  0.1407   48.8  0.2649 -116.6
 4.300  0.7313  122.7   1.619   22.2  0.1440   48.3  0.2675 -119.3
 4.400  0.7354  121.5   1.579   20.5  0.1473   47.9  0.2707 -122.0
 4.500  0.7399  120.2   1.540   18.8  0.1506   47.4  0.2745 -124.6
 4.600  0.7430  119.2   1.502   17.6  0.1538   46.9  0.2786 -127.4
 4.700  0.7463  118.1   1.466   16.2  0.1571   46.5  0.2833 -130.1
 4.800  0.7499  117.1   1.429   14.9  0.1603   46.1  0.2886 -132.7
 4.900  0.7537  116.1   1.394   13.4  0.1635   45.7  0.2946 -135.2
 5.000  0.7577  115.1   1.360   11.9  0.1668   45.3  0.3010 -137.6
 5.100  0.7603  114.1   1.333   10.7  0.1703   44.7  0.3084 -139.9
 5.200  0.7630  113.2   1.306    9.5  0.1738   44.2  0.3162 -142.1
 5.300  0.7660  112.3   1.280    8.2  0.1774   43.7  0.3245 -144.2
 5.400  0.7692  111.3   1.255    6.9  0.1809   43.2  0.3331 -146.1
 5.500  0.7726  110.4   1.230    5.5  0.1845   42.7  0.3422 -148.0
 5.600  0.7736  109.5   1.205    4.4  0.1881   42.0  0.3497 -149.7
 5.700  0.7747  108.6   1.181    3.3  0.1917   41.3  0.3575 -151.2
 5.800  0.7761  107.6   1.158    2.1  0.1953   40.7  0.3656 -152.8
 5.900  0.7776  106.7   1.135    0.9  0.1990   40.1  0.3739 -154.2
 6.000  0.7794  105.8   1.112   -0.4  0.2027   39.5  0.3825 -155.6
!
!  f       NFmin   Gammaopt  rn/50
! GHz       dB    MAG  ANG    -
 0.450      1.01  0.12  144   0.10
 0.900      1.04  0.19  155   0.09
 1.900      1.52  0.38 -172   0.08
 2.400      1.75  0.44 -164   0.10
!
! (c) 2017  Infineon Technologies AG, Munich