! Infineon Technologies  Discrete & RF Semiconductors
! BFP183W
! VCE =  2.0 V,  IC =  48 mA
! Common Emitter S-Parameters:                            Jan 2017
# GHz  S  MA  R  50
!  f         S11            S21            S12            S22
! GHz     MAG   ANG      MAG   ANG      MAG   ANG      MAG   ANG
 0.010  0.1980  -50.8  59.591  171.1  0.0020   87.2  0.8319   -7.9
 0.020  0.2869  -80.0  57.191  161.5  0.0038   82.2  0.7959  -16.2
 0.030  0.3426  -98.0  52.668  155.2  0.0053   67.9  0.7399  -21.7
 0.040  0.4217 -110.1  48.887  147.9  0.0069   60.1  0.6917  -28.0
 0.050  0.5134 -118.1  46.030  139.5  0.0086   55.3  0.6532  -35.2
 0.060  0.5337 -124.6  42.614  136.6  0.0093   53.0  0.6093  -37.3
 0.070  0.5602 -130.5  39.323  133.3  0.0101   51.1  0.5664  -39.8
 0.080  0.5923 -135.9  36.192  129.3  0.0108   49.4  0.5247  -42.7
 0.090  0.6290 -140.7  33.265  124.6  0.0115   47.9  0.4846  -46.1
 0.100  0.6695 -144.9  30.602  119.1  0.0123   46.6  0.4464  -50.0
 0.110  0.6787 -147.5  28.831  117.6  0.0127   46.1  0.4233  -50.8
 0.120  0.6891 -149.9  27.083  115.8  0.0130   45.6  0.4004  -51.7
 0.130  0.7008 -152.3  25.363  113.9  0.0134   45.1  0.3775  -52.7
 0.140  0.7138 -154.7  23.678  111.6  0.0137   44.7  0.3548  -53.9
 0.150  0.7278 -156.9  22.035  109.0  0.0141   44.3  0.3322  -55.2
 0.200  0.7448 -163.8  16.968  102.6  0.0153   45.6  0.2703  -56.3
 0.250  0.7576 -168.6  13.770   98.2  0.0167   46.0  0.2316  -56.2
 0.300  0.7625 -171.9  11.568   95.1  0.0177   48.8  0.2061  -55.8
 0.350  0.7645 -174.5  10.160   93.0  0.0192   51.2  0.1919  -55.2
 0.400  0.7680 -177.0   8.770   90.3  0.0207   53.3  0.1777  -54.4
 0.450  0.7667 -178.8   7.895   88.7  0.0223   54.5  0.1710  -54.3
 0.500  0.7662  179.4   7.029   86.6  0.0239   55.6  0.1643  -54.1
 0.600  0.7700  176.6   5.875   83.5  0.0275   59.1  0.1558  -54.4
 0.700  0.7714  174.1   5.036   80.8  0.0304   62.7  0.1507  -54.7
 0.800  0.7737  171.6   4.414   78.0  0.0349   64.0  0.1496  -56.2
 0.900  0.7719  169.5   3.914   75.6  0.0379   64.7  0.1486  -57.8
 1.000  0.7753  167.5   3.541   73.3  0.0416   65.4  0.1482  -59.6
 1.100  0.7763  165.5   3.220   71.1  0.0455   66.3  0.1501  -61.4
 1.200  0.7769  163.5   2.952   68.7  0.0491   66.1  0.1505  -63.6
 1.300  0.7770  161.5   2.725   66.5  0.0525   66.7  0.1527  -65.9
 1.400  0.7791  159.7   2.541   64.3  0.0575   67.0  0.1531  -68.4
 1.500  0.7836  158.1   2.369   62.3  0.0604   66.9  0.1550  -71.1
 1.600  0.7862  156.2   2.228   60.1  0.0644   66.9  0.1577  -73.7
 1.700  0.7872  154.3   2.101   58.1  0.0689   66.6  0.1590  -76.8
 1.800  0.7899  152.5   1.993   55.9  0.0724   66.5  0.1615  -79.7
 1.900  0.7925  150.9   1.888   54.1  0.0761   66.4  0.1641  -82.5
 2.000  0.7932  149.0   1.791   51.9  0.0804   65.8  0.1674  -85.7
 2.100  0.7951  147.2   1.710   49.9  0.0841   65.3  0.1702  -89.0
 2.200  0.7978  145.5   1.631   47.7  0.0879   64.8  0.1736  -92.1
 2.300  0.8006  143.8   1.564   45.9  0.0919   64.3  0.1773  -95.3
 2.400  0.8040  142.2   1.498   43.9  0.0960   63.9  0.1815  -98.4
 2.500  0.8049  140.7   1.439   42.1  0.0999   63.3  0.1858 -101.6
 2.600  0.8063  139.2   1.381   40.1  0.1039   62.8  0.1906 -104.6
 2.700  0.8094  137.6   1.330   38.4  0.1076   62.2  0.1956 -107.5
 2.800  0.8130  136.1   1.281   36.6  0.1113   61.6  0.2010 -110.3
 2.900  0.8136  134.6   1.236   34.8  0.1151   60.9  0.2053 -113.2
 3.000  0.8148  133.2   1.193   32.9  0.1190   60.3  0.2102 -116.0
 3.100  0.8167  131.7   1.157   31.4  0.1229   59.6  0.2145 -118.8
 3.200  0.8191  130.2   1.121   29.9  0.1267   59.0  0.2193 -121.6
 3.300  0.8220  128.8   1.086   28.2  0.1306   58.4  0.2246 -124.2
 3.400  0.8255  127.3   1.053   26.5  0.1345   57.8  0.2304 -126.6
 3.500  0.8295  125.9   1.020   24.6  0.1384   57.3  0.2365 -129.0
 3.600  0.8310  124.5   0.992   23.2  0.1422   56.5  0.2411 -131.8
 3.700  0.8330  123.2   0.965   21.8  0.1461   55.7  0.2463 -134.5
 3.800  0.8355  121.9   0.938   20.3  0.1500   54.9  0.2520 -137.0
 3.900  0.8384  120.5   0.912   18.7  0.1539   54.2  0.2582 -139.5
 4.000  0.8418  119.2   0.887   17.0  0.1578   53.5  0.2648 -141.8
 4.100  0.8422  118.0   0.864   15.7  0.1616   52.6  0.2706 -144.6
 4.200  0.8429  116.8   0.842   14.4  0.1653   51.8  0.2770 -147.3
 4.300  0.8440  115.6   0.820   13.0  0.1692   51.0  0.2839 -149.8
 4.400  0.8455  114.4   0.799   11.5  0.1730   50.2  0.2914 -152.2
 4.500  0.8474  113.2   0.778    9.9  0.1769   49.5  0.2994 -154.5
 4.600  0.8488  112.3   0.759    8.9  0.1805   48.7  0.3072 -156.9
 4.700  0.8505  111.3   0.740    7.8  0.1842   47.9  0.3155 -159.1
 4.800  0.8524  110.4   0.722    6.7  0.1878   47.2  0.3243 -161.2
 4.900  0.8545  109.4   0.704    5.5  0.1916   46.5  0.3335 -163.2
 5.000  0.8568  108.5   0.686    4.3  0.1953   45.8  0.3431 -165.1
 5.100  0.8578  107.6   0.673    3.4  0.1990   45.0  0.3526 -166.9
 5.200  0.8590  106.7   0.659    2.5  0.2028   44.2  0.3623 -168.5
 5.300  0.8604  105.9   0.646    1.5  0.2066   43.5  0.3724 -170.1
 5.400  0.8620  105.0   0.634    0.5  0.2104   42.8  0.3827 -171.6
 5.500  0.8638  104.1   0.621   -0.5  0.2143   42.1  0.3933 -173.0
 5.600  0.8633  103.2   0.609   -1.2  0.2181   41.2  0.4011 -174.3
 5.700  0.8630  102.3   0.597   -2.0  0.2219   40.3  0.4091 -175.5
 5.800  0.8629  101.4   0.585   -2.8  0.2257   39.4  0.4173 -176.7
 5.900  0.8630  100.5   0.574   -3.6  0.2296   38.6  0.4257 -177.8
 6.000  0.8633   99.6   0.562   -4.5  0.2336   37.8  0.4342 -178.9
!
!  f       NFmin   Gammaopt  rn/50
! GHz       dB    MAG  ANG    -
!
! noise parameter not available yet for this operation point!
!
! (c) 2017  Infineon Technologies AG, Munich