! Infineon Technologies  Discrete & RF Semiconductors
! BFP183W
! VCE =  5.0 V,  IC =  17 mA
! Common Emitter S-Parameters:                            Jan 2017
# GHz  S  MA  R  50
!  f         S11            S21            S12            S22
! GHz     MAG   ANG      MAG   ANG      MAG   ANG      MAG   ANG
 0.010  0.5872   -6.7  42.477  176.9  0.0013   88.8  0.9862   -3.0
 0.020  0.5806  -16.1  42.168  172.5  0.0031   88.1  0.9695   -6.3
 0.030  0.5720  -22.8  41.360  169.1  0.0050   80.7  0.9583   -9.3
 0.040  0.5714  -29.6  40.700  165.7  0.0069   77.4  0.9499  -12.4
 0.050  0.5788  -36.3  40.193  162.1  0.0089   75.5  0.9442  -15.5
 0.060  0.5680  -42.4  39.104  159.3  0.0103   72.1  0.9203  -17.9
 0.070  0.5639  -48.8  38.114  156.3  0.0118   69.6  0.8980  -20.3
 0.080  0.5667  -55.1  37.230  153.2  0.0132   67.6  0.8775  -22.9
 0.090  0.5763  -61.3  36.462  150.0  0.0147   66.0  0.8589  -25.7
 0.100  0.5924  -67.2  35.815  146.6  0.0162   64.7  0.8423  -28.5
 0.110  0.5858  -71.9  34.716  144.5  0.0172   62.4  0.8183  -30.2
 0.120  0.5833  -76.7  33.668  142.3  0.0183   60.4  0.7951  -32.0
 0.130  0.5849  -81.5  32.673  139.9  0.0194   58.6  0.7727  -33.9
 0.140  0.5906  -86.3  31.739  137.4  0.0205   57.0  0.7512  -35.9
 0.150  0.6002  -90.9  30.869  134.7  0.0216   55.6  0.7307  -38.0
 0.200  0.6073 -108.0  26.421  125.4  0.0239   51.1  0.6339  -44.6
 0.250  0.6139 -121.0  22.852  118.2  0.0265   46.9  0.5548  -49.0
 0.300  0.6180 -130.9  19.922  112.9  0.0282   45.1  0.4916  -52.0
 0.350  0.6164 -137.8  17.808  109.4  0.0293   44.5  0.4472  -53.6
 0.400  0.6237 -144.6  15.780  104.9  0.0305   44.0  0.4032  -55.5
 0.450  0.6217 -149.3  14.335  102.4  0.0320   44.2  0.3752  -56.2
 0.500  0.6238 -154.0  12.923   99.3  0.0335   44.3  0.3472  -57.1
 0.600  0.6258 -160.9  10.943   94.8  0.0360   45.0  0.3092  -58.0
 0.700  0.6278 -166.3   9.448   91.1  0.0382   46.6  0.2819  -58.3
 0.800  0.6304 -171.1   8.330   87.7  0.0407   48.9  0.2647  -58.8
 0.900  0.6286 -175.1   7.412   84.8  0.0436   49.0  0.2504  -59.2
 1.000  0.6317 -178.5   6.715   82.1  0.0458   50.8  0.2392  -59.8
 1.100  0.6345  178.4   6.117   79.8  0.0487   51.8  0.2326  -60.3
 1.200  0.6363  175.4   5.612   77.2  0.0516   52.6  0.2258  -60.9
 1.300  0.6365  172.8   5.185   75.0  0.0540   53.0  0.2216  -62.0
 1.400  0.6384  170.3   4.835   72.8  0.0577   54.1  0.2163  -63.1
 1.500  0.6434  168.1   4.513   70.7  0.0604   54.8  0.2133  -64.3
 1.600  0.6463  165.6   4.241   68.6  0.0632   54.8  0.2114  -65.7
 1.700  0.6484  163.3   4.001   66.6  0.0663   55.5  0.2086  -67.5
 1.800  0.6516  161.2   3.794   64.6  0.0698   55.9  0.2066  -69.1
 1.900  0.6554  159.3   3.596   62.7  0.0727   56.0  0.2055  -71.0
 2.000  0.6566  157.3   3.416   60.6  0.0760   56.0  0.2047  -73.0
 2.100  0.6603  155.2   3.262   58.7  0.0792   55.9  0.2039  -75.2
 2.200  0.6648  153.1   3.112   56.7  0.0825   55.9  0.2034  -77.5
 2.300  0.6685  151.3   2.982   54.9  0.0858   55.9  0.2035  -79.9
 2.400  0.6728  149.5   2.856   53.0  0.0891   55.9  0.2039  -82.3
 2.500  0.6754  147.8   2.744   51.3  0.0922   55.6  0.2046  -84.9
 2.600  0.6786  146.2   2.634   49.4  0.0954   55.3  0.2058  -87.4
 2.700  0.6829  144.4   2.538   47.7  0.0987   55.1  0.2070  -89.8
 2.800  0.6878  142.7   2.444   45.9  0.1021   55.0  0.2086  -92.2
 2.900  0.6904  141.1   2.361   44.2  0.1051   54.6  0.2094  -94.8
 3.000  0.6935  139.6   2.280   42.3  0.1082   54.2  0.2107  -97.3
 3.100  0.6968  138.0   2.211   40.9  0.1115   53.9  0.2118  -99.8
 3.200  0.7005  136.5   2.143   39.3  0.1148   53.5  0.2133 -102.3
 3.300  0.7048  135.0   2.077   37.7  0.1182   53.2  0.2153 -104.8
 3.400  0.7096  133.5   2.013   36.0  0.1215   53.0  0.2176 -107.2
 3.500  0.7148  132.0   1.951   34.1  0.1248   52.7  0.2203 -109.6
 3.600  0.7178  130.6   1.899   32.7  0.1282   52.1  0.2218 -112.3
 3.700  0.7213  129.2   1.848   31.2  0.1315   51.5  0.2238 -115.0
 3.800  0.7251  127.8   1.798   29.6  0.1349   50.9  0.2262 -117.6
 3.900  0.7295  126.4   1.750   27.9  0.1383   50.4  0.2291 -120.1
 4.000  0.7342  125.0   1.703   26.1  0.1417   49.9  0.2325 -122.6
 4.100  0.7370  123.7   1.660   24.7  0.1449   49.3  0.2351 -125.5
 4.200  0.7402  122.5   1.618   23.2  0.1482   48.7  0.2383 -128.3
 4.300  0.7438  121.2   1.577   21.7  0.1515   48.1  0.2420 -131.0
 4.400  0.7477  120.0   1.537   20.0  0.1548   47.5  0.2463 -133.7
 4.500  0.7519  118.8   1.499   18.3  0.1581   47.0  0.2511 -136.2
 4.600  0.7550  117.8   1.463   17.1  0.1614   46.5  0.2564 -138.9
 4.700  0.7582  116.8   1.427   15.8  0.1646   45.9  0.2622 -141.5
 4.800  0.7617  115.8   1.392   14.5  0.1679   45.4  0.2685 -143.9
 4.900  0.7655  114.9   1.358   13.1  0.1712   45.0  0.2753 -146.3
 5.000  0.7694  113.9   1.325   11.6  0.1745   44.5  0.2825 -148.5
 5.100  0.7717  113.0   1.299   10.4  0.1779   43.9  0.2906 -150.5
 5.200  0.7742  112.0   1.273    9.2  0.1813   43.3  0.2991 -152.5
 5.300  0.7770  111.1   1.248    8.0  0.1847   42.7  0.3078 -154.3
 5.400  0.7799  110.2   1.224    6.7  0.1881   42.1  0.3169 -156.0
 5.500  0.7830  109.3   1.200    5.3  0.1916   41.6  0.3262 -157.6
 5.600  0.7839  108.4   1.176    4.3  0.1951   40.8  0.3337 -159.0
 5.700  0.7851  107.5   1.153    3.2  0.1987   40.1  0.3415 -160.4
 5.800  0.7864  106.7   1.130    2.0  0.2023   39.4  0.3494 -161.7
 5.900  0.7879  105.8   1.107    0.8  0.2059   38.8  0.3575 -162.9
 6.000  0.7896  104.9   1.085   -0.4  0.2095   38.1  0.3657 -164.1
!
!  f       NFmin   Gammaopt  rn/50
! GHz       dB    MAG  ANG    -
 0.450      1.12  0.17  164  -0.02
 0.900      1.15  0.23  169   0.09
 1.900      1.61  0.40 -165   0.08
 2.400      1.84  0.44 -159   0.11
!
! (c) 2017  Infineon Technologies AG, Munich