! Infineon Technologies  Discrete & RF Semiconductors
! BFP183W
! VCE =  8.0 V,  IC =  55 mA
! Common Emitter S-Parameters:                            Jan 2017
# GHz  S  MA  R  50
!  f         S11            S21            S12            S22
! GHz     MAG   ANG      MAG   ANG      MAG   ANG      MAG   ANG
 0.010  0.3013  -18.6  65.293  173.9  0.0013   73.0  0.9314   -3.9
 0.020  0.3179  -39.9  64.224  167.4  0.0026   85.1  0.9147   -9.1
 0.030  0.3279  -55.4  61.412  162.4  0.0039   74.1  0.8835  -13.2
 0.040  0.3596  -69.1  59.120  156.9  0.0053   68.7  0.8572  -17.6
 0.050  0.4080  -80.0  57.410  151.0  0.0067   65.6  0.8362  -22.2
 0.060  0.4151  -88.8  54.306  147.8  0.0075   63.4  0.7980  -24.3
 0.070  0.4316  -97.1  51.386  144.3  0.0082   61.6  0.7611  -26.7
 0.080  0.4563 -104.6  48.683  140.4  0.0090   60.2  0.7256  -29.3
 0.090  0.4881 -111.3  46.236  136.0  0.0098   58.9  0.6917  -32.2
 0.100  0.5257 -117.1  44.086  131.2  0.0106   57.9  0.6597  -35.3
 0.110  0.5325 -121.2  41.958  129.3  0.0111   56.2  0.6331  -36.3
 0.120  0.5420 -125.2  39.880  127.2  0.0117   54.7  0.6067  -37.3
 0.130  0.5541 -129.1  37.863  124.9  0.0123   53.3  0.5805  -38.5
 0.140  0.5685 -132.7  35.915  122.3  0.0128   52.0  0.5546  -39.7
 0.150  0.5851 -136.2  34.048  119.4  0.0134   50.8  0.5290  -41.1
 0.200  0.6150 -147.3  27.146  111.5  0.0139   50.7  0.4468  -42.9
 0.250  0.6309 -155.0  22.437  106.0  0.0157   48.7  0.3924  -43.3
 0.300  0.6387 -160.5  19.019  102.1  0.0169   51.2  0.3541  -42.9
 0.350  0.6427 -164.3  16.789   99.6  0.0182   53.6  0.3319  -42.3
 0.400  0.6494 -168.0  14.600   96.4  0.0195   55.6  0.3097  -41.7
 0.450  0.6501 -170.7  13.183   94.6  0.0212   56.8  0.2977  -41.2
 0.500  0.6522 -173.3  11.783   92.3  0.0230   57.9  0.2857  -40.7
 0.600  0.6556 -177.2   9.887   89.0  0.0259   59.9  0.2708  -40.6
 0.700  0.6577  179.5   8.501   86.2  0.0286   62.7  0.2608  -40.4
 0.800  0.6600  176.3   7.467   83.4  0.0320   64.4  0.2560  -41.0
 0.900  0.6609  173.7   6.640   81.1  0.0350   65.0  0.2508  -42.0
 1.000  0.6617  171.5   6.008   78.9  0.0381   65.9  0.2473  -43.1
 1.100  0.6659  169.0   5.473   76.8  0.0421   67.1  0.2462  -44.2
 1.200  0.6649  166.8   5.022   74.5  0.0450   67.2  0.2440  -45.6
 1.300  0.6663  164.9   4.643   72.5  0.0484   67.0  0.2430  -47.2
 1.400  0.6688  162.9   4.331   70.5  0.0522   67.4  0.2408  -48.9
 1.500  0.6721  161.1   4.043   68.6  0.0554   67.6  0.2394  -50.8
 1.600  0.6752  159.1   3.804   66.6  0.0589   67.6  0.2393  -52.6
 1.700  0.6760  157.2   3.590   64.7  0.0627   67.8  0.2378  -54.8
 1.800  0.6787  155.5   3.404   62.8  0.0662   67.1  0.2372  -56.9
 1.900  0.6814  153.8   3.229   61.1  0.0696   67.1  0.2363  -59.2
 2.000  0.6846  151.9   3.067   59.0  0.0728   66.7  0.2365  -61.6
 2.100  0.6873  150.1   2.931   57.2  0.0766   66.4  0.2358  -64.0
 2.200  0.6907  148.3   2.799   55.3  0.0805   66.1  0.2356  -66.5
 2.300  0.6941  146.7   2.684   53.5  0.0842   65.6  0.2355  -69.2
 2.400  0.6980  145.1   2.571   51.6  0.0880   65.2  0.2360  -71.8
 2.500  0.7002  143.6   2.471   49.9  0.0914   64.6  0.2364  -74.5
 2.600  0.7029  142.1   2.373   48.1  0.0948   64.0  0.2374  -77.2
 2.700  0.7071  140.5   2.288   46.4  0.0982   63.5  0.2383  -79.9
 2.800  0.7119  139.0   2.206   44.6  0.1016   63.0  0.2398  -82.5
 2.900  0.7143  137.5   2.132   42.9  0.1052   62.4  0.2405  -85.2
 3.000  0.7172  136.1   2.059   41.1  0.1088   61.9  0.2417  -87.9
 3.100  0.7201  134.7   1.997   39.7  0.1124   61.3  0.2424  -90.5
 3.200  0.7235  133.2   1.937   38.1  0.1160   60.7  0.2436  -93.2
 3.300  0.7273  131.8   1.878   36.5  0.1197   60.2  0.2453  -95.8
 3.400  0.7316  130.4   1.821   34.7  0.1233   59.7  0.2475  -98.3
 3.500  0.7363  129.0   1.765   32.9  0.1270   59.2  0.2502 -100.8
 3.600  0.7391  127.7   1.718   31.5  0.1305   58.4  0.2510 -103.6
 3.700  0.7423  126.4   1.672   30.0  0.1340   57.7  0.2523 -106.4
 3.800  0.7458  125.1   1.627   28.4  0.1376   57.0  0.2542 -109.1
 3.900  0.7498  123.8   1.583   26.7  0.1411   56.3  0.2567 -111.8
 4.000  0.7541  122.5   1.541   24.9  0.1447   55.7  0.2598 -114.4
 4.100  0.7567  121.3   1.503   23.5  0.1481   54.9  0.2617 -117.4
 4.200  0.7597  120.1   1.465   22.1  0.1515   54.1  0.2643 -120.3
 4.300  0.7630  118.9   1.429   20.5  0.1550   53.4  0.2675 -123.1
 4.400  0.7667  117.8   1.393   18.9  0.1585   52.7  0.2714 -125.9
 4.500  0.7706  116.6   1.359   17.2  0.1620   52.0  0.2759 -128.6
 4.600  0.7731  115.6   1.326   16.0  0.1655   51.3  0.2804 -131.4
 4.700  0.7758  114.7   1.294   14.8  0.1691   50.6  0.2856 -134.2
 4.800  0.7787  113.7   1.262   13.4  0.1727   50.0  0.2914 -136.8
 4.900  0.7818  112.7   1.231   12.1  0.1763   49.4  0.2978 -139.3
 5.000  0.7852  111.8   1.201   10.6  0.1799   48.8  0.3048 -141.7
 5.100  0.7875  110.9   1.177    9.5  0.1835   48.0  0.3126 -144.0
 5.200  0.7899  110.1   1.154    8.3  0.1871   47.3  0.3208 -146.2
 5.300  0.7925  109.2   1.131    7.0  0.1907   46.6  0.3295 -148.3
 5.400  0.7953  108.3   1.109    5.7  0.1943   45.9  0.3386 -150.2
 5.500  0.7983  107.5   1.087    4.4  0.1980   45.3  0.3481 -152.1
 5.600  0.7989  106.6   1.065    3.3  0.2016   44.5  0.3555 -153.7
 5.700  0.7998  105.7   1.044    2.2  0.2052   43.7  0.3633 -155.2
 5.800  0.8008  104.9   1.023    1.1  0.2089   42.9  0.3712 -156.7
 5.900  0.8020  104.0   1.002   -0.1  0.2126   42.1  0.3794 -158.1
 6.000  0.8034  103.1   0.982   -1.4  0.2164   41.4  0.3878 -159.4
!
!  f       NFmin   Gammaopt  rn/50
! GHz       dB    MAG  ANG    -
!
! noise parameter not available yet for this operation point!
!
! (c) 2017  Infineon Technologies AG, Munich