! Infineon Technologies  Discrete & RF Semiconductors
! BFP183W
! VCE =  10. V,  IC =  17 mA
! Common Emitter S-Parameters:                            Jan 2017
# GHz  S  MA  R  50
!  f         S11            S21            S12            S22
! GHz     MAG   ANG      MAG   ANG      MAG   ANG      MAG   ANG
 0.010  0.6322   -5.4  41.290  176.6  0.0017   83.2  0.9829   -2.7
 0.020  0.6248  -13.9  40.611  172.7  0.0029   98.1  0.9685   -5.5
 0.030  0.6163  -19.8  39.985  169.7  0.0047   84.6  0.9593   -8.2
 0.040  0.6143  -25.8  39.472  166.6  0.0067   78.8  0.9524  -11.0
 0.050  0.6191  -31.7  39.079  163.4  0.0087   75.7  0.9477  -13.8
 0.060  0.6078  -37.2  38.147  160.7  0.0100   73.0  0.9273  -16.0
 0.070  0.6024  -42.9  37.301  158.0  0.0113   70.9  0.9084  -18.2
 0.080  0.6029  -48.6  36.548  155.0  0.0126   69.2  0.8909  -20.6
 0.090  0.6093  -54.2  35.892  152.0  0.0140   67.9  0.8750  -23.1
 0.100  0.6215  -59.7  35.340  148.9  0.0153   66.8  0.8607  -25.6
 0.110  0.6126  -64.2  34.359  146.8  0.0163   64.4  0.8387  -27.2
 0.120  0.6076  -68.8  33.426  144.6  0.0174   62.3  0.8175  -28.9
 0.130  0.6066  -73.5  32.547  142.3  0.0185   60.4  0.7970  -30.7
 0.140  0.6096  -78.1  31.724  139.8  0.0196   58.8  0.7774  -32.6
 0.150  0.6165  -82.7  30.963  137.2  0.0207   57.3  0.7586  -34.6
 0.200  0.6146  -99.8  26.845  127.9  0.0236   52.6  0.6668  -40.7
 0.250  0.6122 -113.4  23.431  120.6  0.0266   47.1  0.5896  -44.9
 0.300  0.6105 -123.8  20.564  115.1  0.0283   46.7  0.5263  -47.9
 0.350  0.6058 -131.3  18.443  111.4  0.0299   45.1  0.4817  -49.4
 0.400  0.6114 -138.7  16.418  106.8  0.0316   43.7  0.4374  -51.2
 0.450  0.6074 -143.8  14.941  104.1  0.0326   43.8  0.4082  -51.9
 0.500  0.6082 -148.9  13.504  100.9  0.0336   43.9  0.3791  -52.7
 0.600  0.6092 -156.8  11.468   96.2  0.0362   44.9  0.3397  -53.5
 0.700  0.6095 -162.6   9.913   92.4  0.0374   45.8  0.3114  -53.6
 0.800  0.6114 -168.0   8.749   88.9  0.0405   48.1  0.2928  -53.8
 0.900  0.6105 -172.0   7.792   85.9  0.0430   48.4  0.2785  -54.2
 1.000  0.6138 -175.7   7.059   83.2  0.0455   49.8  0.2666  -54.5
 1.100  0.6160 -179.1   6.435   80.8  0.0480   50.7  0.2596  -55.0
 1.200  0.6157  177.7   5.903   78.2  0.0506   51.7  0.2527  -55.6
 1.300  0.6164  174.8   5.456   76.0  0.0529   52.2  0.2475  -56.5
 1.400  0.6190  172.2   5.088   73.8  0.0562   53.6  0.2424  -57.4
 1.500  0.6235  169.9   4.752   71.7  0.0589   53.9  0.2390  -58.6
 1.600  0.6258  167.3   4.464   69.5  0.0622   54.3  0.2369  -59.7
 1.700  0.6269  165.0   4.210   67.6  0.0654   54.7  0.2336  -61.4
 1.800  0.6302  162.8   3.997   65.5  0.0678   55.2  0.2318  -62.9
 1.900  0.6351  160.8   3.785   63.7  0.0707   55.4  0.2297  -64.6
 2.000  0.6371  158.6   3.597   61.6  0.0739   55.7  0.2288  -66.4
 2.100  0.6401  156.5   3.435   59.7  0.0770   55.8  0.2273  -68.5
 2.200  0.6439  154.4   3.277   57.7  0.0801   55.8  0.2262  -70.6
 2.300  0.6488  152.5   3.141   55.9  0.0833   55.8  0.2258  -72.8
 2.400  0.6543  150.7   3.008   54.0  0.0866   55.8  0.2257  -75.0
 2.500  0.6566  149.0   2.890   52.3  0.0895   55.5  0.2257  -77.4
 2.600  0.6595  147.3   2.774   50.4  0.0925   55.2  0.2260  -79.7
 2.700  0.6639  145.5   2.674   48.7  0.0956   55.1  0.2268  -82.1
 2.800  0.6689  143.8   2.576   46.9  0.0987   55.1  0.2279  -84.4
 2.900  0.6720  142.1   2.489   45.2  0.1019   54.7  0.2280  -86.9
 3.000  0.6756  140.5   2.405   43.4  0.1051   54.3  0.2285  -89.3
 3.100  0.6790  138.9   2.332   41.9  0.1083   54.0  0.2289  -91.7
 3.200  0.6830  137.4   2.260   40.4  0.1115   53.8  0.2298  -94.2
 3.300  0.6874  135.9   2.190   38.7  0.1146   53.5  0.2310  -96.6
 3.400  0.6923  134.4   2.122   37.0  0.1178   53.3  0.2327  -99.0
 3.500  0.6977  132.9   2.056   35.1  0.1210   53.1  0.2347 -101.3
 3.600  0.7008  131.4   2.001   33.7  0.1244   52.5  0.2353 -103.9
 3.700  0.7043  130.0   1.948   32.2  0.1277   52.0  0.2364 -106.5
 3.800  0.7082  128.6   1.895   30.6  0.1311   51.5  0.2380 -109.1
 3.900  0.7126  127.2   1.845   28.9  0.1345   51.0  0.2400 -111.6
 4.000  0.7174  125.8   1.796   27.1  0.1379   50.6  0.2425 -114.1
 4.100  0.7205  124.5   1.751   25.7  0.1411   50.0  0.2442 -117.0
 4.200  0.7239  123.2   1.707   24.2  0.1443   49.4  0.2465 -119.8
 4.300  0.7277  122.0   1.664   22.7  0.1475   48.9  0.2494 -122.6
 4.400  0.7318  120.7   1.623   21.0  0.1508   48.4  0.2528 -125.3
 4.500  0.7363  119.5   1.583   19.3  0.1540   47.9  0.2568 -127.9
 4.600  0.7399  118.5   1.545   18.1  0.1572   47.4  0.2611 -130.7
 4.700  0.7438  117.5   1.508   16.8  0.1604   46.8  0.2661 -133.3
 4.800  0.7479  116.5   1.471   15.4  0.1636   46.3  0.2715 -135.9
 4.900  0.7522  115.5   1.436   14.0  0.1668   45.9  0.2775 -138.4
 5.000  0.7568  114.5   1.401   12.5  0.1700   45.4  0.2840 -140.7
 5.100  0.7590  113.6   1.373   11.3  0.1735   44.8  0.2916 -143.0
 5.200  0.7614  112.7   1.345   10.1  0.1770   44.2  0.2996 -145.1
 5.300  0.7640  111.8   1.318    8.9  0.1805   43.6  0.3080 -147.2
 5.400  0.7668  111.0   1.292    7.6  0.1840   43.0  0.3168 -149.1
 5.500  0.7697  110.1   1.266    6.2  0.1876   42.5  0.3259 -150.9
 5.600  0.7706  109.2   1.241    5.1  0.1912   41.8  0.3334 -152.4
 5.700  0.7717  108.3   1.216    4.0  0.1948   41.1  0.3412 -153.9
 5.800  0.7730  107.4   1.191    2.8  0.1984   40.4  0.3492 -155.3
 5.900  0.7744  106.5   1.167    1.6  0.2020   39.8  0.3573 -156.6
 6.000  0.7761  105.6   1.144    0.3  0.2057   39.2  0.3657 -157.9
!
!  f       NFmin   Gammaopt  rn/50
! GHz       dB    MAG  ANG    -
 0.450      1.12  0.17  164  -0.02
 0.900      1.15  0.23  169   0.09
 1.900      1.61  0.40 -165   0.08
 2.400      1.84  0.44 -159   0.11
!
! (c) 2017  Infineon Technologies AG, Munich