! Infineon Technologies  Discrete & RF Semiconductors
! BFP183W
! VCE =  12. V,  IC =  4.0 mA
! Common Emitter S-Parameters:                            Jan 2017
# GHz  S  MA  R  50
!  f         S11            S21            S12            S22
! GHz     MAG   ANG      MAG   ANG      MAG   ANG      MAG   ANG
 0.010  0.9051   -1.7  13.570  179.2  0.0016   85.7  0.9967   -1.1
 0.020  0.8853   -6.4  13.428  176.8  0.0043   82.9  0.9836   -2.2
 0.030  0.8818   -8.4  13.365  175.3  0.0064   81.5  0.9849   -3.3
 0.040  0.8794  -10.5  13.310  173.9  0.0084   80.7  0.9865   -4.3
 0.050  0.8781  -12.5  13.264  172.4  0.0105   80.3  0.9884   -5.4
 0.060  0.8757  -15.0  13.190  170.8  0.0124   79.1  0.9843   -6.4
 0.070  0.8750  -17.6  13.127  169.3  0.0143   78.2  0.9806   -7.5
 0.080  0.8760  -20.1  13.073  167.7  0.0163   77.6  0.9772   -8.6
 0.090  0.8787  -22.6  13.029  166.1  0.0182   77.0  0.9741   -9.6
 0.100  0.8831  -25.1  12.995  164.5  0.0201   76.6  0.9714  -10.7
 0.110  0.8753  -27.5  12.890  163.1  0.0219   74.8  0.9648  -11.7
 0.120  0.8692  -30.0  12.794  161.6  0.0237   73.3  0.9585  -12.7
 0.130  0.8647  -32.5  12.705  160.2  0.0255   72.0  0.9525  -13.7
 0.140  0.8618  -35.1  12.625  158.7  0.0274   70.9  0.9468  -14.7
 0.150  0.8607  -37.6  12.554  157.2  0.0292   69.9  0.9414  -15.7
 0.200  0.8493  -48.8  12.040  150.0  0.0361   64.8  0.9075  -20.0
 0.250  0.8267  -59.6  11.476  143.4  0.0435   58.6  0.8696  -24.0
 0.300  0.8049  -69.6  10.833  137.6  0.0492   54.0  0.8284  -27.4
 0.350  0.7805  -77.9  10.200  132.8  0.0534   50.1  0.7904  -29.9
 0.400  0.7735  -86.6   9.646  127.5  0.0578   46.7  0.7540  -32.7
 0.450  0.7522  -93.6   9.053  123.7  0.0606   43.7  0.7217  -34.5
 0.500  0.7425 -100.8   8.506  119.3  0.0635   41.0  0.6901  -36.5
 0.600  0.7199 -112.7   7.574  112.3  0.0675   36.8  0.6374  -39.1
 0.700  0.7027 -122.8   6.755  106.4  0.0698   33.4  0.5942  -41.0
 0.800  0.6887 -131.4   6.108  101.2  0.0722   31.1  0.5623  -42.6
 0.900  0.6804 -138.7   5.529   96.8  0.0738   28.8  0.5353  -43.9
 1.000  0.6747 -145.1   5.066   92.8  0.0743   27.3  0.5146  -45.1
 1.100  0.6709 -150.8   4.660   89.3  0.0752   26.5  0.4989  -46.0
 1.200  0.6677 -156.1   4.306   85.7  0.0757   25.4  0.4843  -47.1
 1.300  0.6635 -160.6   4.003   82.6  0.0762   25.4  0.4733  -48.3
 1.400  0.6660 -164.8   3.748   79.6  0.0763   25.1  0.4631  -49.5
 1.500  0.6681 -168.8   3.518   76.8  0.0769   24.9  0.4550  -50.7
 1.600  0.6692 -172.6   3.312   74.0  0.0771   24.9  0.4494  -51.8
 1.700  0.6703 -176.2   3.134   71.6  0.0772   25.6  0.4424  -53.4
 1.800  0.6716 -179.5   2.985   69.0  0.0774   25.9  0.4370  -54.7
 1.900  0.6761  177.5   2.835   66.7  0.0773   26.6  0.4322  -56.2
 2.000  0.6778  174.2   2.701   64.1  0.0779   27.1  0.4289  -57.7
 2.100  0.6800  171.4   2.583   61.8  0.0783   27.9  0.4258  -59.3
 2.200  0.6838  168.6   2.470   59.3  0.0788   28.6  0.4231  -61.0
 2.300  0.6868  165.9   2.369   57.1  0.0792   29.5  0.4211  -62.9
 2.400  0.6913  163.3   2.272   54.7  0.0797   30.3  0.4195  -64.8
 2.500  0.6938  160.9   2.183   52.6  0.0804   31.4  0.4180  -66.7
 2.600  0.6974  158.6   2.098   50.4  0.0811   32.4  0.4170  -68.7
 2.700  0.7005  156.3   2.024   48.4  0.0821   33.4  0.4166  -70.6
 2.800  0.7047  154.0   1.952   46.3  0.0831   34.3  0.4166  -72.5
 2.900  0.7075  151.9   1.887   44.3  0.0843   35.2  0.4156  -74.4
 3.000  0.7113  149.8   1.824   42.1  0.0856   36.1  0.4150  -76.4
 3.100  0.7136  147.8   1.768   40.4  0.0873   37.2  0.4146  -78.5
 3.200  0.7167  145.9   1.713   38.7  0.0891   38.3  0.4147  -80.6
 3.300  0.7207  143.9   1.660   36.8  0.0909   39.3  0.4154  -82.7
 3.400  0.7255  142.0   1.609   34.7  0.0927   40.3  0.4167  -84.8
 3.500  0.7311  140.1   1.560   32.6  0.0946   41.3  0.4185  -86.9
 3.600  0.7338  138.4   1.517   31.0  0.0972   41.9  0.4181  -89.2
 3.700  0.7372  136.6   1.476   29.3  0.0999   42.6  0.4183  -91.4
 3.800  0.7413  134.9   1.436   27.5  0.1025   43.1  0.4192  -93.7
 3.900  0.7460  133.3   1.397   25.6  0.1052   43.7  0.4208  -96.0
 4.000  0.7513  131.6   1.360   23.6  0.1079   44.2  0.4230  -98.2
 4.100  0.7536  130.1   1.324   22.1  0.1110   44.5  0.4231 -100.8
 4.200  0.7565  128.5   1.290   20.4  0.1141   44.8  0.4241 -103.3
 4.300  0.7599  127.0   1.256   18.7  0.1171   45.0  0.4259 -105.8
 4.400  0.7638  125.5   1.224   16.9  0.1202   45.3  0.4286 -108.3
 4.500  0.7683  124.0   1.193   15.0  0.1233   45.5  0.4320 -110.8
 4.600  0.7712  122.8   1.162   13.7  0.1269   45.7  0.4344 -113.4
 4.700  0.7744  121.6   1.132   12.3  0.1305   45.8  0.4376 -116.1
 4.800  0.7779  120.5   1.103   10.8  0.1341   45.9  0.4418 -118.6
 4.900  0.7817  119.3   1.074    9.2  0.1377   46.1  0.4468 -121.1
 5.000  0.7859  118.2   1.046    7.6  0.1413   46.2  0.4527 -123.6
 5.100  0.7883  117.1   1.023    6.4  0.1454   46.0  0.4588 -126.1
 5.200  0.7910  116.1   1.000    5.2  0.1495   45.8  0.4658 -128.5
 5.300  0.7940  115.0   0.978    3.9  0.1535   45.6  0.4736 -130.8
 5.400  0.7973  113.9   0.956    2.5  0.1576   45.4  0.4821 -133.0
 5.500  0.8008  112.9   0.935    1.1  0.1617   45.2  0.4913 -135.2
 5.600  0.8016  111.9   0.914    0.0  0.1660   44.6  0.4980 -137.2
 5.700  0.8027  110.9   0.894   -1.1  0.1702   44.1  0.5054 -139.2
 5.800  0.8041  109.9   0.874   -2.3  0.1745   43.6  0.5133 -141.1
 5.900  0.8057  108.9   0.854   -3.5  0.1788   43.2  0.5217 -142.9
 6.000  0.8075  107.9   0.835   -4.8  0.1831   42.7  0.5307 -144.7
!
!  f       NFmin   Gammaopt  rn/50
! GHz       dB    MAG  ANG    -
 0.450      0.73  0.32   50   0.29
 0.900      0.90  0.29   94   0.14
 1.900      1.50  0.43  165   0.08
 2.400      1.78  0.48  179   0.08
!
! (c) 2017  Infineon Technologies AG, Munich