! Infineon Technologies  Discrete & RF Semiconductors
! BFP183W
! VCE =  1.0 V,  IC =  59 mA
! Common Emitter S-Parameters:                            Jan 2017
# GHz  S  MA  R  50
!  f         S11            S21            S12            S22
! GHz     MAG   ANG      MAG   ANG      MAG   ANG      MAG   ANG
 0.010  0.2624 -115.6  45.527  163.6  0.0041   70.3  0.5555  -21.2
 0.020  0.4643 -127.4  40.730  148.3  0.0073   62.8  0.5011  -40.3
 0.030  0.5434 -137.2  35.072  142.1  0.0090   51.8  0.4302  -50.0
 0.040  0.6341 -144.3  29.978  133.6  0.0110   44.5  0.3758  -62.9
 0.050  0.7321 -149.6  25.787  122.1  0.0131   39.5  0.3460  -79.0
 0.060  0.7466 -153.0  23.437  120.0  0.0134   38.8  0.3185  -83.5
 0.070  0.7636 -156.2  21.124  117.5  0.0138   38.2  0.2932  -88.8
 0.080  0.7829 -159.2  18.862  114.4  0.0141   37.6  0.2710  -95.0
 0.090  0.8043 -162.1  16.671  110.4  0.0145   37.0  0.2525 -102.3
 0.100  0.8277 -164.9  14.584  105.3  0.0148   36.4  0.2386 -110.5
 0.110  0.8321 -166.1  13.652  104.3  0.0151   36.4  0.2299 -113.3
 0.120  0.8369 -167.4  12.725  103.1  0.0155   36.3  0.2219 -116.4
 0.130  0.8420 -168.6  11.805  101.7  0.0158   36.3  0.2145 -119.7
 0.140  0.8476 -169.8  10.892  100.1  0.0162   36.2  0.2079 -123.2
 0.150  0.8535 -171.0   9.990   98.2  0.0165   36.2  0.2021 -126.9
 0.200  0.8561 -174.9   7.544   93.4  0.0175   40.5  0.1868 -136.3
 0.250  0.8595 -177.6   6.052   90.0  0.0195   43.8  0.1789 -142.6
 0.300  0.8605 -179.5   5.050   87.4  0.0203   47.8  0.1749 -146.9
 0.350  0.8609  178.8   4.424   85.4  0.0224   50.5  0.1734 -149.2
 0.400  0.8620  177.2   3.805   82.8  0.0246   52.8  0.1722 -151.6
 0.450  0.8609  176.0   3.422   81.1  0.0266   54.8  0.1723 -152.8
 0.500  0.8603  174.7   3.042   79.0  0.0286   56.6  0.1724 -154.0
 0.600  0.8620  172.5   2.541   75.6  0.0332   59.4  0.1751 -155.6
 0.700  0.8607  170.7   2.177   72.5  0.0368   61.7  0.1764 -156.6
 0.800  0.8634  168.4   1.907   69.2  0.0422   63.1  0.1801 -156.8
 0.900  0.8596  166.5   1.690   66.2  0.0470   64.1  0.1848 -157.2
 1.000  0.8633  164.7   1.527   63.3  0.0513   64.8  0.1892 -157.9
 1.100  0.8652  162.9   1.391   60.6  0.0556   65.4  0.1940 -157.9
 1.200  0.8637  161.0   1.275   57.7  0.0603   65.4  0.1986 -158.5
 1.300  0.8666  159.2   1.177   55.1  0.0650   65.6  0.2048 -158.9
 1.400  0.8677  157.5   1.098   52.4  0.0703   65.4  0.2108 -159.8
 1.500  0.8712  155.7   1.024   49.8  0.0751   64.8  0.2173 -160.7
 1.600  0.8734  154.0   0.962   47.1  0.0799   64.6  0.2235 -161.3
 1.700  0.8760  152.2   0.908   44.7  0.0850   64.7  0.2307 -162.4
 1.800  0.8789  150.3   0.861   42.0  0.0901   63.7  0.2382 -163.3
 1.900  0.8800  148.7   0.813   40.0  0.0941   63.3  0.2457 -164.4
 2.000  0.8809  146.9   0.773   37.4  0.0994   62.4  0.2535 -165.4
 2.100  0.8817  145.0   0.737   35.3  0.1042   61.7  0.2615 -166.6
 2.200  0.8835  143.2   0.702   32.9  0.1090   61.1  0.2696 -167.8
 2.300  0.8854  141.6   0.671   30.9  0.1138   60.3  0.2780 -169.1
 2.400  0.8879  140.1   0.641   28.8  0.1186   59.6  0.2866 -170.3
 2.500  0.8878  138.5   0.614   27.0  0.1233   58.6  0.2948 -171.6
 2.600  0.8884  136.9   0.588   25.1  0.1281   57.7  0.3031 -172.8
 2.700  0.8900  135.3   0.565   23.5  0.1324   56.8  0.3112 -174.0
 2.800  0.8923  133.8   0.543   21.8  0.1367   56.0  0.3194 -175.2
 2.900  0.8921  132.2   0.523   20.3  0.1413   55.0  0.3271 -176.6
 3.000  0.8926  130.7   0.503   18.6  0.1459   54.1  0.3349 -178.0
 3.100  0.8929  129.2   0.487   17.6  0.1500   53.2  0.3417 -179.5
 3.200  0.8938  127.7   0.472   16.4  0.1541   52.3  0.3487  179.1
 3.300  0.8954  126.2   0.456   15.2  0.1582   51.4  0.3560  177.7
 3.400  0.8975  124.8   0.441   14.0  0.1624   50.7  0.3634  176.4
 3.500  0.9002  123.3   0.426   12.6  0.1666   49.9  0.3710  175.1
 3.600  0.9000  121.9   0.415   11.9  0.1705   48.8  0.3779  173.5
 3.700  0.9003  120.6   0.403   11.1  0.1745   47.8  0.3851  172.0
 3.800  0.9011  119.2   0.392   10.3  0.1786   46.9  0.3925  170.5
 3.900  0.9025  117.9   0.381    9.4  0.1827   46.0  0.4003  169.1
 4.000  0.9043  116.5   0.370    8.5  0.1868   45.1  0.4082  167.7
 4.100  0.9030  115.3   0.362    8.1  0.1904   44.1  0.4153  166.1
 4.200  0.9021  114.0   0.354    7.6  0.1940   43.1  0.4227  164.6
 4.300  0.9016  112.8   0.346    7.1  0.1976   42.2  0.4305  163.1
 4.400  0.9015  111.5   0.338    6.6  0.2013   41.3  0.4384  161.7
 4.500  0.9019  110.3   0.330    6.1  0.2051   40.4  0.4467  160.3
 4.600  0.9015  109.4   0.324    6.1  0.2085   39.5  0.4539  159.0
 4.700  0.9013  108.5   0.318    6.1  0.2119   38.7  0.4614  157.8
 4.800  0.9014  107.5   0.312    6.0  0.2154   37.9  0.4691  156.6
 4.900  0.9017  106.6   0.306    6.0  0.2189   37.1  0.4769  155.4
 5.000  0.9022  105.7   0.300    6.0  0.2224   36.4  0.4850  154.3
 5.100  0.9021  104.8   0.298    6.0  0.2256   35.5  0.4919  153.3
 5.200  0.9021  104.0   0.295    5.9  0.2289   34.6  0.4989  152.4
 5.300  0.9024  103.1   0.293    5.9  0.2322   33.8  0.5061  151.5
 5.400  0.9028  102.3   0.290    5.8  0.2356   33.0  0.5133  150.6
 5.500  0.9035  101.4   0.288    5.8  0.2390   32.2  0.5207  149.8
 5.600  0.9015  100.5   0.286    5.9  0.2421   31.3  0.5243  149.1
 5.700  0.8996   99.6   0.285    6.0  0.2453   30.4  0.5281  148.4
 5.800  0.8980   98.8   0.283    6.2  0.2485   29.6  0.5319  147.7
 5.900  0.8966   97.9   0.282    6.3  0.2518   28.7  0.5358  147.1
 6.000  0.8954   97.0   0.280    6.4  0.2551   27.9  0.5397  146.4
!
!  f       NFmin   Gammaopt  rn/50
! GHz       dB    MAG  ANG    -
!
! noise parameter not available yet for this operation point!
!
! (c) 2017  Infineon Technologies AG, Munich