! Infineon Technologies  Discrete & RF Semiconductors
! BFP183W
! VCE =  8.0 V,  IC =  15 mA
! Common Emitter S-Parameters:                            Jan 2017
# GHz  S  MA  R  50
!  f         S11            S21            S12            S22
! GHz     MAG   ANG      MAG   ANG      MAG   ANG      MAG   ANG
 0.010  0.6463   -5.3  38.590  177.1  0.0017   95.6  0.9881   -2.7
 0.020  0.6328  -13.6  37.891  173.2  0.0030   92.8  0.9814   -5.4
 0.030  0.6261  -19.2  37.397  170.2  0.0049   82.1  0.9706   -8.0
 0.040  0.6255  -24.9  37.009  167.1  0.0068   77.4  0.9620  -10.7
 0.050  0.6310  -30.5  36.729  164.0  0.0088   74.8  0.9554  -13.4
 0.060  0.6200  -35.9  35.899  161.4  0.0102   72.2  0.9359  -15.5
 0.070  0.6146  -41.4  35.147  158.6  0.0116   70.3  0.9178  -17.7
 0.080  0.6149  -46.9  34.478  155.8  0.0131   68.7  0.9010  -20.0
 0.090  0.6210  -52.5  33.898  152.8  0.0145   67.5  0.8858  -22.4
 0.100  0.6327  -57.8  33.411  149.8  0.0160   66.5  0.8722  -24.9
 0.110  0.6239  -62.2  32.527  147.7  0.0171   64.6  0.8508  -26.5
 0.120  0.6189  -66.7  31.688  145.5  0.0181   62.9  0.8302  -28.2
 0.130  0.6177  -71.3  30.897  143.2  0.0192   61.4  0.8103  -30.0
 0.140  0.6205  -75.8  30.159  140.8  0.0203   60.0  0.7913  -31.9
 0.150  0.6271  -80.3  29.477  138.3  0.0214   58.8  0.7732  -33.9
 0.200  0.6254  -97.3  25.734  129.0  0.0248   53.0  0.6834  -40.1
 0.250  0.6219 -111.2  22.546  121.7  0.0280   47.6  0.6059  -44.6
 0.300  0.6190 -121.8  19.844  116.1  0.0294   45.8  0.5412  -47.7
 0.350  0.6132 -129.3  17.828  112.3  0.0311   44.3  0.4957  -49.3
 0.400  0.6181 -136.9  15.912  107.5  0.0328   43.0  0.4507  -51.3
 0.450  0.6156 -142.2  14.490  104.8  0.0338   42.9  0.4206  -52.1
 0.500  0.6183 -147.4  13.108  101.5  0.0349   42.8  0.3905  -53.0
 0.600  0.6183 -155.3  11.149   96.7  0.0377   43.0  0.3493  -54.0
 0.700  0.6170 -161.6   9.641   92.8  0.0390   44.0  0.3201  -54.2
 0.800  0.6175 -166.9   8.515   89.2  0.0420   46.3  0.3006  -54.5
 0.900  0.6161 -171.4   7.583   86.1  0.0443   46.7  0.2846  -55.1
 1.000  0.6195 -175.1   6.879   83.4  0.0460   47.7  0.2725  -55.4
 1.100  0.6227 -178.4   6.266   80.9  0.0489   49.3  0.2648  -55.9
 1.200  0.6236  178.4   5.750   78.3  0.0511   50.2  0.2574  -56.4
 1.300  0.6230  175.4   5.317   76.1  0.0539   50.8  0.2521  -57.4
 1.400  0.6269  172.8   4.958   73.8  0.0572   51.7  0.2465  -58.3
 1.500  0.6322  170.3   4.626   71.7  0.0597   52.1  0.2429  -59.5
 1.600  0.6329  167.9   4.349   69.5  0.0624   52.8  0.2409  -60.7
 1.700  0.6343  165.4   4.104   67.5  0.0652   53.5  0.2379  -62.3
 1.800  0.6379  163.2   3.894   65.4  0.0682   53.8  0.2354  -63.9
 1.900  0.6429  161.1   3.691   63.6  0.0707   54.2  0.2336  -65.6
 2.000  0.6449  158.9   3.505   61.5  0.0741   54.8  0.2324  -67.4
 2.100  0.6479  156.8   3.347   59.6  0.0771   54.7  0.2309  -69.4
 2.200  0.6518  154.8   3.193   57.5  0.0801   54.6  0.2297  -71.5
 2.300  0.6557  152.9   3.060   55.7  0.0832   54.7  0.2293  -73.7
 2.400  0.6602  151.1   2.931   53.7  0.0864   54.8  0.2293  -75.9
 2.500  0.6631  149.3   2.816   52.0  0.0894   54.7  0.2293  -78.3
 2.600  0.6667  147.6   2.704   50.1  0.0925   54.6  0.2296  -80.6
 2.700  0.6706  145.8   2.606   48.4  0.0955   54.4  0.2301  -82.9
 2.800  0.6751  144.0   2.510   46.6  0.0985   54.2  0.2310  -85.2
 2.900  0.6781  142.3   2.425   44.9  0.1014   53.8  0.2310  -87.7
 3.000  0.6816  140.7   2.342   43.0  0.1044   53.5  0.2315  -90.1
 3.100  0.6850  139.1   2.271   41.5  0.1077   53.3  0.2320  -92.5
 3.200  0.6889  137.5   2.202   40.0  0.1109   53.1  0.2330  -94.9
 3.300  0.6933  136.0   2.134   38.3  0.1142   52.9  0.2343  -97.3
 3.400  0.6983  134.4   2.069   36.6  0.1174   52.8  0.2361  -99.7
 3.500  0.7037  132.9   2.005   34.7  0.1207   52.6  0.2382 -102.0
 3.600  0.7071  131.5   1.951   33.3  0.1240   52.1  0.2389 -104.6
 3.700  0.7109  130.1   1.899   31.7  0.1272   51.6  0.2402 -107.3
 3.800  0.7152  128.6   1.847   30.1  0.1305   51.1  0.2419 -109.9
 3.900  0.7199  127.3   1.798   28.4  0.1338   50.6  0.2441 -112.4
 4.000  0.7250  125.9   1.750   26.6  0.1371   50.2  0.2468 -114.9
 4.100  0.7277  124.6   1.706   25.2  0.1403   49.6  0.2486 -117.8
 4.200  0.7309  123.3   1.663   23.7  0.1435   49.1  0.2510 -120.7
 4.300  0.7343  122.1   1.621   22.2  0.1467   48.6  0.2540 -123.4
 4.400  0.7381  120.8   1.580   20.5  0.1499   48.1  0.2576 -126.2
 4.500  0.7423  119.6   1.541   18.8  0.1531   47.6  0.2618 -128.8
 4.600  0.7457  118.6   1.503   17.6  0.1564   47.1  0.2664 -131.5
 4.700  0.7493  117.6   1.467   16.3  0.1598   46.6  0.2715 -134.2
 4.800  0.7531  116.6   1.431   14.9  0.1631   46.1  0.2773 -136.7
 4.900  0.7572  115.6   1.395   13.5  0.1665   45.6  0.2835 -139.1
 5.000  0.7615  114.6   1.361   12.0  0.1699   45.2  0.2902 -141.4
 5.100  0.7639  113.7   1.334   10.8  0.1733   44.6  0.2977 -143.6
 5.200  0.7665  112.7   1.307    9.6  0.1768   44.1  0.3056 -145.7
 5.300  0.7693  111.8   1.281    8.4  0.1802   43.5  0.3139 -147.7
 5.400  0.7723  110.9   1.256    7.1  0.1837   43.0  0.3226 -149.6
 5.500  0.7755  110.0   1.231    5.7  0.1872   42.5  0.3316 -151.4
 5.600  0.7766  109.1   1.206    4.6  0.1907   41.8  0.3390 -152.9
 5.700  0.7780  108.2   1.182    3.5  0.1943   41.1  0.3467 -154.4
 5.800  0.7795  107.3   1.158    2.3  0.1979   40.4  0.3546 -155.8
 5.900  0.7812  106.4   1.135    1.1  0.2015   39.8  0.3626 -157.1
 6.000  0.7831  105.5   1.112   -0.2  0.2051   39.2  0.3709 -158.4
!
!  f       NFmin   Gammaopt  rn/50
! GHz       dB    MAG  ANG    -
 0.450      1.05  0.15  158   0.10
 0.900      1.09  0.21  163   0.09
 1.900      1.56  0.39 -168   0.08
 2.400      1.80  0.44 -161   0.11
!
! (c) 2017  Infineon Technologies AG, Munich