! Infineon Technologies  Discrete & RF Semiconductors
! BFP183W
! VCE =  4.0 V,  IC =  43 mA
! Common Emitter S-Parameters:                            Jan 2017
# GHz  S  MA  R  50
!  f         S11            S21            S12            S22
! GHz     MAG   ANG      MAG   ANG      MAG   ANG      MAG   ANG
 0.010  0.2738  -21.1  65.949  174.3  0.0013   90.9  0.9469   -4.8
 0.020  0.2942  -42.7  64.843  167.6  0.0024   84.6  0.9296  -10.3
 0.030  0.3081  -58.8  62.037  162.5  0.0041   74.5  0.8951  -14.8
 0.040  0.3434  -72.5  59.763  157.0  0.0058   70.4  0.8665  -19.7
 0.050  0.3943  -83.2  58.084  151.1  0.0075   68.1  0.8446  -24.8
 0.060  0.4049  -92.0  54.962  147.9  0.0084   65.1  0.8035  -27.3
 0.070  0.4243 -100.1  52.029  144.4  0.0092   62.7  0.7641  -30.2
 0.080  0.4516 -107.4  49.318  140.4  0.0101   60.7  0.7268  -33.3
 0.090  0.4852 -113.8  46.868  136.0  0.0110   59.0  0.6918  -36.7
 0.100  0.5241 -119.3  44.722  131.2  0.0119   57.6  0.6596  -40.5
 0.110  0.5327 -123.3  42.562  129.3  0.0124   56.1  0.6305  -41.8
 0.120  0.5439 -127.2  40.455  127.2  0.0129   54.7  0.6017  -43.2
 0.130  0.5575 -130.9  38.410  124.8  0.0134   53.3  0.5733  -44.8
 0.140  0.5732 -134.4  36.436  122.2  0.0139   52.1  0.5454  -46.5
 0.150  0.5910 -137.7  34.547  119.3  0.0144   51.0  0.5181  -48.4
 0.200  0.6214 -148.4  27.571  111.4  0.0152   50.4  0.4266  -52.1
 0.250  0.6396 -155.8  22.796  105.8  0.0171   49.9  0.3640  -53.9
 0.300  0.6492 -161.2  19.310  101.8  0.0186   49.3  0.3198  -54.5
 0.350  0.6527 -164.9  17.040   99.2  0.0197   52.4  0.2926  -54.5
 0.400  0.6590 -168.6  14.815   95.9  0.0209   55.1  0.2654  -54.4
 0.450  0.6605 -171.1  13.372   94.1  0.0225   56.0  0.2503  -54.1
 0.500  0.6633 -173.6  11.946   91.8  0.0241   56.8  0.2353  -53.7
 0.600  0.6674 -177.6  10.020   88.3  0.0278   58.4  0.2154  -53.3
 0.700  0.6701  179.4   8.604   85.4  0.0303   61.6  0.2030  -52.8
 0.800  0.6732  176.4   7.552   82.6  0.0341   63.2  0.1963  -53.0
 0.900  0.6718  173.6   6.702   80.1  0.0374   63.8  0.1907  -53.6
 1.000  0.6749  171.3   6.059   77.9  0.0410   64.9  0.1860  -54.2
 1.100  0.6780  169.1   5.513   75.7  0.0443   65.2  0.1841  -55.0
 1.200  0.6780  166.8   5.052   73.5  0.0478   65.3  0.1822  -56.2
 1.300  0.6782  164.8   4.665   71.4  0.0512   65.4  0.1811  -57.7
 1.400  0.6812  162.8   4.347   69.4  0.0552   65.8  0.1796  -59.1
 1.500  0.6859  161.0   4.054   67.4  0.0587   65.5  0.1789  -60.8
 1.600  0.6878  159.1   3.808   65.4  0.0621   65.5  0.1793  -62.7
 1.700  0.6898  157.2   3.591   63.5  0.0659   65.9  0.1789  -65.0
 1.800  0.6925  155.4   3.404   61.5  0.0696   65.4  0.1785  -67.3
 1.900  0.6963  153.9   3.224   59.8  0.0729   65.5  0.1787  -69.4
 2.000  0.6977  151.9   3.061   57.7  0.0769   64.7  0.1796  -72.0
 2.100  0.7003  150.2   2.922   55.9  0.0804   64.3  0.1801  -74.7
 2.200  0.7036  148.5   2.787   53.9  0.0839   64.0  0.1810  -77.3
 2.300  0.7079  146.8   2.670   52.2  0.0876   63.5  0.1823  -80.2
 2.400  0.7127  145.2   2.556   50.3  0.0913   63.0  0.1841  -83.1
 2.500  0.7144  143.6   2.455   48.6  0.0949   62.5  0.1858  -86.0
 2.600  0.7166  142.1   2.357   46.7  0.0985   62.1  0.1879  -88.8
 2.700  0.7204  140.6   2.271   45.1  0.1021   61.5  0.1902  -91.6
 2.800  0.7246  139.1   2.186   43.3  0.1058   60.9  0.1930  -94.4
 2.900  0.7273  137.6   2.111   41.6  0.1092   60.3  0.1949  -97.2
 3.000  0.7304  136.1   2.038   39.8  0.1126   59.8  0.1972 -100.0
 3.100  0.7332  134.7   1.976   38.4  0.1163   59.1  0.1993 -102.8
 3.200  0.7365  133.2   1.916   36.9  0.1199   58.5  0.2018 -105.5
 3.300  0.7403  131.8   1.856   35.2  0.1236   58.0  0.2048 -108.2
 3.400  0.7445  130.4   1.799   33.5  0.1273   57.4  0.2083 -110.8
 3.500  0.7491  129.0   1.743   31.7  0.1310   56.9  0.2121 -113.3
 3.600  0.7518  127.6   1.696   30.3  0.1345   56.1  0.2143 -116.2
 3.700  0.7549  126.3   1.649   28.8  0.1380   55.4  0.2171 -118.9
 3.800  0.7584  124.9   1.604   27.2  0.1415   54.8  0.2204 -121.6
 3.900  0.7624  123.6   1.560   25.5  0.1450   54.1  0.2241 -124.3
 4.000  0.7667  122.3   1.518   23.7  0.1486   53.5  0.2283 -126.8
 4.100  0.7688  121.1   1.480   22.4  0.1520   52.7  0.2318 -129.8
 4.200  0.7713  119.9   1.442   20.9  0.1554   52.0  0.2358 -132.6
 4.300  0.7741  118.7   1.405   19.4  0.1589   51.2  0.2405 -135.4
 4.400  0.7772  117.6   1.370   17.9  0.1624   50.6  0.2456 -138.1
 4.500  0.7807  116.4   1.335   16.2  0.1659   49.9  0.2513 -140.6
 4.600  0.7836  115.4   1.303   15.0  0.1693   49.2  0.2573 -143.3
 4.700  0.7867  114.5   1.271   13.8  0.1727   48.5  0.2639 -145.8
 4.800  0.7901  113.6   1.240   12.5  0.1762   47.9  0.2709 -148.2
 4.900  0.7936  112.6   1.210   11.1  0.1796   47.3  0.2784 -150.4
 5.000  0.7974  111.7   1.180    9.7  0.1831   46.7  0.2863 -152.6
 5.100  0.7993  110.8   1.157    8.6  0.1867   46.0  0.2949 -154.6
 5.200  0.8015  109.9   1.134    7.4  0.1903   45.3  0.3038 -156.5
 5.300  0.8038  109.0   1.111    6.2  0.1939   44.6  0.3131 -158.3
 5.400  0.8063  108.2   1.089    4.9  0.1975   43.9  0.3226 -159.9
 5.500  0.8090  107.3   1.068    3.6  0.2012   43.3  0.3324 -161.5
 5.600  0.8095  106.4   1.047    2.6  0.2047   42.5  0.3402 -162.9
 5.700  0.8101  105.5   1.026    1.5  0.2083   41.7  0.3482 -164.2
 5.800  0.8109  104.7   1.006    0.4  0.2119   40.9  0.3564 -165.4
 5.900  0.8120  103.8   0.986   -0.8  0.2155   40.1  0.3647 -166.6
 6.000  0.8132  102.9   0.966   -2.0  0.2192   39.4  0.3732 -167.7
!
!  f       NFmin   Gammaopt  rn/50
! GHz       dB    MAG  ANG    -
!
! noise parameter not available yet for this operation point!
!
! (c) 2017  Infineon Technologies AG, Munich