! Infineon Technologies  Discrete & RF Semiconductors
! BFP183W
! VCE =  9.0 V,  IC =  25 mA
! Common Emitter S-Parameters:                            Jan 2017
# GHz  S  MA  R  50
!  f         S11            S21            S12            S22
! GHz     MAG   ANG      MAG   ANG      MAG   ANG      MAG   ANG
 0.010  0.5262   -7.6  51.675  175.8  0.0013   85.4  0.9769   -3.3
 0.020  0.5210  -18.4  50.696  171.2  0.0035   90.6  0.9643   -6.9
 0.030  0.5136  -26.4  49.614  167.6  0.0050   82.5  0.9485  -10.2
 0.040  0.5163  -34.4  48.740  163.8  0.0066   78.1  0.9360  -13.5
 0.050  0.5289  -42.2  48.085  159.9  0.0082   75.5  0.9267  -17.0
 0.060  0.5189  -49.0  46.522  157.0  0.0094   72.2  0.8993  -19.4
 0.070  0.5164  -55.9  45.088  153.9  0.0106   69.7  0.8736  -22.0
 0.080  0.5214  -62.8  43.796  150.6  0.0118   67.7  0.8497  -24.7
 0.090  0.5339  -69.5  42.657  147.1  0.0131   66.0  0.8278  -27.5
 0.100  0.5532  -75.8  41.686  143.4  0.0143   64.7  0.8081  -30.5
 0.110  0.5484  -80.7  40.239  141.3  0.0150   62.3  0.7821  -32.1
 0.120  0.5478  -85.7  38.850  139.0  0.0158   60.1  0.7568  -33.9
 0.130  0.5513  -90.7  37.527  136.6  0.0165   58.1  0.7323  -35.7
 0.140  0.5590  -95.6  36.276  134.0  0.0173   56.3  0.7085  -37.7
 0.150  0.5705 -100.3  35.105  131.2  0.0181   54.7  0.6857  -39.8
 0.200  0.5836 -116.6  29.535  122.1  0.0200   52.4  0.5877  -45.6
 0.250  0.5913 -128.8  25.220  115.2  0.0221   47.7  0.5099  -49.2
 0.300  0.5950 -137.8  21.808  110.2  0.0239   46.6  0.4501  -51.6
 0.350  0.5957 -144.1  19.421  106.9  0.0251   47.0  0.4100  -52.5
 0.400  0.6035 -150.3  17.113  102.8  0.0264   47.4  0.3701  -53.7
 0.450  0.6031 -154.5  15.511  100.5  0.0276   47.8  0.3456  -54.0
 0.500  0.6059 -158.7  13.941   97.6  0.0288   48.2  0.3212  -54.4
 0.600  0.6081 -165.0  11.780   93.4  0.0316   50.2  0.2881  -54.6
 0.700  0.6098 -169.8  10.152   90.0  0.0339   52.9  0.2658  -54.4
 0.800  0.6131 -174.2   8.939   86.8  0.0368   54.2  0.2513  -54.5
 0.900  0.6115 -177.8   7.946   84.0  0.0400   54.6  0.2395  -54.8
 1.000  0.6145  179.1   7.192   81.5  0.0429   56.0  0.2300  -55.0
 1.100  0.6188  176.2   6.551   79.3  0.0457   57.4  0.2253  -55.5
 1.200  0.6196  173.5   6.006   76.9  0.0485   57.8  0.2200  -56.1
 1.300  0.6179  170.7   5.551   74.7  0.0518   58.3  0.2161  -57.1
 1.400  0.6219  168.5   5.173   72.6  0.0555   59.7  0.2125  -58.2
 1.500  0.6264  166.5   4.826   70.6  0.0582   59.4  0.2101  -59.3
 1.600  0.6289  164.2   4.536   68.6  0.0619   59.6  0.2084  -60.6
 1.700  0.6301  161.9   4.276   66.7  0.0650   59.7  0.2060  -62.4
 1.800  0.6351  160.0   4.057   64.7  0.0684   59.7  0.2045  -64.0
 1.900  0.6386  158.2   3.843   62.9  0.0717   60.0  0.2035  -66.0
 2.000  0.6416  156.0   3.649   60.9  0.0754   59.7  0.2031  -68.1
 2.100  0.6434  154.1   3.485   59.1  0.0784   59.5  0.2021  -70.2
 2.200  0.6460  152.2   3.324   57.1  0.0815   59.3  0.2014  -72.4
 2.300  0.6507  150.4   3.186   55.3  0.0849   59.2  0.2015  -74.9
 2.400  0.6560  148.6   3.051   53.4  0.0884   59.1  0.2019  -77.4
 2.500  0.6586  147.0   2.931   51.8  0.0916   58.6  0.2024  -79.9
 2.600  0.6617  145.5   2.813   50.0  0.0949   58.2  0.2033  -82.4
 2.700  0.6661  143.8   2.711   48.4  0.0983   57.9  0.2041  -84.9
 2.800  0.6711  142.2   2.611   46.6  0.1018   57.6  0.2052  -87.3
 2.900  0.6741  140.6   2.522   44.9  0.1050   57.1  0.2059  -89.9
 3.000  0.6776  139.0   2.435   43.1  0.1083   56.7  0.2070  -92.5
 3.100  0.6810  137.5   2.361   41.7  0.1116   56.2  0.2077  -95.1
 3.200  0.6848  136.0   2.289   40.2  0.1150   55.8  0.2089  -97.6
 3.300  0.6891  134.5   2.219   38.5  0.1184   55.4  0.2104 -100.1
 3.400  0.6938  133.0   2.150   36.8  0.1217   55.0  0.2124 -102.6
 3.500  0.6990  131.6   2.084   35.0  0.1251   54.6  0.2147 -105.0
 3.600  0.7021  130.2   2.028   33.6  0.1284   53.9  0.2157 -107.7
 3.700  0.7057  128.8   1.974   32.1  0.1317   53.3  0.2173 -110.4
 3.800  0.7096  127.5   1.921   30.5  0.1350   52.7  0.2192 -113.1
 3.900  0.7140  126.1   1.870   28.9  0.1383   52.1  0.2217 -115.7
 4.000  0.7187  124.8   1.820   27.1  0.1416   51.6  0.2246 -118.2
 4.100  0.7219  123.6   1.774   25.7  0.1449   50.9  0.2267 -121.1
 4.200  0.7254  122.3   1.730   24.3  0.1482   50.3  0.2294 -124.0
 4.300  0.7292  121.1   1.687   22.7  0.1516   49.7  0.2326 -126.8
 4.400  0.7334  119.9   1.645   21.1  0.1549   49.1  0.2364 -129.5
 4.500  0.7379  118.7   1.604   19.4  0.1583   48.5  0.2407 -132.1
 4.600  0.7412  117.7   1.565   18.2  0.1616   47.9  0.2455 -134.9
 4.700  0.7448  116.7   1.528   16.9  0.1649   47.4  0.2509 -137.6
 4.800  0.7486  115.7   1.490   15.6  0.1682   46.8  0.2568 -140.1
 4.900  0.7526  114.8   1.454   14.2  0.1715   46.3  0.2632 -142.6
 5.000  0.7568  113.8   1.419   12.7  0.1748   45.8  0.2700 -144.9
 5.100  0.7594  112.9   1.391   11.6  0.1782   45.1  0.2778 -147.0
 5.200  0.7621  112.0   1.363   10.4  0.1816   44.4  0.2859 -149.1
 5.300  0.7650  111.1   1.336    9.1  0.1850   43.8  0.2944 -151.0
 5.400  0.7681  110.3   1.310    7.8  0.1884   43.2  0.3032 -152.8
 5.500  0.7714  109.4   1.284    6.5  0.1919   42.6  0.3123 -154.5
 5.600  0.7724  108.5   1.259    5.4  0.1953   41.9  0.3198 -155.9
 5.700  0.7737  107.6   1.234    4.3  0.1987   41.2  0.3274 -157.3
 5.800  0.7751  106.8   1.210    3.1  0.2021   40.5  0.3353 -158.6
 5.900  0.7766  105.9   1.187    1.9  0.2055   39.8  0.3433 -159.9
 6.000  0.7784  105.0   1.164    0.6  0.2090   39.2  0.3515 -161.1
!
!  f       NFmin   Gammaopt  rn/50
! GHz       dB    MAG  ANG    -
 0.450      1.29  0.25  177   0.10
 0.900      1.32  0.28  180   0.09
 1.900      1.80  0.43 -158   0.09
 2.400      2.04  0.48 -154   0.13
!
! (c) 2017  Infineon Technologies AG, Munich