! Infineon Technologies  Discrete & RF Semiconductors
! BFP183W
! VCE =  1.0 V,  IC =  13 mA
! Common Emitter S-Parameters:                            Jan 2017
# GHz  S  MA  R  50
!  f         S11            S21            S12            S22
! GHz     MAG   ANG      MAG   ANG      MAG   ANG      MAG   ANG
 0.010  0.6297   -7.6  35.744  177.0  0.0023   86.0  0.9807   -3.8
 0.020  0.6164  -17.7  35.283  172.3  0.0055   87.5  0.9669   -7.7
 0.030  0.6080  -25.0  34.618  168.6  0.0079   78.8  0.9512  -11.3
 0.040  0.6097  -32.4  34.101  164.8  0.0104   74.2  0.9394  -14.9
 0.050  0.6213  -39.6  33.739  160.9  0.0130   71.4  0.9315  -18.7
 0.060  0.6086  -46.1  32.710  158.0  0.0149   68.8  0.9041  -21.5
 0.070  0.6039  -52.7  31.772  154.9  0.0168   66.8  0.8789  -24.5
 0.080  0.6074  -59.3  30.933  151.6  0.0188   65.2  0.8563  -27.6
 0.090  0.6189  -65.8  30.201  148.1  0.0207   64.0  0.8363  -30.9
 0.100  0.6380  -72.0  29.585  144.5  0.0227   62.9  0.8192  -34.3
 0.110  0.6312  -76.9  28.603  142.4  0.0240   60.3  0.7921  -36.3
 0.120  0.6290  -81.8  27.664  140.1  0.0253   57.9  0.7660  -38.5
 0.130  0.6315  -86.7  26.772  137.6  0.0267   55.8  0.7411  -40.8
 0.140  0.6386  -91.6  25.933  135.0  0.0281   53.8  0.7175  -43.3
 0.150  0.6502  -96.3  25.151  132.2  0.0295   52.1  0.6953  -45.9
 0.200  0.6614 -113.0  21.297  122.9  0.0324   46.0  0.5945  -54.0
 0.250  0.6677 -125.7  18.268  115.9  0.0358   41.6  0.5130  -60.0
 0.300  0.6714 -135.3  15.843  110.6  0.0376   39.4  0.4493  -64.5
 0.350  0.6700 -141.7  14.125  107.2  0.0392   38.5  0.4049  -67.3
 0.400  0.6768 -148.0  12.471  102.8  0.0408   37.7  0.3616  -70.7
 0.450  0.6756 -152.5  11.315  100.3  0.0419   37.6  0.3331  -72.5
 0.500  0.6785 -156.9  10.185   97.2  0.0431   37.5  0.3051  -74.7
 0.600  0.6815 -163.5   8.606   92.8  0.0453   37.6  0.2668  -77.8
 0.700  0.6826 -168.7   7.424   89.1  0.0474   39.1  0.2392  -79.9
 0.800  0.6849 -173.1   6.536   85.7  0.0501   41.4  0.2209  -81.9
 0.900  0.6840 -177.0   5.812   82.7  0.0522   41.9  0.2071  -83.9
 1.000  0.6872  179.8   5.262   80.0  0.0550   43.5  0.1958  -85.6
 1.100  0.6892  176.7   4.794   77.6  0.0579   44.0  0.1883  -86.9
 1.200  0.6889  173.9   4.398   75.0  0.0606   45.5  0.1820  -88.6
 1.300  0.6903  171.2   4.067   72.7  0.0631   46.2  0.1775  -90.4
 1.400  0.6926  168.9   3.793   70.4  0.0667   46.9  0.1733  -92.3
 1.500  0.6972  166.7   3.539   68.2  0.0698   47.7  0.1704  -94.4
 1.600  0.6997  164.2   3.328   66.0  0.0728   48.3  0.1695  -96.0
 1.700  0.7014  162.1   3.142   63.9  0.0759   48.8  0.1682  -98.4
 1.800  0.7057  159.9   2.980   61.7  0.0793   49.3  0.1675 -100.7
 1.900  0.7083  158.0   2.824   59.8  0.0820   49.1  0.1677 -102.8
 2.000  0.7110  155.8   2.684   57.6  0.0858   49.5  0.1691 -105.1
 2.100  0.7138  153.8   2.563   55.6  0.0890   49.7  0.1700 -107.7
 2.200  0.7174  151.8   2.445   53.5  0.0922   49.8  0.1713 -110.3
 2.300  0.7210  150.0   2.344   51.6  0.0956   49.7  0.1737 -112.8
 2.400  0.7254  148.2   2.245   49.6  0.0991   49.6  0.1765 -115.2
 2.500  0.7270  146.5   2.156   47.8  0.1023   49.3  0.1797 -117.7
 2.600  0.7293  144.9   2.070   45.8  0.1056   49.1  0.1833 -120.1
 2.700  0.7329  143.1   1.995   44.1  0.1088   49.0  0.1868 -122.3
 2.800  0.7371  141.4   1.921   42.2  0.1121   49.0  0.1906 -124.5
 2.900  0.7396  139.8   1.855   40.4  0.1155   48.5  0.1939 -126.9
 3.000  0.7427  138.2   1.791   38.5  0.1189   48.1  0.1975 -129.2
 3.100  0.7452  136.6   1.737   37.0  0.1222   47.8  0.2011 -131.5
 3.200  0.7483  135.1   1.684   35.4  0.1255   47.6  0.2050 -133.7
 3.300  0.7520  133.5   1.632   33.7  0.1288   47.3  0.2092 -135.9
 3.400  0.7562  132.0   1.582   31.9  0.1321   47.1  0.2137 -137.9
 3.500  0.7609  130.5   1.533   30.0  0.1354   46.9  0.2184 -139.9
 3.600  0.7633  129.1   1.492   28.5  0.1388   46.3  0.2225 -142.3
 3.700  0.7661  127.7   1.452   27.0  0.1421   45.8  0.2271 -144.6
 3.800  0.7694  126.3   1.412   25.4  0.1455   45.3  0.2319 -146.8
 3.900  0.7731  125.0   1.375   23.6  0.1489   44.8  0.2371 -148.9
 4.000  0.7773  123.6   1.338   21.8  0.1523   44.3  0.2426 -150.9
 4.100  0.7793  122.3   1.304   20.4  0.1555   43.7  0.2480 -153.3
 4.200  0.7817  121.0   1.271   19.0  0.1587   43.2  0.2539 -155.6
 4.300  0.7845  119.7   1.238   17.4  0.1619   42.6  0.2602 -157.8
 4.400  0.7877  118.5   1.207   15.8  0.1651   42.1  0.2668 -159.8
 4.500  0.7913  117.2   1.176   14.1  0.1683   41.6  0.2737 -161.8
 4.600  0.7935  116.2   1.148   12.9  0.1716   41.0  0.2811 -163.8
 4.700  0.7959  115.2   1.120   11.7  0.1749   40.5  0.2887 -165.7
 4.800  0.7986  114.2   1.092   10.4  0.1783   40.0  0.2967 -167.4
 4.900  0.8015  113.3   1.065    9.0  0.1816   39.5  0.3049 -169.1
 5.000  0.8046  112.3   1.039    7.6  0.1850   39.0  0.3134 -170.7
 5.100  0.8066  111.4   1.019    6.5  0.1884   38.4  0.3222 -172.1
 5.200  0.8088  110.5   0.999    5.3  0.1919   37.8  0.3312 -173.4
 5.300  0.8112  109.6   0.979    4.1  0.1953   37.2  0.3403 -174.7
 5.400  0.8138  108.7   0.960    2.9  0.1988   36.6  0.3496 -175.9
 5.500  0.8166  107.8   0.941    1.6  0.2023   36.1  0.3591 -177.0
 5.600  0.8163  106.9   0.923    0.6  0.2057   35.4  0.3663 -178.0
 5.700  0.8163  106.0   0.904   -0.4  0.2091   34.8  0.3736 -178.9
 5.800  0.8164  105.1   0.887   -1.5  0.2125   34.1  0.3811 -179.9
 5.900  0.8168  104.2   0.869   -2.6  0.2159   33.5  0.3886  179.2
 6.000  0.8173  103.3   0.852   -3.8  0.2194   32.9  0.3962  178.4
!
!  f       NFmin   Gammaopt  rn/50
! GHz       dB    MAG  ANG    -
 0.450      1.01  0.12  144   0.10
 0.900      1.04  0.19  155   0.09
 1.900      1.52  0.38 -172   0.08
 2.400      1.75  0.44 -164   0.10
!
! (c) 2017  Infineon Technologies AG, Munich