! Infineon Technologies  Discrete & RF Semiconductors
! BFP183W
! VCE =  11. V,  IC =  40 mA
! Common Emitter S-Parameters:                            Jan 2017
# GHz  S  MA  R  50
!  f         S11            S21            S12            S22
! GHz     MAG   ANG      MAG   ANG      MAG   ANG      MAG   ANG
 0.010  0.4712   -9.6  45.755  174.5  0.0016   53.4  0.9030   -2.6
 0.020  0.4656  -22.5  44.881  169.0  0.0032   78.5  0.8953   -6.1
 0.030  0.4542  -31.4  43.189  164.8  0.0046   72.6  0.8765   -8.8
 0.040  0.4542  -40.6  41.750  160.2  0.0061   69.4  0.8597  -11.7
 0.050  0.4656  -49.5  40.591  155.4  0.0075   67.5  0.8451  -14.6
 0.060  0.4551  -56.4  38.821  152.6  0.0086   65.4  0.8219  -16.3
 0.070  0.4515  -63.5  37.150  149.6  0.0096   63.8  0.7995  -18.1
 0.080  0.4548  -70.7  35.591  146.3  0.0107   62.5  0.7778  -19.9
 0.090  0.4651  -77.6  34.159  142.8  0.0118   61.4  0.7571  -21.9
 0.100  0.4818  -84.1  32.872  138.9  0.0129   60.5  0.7373  -24.0
 0.110  0.4804  -88.4  31.562  137.2  0.0137   59.2  0.7191  -25.0
 0.120  0.4816  -92.7  30.283  135.3  0.0145   58.1  0.7012  -26.0
 0.130  0.4856  -97.0  29.041  133.2  0.0153   57.0  0.6834  -27.0
 0.140  0.4922 -101.2  27.840  130.9  0.0162   56.1  0.6659  -28.1
 0.150  0.5014 -105.2  26.685  128.5  0.0170   55.3  0.6487  -29.3
 0.200  0.5327 -120.3  22.365  120.9  0.0195   53.0  0.5805  -32.8
 0.250  0.5437 -130.4  19.065  115.3  0.0226   50.0  0.5301  -34.7
 0.300  0.5689 -138.4  16.655  111.0  0.0238   48.6  0.4893  -36.4
 0.350  0.5762 -144.1  14.926  108.1  0.0257   48.1  0.4615  -37.2
 0.400  0.5891 -149.6  13.246  104.4  0.0276   47.7  0.4339  -38.1
 0.450  0.5944 -153.7  12.073  102.1  0.0288   47.8  0.4156  -38.6
 0.500  0.6028 -157.8  10.923   99.4  0.0301   47.8  0.3974  -39.2
 0.600  0.6151 -164.1   9.306   95.3  0.0326   48.1  0.3714  -40.0
 0.700  0.6224 -169.1   8.081   91.8  0.0343   49.4  0.3534  -40.7
 0.800  0.6277 -173.5   7.152   88.5  0.0372   52.3  0.3416  -41.7
 0.900  0.6319 -177.1   6.398   85.8  0.0397   52.3  0.3311  -42.9
 1.000  0.6350  179.6   5.816   83.2  0.0421   53.8  0.3230  -44.0
 1.100  0.6398  176.6   5.313   80.8  0.0450   55.0  0.3183  -45.2
 1.200  0.6416  173.8   4.891   78.3  0.0476   55.0  0.3122  -46.4
 1.300  0.6432  171.2   4.532   76.0  0.0502   55.9  0.3084  -47.9
 1.400  0.6460  168.9   4.237   73.8  0.0530   57.3  0.3041  -49.5
 1.500  0.6489  166.6   3.963   71.8  0.0559   57.7  0.3008  -51.2
 1.600  0.6527  164.3   3.732   69.6  0.0593   58.2  0.2988  -52.8
 1.700  0.6556  162.0   3.526   67.5  0.0617   58.8  0.2955  -54.7
 1.800  0.6597  160.0   3.351   65.4  0.0648   59.0  0.2929  -56.6
 1.900  0.6620  158.1   3.181   63.6  0.0679   59.2  0.2912  -58.5
 2.000  0.6648  156.0   3.026   61.4  0.0713   59.4  0.2901  -60.5
 2.100  0.6683  154.0   2.894   59.5  0.0744   59.5  0.2880  -62.7
 2.200  0.6726  152.1   2.766   57.4  0.0776   59.5  0.2863  -65.0
 2.300  0.6767  150.3   2.655   55.6  0.0808   59.4  0.2858  -67.3
 2.400  0.6814  148.5   2.546   53.6  0.0841   59.4  0.2858  -69.7
 2.500  0.6842  146.8   2.447   51.8  0.0871   59.1  0.2852  -72.1
 2.600  0.6875  145.2   2.351   49.8  0.0901   58.9  0.2852  -74.5
 2.700  0.6911  143.5   2.268   48.1  0.0934   58.8  0.2853  -76.9
 2.800  0.6954  141.8   2.188   46.3  0.0967   58.8  0.2859  -79.3
 2.900  0.6986  140.2   2.114   44.5  0.1000   58.4  0.2857  -81.8
 3.000  0.7023  138.7   2.043   42.6  0.1034   58.0  0.2861  -84.2
 3.100  0.7052  137.1   1.982   41.1  0.1068   57.7  0.2860  -86.6
 3.200  0.7086  135.6   1.922   39.5  0.1102   57.3  0.2864  -89.1
 3.300  0.7126  134.1   1.864   37.8  0.1136   57.0  0.2874  -91.5
 3.400  0.7170  132.6   1.808   36.0  0.1170   56.8  0.2888  -93.9
 3.500  0.7219  131.1   1.753   34.1  0.1204   56.5  0.2908  -96.3
 3.600  0.7250  129.7   1.706   32.6  0.1239   55.9  0.2909  -98.9
 3.700  0.7286  128.3   1.661   31.1  0.1273   55.3  0.2916 -101.4
 3.800  0.7326  126.9   1.617   29.4  0.1308   54.8  0.2929 -104.0
 3.900  0.7371  125.5   1.574   27.7  0.1343   54.3  0.2947 -106.5
 4.000  0.7419  124.2   1.533   25.9  0.1378   53.8  0.2971 -109.0
 4.100  0.7444  122.9   1.494   24.5  0.1412   53.1  0.2981 -111.8
 4.200  0.7473  121.7   1.457   22.9  0.1447   52.5  0.2998 -114.6
 4.300  0.7506  120.4   1.420   21.3  0.1481   51.9  0.3022 -117.4
 4.400  0.7542  119.2   1.385   19.7  0.1516   51.3  0.3053 -120.1
 4.500  0.7581  118.0   1.351   17.9  0.1551   50.8  0.3090 -122.7
 4.600  0.7614  117.0   1.318   16.7  0.1586   50.2  0.3127 -125.5
 4.700  0.7650  116.1   1.286   15.4  0.1622   49.6  0.3171 -128.2
 4.800  0.7688  115.1   1.255   14.0  0.1657   49.1  0.3223 -130.9
 4.900  0.7728  114.1   1.224   12.6  0.1693   48.6  0.3281 -133.4
 5.000  0.7770  113.2   1.194   11.1  0.1729   48.1  0.3345 -135.9
 5.100  0.7789  112.3   1.170    9.9  0.1765   47.4  0.3416 -138.3
 5.200  0.7810  111.4   1.146    8.7  0.1801   46.8  0.3492 -140.6
 5.300  0.7833  110.5   1.123    7.5  0.1837   46.2  0.3574 -142.7
 5.400  0.7858  109.6   1.101    6.2  0.1873   45.6  0.3661 -144.8
 5.500  0.7885  108.7   1.079    4.8  0.1910   45.0  0.3752 -146.8
 5.600  0.7893  107.8   1.057    3.7  0.1947   44.2  0.3824 -148.5
 5.700  0.7904  106.9   1.036    2.6  0.1984   43.4  0.3899 -150.2
 5.800  0.7916  105.9   1.015    1.5  0.2021   42.7  0.3978 -151.8
 5.900  0.7931  105.0   0.994    0.3  0.2059   42.0  0.4060 -153.3
 6.000  0.7947  104.1   0.974   -1.0  0.2097   41.3  0.4144 -154.8
!
!  f       NFmin   Gammaopt  rn/50
! GHz       dB    MAG  ANG    -
!
! noise parameter not available yet for this operation point!
!
! (c) 2017  Infineon Technologies AG, Munich