! Infineon Technologies  Discrete & RF Semiconductors
! BFP183W
! VCE =  2.0 V,  IC =  63 mA
! Common Emitter S-Parameters:                            Jan 2017
# GHz  S  MA  R  50
!  f         S11            S21            S12            S22
! GHz     MAG   ANG      MAG   ANG      MAG   ANG      MAG   ANG
 0.010  0.1787  -99.8  54.484  168.4  0.0024   76.5  0.7198  -10.5
 0.020  0.3359 -114.3  51.431  156.5  0.0049   71.7  0.6748  -21.1
 0.030  0.4173 -125.5  45.969  150.0  0.0061   62.0  0.6099  -26.9
 0.040  0.5094 -132.9  41.253  141.9  0.0074   55.5  0.5528  -34.1
 0.050  0.6072 -137.9  37.565  131.9  0.0088   51.1  0.5062  -42.7
 0.060  0.6289 -142.4  34.447  129.4  0.0093   49.4  0.4676  -44.6
 0.070  0.6543 -146.6  31.410  126.3  0.0099   47.8  0.4296  -46.9
 0.080  0.6829 -150.5  28.480  122.6  0.0104   46.5  0.3924  -49.5
 0.090  0.7144 -154.1  25.694  118.1  0.0109   45.2  0.3563  -52.8
 0.100  0.7484 -157.3  23.104  112.6  0.0115   44.1  0.3215  -56.7
 0.110  0.7552 -159.0  21.688  111.3  0.0119   43.8  0.3041  -57.3
 0.120  0.7627 -160.7  20.284  109.9  0.0123   43.5  0.2867  -58.0
 0.130  0.7708 -162.3  18.895  108.2  0.0126   43.3  0.2694  -58.7
 0.140  0.7795 -163.9  17.525  106.3  0.0130   43.0  0.2521  -59.6
 0.150  0.7888 -165.5  16.178  104.0  0.0134   42.8  0.2349  -60.6
 0.200  0.8014 -170.5  12.329   98.4  0.0140   44.5  0.1908  -61.4
 0.250  0.8087 -174.1   9.954   94.6  0.0155   47.3  0.1647  -61.1
 0.300  0.8111 -176.7   8.327   91.8  0.0172   50.5  0.1475  -60.7
 0.350  0.8124 -178.6   7.303   89.9  0.0187   53.3  0.1389  -60.6
 0.400  0.8145  179.5   6.290   87.3  0.0203   55.6  0.1303  -60.5
 0.450  0.8141  178.0   5.660   85.7  0.0220   57.5  0.1268  -60.6
 0.500  0.8142  176.5   5.036   83.8  0.0237   59.2  0.1233  -60.8
 0.600  0.8152  174.2   4.204   80.7  0.0275   62.0  0.1192  -62.2
 0.700  0.8157  172.0   3.603   78.0  0.0302   64.1  0.1177  -63.6
 0.800  0.8184  169.7   3.157   75.1  0.0358   67.0  0.1197  -65.8
 0.900  0.8145  167.7   2.801   72.5  0.0387   67.2  0.1210  -68.5
 1.000  0.8175  165.9   2.531   70.1  0.0423   68.1  0.1226  -71.0
 1.100  0.8200  163.9   2.303   67.7  0.0467   68.4  0.1266  -73.5
 1.200  0.8203  162.0   2.111   65.2  0.0500   68.1  0.1292  -76.2
 1.300  0.8206  160.3   1.950   62.9  0.0540   68.5  0.1327  -79.0
 1.400  0.8238  158.4   1.818   60.6  0.0588   68.6  0.1355  -82.2
 1.500  0.8263  156.7   1.695   58.4  0.0622   68.3  0.1385  -85.0
 1.600  0.8290  155.0   1.594   56.1  0.0663   68.3  0.1429  -87.9
 1.700  0.8306  153.1   1.505   53.8  0.0705   67.9  0.1468  -91.4
 1.800  0.8330  151.4   1.427   51.5  0.0752   67.6  0.1509  -94.6
 1.900  0.8360  149.8   1.352   49.6  0.0787   67.5  0.1556  -97.7
 2.000  0.8372  147.9   1.283   47.3  0.0832   66.8  0.1608 -100.9
 2.100  0.8382  146.1   1.225   45.2  0.0873   66.3  0.1654 -104.2
 2.200  0.8401  144.3   1.168   42.9  0.0915   65.8  0.1706 -107.3
 2.300  0.8423  142.7   1.119   41.0  0.0956   65.0  0.1764 -110.4
 2.400  0.8451  141.1   1.071   38.9  0.0997   64.3  0.1827 -113.3
 2.500  0.8461  139.5   1.028   37.1  0.1038   63.8  0.1889 -116.3
 2.600  0.8477  138.0   0.987   35.1  0.1079   63.3  0.1955 -119.1
 2.700  0.8494  136.4   0.950   33.4  0.1119   62.7  0.2019 -121.9
 2.800  0.8518  134.9   0.913   31.5  0.1160   62.1  0.2087 -124.5
 2.900  0.8525  133.4   0.882   29.7  0.1200   61.2  0.2148 -127.2
 3.000  0.8538  131.9   0.852   27.8  0.1240   60.3  0.2214 -129.7
 3.100  0.8552  130.4   0.825   26.4  0.1281   59.6  0.2271 -132.4
 3.200  0.8571  129.0   0.799   24.9  0.1322   58.9  0.2333 -134.9
 3.300  0.8596  127.6   0.774   23.3  0.1363   58.2  0.2399 -137.4
 3.400  0.8626  126.1   0.749   21.6  0.1404   57.6  0.2469 -139.6
 3.500  0.8662  124.7   0.725   19.8  0.1446   57.0  0.2543 -141.8
 3.600  0.8669  123.3   0.705   18.6  0.1485   56.1  0.2602 -144.4
 3.700  0.8680  122.0   0.685   17.2  0.1525   55.2  0.2665 -146.9
 3.800  0.8697  120.6   0.666   15.8  0.1565   54.4  0.2734 -149.3
 3.900  0.8719  119.2   0.647   14.4  0.1605   53.6  0.2807 -151.6
 4.000  0.8745  117.9   0.628   12.8  0.1646   52.9  0.2884 -153.7
 4.100  0.8743  116.7   0.612   11.7  0.1684   52.0  0.2953 -156.2
 4.200  0.8744  115.5   0.596   10.6  0.1723   51.1  0.3027 -158.7
 4.300  0.8749  114.3   0.580    9.3  0.1762   50.3  0.3106 -161.0
 4.400  0.8758  113.1   0.564    8.1  0.1801   49.5  0.3190 -163.1
 4.500  0.8771  111.9   0.549    6.7  0.1841   48.7  0.3279 -165.2
 4.600  0.8776  110.9   0.536    5.9  0.1878   47.8  0.3363 -167.3
 4.700  0.8784  110.0   0.522    5.1  0.1915   47.0  0.3451 -169.3
 4.800  0.8794  109.0   0.509    4.3  0.1953   46.2  0.3543 -171.3
 4.900  0.8806  108.1   0.496    3.4  0.1991   45.4  0.3639 -173.1
 5.000  0.8821  107.1   0.483    2.5  0.2030   44.7  0.3739 -174.8
 5.100  0.8826  106.2   0.474    1.9  0.2067   43.8  0.3832 -176.4
 5.200  0.8833  105.4   0.465    1.3  0.2104   43.0  0.3929 -177.9
 5.300  0.8842  104.5   0.456    0.7  0.2142   42.2  0.4027 -179.3
 5.400  0.8853  103.7   0.448    0.1  0.2180   41.4  0.4129  179.3
 5.500  0.8866  102.8   0.439   -0.6  0.2219   40.6  0.4232  178.0
 5.600  0.8856  101.9   0.431   -1.0  0.2255   39.7  0.4305  176.8
 5.700  0.8848  101.0   0.423   -1.4  0.2291   38.8  0.4379  175.7
 5.800  0.8842  100.1   0.416   -1.9  0.2328   37.9  0.4455  174.6
 5.900  0.8838   99.2   0.408   -2.3  0.2366   37.0  0.4533  173.6
 6.000  0.8837   98.3   0.400   -2.8  0.2404   36.2  0.4612  172.6
!
!  f       NFmin   Gammaopt  rn/50
! GHz       dB    MAG  ANG    -
!
! noise parameter not available yet for this operation point!
!
! (c) 2017  Infineon Technologies AG, Munich