! Infineon Technologies  Discrete & RF Semiconductors
! BFP183W
! VCE =  3.0 V,  IC =  54 mA
! Common Emitter S-Parameters:                            Jan 2017
# GHz  S  MA  R  50
!  f         S11            S21            S12            S22
! GHz     MAG   ANG      MAG   ANG      MAG   ANG      MAG   ANG
 0.010  0.1802  -47.9  63.381  172.0  0.0016   80.6  0.8629   -6.5
 0.020  0.2575  -76.2  61.291  163.2  0.0032   84.3  0.8381  -13.7
 0.030  0.3091  -94.2  57.037  157.1  0.0046   70.9  0.7872  -18.7
 0.040  0.3818 -106.2  53.519  150.2  0.0061   63.9  0.7432  -24.3
 0.050  0.4657 -114.2  50.889  142.4  0.0077   59.8  0.7071  -30.6
 0.060  0.4878 -121.1  47.323  139.4  0.0084   57.1  0.6638  -32.6
 0.070  0.5163 -127.3  43.905  136.0  0.0091   54.8  0.6215  -34.9
 0.080  0.5501 -132.8  40.673  131.9  0.0099   52.9  0.5804  -37.6
 0.090  0.5884 -137.6  37.676  127.3  0.0106   51.2  0.5406  -40.6
 0.100  0.6304 -141.8  34.973  121.8  0.0114   49.8  0.5026  -44.1
 0.110  0.6401 -144.5  33.015  120.2  0.0116   48.9  0.4788  -44.8
 0.120  0.6513 -147.2  31.087  118.3  0.0119   48.1  0.4552  -45.5
 0.130  0.6637 -149.7  29.195  116.3  0.0121   47.3  0.4316  -46.3
 0.140  0.6775 -152.2  27.346  113.9  0.0124   46.5  0.4081  -47.3
 0.150  0.6924 -154.5  25.551  111.2  0.0126   45.8  0.3847  -48.3
 0.200  0.7142 -161.8  19.822  104.5  0.0136   47.8  0.3181  -48.8
 0.250  0.7260 -166.9  16.131   99.9  0.0155   48.8  0.2771  -48.2
 0.300  0.7332 -170.5  13.558   96.7  0.0166   49.9  0.2505  -47.2
 0.350  0.7358 -173.3  11.922   94.5  0.0180   53.3  0.2354  -46.4
 0.400  0.7401 -176.0  10.310   91.6  0.0194   56.2  0.2203  -45.4
 0.450  0.7400 -177.8   9.284   90.0  0.0210   57.7  0.2128  -45.0
 0.500  0.7407 -179.6   8.268   88.0  0.0227   58.9  0.2053  -44.5
 0.600  0.7436  177.4   6.921   84.9  0.0263   60.7  0.1966  -44.4
 0.700  0.7457  174.8   5.933   82.1  0.0290   65.3  0.1911  -44.5
 0.800  0.7468  172.2   5.202   79.4  0.0333   65.6  0.1895  -45.7
 0.900  0.7458  170.1   4.614   77.0  0.0363   66.1  0.1876  -47.1
 1.000  0.7498  168.0   4.170   74.8  0.0397   67.2  0.1863  -48.6
 1.100  0.7511  165.9   3.793   72.6  0.0434   67.5  0.1878  -50.3
 1.200  0.7512  164.0   3.478   70.3  0.0467   67.9  0.1880  -52.2
 1.300  0.7518  162.0   3.210   68.2  0.0502   68.2  0.1889  -54.2
 1.400  0.7544  160.2   2.994   66.1  0.0543   68.5  0.1886  -56.4
 1.500  0.7579  158.5   2.791   64.1  0.0581   68.2  0.1889  -59.0
 1.600  0.7598  156.7   2.623   62.0  0.0616   68.4  0.1908  -61.2
 1.700  0.7617  154.7   2.475   60.0  0.0655   68.3  0.1911  -64.0
 1.800  0.7650  152.9   2.346   57.9  0.0695   68.0  0.1922  -66.7
 1.900  0.7673  151.4   2.223   56.1  0.0731   67.8  0.1936  -69.4
 2.000  0.7699  149.5   2.110   54.0  0.0767   67.1  0.1957  -72.4
 2.100  0.7711  147.8   2.015   52.1  0.0805   66.8  0.1971  -75.4
 2.200  0.7729  146.1   1.922   50.0  0.0844   66.6  0.1990  -78.4
 2.300  0.7762  144.5   1.842   48.2  0.0883   66.0  0.2013  -81.5
 2.400  0.7801  142.9   1.764   46.2  0.0923   65.4  0.2042  -84.6
 2.500  0.7814  141.3   1.694   44.5  0.0958   64.9  0.2068  -87.7
 2.600  0.7834  139.7   1.626   42.6  0.0994   64.5  0.2100  -90.7
 2.700  0.7864  138.2   1.567   40.9  0.1032   63.9  0.2133  -93.7
 2.800  0.7899  136.8   1.509   39.1  0.1070   63.3  0.2171  -96.6
 2.900  0.7917  135.2   1.457   37.4  0.1108   62.6  0.2202  -99.6
 3.000  0.7940  133.7   1.406   35.5  0.1147   62.0  0.2240 -102.6
 3.100  0.7961  132.3   1.363   34.0  0.1185   61.3  0.2269 -105.5
 3.200  0.7987  130.8   1.321   32.5  0.1223   60.7  0.2304 -108.4
 3.300  0.8018  129.4   1.280   30.8  0.1262   60.2  0.2344 -111.1
 3.400  0.8053  128.0   1.241   29.1  0.1300   59.6  0.2390 -113.8
 3.500  0.8094  126.6   1.202   27.2  0.1339   59.1  0.2440 -116.3
 3.600  0.8111  125.3   1.169   25.8  0.1376   58.3  0.2471 -119.2
 3.700  0.8133  123.9   1.138   24.4  0.1414   57.5  0.2509 -122.1
 3.800  0.8158  122.6   1.107   22.8  0.1452   56.7  0.2553 -124.8
 3.900  0.8189  121.3   1.076   21.2  0.1490   56.0  0.2602 -127.5
 4.000  0.8223  120.0   1.047   19.5  0.1528   55.3  0.2657 -130.0
 4.100  0.8232  118.8   1.020   18.2  0.1565   54.4  0.2701 -133.0
 4.200  0.8245  117.6   0.994   16.8  0.1603   53.6  0.2752 -135.9
 4.300  0.8261  116.4   0.969   15.3  0.1640   52.8  0.2809 -138.6
 4.400  0.8281  115.2   0.944   13.7  0.1679   52.0  0.2873 -141.3
 4.500  0.8305  114.0   0.920   12.1  0.1717   51.3  0.2943 -143.8
 4.600  0.8322  113.1   0.897   11.0  0.1754   50.5  0.3010 -146.4
 4.700  0.8341  112.1   0.875    9.9  0.1791   49.8  0.3083 -148.9
 4.800  0.8363  111.2   0.853    8.7  0.1829   49.1  0.3162 -151.3
 4.900  0.8387  110.2   0.831    7.4  0.1867   48.4  0.3246 -153.6
 5.000  0.8413  109.3   0.810    6.1  0.1905   47.8  0.3335 -155.7
 5.100  0.8422  108.4   0.794    5.1  0.1942   47.0  0.3427 -157.7
 5.200  0.8434  107.5   0.778    4.1  0.1979   46.2  0.3523 -159.6
 5.300  0.8447  106.7   0.763    3.0  0.2016   45.4  0.3623 -161.5
 5.400  0.8463  105.8   0.748    1.9  0.2054   44.7  0.3726 -163.2
 5.500  0.8480  104.9   0.733    0.7  0.2092   44.0  0.3833 -164.8
 5.600  0.8481  104.0   0.719   -0.1  0.2130   43.1  0.3911 -166.3
 5.700  0.8483  103.2   0.704   -1.0  0.2169   42.3  0.3991 -167.6
 5.800  0.8488  102.3   0.690   -1.9  0.2208   41.5  0.4074 -169.0
 5.900  0.8495  101.5   0.677   -2.8  0.2247   40.7  0.4158 -170.3
 6.000  0.8503  100.6   0.663   -3.8  0.2287   39.9  0.4245 -171.5
!
!  f       NFmin   Gammaopt  rn/50
! GHz       dB    MAG  ANG    -
!
! noise parameter not available yet for this operation point!
!
! (c) 2017  Infineon Technologies AG, Munich