! Infineon Technologies  Discrete & RF Semiconductors
! BFP183W
! VCE =  10. V,  IC =  20 mA
! Common Emitter S-Parameters:                            Jan 2017
# GHz  S  MA  R  50
!  f         S11            S21            S12            S22
! GHz     MAG   ANG      MAG   ANG      MAG   ANG      MAG   ANG
 0.010  0.5927   -6.0  45.419  176.3  0.0014   83.1  0.9798   -2.9
 0.020  0.5847  -15.7  44.839  172.1  0.0036   90.1  0.9677   -6.1
 0.030  0.5772  -22.2  43.973  168.8  0.0051   80.9  0.9556   -9.0
 0.040  0.5773  -28.8  43.255  165.5  0.0067   76.0  0.9460  -12.0
 0.050  0.5849  -35.3  42.691  162.0  0.0083   73.0  0.9390  -15.0
 0.060  0.5736  -41.2  41.527  159.2  0.0096   71.1  0.9161  -17.3
 0.070  0.5686  -47.3  40.465  156.3  0.0110   69.7  0.8948  -19.7
 0.080  0.5701  -53.5  39.514  153.2  0.0123   68.6  0.8751  -22.2
 0.090  0.5780  -59.5  38.681  150.0  0.0137   67.7  0.8571  -24.8
 0.100  0.5922  -65.3  37.975  146.7  0.0150   67.0  0.8410  -27.5
 0.110  0.5843  -70.0  36.821  144.6  0.0159   64.2  0.8173  -29.1
 0.120  0.5806  -74.9  35.719  142.4  0.0168   61.7  0.7942  -30.8
 0.130  0.5810  -79.8  34.676  140.0  0.0177   59.4  0.7719  -32.6
 0.140  0.5856  -84.6  33.695  137.5  0.0186   57.4  0.7504  -34.5
 0.150  0.5943  -89.3  32.784  134.8  0.0196   55.6  0.7298  -36.5
 0.200  0.5967 -106.2  28.079  125.6  0.0218   51.6  0.6354  -42.6
 0.250  0.6011 -119.4  24.291  118.4  0.0247   48.0  0.5573  -46.7
 0.300  0.6019 -129.4  21.182  113.2  0.0263   45.5  0.4956  -49.4
 0.350  0.5990 -136.3  18.941  109.7  0.0276   45.5  0.4527  -50.7
 0.400  0.6048 -143.2  16.792  105.2  0.0289   45.5  0.4100  -52.3
 0.450  0.6025 -148.0  15.258  102.6  0.0301   45.1  0.3828  -52.8
 0.500  0.6045 -152.9  13.761   99.5  0.0314   44.7  0.3556  -53.4
 0.600  0.6057 -160.0  11.659   95.1  0.0339   45.9  0.3182  -53.9
 0.700  0.6074 -165.6  10.065   91.4  0.0362   48.6  0.2924  -54.0
 0.800  0.6112 -170.3   8.871   88.0  0.0391   50.5  0.2756  -54.1
 0.900  0.6088 -174.4   7.897   85.2  0.0417   51.0  0.2620  -54.4
 1.000  0.6130 -177.8   7.148   82.6  0.0437   52.5  0.2512  -54.7
 1.100  0.6148  179.0   6.515   80.2  0.0471   53.7  0.2453  -55.1
 1.200  0.6160  175.8   5.975   77.7  0.0493   54.4  0.2391  -55.6
 1.300  0.6150  173.2   5.523   75.5  0.0525   54.6  0.2346  -56.5
 1.400  0.6186  170.8   5.150   73.4  0.0559   55.9  0.2302  -57.6
 1.500  0.6240  168.5   4.806   71.3  0.0585   56.4  0.2268  -58.8
 1.600  0.6260  166.0   4.515   69.2  0.0616   56.5  0.2250  -60.0
 1.700  0.6275  163.8   4.260   67.2  0.0647   57.0  0.2222  -61.7
 1.800  0.6308  161.7   4.041   65.2  0.0682   56.9  0.2204  -63.2
 1.900  0.6349  159.8   3.828   63.4  0.0710   57.2  0.2188  -64.9
 2.000  0.6375  157.6   3.636   61.4  0.0744   57.5  0.2181  -66.9
 2.100  0.6401  155.6   3.473   59.5  0.0775   57.4  0.2167  -69.0
 2.200  0.6434  153.6   3.314   57.5  0.0806   57.3  0.2157  -71.2
 2.300  0.6477  151.7   3.175   55.7  0.0839   57.2  0.2156  -73.5
 2.400  0.6526  149.9   3.040   53.8  0.0873   57.2  0.2159  -75.7
 2.500  0.6554  148.2   2.921   52.1  0.0905   56.9  0.2159  -78.2
 2.600  0.6587  146.6   2.804   50.3  0.0937   56.7  0.2162  -80.6
 2.700  0.6630  144.8   2.702   48.7  0.0969   56.5  0.2170  -83.0
 2.800  0.6679  143.1   2.603   46.9  0.1001   56.3  0.2181  -85.4
 2.900  0.6711  141.5   2.515   45.2  0.1032   55.8  0.2183  -87.9
 3.000  0.6748  140.0   2.429   43.3  0.1063   55.4  0.2190  -90.4
 3.100  0.6781  138.4   2.356   41.9  0.1096   55.0  0.2196  -92.9
 3.200  0.6820  136.9   2.284   40.4  0.1129   54.7  0.2206  -95.3
 3.300  0.6863  135.3   2.214   38.7  0.1162   54.3  0.2220  -97.8
 3.400  0.6912  133.8   2.145   37.0  0.1196   54.0  0.2237 -100.1
 3.500  0.6965  132.3   2.079   35.2  0.1229   53.7  0.2259 -102.5
 3.600  0.6999  130.9   2.023   33.8  0.1261   53.1  0.2266 -105.2
 3.700  0.7037  129.5   1.969   32.3  0.1294   52.6  0.2278 -107.8
 3.800  0.7078  128.2   1.917   30.7  0.1326   52.1  0.2295 -110.4
 3.900  0.7124  126.8   1.865   29.0  0.1359   51.6  0.2316 -113.0
 4.000  0.7174  125.5   1.816   27.2  0.1392   51.1  0.2342 -115.5
 4.100  0.7205  124.2   1.770   25.8  0.1424   50.4  0.2360 -118.4
 4.200  0.7239  123.0   1.726   24.3  0.1456   49.8  0.2384 -121.3
 4.300  0.7276  121.7   1.683   22.8  0.1489   49.2  0.2414 -124.1
 4.400  0.7317  120.5   1.641   21.1  0.1521   48.6  0.2450 -126.8
 4.500  0.7361  119.3   1.600   19.4  0.1554   48.1  0.2491 -129.4
 4.600  0.7394  118.3   1.561   18.2  0.1587   47.5  0.2537 -132.2
 4.700  0.7430  117.3   1.524   16.9  0.1621   47.0  0.2588 -134.8
 4.800  0.7468  116.3   1.487   15.6  0.1654   46.5  0.2645 -137.4
 4.900  0.7508  115.3   1.450   14.2  0.1688   46.0  0.2706 -139.9
 5.000  0.7551  114.3   1.415   12.7  0.1722   45.5  0.2773 -142.2
 5.100  0.7575  113.4   1.387   11.5  0.1755   44.9  0.2849 -144.4
 5.200  0.7600  112.5   1.359   10.3  0.1788   44.3  0.2929 -146.5
 5.300  0.7628  111.6   1.332    9.1  0.1822   43.7  0.3013 -148.5
 5.400  0.7657  110.7   1.306    7.8  0.1855   43.1  0.3100 -150.4
 5.500  0.7688  109.8   1.280    6.4  0.1889   42.6  0.3191 -152.2
 5.600  0.7697  108.9   1.255    5.3  0.1924   41.9  0.3266 -153.7
 5.700  0.7708  108.0   1.230    4.1  0.1959   41.2  0.3344 -155.2
 5.800  0.7721  107.1   1.206    2.9  0.1994   40.5  0.3423 -156.5
 5.900  0.7735  106.2   1.182    1.7  0.2030   39.8  0.3505 -157.8
 6.000  0.7752  105.3   1.159    0.4  0.2066   39.2  0.3588 -159.1
!
!  f       NFmin   Gammaopt  rn/50
! GHz       dB    MAG  ANG    -
 0.450      1.17  0.20  171   0.10
 0.900      1.20  0.25  174   0.09
 1.900      1.68  0.41 -163   0.08
 2.400      1.92  0.45 -157   0.12
!
! (c) 2017  Infineon Technologies AG, Munich