! Infineon Technologies  Discrete & RF Semiconductors
! BFP183W
! VCE =  6.0 V,  IC =  60 mA
! Common Emitter S-Parameters:                            Jan 2017
# GHz  S  MA  R  50
!  f         S11            S21            S12            S22
! GHz     MAG   ANG      MAG   ANG      MAG   ANG      MAG   ANG
 0.010  0.2231  -29.0  66.932  173.3  0.0014   83.7  0.9109   -4.6
 0.020  0.2619  -55.4  65.362  165.9  0.0028   85.6  0.8908  -10.5
 0.030  0.2898  -73.6  61.920  160.4  0.0041   74.7  0.8526  -14.9
 0.040  0.3409  -87.5  59.112  154.3  0.0054   69.1  0.8200  -19.7
 0.050  0.4065  -97.4  57.032  147.7  0.0068   65.8  0.7934  -24.8
 0.060  0.4234 -105.5  53.568  144.6  0.0075   63.3  0.7530  -26.9
 0.070  0.4479 -112.8  50.286  141.0  0.0083   61.2  0.7137  -29.2
 0.080  0.4790 -119.2  47.223  137.0  0.0090   59.4  0.6757  -31.7
 0.090  0.5154 -124.9  44.424  132.4  0.0097   58.0  0.6392  -34.6
 0.100  0.5560 -129.7  41.944  127.3  0.0105   56.7  0.6045  -37.8
 0.110  0.5652 -133.2  39.773  125.5  0.0108   55.3  0.5785  -38.6
 0.120  0.5764 -136.5  37.646  123.5  0.0112   53.9  0.5525  -39.4
 0.130  0.5895 -139.7  35.570  121.2  0.0115   52.6  0.5267  -40.3
 0.140  0.6044 -142.8  33.555  118.7  0.0118   51.4  0.5011  -41.4
 0.150  0.6209 -145.7  31.614  115.9  0.0122   50.3  0.4756  -42.5
 0.200  0.6486 -154.7  24.891  108.6  0.0133   49.9  0.4004  -43.5
 0.250  0.6639 -161.3  20.429  103.5  0.0148   49.5  0.3524  -43.1
 0.300  0.6731 -165.6  17.242   99.9  0.0163   52.4  0.3200  -42.4
 0.350  0.6763 -168.9  15.192   97.6  0.0177   54.7  0.3016  -41.6
 0.400  0.6818 -172.2  13.175   94.5  0.0191   56.6  0.2832  -40.6
 0.450  0.6823 -174.4  11.885   92.8  0.0203   58.2  0.2734  -40.2
 0.500  0.6838 -176.5  10.607   90.7  0.0216   59.6  0.2637  -39.8
 0.600  0.6891  180.0   8.893   87.5  0.0251   61.7  0.2514  -39.4
 0.700  0.6892  177.1   7.637   84.8  0.0277   64.4  0.2443  -39.4
 0.800  0.6903  174.3   6.706   82.0  0.0318   66.7  0.2408  -40.1
 0.900  0.6906  171.9   5.957   79.7  0.0354   66.7  0.2371  -41.4
 1.000  0.6937  169.7   5.390   77.5  0.0384   67.6  0.2351  -42.6
 1.100  0.6951  167.5   4.908   75.5  0.0413   68.2  0.2344  -43.9
 1.200  0.6957  165.5   4.505   73.2  0.0445   68.7  0.2330  -45.4
 1.300  0.6965  163.4   4.163   71.2  0.0484   68.8  0.2329  -47.3
 1.400  0.6988  161.6   3.880   69.2  0.0525   68.9  0.2310  -49.0
 1.500  0.7021  159.8   3.622   67.3  0.0554   68.7  0.2302  -51.1
 1.600  0.7048  158.0   3.406   65.3  0.0589   69.1  0.2310  -53.2
 1.700  0.7073  156.1   3.213   63.3  0.0634   68.8  0.2300  -55.5
 1.800  0.7091  154.2   3.050   61.4  0.0665   68.2  0.2299  -57.7
 1.900  0.7120  152.7   2.891   59.6  0.0695   68.2  0.2295  -60.0
 2.000  0.7154  150.8   2.748   57.6  0.0735   67.9  0.2302  -62.6
 2.100  0.7171  149.0   2.624   55.7  0.0772   67.5  0.2300  -65.2
 2.200  0.7196  147.2   2.503   53.7  0.0810   67.2  0.2303  -67.8
 2.300  0.7231  145.7   2.400   52.0  0.0847   66.7  0.2309  -70.6
 2.400  0.7271  144.2   2.300   50.1  0.0885   66.3  0.2320  -73.4
 2.500  0.7292  142.6   2.210   48.4  0.0920   65.7  0.2331  -76.2
 2.600  0.7319  141.1   2.123   46.5  0.0955   65.2  0.2348  -79.0
 2.700  0.7350  139.5   2.046   44.9  0.0991   64.6  0.2361  -81.8
 2.800  0.7387  138.0   1.971   43.1  0.1027   64.1  0.2380  -84.5
 2.900  0.7412  136.5   1.904   41.4  0.1062   63.4  0.2394  -87.3
 3.000  0.7441  135.1   1.839   39.5  0.1098   62.8  0.2414  -90.1
 3.100  0.7468  133.7   1.784   38.0  0.1135   62.2  0.2425  -92.9
 3.200  0.7500  132.3   1.730   36.5  0.1172   61.6  0.2443  -95.6
 3.300  0.7536  130.9   1.677   34.8  0.1209   61.0  0.2465  -98.3
 3.400  0.7577  129.5   1.626   33.1  0.1247   60.5  0.2493 -100.9
 3.500  0.7622  128.1   1.576   31.2  0.1284   60.0  0.2526 -103.5
 3.600  0.7647  126.8   1.534   29.8  0.1320   59.2  0.2539 -106.4
 3.700  0.7677  125.4   1.492   28.3  0.1356   58.4  0.2558 -109.2
 3.800  0.7710  124.1   1.452   26.7  0.1393   57.7  0.2583 -111.9
 3.900  0.7747  122.8   1.413   25.1  0.1429   57.0  0.2614 -114.7
 4.000  0.7789  121.5   1.375   23.3  0.1466   56.4  0.2651 -117.3
 4.100  0.7809  120.3   1.340   21.9  0.1502   55.5  0.2675 -120.3
 4.200  0.7833  119.2   1.306   20.5  0.1538   54.7  0.2707 -123.3
 4.300  0.7859  118.0   1.273   19.0  0.1574   54.0  0.2745 -126.1
 4.400  0.7889  116.8   1.241   17.4  0.1611   53.2  0.2790 -128.9
 4.500  0.7922  115.7   1.210   15.7  0.1648   52.5  0.2842 -131.6
 4.600  0.7946  114.7   1.181   14.5  0.1684   51.8  0.2893 -134.4
 4.700  0.7972  113.8   1.152   13.3  0.1719   51.1  0.2951 -137.1
 4.800  0.8000  112.8   1.124   12.0  0.1755   50.4  0.3016 -139.7
 4.900  0.8030  111.8   1.096   10.6  0.1792   49.8  0.3086 -142.2
 5.000  0.8063  110.9   1.069    9.2  0.1828   49.2  0.3162 -144.6
 5.100  0.8082  110.0   1.048    8.1  0.1865   48.4  0.3244 -146.9
 5.200  0.8102  109.2   1.026    6.9  0.1901   47.6  0.3330 -149.0
 5.300  0.8124  108.3   1.006    5.7  0.1939   46.9  0.3421 -151.0
 5.400  0.8148  107.5   0.986    4.4  0.1976   46.2  0.3515 -153.0
 5.500  0.8174  106.6   0.966    3.1  0.2014   45.5  0.3614 -154.8
 5.600  0.8181  105.7   0.947    2.1  0.2050   44.6  0.3691 -156.4
 5.700  0.8189  104.8   0.928    1.1  0.2087   43.8  0.3770 -157.9
 5.800  0.8199  104.0   0.909   -0.0  0.2124   43.0  0.3852 -159.4
 5.900  0.8212  103.1   0.891   -1.1  0.2162   42.2  0.3936 -160.8
 6.000  0.8226  102.2   0.873   -2.3  0.2200   41.4  0.4023 -162.1
!
!  f       NFmin   Gammaopt  rn/50
! GHz       dB    MAG  ANG    -
!
! noise parameter not available yet for this operation point!
!
! (c) 2017  Infineon Technologies AG, Munich