! Infineon Technologies  Discrete & RF Semiconductors
! BFP183W
! VCE =  11. V,  IC =  39 mA
! Common Emitter S-Parameters:                            Jan 2017
# GHz  S  MA  R  50
!  f         S11            S21            S12            S22
! GHz     MAG   ANG      MAG   ANG      MAG   ANG      MAG   ANG
 0.010  0.4795   -9.3  46.405  174.6  0.0015   52.1  0.9093   -2.7
 0.020  0.4749  -21.7  45.620  169.1  0.0029   73.8  0.8965   -6.1
 0.030  0.4623  -30.6  43.939  164.9  0.0045   70.2  0.8792   -8.9
 0.040  0.4612  -39.7  42.508  160.5  0.0061   68.5  0.8640  -11.8
 0.050  0.4717  -48.6  41.353  155.7  0.0077   67.5  0.8511  -14.8
 0.060  0.4616  -55.5  39.584  152.9  0.0088   64.9  0.8274  -16.5
 0.070  0.4584  -62.6  37.915  149.9  0.0099   62.9  0.8045  -18.4
 0.080  0.4623  -69.7  36.362  146.6  0.0110   61.3  0.7824  -20.3
 0.090  0.4731  -76.5  34.939  143.1  0.0121   60.0  0.7613  -22.3
 0.100  0.4903  -83.0  33.662  139.2  0.0132   58.9  0.7412  -24.5
 0.110  0.4878  -87.3  32.313  137.4  0.0140   58.2  0.7224  -25.5
 0.120  0.4880  -91.7  30.997  135.5  0.0148   57.6  0.7038  -26.6
 0.130  0.4911  -96.0  29.720  133.4  0.0155   57.0  0.6855  -27.7
 0.140  0.4970 -100.3  28.487  131.1  0.0163   56.5  0.6674  -28.9
 0.150  0.5055 -104.4  27.303  128.6  0.0171   56.0  0.6497  -30.1
 0.200  0.5365 -119.3  22.912  121.0  0.0198   53.3  0.5809  -33.6
 0.250  0.5467 -129.8  19.516  115.3  0.0225   50.0  0.5287  -35.6
 0.300  0.5715 -137.9  17.043  111.0  0.0239   47.6  0.4870  -37.3
 0.350  0.5780 -143.6  15.260  108.0  0.0257   47.9  0.4584  -38.1
 0.400  0.5902 -149.2  13.531  104.2  0.0276   48.1  0.4299  -38.9
 0.450  0.5945 -153.5  12.331  102.0  0.0288   48.1  0.4110  -39.4
 0.500  0.6020 -157.7  11.154   99.3  0.0299   48.1  0.3921  -40.0
 0.600  0.6152 -164.2   9.503   95.1  0.0323   47.4  0.3656  -40.8
 0.700  0.6215 -168.9   8.244   91.7  0.0344   50.1  0.3479  -41.4
 0.800  0.6263 -173.3   7.295   88.4  0.0373   51.9  0.3356  -42.3
 0.900  0.6278 -177.1   6.516   85.6  0.0396   52.4  0.3251  -43.4
 1.000  0.6328  179.6   5.924   83.0  0.0420   54.0  0.3173  -44.4
 1.100  0.6362  176.6   5.415   80.7  0.0451   55.0  0.3121  -45.5
 1.200  0.6378  173.8   4.982   78.2  0.0477   55.5  0.3064  -46.8
 1.300  0.6398  171.3   4.613   75.9  0.0502   56.1  0.3024  -48.3
 1.400  0.6426  168.9   4.309   73.7  0.0537   57.1  0.2981  -49.7
 1.500  0.6469  166.7   4.037   71.6  0.0562   57.7  0.2950  -51.4
 1.600  0.6523  164.3   3.800   69.5  0.0593   58.2  0.2931  -53.0
 1.700  0.6532  162.1   3.586   67.5  0.0620   59.0  0.2899  -55.0
 1.800  0.6572  160.1   3.407   65.4  0.0653   58.9  0.2873  -56.9
 1.900  0.6601  158.2   3.235   63.5  0.0682   59.1  0.2857  -58.8
 2.000  0.6628  156.0   3.078   61.4  0.0715   59.5  0.2845  -60.8
 2.100  0.6655  154.0   2.943   59.5  0.0747   59.4  0.2825  -63.0
 2.200  0.6689  152.1   2.812   57.4  0.0779   59.4  0.2810  -65.2
 2.300  0.6736  150.3   2.697   55.5  0.0812   59.3  0.2803  -67.5
 2.400  0.6789  148.5   2.585   53.5  0.0846   59.3  0.2800  -69.9
 2.500  0.6813  146.9   2.485   51.8  0.0875   59.1  0.2796  -72.3
 2.600  0.6843  145.3   2.388   49.9  0.0905   59.0  0.2797  -74.7
 2.700  0.6883  143.5   2.303   48.2  0.0938   58.7  0.2800  -77.1
 2.800  0.6930  141.8   2.221   46.3  0.0972   58.5  0.2808  -79.5
 2.900  0.6956  140.3   2.147   44.5  0.1006   58.1  0.2806  -82.0
 3.000  0.6987  138.8   2.076   42.6  0.1040   57.8  0.2810  -84.4
 3.100  0.7020  137.2   2.014   41.1  0.1074   57.5  0.2809  -86.8
 3.200  0.7058  135.7   1.953   39.5  0.1107   57.1  0.2814  -89.3
 3.300  0.7102  134.2   1.893   37.8  0.1141   56.8  0.2824  -91.7
 3.400  0.7150  132.7   1.836   36.0  0.1174   56.6  0.2838  -94.1
 3.500  0.7203  131.2   1.780   34.1  0.1208   56.3  0.2858  -96.5
 3.600  0.7232  129.8   1.733   32.6  0.1243   55.7  0.2858  -99.1
 3.700  0.7265  128.4   1.687   31.1  0.1277   55.1  0.2865 -101.6
 3.800  0.7302  127.0   1.642   29.5  0.1312   54.6  0.2876 -104.2
 3.900  0.7343  125.7   1.599   27.8  0.1347   54.1  0.2894 -106.7
 4.000  0.7389  124.3   1.557   26.0  0.1382   53.6  0.2917 -109.2
 4.100  0.7416  123.0   1.518   24.6  0.1415   52.9  0.2928 -112.0
 4.200  0.7447  121.8   1.480   23.0  0.1449   52.3  0.2947 -114.9
 4.300  0.7482  120.5   1.443   21.4  0.1483   51.7  0.2972 -117.6
 4.400  0.7520  119.3   1.407   19.8  0.1517   51.1  0.3004 -120.3
 4.500  0.7561  118.1   1.373   18.0  0.1551   50.6  0.3043 -123.0
 4.600  0.7592  117.1   1.340   16.8  0.1586   50.0  0.3079 -125.8
 4.700  0.7626  116.1   1.307   15.5  0.1621   49.4  0.3123 -128.5
 4.800  0.7662  115.1   1.275   14.1  0.1656   48.8  0.3174 -131.2
 4.900  0.7701  114.2   1.244   12.7  0.1691   48.3  0.3231 -133.7
 5.000  0.7741  113.2   1.214   11.2  0.1727   47.8  0.3294 -136.2
 5.100  0.7762  112.3   1.190   10.0  0.1763   47.1  0.3365 -138.6
 5.200  0.7786  111.4   1.166    8.8  0.1800   46.5  0.3442 -140.8
 5.300  0.7811  110.5   1.142    7.6  0.1836   45.9  0.3524 -143.0
 5.400  0.7838  109.6   1.119    6.3  0.1873   45.3  0.3611 -145.0
 5.500  0.7867  108.7   1.097    4.9  0.1910   44.7  0.3702 -147.0
 5.600  0.7877  107.8   1.075    3.8  0.1946   43.9  0.3776 -148.7
 5.700  0.7889  106.9   1.053    2.7  0.1983   43.2  0.3852 -150.4
 5.800  0.7902  106.1   1.032    1.5  0.2020   42.5  0.3932 -151.9
 5.900  0.7918  105.2   1.011    0.3  0.2057   41.8  0.4015 -153.4
 6.000  0.7935  104.3   0.991   -1.0  0.2095   41.2  0.4100 -154.9
!
!  f       NFmin   Gammaopt  rn/50
! GHz       dB    MAG  ANG    -
!
! noise parameter not available yet for this operation point!
!
! (c) 2017  Infineon Technologies AG, Munich