! Infineon Technologies  Discrete & RF Semiconductors
! BFP183W
! VCE =  1.0 V,  IC =  48 mA
! Common Emitter S-Parameters:                            Jan 2017
# GHz  S  MA  R  50
!  f         S11            S21            S12            S22
! GHz     MAG   ANG      MAG   ANG      MAG   ANG      MAG   ANG
 0.010  0.2322  -83.9  49.162  166.0  0.0040   74.0  0.6498  -16.6
 0.020  0.4014 -108.2  44.947  152.4  0.0073   61.5  0.5951  -31.9
 0.030  0.4753 -122.4  39.386  145.9  0.0092   52.8  0.5205  -40.1
 0.040  0.5701 -132.4  34.490  137.4  0.0112   47.2  0.4599  -50.7
 0.050  0.6771 -139.4  30.579  126.5  0.0133   43.3  0.4194  -64.0
 0.060  0.6929 -143.8  27.887  124.2  0.0138   41.8  0.3834  -67.6
 0.070  0.7126 -148.1  25.249  121.5  0.0144   40.5  0.3492  -71.9
 0.080  0.7360 -152.0  22.682  118.1  0.0149   39.2  0.3174  -77.1
 0.090  0.7627 -155.8  20.214  113.9  0.0154   38.0  0.2889  -83.4
 0.100  0.7924 -159.2  17.886  108.5  0.0160   36.9  0.2645  -91.0
 0.110  0.7977 -160.9  16.762  107.4  0.0163   36.9  0.2507  -93.4
 0.120  0.8037 -162.5  15.645  106.0  0.0166   36.9  0.2374  -96.1
 0.130  0.8103 -164.1  14.538  104.5  0.0169   37.0  0.2246  -99.1
 0.140  0.8176 -165.7  13.442  102.8  0.0172   37.0  0.2126 -102.4
 0.150  0.8254 -167.2  12.362  100.7  0.0175   37.0  0.2013 -106.1
 0.200  0.8313 -171.9   9.375   95.6  0.0176   38.7  0.1721 -115.9
 0.250  0.8371 -175.2   7.537   92.0  0.0196   41.0  0.1552 -123.1
 0.300  0.8391 -177.5   6.291   89.4  0.0213   44.1  0.1458 -128.5
 0.350  0.8396 -179.4   5.515   87.5  0.0230   47.3  0.1407 -131.7
 0.400  0.8410  178.8   4.748   84.9  0.0248   50.0  0.1360 -135.2
 0.450  0.8399  177.4   4.269   83.3  0.0265   52.1  0.1342 -137.1
 0.500  0.8393  175.9   3.794   81.3  0.0283   54.0  0.1326 -139.1
 0.600  0.8416  173.5   3.171   78.1  0.0326   56.2  0.1332 -141.8
 0.700  0.8409  171.5   2.718   75.2  0.0363   59.6  0.1329 -143.4
 0.800  0.8407  169.4   2.381   72.2  0.0410   61.5  0.1358 -144.0
 0.900  0.8389  167.3   2.111   69.4  0.0452   61.7  0.1396 -145.0
 1.000  0.8415  165.4   1.909   66.7  0.0493   63.9  0.1424 -146.0
 1.100  0.8435  163.4   1.737   64.2  0.0537   63.3  0.1467 -146.3
 1.200  0.8434  161.6   1.596   61.5  0.0582   64.1  0.1504 -147.0
 1.300  0.8446  159.8   1.473   59.0  0.0621   63.4  0.1554 -147.5
 1.400  0.8469  158.0   1.374   56.5  0.0675   64.5  0.1606 -148.7
 1.500  0.8511  156.3   1.281   54.0  0.0715   64.0  0.1654 -149.7
 1.600  0.8526  154.5   1.205   51.6  0.0761   63.9  0.1714 -150.4
 1.700  0.8539  152.6   1.138   49.2  0.0810   63.3  0.1773 -151.7
 1.800  0.8566  150.8   1.080   46.7  0.0854   63.0  0.1841 -152.8
 1.900  0.8600  149.2   1.022   44.7  0.0896   62.9  0.1903 -153.9
 2.000  0.8592  147.4   0.970   42.2  0.0945   62.1  0.1977 -155.0
 2.100  0.8605  145.6   0.926   40.1  0.0990   61.5  0.2050 -156.5
 2.200  0.8627  143.8   0.884   37.8  0.1035   60.9  0.2125 -157.8
 2.300  0.8643  142.2   0.847   35.8  0.1080   60.2  0.2201 -159.1
 2.400  0.8666  140.6   0.811   33.6  0.1125   59.5  0.2279 -160.3
 2.500  0.8678  139.0   0.778   31.8  0.1168   58.7  0.2358 -161.7
 2.600  0.8696  137.4   0.746   29.8  0.1212   57.9  0.2439 -163.0
 2.700  0.8714  135.8   0.718   28.0  0.1254   57.2  0.2514 -164.3
 2.800  0.8738  134.3   0.690   26.1  0.1296   56.6  0.2590 -165.5
 2.900  0.8741  132.8   0.665   24.5  0.1338   55.7  0.2667 -167.0
 3.000  0.8750  131.3   0.641   22.8  0.1381   54.8  0.2746 -168.5
 3.100  0.8757  129.8   0.621   21.5  0.1422   54.0  0.2815 -170.1
 3.200  0.8770  128.3   0.601   20.1  0.1463   53.2  0.2886 -171.6
 3.300  0.8789  126.8   0.582   18.6  0.1504   52.5  0.2959 -173.0
 3.400  0.8814  125.4   0.563   17.0  0.1546   51.8  0.3034 -174.3
 3.500  0.8845  123.9   0.545   15.3  0.1588   51.1  0.3110 -175.6
 3.600  0.8846  122.5   0.530   14.3  0.1627   50.1  0.3183 -177.3
 3.700  0.8852  121.2   0.515   13.2  0.1666   49.2  0.3258 -178.9
 3.800  0.8863  119.8   0.500   12.0  0.1705   48.3  0.3335  179.6
 3.900  0.8879  118.5   0.485   10.8  0.1745   47.5  0.3415  178.2
 4.000  0.8900  117.1   0.471    9.5  0.1785   46.7  0.3497  176.8
 4.100  0.8891  115.9   0.460    8.7  0.1821   45.7  0.3573  175.1
 4.200  0.8886  114.7   0.448    7.9  0.1858   44.8  0.3652  173.4
 4.300  0.8885  113.4   0.437    7.0  0.1895   44.0  0.3735  171.9
 4.400  0.8889  112.2   0.426    6.1  0.1933   43.1  0.3820  170.3
 4.500  0.8896  111.0   0.415    5.1  0.1971   42.3  0.3907  168.9
 4.600  0.8896  110.1   0.406    4.7  0.2006   41.5  0.3989  167.5
 4.700  0.8898  109.2   0.397    4.2  0.2041   40.7  0.4074  166.2
 4.800  0.8903  108.2   0.387    3.8  0.2076   39.9  0.4160  164.9
 4.900  0.8910  107.3   0.378    3.3  0.2112   39.1  0.4249  163.7
 5.000  0.8919  106.4   0.369    2.8  0.2148   38.4  0.4339  162.5
 5.100  0.8919  105.5   0.364    2.5  0.2182   37.5  0.4421  161.5
 5.200  0.8922  104.6   0.359    2.3  0.2217   36.7  0.4504  160.5
 5.300  0.8926  103.8   0.353    2.0  0.2253   35.9  0.4589  159.5
 5.400  0.8933  102.9   0.348    1.7  0.2289   35.1  0.4675  158.6
 5.500  0.8942  102.0   0.343    1.4  0.2325   34.3  0.4762  157.7
 5.600  0.8926  101.1   0.339    1.3  0.2358   33.4  0.4814  156.9
 5.700  0.8912  100.2   0.335    1.3  0.2391   32.5  0.4866  156.2
 5.800  0.8900   99.3   0.330    1.2  0.2425   31.7  0.4920  155.4
 5.900  0.8890   98.4   0.326    1.2  0.2459   30.9  0.4974  154.7
 6.000  0.8883   97.5   0.322    1.1  0.2494   30.1  0.5029  154.0
!
!  f       NFmin   Gammaopt  rn/50
! GHz       dB    MAG  ANG    -
!
! noise parameter not available yet for this operation point!
!
! (c) 2017  Infineon Technologies AG, Munich