! Infineon Technologies  Discrete & RF Semiconductors
! BFP183W
! VCE =  2.0 V,  IC =  10 mA
! Common Emitter S-Parameters:                            Jan 2017
# GHz  S  MA  R  50
!  f         S11            S21            S12            S22
! GHz     MAG   ANG      MAG   ANG      MAG   ANG      MAG   ANG
 0.010  0.7075   -5.1  29.557  178.0  0.0022   91.4  0.9916   -2.7
 0.020  0.6975  -12.7  29.426  174.1  0.0044   93.6  0.9776   -5.4
 0.030  0.6891  -17.7  29.031  171.2  0.0067   84.3  0.9703   -8.0
 0.040  0.6860  -22.7  28.710  168.3  0.0090   79.8  0.9650  -10.6
 0.050  0.6882  -27.8  28.466  165.3  0.0114   77.2  0.9617  -13.2
 0.060  0.6778  -32.8  27.908  162.8  0.0133   73.7  0.9440  -15.4
 0.070  0.6728  -38.0  27.407  160.1  0.0153   71.1  0.9277  -17.7
 0.080  0.6732  -43.2  26.966  157.4  0.0172   69.1  0.9130  -20.1
 0.090  0.6791  -48.3  26.588  154.6  0.0192   67.5  0.8999  -22.5
 0.100  0.6904  -53.3  26.276  151.7  0.0212   66.2  0.8884  -25.0
 0.110  0.6805  -57.6  25.646  149.6  0.0226   64.0  0.8683  -26.7
 0.120  0.6744  -61.9  25.050  147.5  0.0241   62.0  0.8490  -28.6
 0.130  0.6722  -66.3  24.492  145.2  0.0256   60.2  0.8306  -30.5
 0.140  0.6741  -70.7  23.973  142.9  0.0271   58.7  0.8132  -32.4
 0.150  0.6799  -75.1  23.497  140.4  0.0286   57.3  0.7968  -34.5
 0.200  0.6755  -92.0  20.767  131.1  0.0332   51.6  0.7084  -41.6
 0.250  0.6698 -106.1  18.364  123.6  0.0377   46.2  0.6303  -47.0
 0.300  0.6652 -117.1  16.266  117.8  0.0401   42.5  0.5644  -51.0
 0.350  0.6578 -125.0  14.665  113.8  0.0417   40.4  0.5153  -53.4
 0.400  0.6630 -132.9  13.153  108.8  0.0434   38.5  0.4674  -56.4
 0.450  0.6575 -138.4  12.007  105.9  0.0447   37.8  0.4341  -57.9
 0.500  0.6581 -144.0  10.897  102.5  0.0460   37.2  0.4011  -59.6
 0.600  0.6604 -152.4   9.283   97.3  0.0483   36.4  0.3547  -61.7
 0.700  0.6581 -159.0   8.037   93.1  0.0494   36.9  0.3203  -63.0
 0.800  0.6578 -164.5   7.110   89.3  0.0522   38.0  0.2974  -64.2
 0.900  0.6558 -169.3   6.338   86.0  0.0539   38.6  0.2791  -65.2
 1.000  0.6597 -173.2   5.748   83.1  0.0559   39.4  0.2643  -66.1
 1.100  0.6626 -176.8   5.242   80.4  0.0583   40.2  0.2551  -67.0
 1.200  0.6631  179.7   4.813   77.7  0.0599   40.8  0.2460  -68.0
 1.300  0.6618  176.8   4.453   75.3  0.0623   41.7  0.2396  -69.2
 1.400  0.6661  174.0   4.154   72.9  0.0651   42.6  0.2336  -70.5
 1.500  0.6704  171.5   3.879   70.6  0.0677   43.4  0.2287  -72.0
 1.600  0.6716  168.8   3.648   68.3  0.0698   44.2  0.2262  -73.3
 1.700  0.6741  166.4   3.444   66.2  0.0719   45.0  0.2230  -75.4
 1.800  0.6777  164.1   3.267   64.0  0.0746   45.5  0.2200  -77.2
 1.900  0.6822  161.9   3.096   62.0  0.0770   46.0  0.2183  -79.0
 2.000  0.6849  159.6   2.943   59.7  0.0802   46.3  0.2177  -81.0
 2.100  0.6873  157.4   2.812   57.7  0.0829   46.7  0.2168  -83.2
 2.200  0.6907  155.3   2.684   55.6  0.0857   47.0  0.2162  -85.5
 2.300  0.6947  153.3   2.572   53.7  0.0885   47.4  0.2166  -87.9
 2.400  0.6995  151.4   2.463   51.6  0.0913   47.7  0.2174  -90.3
 2.500  0.7014  149.6   2.366   49.8  0.0943   47.8  0.2184  -92.8
 2.600  0.7039  147.8   2.271   47.8  0.0973   47.9  0.2197  -95.2
 2.700  0.7077  145.9   2.189   46.0  0.1001   47.9  0.2214  -97.6
 2.800  0.7123  144.1   2.110   44.1  0.1029   47.9  0.2235 -100.0
 2.900  0.7154  142.4   2.038   42.3  0.1061   47.8  0.2247 -102.5
 3.000  0.7191  140.7   1.968   40.3  0.1093   47.7  0.2263 -104.9
 3.100  0.7220  139.1   1.908   38.8  0.1123   47.6  0.2281 -107.4
 3.200  0.7254  137.5   1.849   37.2  0.1153   47.5  0.2304 -109.8
 3.300  0.7294  135.9   1.792   35.5  0.1184   47.4  0.2330 -112.2
 3.400  0.7340  134.3   1.737   33.6  0.1214   47.4  0.2361 -114.5
 3.500  0.7391  132.8   1.683   31.7  0.1244   47.3  0.2395 -116.8
 3.600  0.7418  131.3   1.638   30.2  0.1277   46.9  0.2418 -119.4
 3.700  0.7450  129.8   1.594   28.6  0.1309   46.6  0.2445 -121.9
 3.800  0.7487  128.4   1.551   27.0  0.1342   46.2  0.2477 -124.4
 3.900  0.7529  126.9   1.509   25.2  0.1374   45.9  0.2514 -126.9
 4.000  0.7576  125.5   1.469   23.4  0.1407   45.6  0.2555 -129.2
 4.100  0.7598  124.2   1.432   22.0  0.1439   45.1  0.2590 -132.0
 4.200  0.7624  122.9   1.395   20.5  0.1471   44.6  0.2631 -134.6
 4.300  0.7653  121.6   1.360   18.9  0.1503   44.2  0.2678 -137.2
 4.400  0.7687  120.4   1.325   17.2  0.1535   43.7  0.2729 -139.7
 4.500  0.7724  119.1   1.292   15.5  0.1567   43.3  0.2786 -142.1
 4.600  0.7753  118.1   1.260   14.3  0.1601   42.9  0.2847 -144.6
 4.700  0.7784  117.0   1.229   13.0  0.1635   42.5  0.2913 -147.0
 4.800  0.7817  116.0   1.198   11.6  0.1669   42.1  0.2984 -149.3
 4.900  0.7853  115.0   1.168   10.2  0.1703   41.7  0.3059 -151.4
 5.000  0.7892  114.0   1.139    8.7  0.1737   41.3  0.3139 -153.5
 5.100  0.7911  113.0   1.116    7.6  0.1772   40.8  0.3225 -155.4
 5.200  0.7932  112.1   1.094    6.4  0.1807   40.3  0.3314 -157.3
 5.300  0.7956  111.2   1.072    5.1  0.1842   39.8  0.3406 -159.0
 5.400  0.7981  110.2   1.051    3.8  0.1877   39.3  0.3501 -160.6
 5.500  0.8009  109.3   1.030    2.5  0.1912   38.9  0.3599 -162.2
 5.600  0.8017  108.4   1.009    1.5  0.1948   38.2  0.3677 -163.5
 5.700  0.8027  107.5   0.988    0.4  0.1984   37.6  0.3756 -164.8
 5.800  0.8039  106.5   0.968   -0.8  0.2020   36.9  0.3837 -166.1
 5.900  0.8054  105.6   0.948   -2.0  0.2056   36.3  0.3920 -167.3
 6.000  0.8070  104.7   0.928   -3.2  0.2093   35.7  0.4005 -168.4
!
!  f       NFmin   Gammaopt  rn/50
! GHz       dB    MAG  ANG    -
 0.450      0.92  0.10  112   0.11
 0.900      0.97  0.18  144   0.09
 1.900      1.47  0.37 -176   0.07
 2.400      1.72  0.44 -167   0.09
!
! (c) 2017  Infineon Technologies AG, Munich