! Infineon Technologies  Discrete & RF Semiconductors
! BFP193
! VCE =  11. V,  IC =  8.0 mA
! Common Emitter S-Parameters:                            Jan 2017
# GHz  S  MA  R  50
!  f         S11            S21            S12            S22
! GHz     MAG   ANG      MAG   ANG      MAG   ANG      MAG   ANG
 0.010  0.7687   -6.2  24.017  176.3  0.0030   78.9  0.9975   -2.8
 0.020  0.7783  -12.4  24.088  172.9  0.0059   85.4  0.9850   -5.8
 0.030  0.7608  -18.1  23.673  169.6  0.0089   80.0  0.9724   -8.4
 0.040  0.7511  -24.0  23.341  166.1  0.0119   77.3  0.9619  -11.1
 0.050  0.7495  -30.0  23.096  162.6  0.0149   75.7  0.9535  -13.8
 0.060  0.7329  -35.1  22.529  159.9  0.0174   72.2  0.9330  -15.9
 0.070  0.7225  -40.5  22.017  157.0  0.0199   69.7  0.9138  -18.1
 0.080  0.7184  -45.9  21.563  154.0  0.0225   67.7  0.8961  -20.4
 0.090  0.7208  -51.3  21.171  150.8  0.0251   66.1  0.8799  -22.8
 0.100  0.7297  -56.7  20.844  147.6  0.0277   64.8  0.8652  -25.3
 0.110  0.7137  -60.8  20.230  145.4  0.0293   62.5  0.8429  -26.8
 0.120  0.7016  -65.1  19.649  143.0  0.0310   60.4  0.8212  -28.5
 0.130  0.6936  -69.6  19.103  140.5  0.0327   58.6  0.8003  -30.2
 0.140  0.6898  -74.1  18.596  137.9  0.0344   56.9  0.7801  -32.0
 0.150  0.6903  -78.6  18.130  135.1  0.0362   55.4  0.7607  -33.9
 0.200  0.6691  -96.2  15.732  125.7  0.0412   49.9  0.6707  -39.8
 0.250  0.6478 -110.4  13.689  117.8  0.0461   44.9  0.5938  -43.6
 0.300  0.6329 -121.5  12.002  112.2  0.0489   43.1  0.5327  -46.3
 0.350  0.6196 -129.6  10.753  108.2  0.0509   41.9  0.4899  -47.6
 0.400  0.6190 -137.8   9.571  103.1  0.0530   40.8  0.4474  -49.1
 0.450  0.6105 -143.8   8.709  100.1  0.0550   40.4  0.4199  -49.8
 0.500  0.6089 -150.0   7.875   96.5  0.0571   40.1  0.3925  -50.7
 0.600  0.6042 -159.0   6.691   91.0  0.0604   40.8  0.3553  -51.7
 0.700  0.6012 -166.4   5.788   86.5  0.0638   41.8  0.3290  -52.4
 0.800  0.6040 -172.7   5.114   82.3  0.0674   43.6  0.3124  -53.5
 0.900  0.6016 -178.1   4.561   78.6  0.0713   44.2  0.2984  -54.7
 1.000  0.6049  176.8   4.135   75.1  0.0748   45.3  0.2865  -56.1
 1.100  0.6070  172.2   3.776   71.8  0.0791   46.6  0.2799  -57.7
 1.200  0.6080  168.0   3.472   68.5  0.0832   46.9  0.2732  -59.5
 1.300  0.6104  164.0   3.217   65.5  0.0875   47.7  0.2686  -61.7
 1.400  0.6141  160.4   3.002   62.5  0.0923   48.6  0.2644  -64.1
 1.500  0.6202  156.8   2.806   59.7  0.0969   49.1  0.2611  -66.6
 1.600  0.6225  153.3   2.639   56.8  0.1019   49.6  0.2600  -69.2
 1.700  0.6284  149.9   2.492   54.1  0.1070   50.1  0.2585  -72.3
 1.800  0.6345  146.6   2.367   51.3  0.1123   50.1  0.2573  -75.3
 1.900  0.6380  143.4   2.244   48.8  0.1172   50.3  0.2573  -78.3
 2.000  0.6406  140.4   2.132   46.0  0.1225   50.0  0.2589  -81.5
 2.100  0.6458  137.4   2.034   43.6  0.1281   49.9  0.2600  -84.8
 2.200  0.6528  134.5   1.940   40.9  0.1337   49.9  0.2620  -88.0
 2.300  0.6578  131.9   1.860   38.6  0.1394   49.7  0.2660  -91.2
 2.400  0.6641  129.3   1.783   36.1  0.1451   49.5  0.2709  -94.3
 2.500  0.6689  126.8   1.712   33.8  0.1510   49.0  0.2748  -97.7
 2.600  0.6749  124.4   1.644   31.4  0.1569   48.5  0.2797 -100.9
 2.700  0.6801  122.0   1.584   29.3  0.1627   48.0  0.2845 -103.8
 2.800  0.6865  119.7   1.527   27.0  0.1685   47.5  0.2901 -106.6
 2.900  0.6917  117.4   1.475   25.0  0.1743   46.9  0.2937 -109.5
 3.000  0.6980  115.2   1.424   22.8  0.1801   46.3  0.2980 -112.4
 3.100  0.7015  113.1   1.380   21.1  0.1862   45.6  0.3011 -115.2
 3.200  0.7058  111.1   1.337   19.2  0.1924   44.9  0.3050 -118.0
 3.300  0.7111  109.0   1.296   17.3  0.1986   44.2  0.3095 -120.7
 3.400  0.7172  107.1   1.257   15.2  0.2048   43.6  0.3147 -123.4
 3.500  0.7242  105.1   1.219   13.0  0.2110   43.0  0.3206 -125.9
 3.600  0.7276  103.3   1.186   11.4  0.2173   41.9  0.3233 -128.9
 3.700  0.7318  101.6   1.155    9.8  0.2237   41.0  0.3268 -131.8
 3.800  0.7366   99.8   1.124    8.0  0.2301   40.0  0.3312 -134.6
 3.900  0.7421   98.1   1.094    6.2  0.2366   39.1  0.3363 -137.3
 4.000  0.7482   96.4   1.066    4.2  0.2432   38.3  0.3422 -140.0
 4.100  0.7500   94.8   1.040    2.8  0.2497   37.1  0.3456 -143.2
 4.200  0.7524   93.1   1.015    1.2  0.2563   36.1  0.3501 -146.3
 4.300  0.7554   91.5   0.990   -0.4  0.2629   35.0  0.3555 -149.3
 4.400  0.7590   89.9   0.967   -2.0  0.2697   34.0  0.3620 -152.3
 4.500  0.7632   88.3   0.944   -3.8  0.2765   33.1  0.3693 -155.1
 4.600  0.7661   86.9   0.923   -5.0  0.2827   31.9  0.3758 -158.0
 4.700  0.7695   85.4   0.903   -6.3  0.2890   30.8  0.3832 -160.9
 4.800  0.7734   84.0   0.883   -7.6  0.2955   29.7  0.3916 -163.6
 4.900  0.7777   82.6   0.863   -9.0  0.3020   28.7  0.4008 -166.2
 5.000  0.7825   81.2   0.844  -10.5  0.3086   27.7  0.4108 -168.7
 5.100  0.7828   79.8   0.829  -11.6  0.3144   26.4  0.4199 -171.0
 5.200  0.7835   78.4   0.813  -12.7  0.3203   25.2  0.4296 -173.3
 5.300  0.7848   77.0   0.799  -13.9  0.3264   24.0  0.4400 -175.4
 5.400  0.7864   75.6   0.784  -15.1  0.3326   22.8  0.4509 -177.5
 5.500  0.7886   74.2   0.770  -16.4  0.3389   21.7  0.4624 -179.4
 5.600  0.7882   72.9   0.756  -17.3  0.3442   20.5  0.4690  178.8
 5.700  0.7882   71.7   0.742  -18.2  0.3496   19.3  0.4760  177.1
 5.800  0.7885   70.4   0.729  -19.1  0.3552   18.1  0.4835  175.5
 5.900  0.7893   69.2   0.715  -20.1  0.3609   17.0  0.4913  173.9
 6.000  0.7904   67.9   0.702  -21.1  0.3667   15.9  0.4995  172.3
!
!  f       NFmin   Gammaopt  rn/50
! GHz       dB    MAG  ANG    -
 0.450      0.85  0.21  129   0.09
 0.900      0.97  0.36  162   0.07
 1.900      1.79  0.58 -148   0.12
 2.400      2.19  0.64 -129   0.31
!
! (c) 2017  Infineon Technologies AG, Munich