! Infineon Technologies  Discrete & RF Semiconductors
! BFP193
! VCE =  9.0 V,  IC =  48 mA
! Common Emitter S-Parameters:                            Jan 2017
# GHz  S  MA  R  50
!  f         S11            S21            S12            S22
! GHz     MAG   ANG      MAG   ANG      MAG   ANG      MAG   ANG
 0.010  0.3214  -21.3  70.824  171.0  0.0023   77.1  0.9576   -7.5
 0.020  0.3437  -41.9  69.310  163.3  0.0044   75.6  0.9276  -15.5
 0.030  0.3379  -58.5  64.678  157.4  0.0064   70.6  0.8698  -21.2
 0.040  0.3601  -74.4  60.829  150.7  0.0085   68.1  0.8217  -27.7
 0.050  0.4058  -87.5  57.919  143.2  0.0106   66.5  0.7853  -34.8
 0.060  0.4052  -95.8  54.049  140.2  0.0116   64.6  0.7346  -37.6
 0.070  0.4131 -104.0  50.351  136.7  0.0125   63.0  0.6860  -40.9
 0.080  0.4290 -111.7  46.866  132.7  0.0135   61.7  0.6400  -44.6
 0.090  0.4520 -118.7  43.645  128.1  0.0145   60.5  0.5970  -48.9
 0.100  0.4811 -125.0  40.751  122.8  0.0155   59.5  0.5579  -53.8
 0.110  0.4820 -128.8  38.496  121.1  0.0162   59.0  0.5285  -55.2
 0.120  0.4850 -132.6  36.278  119.2  0.0168   58.5  0.4994  -56.8
 0.130  0.4901 -136.3  34.106  117.0  0.0175   58.0  0.4708  -58.7
 0.140  0.4972 -139.9  31.989  114.6  0.0181   57.6  0.4427  -60.7
 0.150  0.5062 -143.4  29.939  111.8  0.0188   57.2  0.4153  -63.0
 0.200  0.5235 -153.8  23.399  104.9  0.0219   60.9  0.3308  -68.4
 0.250  0.5315 -161.1  19.112   99.9  0.0255   60.9  0.2749  -71.4
 0.300  0.5337 -166.2  16.082   96.5  0.0286   62.7  0.2350  -73.9
 0.350  0.5352 -170.1  14.149   94.1  0.0320   64.1  0.2112  -75.2
 0.400  0.5392 -173.9  12.249   91.0  0.0355   65.3  0.1876  -76.9
 0.450  0.5401 -176.7  11.046   89.1  0.0391   65.9  0.1733  -78.2
 0.500  0.5423 -179.5   9.858   86.8  0.0427   66.4  0.1592  -79.7
 0.600  0.5468  175.8   8.271   83.3  0.0503   66.9  0.1396  -82.2
 0.700  0.5498  172.0   7.103   80.2  0.0572   68.0  0.1266  -84.0
 0.800  0.5533  168.4   6.234   77.1  0.0648   68.0  0.1193  -86.6
 0.900  0.5551  165.0   5.541   74.3  0.0724   66.9  0.1146  -89.8
 1.000  0.5584  161.6   5.010   71.6  0.0795   66.5  0.1091  -93.4
 1.100  0.5645  158.5   4.567   69.1  0.0867   65.7  0.1078  -95.8
 1.200  0.5664  155.4   4.191   66.4  0.0942   64.9  0.1069  -99.0
 1.300  0.5671  152.4   3.875   63.9  0.1015   64.1  0.1077 -102.8
 1.400  0.5716  149.7   3.614   61.4  0.1091   63.4  0.1082 -107.0
 1.500  0.5773  147.0   3.372   59.0  0.1162   62.2  0.1105 -110.8
 1.600  0.5813  143.9   3.174   56.5  0.1236   61.0  0.1143 -114.0
 1.700  0.5852  141.3   2.994   54.1  0.1308   60.1  0.1182 -118.0
 1.800  0.5919  138.4   2.841   51.7  0.1379   58.8  0.1227 -122.0
 1.900  0.5958  136.0   2.693   49.5  0.1444   57.5  0.1280 -125.4
 2.000  0.5988  133.4   2.558   47.1  0.1517   56.4  0.1345 -128.4
 2.100  0.6044  130.8   2.441   44.9  0.1584   55.2  0.1403 -131.9
 2.200  0.6113  128.2   2.327   42.5  0.1652   54.1  0.1465 -135.1
 2.300  0.6157  126.0   2.231   40.4  0.1722   52.9  0.1544 -137.5
 2.400  0.6211  123.8   2.138   38.2  0.1792   51.8  0.1625 -139.6
 2.500  0.6262  121.6   2.055   36.2  0.1853   50.4  0.1701 -142.4
 2.600  0.6322  119.4   1.975   34.0  0.1916   49.1  0.1780 -145.0
 2.700  0.6376  117.3   1.905   32.1  0.1977   47.9  0.1849 -147.0
 2.800  0.6438  115.3   1.837   30.0  0.2039   46.8  0.1921 -148.9
 2.900  0.6487  113.2   1.775   28.1  0.2099   45.5  0.1980 -151.4
 3.000  0.6545  111.2   1.716   26.1  0.2159   44.3  0.2043 -153.7
 3.100  0.6582  109.4   1.666   24.5  0.2215   43.1  0.2087 -155.9
 3.200  0.6626  107.6   1.617   22.7  0.2272   41.9  0.2133 -158.0
 3.300  0.6677  105.8   1.569   20.9  0.2329   40.8  0.2183 -160.0
 3.400  0.6734  104.0   1.524   18.9  0.2388   39.7  0.2235 -161.9
 3.500  0.6797  102.3   1.480   16.8  0.2447   38.7  0.2289 -163.7
 3.600  0.6833  100.7   1.442   15.2  0.2500   37.4  0.2332 -166.1
 3.700  0.6874   99.1   1.405   13.6  0.2554   36.2  0.2379 -168.5
 3.800  0.6920   97.5   1.370   11.8  0.2610   35.0  0.2429 -170.7
 3.900  0.6972   95.9   1.336   10.0  0.2666   33.9  0.2483 -172.8
 4.000  0.7029   94.4   1.303    8.1  0.2724   32.8  0.2541 -174.9
 4.100  0.7053   92.9   1.273    6.6  0.2776   31.5  0.2595 -177.4
 4.200  0.7082   91.4   1.245    5.1  0.2828   30.3  0.2653 -179.8
 4.300  0.7115   90.0   1.217    3.5  0.2882   29.1  0.2716  177.9
 4.400  0.7153   88.5   1.191    1.8  0.2938   28.0  0.2783  175.7
 4.500  0.7196   87.1   1.165    0.0  0.2994   26.9  0.2854  173.6
 4.600  0.7230   85.7   1.141   -1.3  0.3043   25.7  0.2930  171.6
 4.700  0.7268   84.4   1.117   -2.7  0.3094   24.5  0.3009  169.7
 4.800  0.7310   83.0   1.094   -4.1  0.3146   23.4  0.3091  167.9
 4.900  0.7356   81.7   1.072   -5.6  0.3199   22.3  0.3176  166.2
 5.000  0.7406   80.4   1.050   -7.1  0.3253   21.3  0.3264  164.6
 5.100  0.7409   79.1   1.032   -8.4  0.3297   20.1  0.3350  163.3
 5.200  0.7417   77.7   1.015   -9.6  0.3342   18.9  0.3438  162.1
 5.300  0.7428   76.4   0.999  -11.0  0.3389   17.7  0.3528  160.9
 5.400  0.7443   75.1   0.982  -12.4  0.3437   16.6  0.3619  159.8
 5.500  0.7462   73.8   0.967  -13.8  0.3486   15.5  0.3711  158.8
 5.600  0.7462   72.6   0.951  -14.9  0.3527   14.4  0.3765  157.8
 5.700  0.7465   71.4   0.935  -16.0  0.3570   13.3  0.3821  156.9
 5.800  0.7472   70.3   0.920  -17.2  0.3614   12.2  0.3877  156.0
 5.900  0.7481   69.1   0.905  -18.4  0.3659   11.1  0.3935  155.1
 6.000  0.7494   67.9   0.891  -19.7  0.3706   10.1  0.3993  154.2
!
!  f       NFmin   Gammaopt  rn/50
! GHz       dB    MAG  ANG    -
 0.450      1.49  0.42 -171   0.08
 0.900      1.54  0.44 -164   0.08
 1.900      2.17  0.61 -132   0.22
 2.400      2.50  0.64 -119   0.47
!
! (c) 2017  Infineon Technologies AG, Munich