! Infineon Technologies  Discrete & RF Semiconductors
! BFP193
! VCE =  10. V,  IC =  50 mA
! Common Emitter S-Parameters:                            Jan 2017
# GHz  S  MA  R  50
!  f         S11            S21            S12            S22
! GHz     MAG   ANG      MAG   ANG      MAG   ANG      MAG   ANG
 0.010  0.3373  -20.5  69.867  171.0  0.0020   81.3  0.9526   -7.2
 0.020  0.3596  -40.5  68.264  163.4  0.0046   85.9  0.9217  -15.1
 0.030  0.3507  -56.6  63.784  157.5  0.0062   74.1  0.8660  -20.7
 0.040  0.3695  -72.2  60.070  150.8  0.0080   67.4  0.8196  -27.0
 0.050  0.4124  -85.5  57.272  143.4  0.0099   63.2  0.7841  -33.9
 0.060  0.4106  -93.8  53.485  140.4  0.0110   62.3  0.7343  -36.6
 0.070  0.4174 -102.0  49.867  136.9  0.0121   61.5  0.6865  -39.8
 0.080  0.4324 -109.8  46.459  133.0  0.0131   60.9  0.6410  -43.4
 0.090  0.4549 -117.0  43.310  128.4  0.0142   60.4  0.5984  -47.5
 0.100  0.4837 -123.4  40.481  123.1  0.0153   59.9  0.5594  -52.2
 0.110  0.4840 -127.3  38.243  121.4  0.0161   59.3  0.5302  -53.6
 0.120  0.4864 -131.2  36.044  119.5  0.0169   58.8  0.5012  -55.1
 0.130  0.4911 -135.0  33.892  117.3  0.0177   58.3  0.4727  -56.8
 0.140  0.4979 -138.7  31.794  114.8  0.0185   57.8  0.4447  -58.7
 0.150  0.5067 -142.3  29.764  112.0  0.0193   57.4  0.4172  -60.9
 0.200  0.5231 -152.9  23.274  105.1  0.0220   59.6  0.3330  -65.8
 0.250  0.5308 -160.5  19.005  100.0  0.0255   59.4  0.2773  -68.3
 0.300  0.5335 -165.6  15.993   96.6  0.0286   62.3  0.2381  -70.3
 0.350  0.5348 -169.5  14.077   94.2  0.0320   63.7  0.2144  -71.3
 0.400  0.5385 -173.3  12.194   91.0  0.0354   64.9  0.1908  -72.5
 0.450  0.5397 -176.3  10.995   89.2  0.0387   65.6  0.1768  -73.3
 0.500  0.5424 -179.3   9.810   86.9  0.0421   66.1  0.1629  -74.3
 0.600  0.5453  176.2   8.230   83.2  0.0497   67.1  0.1435  -76.1
 0.700  0.5482  172.3   7.067   80.2  0.0564   67.7  0.1309  -77.5
 0.800  0.5516  168.6   6.206   77.0  0.0648   68.0  0.1235  -79.5
 0.900  0.5518  165.1   5.512   74.2  0.0716   66.9  0.1185  -82.4
 1.000  0.5565  161.9   4.989   71.5  0.0782   66.3  0.1129  -85.3
 1.100  0.5620  158.7   4.547   69.0  0.0859   65.6  0.1113  -87.9
 1.200  0.5633  155.5   4.172   66.2  0.0930   64.8  0.1102  -90.8
 1.300  0.5667  152.7   3.859   63.8  0.1003   64.1  0.1104  -94.7
 1.400  0.5708  149.9   3.597   61.2  0.1082   63.2  0.1100  -98.9
 1.500  0.5750  147.2   3.360   58.8  0.1150   62.1  0.1117 -102.6
 1.600  0.5796  144.2   3.160   56.3  0.1221   61.2  0.1151 -106.0
 1.700  0.5828  141.4   2.981   53.9  0.1295   60.2  0.1192 -110.4
 1.800  0.5895  138.6   2.828   51.5  0.1363   58.7  0.1224 -114.7
 1.900  0.5963  136.1   2.681   49.3  0.1427   57.7  0.1268 -118.3
 2.000  0.5988  133.5   2.547   46.8  0.1501   56.6  0.1332 -121.7
 2.100  0.6044  130.8   2.430   44.6  0.1567   55.4  0.1388 -125.3
 2.200  0.6112  128.2   2.317   42.2  0.1633   54.3  0.1450 -128.7
 2.300  0.6154  126.0   2.222   40.1  0.1702   53.1  0.1524 -131.4
 2.400  0.6205  123.9   2.130   37.9  0.1772   52.0  0.1602 -133.8
 2.500  0.6258  121.6   2.047   35.9  0.1833   50.6  0.1675 -136.8
 2.600  0.6321  119.4   1.966   33.7  0.1896   49.3  0.1752 -139.6
 2.700  0.6373  117.4   1.896   31.7  0.1957   48.2  0.1820 -141.8
 2.800  0.6432  115.5   1.828   29.6  0.2019   47.1  0.1890 -143.9
 2.900  0.6483  113.4   1.767   27.7  0.2078   45.8  0.1948 -146.5
 3.000  0.6543  111.3   1.708   25.7  0.2139   44.5  0.2010 -148.9
 3.100  0.6579  109.4   1.658   24.0  0.2195   43.3  0.2053 -151.2
 3.200  0.6622  107.6   1.609   22.3  0.2252   42.2  0.2099 -153.4
 3.300  0.6672  105.8   1.562   20.4  0.2309   41.1  0.2148 -155.6
 3.400  0.6728  104.0   1.516   18.4  0.2368   40.1  0.2200 -157.6
 3.500  0.6790  102.3   1.473   16.3  0.2427   39.1  0.2254 -159.5
 3.600  0.6829  100.7   1.435   14.7  0.2480   37.8  0.2296 -162.0
 3.700  0.6873   99.2   1.399   13.1  0.2535   36.6  0.2342 -164.4
 3.800  0.6923   97.6   1.364   11.3  0.2591   35.4  0.2392 -166.7
 3.900  0.6977   96.1   1.330    9.5  0.2647   34.3  0.2446 -168.9
 4.000  0.7036   94.6   1.297    7.6  0.2705   33.2  0.2503 -171.0
 4.100  0.7059   93.1   1.267    6.1  0.2756   31.9  0.2556 -173.6
 4.200  0.7088   91.6   1.238    4.5  0.2809   30.7  0.2614 -176.1
 4.300  0.7121   90.1   1.210    2.9  0.2863   29.5  0.2677 -178.5
 4.400  0.7159   88.7   1.183    1.2  0.2918   28.4  0.2744  179.2
 4.500  0.7201   87.2   1.157   -0.6  0.2974   27.3  0.2816  177.0
 4.600  0.7236   85.8   1.133   -1.9  0.3023   26.1  0.2891  174.9
 4.700  0.7275   84.5   1.109   -3.2  0.3073   25.0  0.2970  172.9
 4.800  0.7318   83.1   1.086   -4.6  0.3124   24.0  0.3052  171.0
 4.900  0.7365   81.8   1.064   -6.1  0.3177   22.9  0.3137  169.2
 5.000  0.7416   80.5   1.042   -7.6  0.3230   21.9  0.3225  167.5
 5.100  0.7421   79.2   1.025   -8.9  0.3275   20.7  0.3314  166.1
 5.200  0.7430   77.8   1.008  -10.2  0.3321   19.5  0.3405  164.9
 5.300  0.7443   76.5   0.991  -11.5  0.3368   18.3  0.3497  163.6
 5.400  0.7459   75.2   0.975  -13.0  0.3417   17.2  0.3591  162.5
 5.500  0.7480   73.9   0.960  -14.4  0.3467   16.1  0.3686  161.4
 5.600  0.7481   72.7   0.944  -15.5  0.3509   14.9  0.3744  160.4
 5.700  0.7485   71.5   0.928  -16.6  0.3553   13.8  0.3803  159.3
 5.800  0.7493   70.4   0.912  -17.8  0.3597   12.7  0.3863  158.4
 5.900  0.7503   69.2   0.897  -19.0  0.3644   11.6  0.3924  157.4
 6.000  0.7517   68.0   0.882  -20.3  0.3691   10.6  0.3986  156.5
!
!  f       NFmin   Gammaopt  rn/50
! GHz       dB    MAG  ANG    -
 0.450      1.52  0.43 -170   0.08
 0.900      1.57  0.45 -164   0.09
 1.900      2.20  0.61 -132   0.23
 2.400      2.55  0.64 -119   0.48
!
! (c) 2017  Infineon Technologies AG, Munich