! Infineon Technologies  Discrete & RF Semiconductors
! BFP193
! VCE =  8.0 V,  IC =  50 mA
! Common Emitter S-Parameters:                            Jan 2017
# GHz  S  MA  R  50
!  f         S11            S21            S12            S22
! GHz     MAG   ANG      MAG   ANG      MAG   ANG      MAG   ANG
 0.010  0.2901  -24.0  72.644  170.8  0.0022   81.8  0.9584   -7.8
 0.020  0.3159  -46.4  70.983  162.9  0.0045   80.8  0.9286  -16.3
 0.030  0.3164  -64.0  65.997  156.9  0.0064   73.1  0.8671  -22.1
 0.040  0.3452  -80.0  61.852  150.0  0.0084   68.9  0.8159  -28.8
 0.050  0.3961  -92.8  58.726  142.2  0.0104   66.4  0.7770  -36.2
 0.060  0.3987 -101.0  54.716  139.2  0.0113   64.5  0.7253  -39.1
 0.070  0.4092 -108.9  50.876  135.8  0.0123   63.0  0.6756  -42.3
 0.080  0.4270 -116.3  47.248  131.8  0.0132   61.6  0.6285  -46.1
 0.090  0.4513 -123.0  43.883  127.2  0.0141   60.4  0.5846  -50.5
 0.100  0.4811 -128.9  40.847  121.9  0.0151   59.4  0.5447  -55.6
 0.110  0.4831 -132.5  38.559  120.2  0.0158   58.9  0.5155  -57.1
 0.120  0.4871 -136.1  36.308  118.3  0.0166   58.4  0.4867  -58.7
 0.130  0.4929 -139.7  34.102  116.2  0.0173   58.0  0.4584  -60.6
 0.140  0.5005 -143.1  31.950  113.8  0.0181   57.6  0.4306  -62.7
 0.150  0.5099 -146.4  29.863  111.0  0.0188   57.2  0.4035  -65.1
 0.200  0.5261 -156.0  23.289  104.3  0.0217   60.2  0.3200  -70.8
 0.250  0.5358 -163.0  18.970   99.4  0.0248   61.3  0.2660  -74.1
 0.300  0.5371 -167.7  15.961   96.0  0.0285   63.1  0.2269  -76.9
 0.350  0.5393 -171.3  14.049   93.7  0.0321   64.9  0.2036  -78.4
 0.400  0.5436 -174.9  12.168   90.6  0.0357   66.3  0.1804  -80.3
 0.450  0.5451 -177.7  10.966   88.8  0.0392   66.4  0.1668  -81.8
 0.500  0.5480  179.5   9.777   86.5  0.0427   66.5  0.1533  -83.6
 0.600  0.5526  175.1   8.200   83.0  0.0504   67.3  0.1347  -86.8
 0.700  0.5537  171.5   7.041   80.0  0.0575   68.8  0.1216  -89.2
 0.800  0.5582  167.7   6.180   76.9  0.0657   68.3  0.1157  -92.1
 0.900  0.5573  164.4   5.490   74.1  0.0729   67.3  0.1107  -95.4
 1.000  0.5620  161.3   4.965   71.4  0.0800   67.0  0.1060  -99.2
 1.100  0.5675  158.1   4.526   68.9  0.0882   66.5  0.1057 -101.7
 1.200  0.5706  155.1   4.154   66.2  0.0954   65.0  0.1044 -105.3
 1.300  0.5734  152.1   3.843   63.8  0.1021   64.4  0.1059 -109.0
 1.400  0.5773  149.3   3.583   61.3  0.1104   63.4  0.1069 -113.1
 1.500  0.5813  146.6   3.343   58.9  0.1173   62.2  0.1094 -116.8
 1.600  0.5858  143.6   3.145   56.4  0.1244   61.0  0.1134 -119.8
 1.700  0.5891  140.9   2.968   54.1  0.1319   60.2  0.1186 -123.7
 1.800  0.5975  138.3   2.816   51.6  0.1396   59.0  0.1237 -127.4
 1.900  0.6024  135.7   2.669   49.4  0.1462   57.6  0.1289 -130.7
 2.000  0.6046  133.1   2.535   46.9  0.1532   56.5  0.1360 -133.6
 2.100  0.6095  130.5   2.418   44.7  0.1598   55.2  0.1423 -136.7
 2.200  0.6156  128.0   2.305   42.3  0.1665   54.0  0.1489 -139.5
 2.300  0.6203  125.7   2.211   40.3  0.1736   52.8  0.1567 -141.7
 2.400  0.6260  123.5   2.120   38.1  0.1808   51.6  0.1648 -143.7
 2.500  0.6305  121.4   2.038   36.1  0.1872   50.3  0.1727 -146.3
 2.600  0.6358  119.3   1.959   34.0  0.1936   49.0  0.1809 -148.7
 2.700  0.6420  117.2   1.889   32.0  0.1997   47.7  0.1879 -150.6
 2.800  0.6491  115.1   1.821   29.9  0.2058   46.5  0.1950 -152.3
 2.900  0.6535  113.0   1.759   28.0  0.2117   45.2  0.2012 -154.6
 3.000  0.6588  111.0   1.700   26.0  0.2178   44.0  0.2077 -156.8
 3.100  0.6624  109.2   1.650   24.4  0.2234   42.8  0.2121 -159.0
 3.200  0.6666  107.3   1.601   22.6  0.2291   41.6  0.2168 -161.0
 3.300  0.6715  105.5   1.555   20.8  0.2349   40.5  0.2218 -163.0
 3.400  0.6771  103.7   1.509   18.8  0.2408   39.5  0.2270 -164.9
 3.500  0.6833  102.0   1.466   16.7  0.2467   38.5  0.2325 -166.7
 3.600  0.6866  100.4   1.429   15.1  0.2521   37.2  0.2369 -169.0
 3.700  0.6905   98.9   1.394   13.5  0.2576   35.9  0.2417 -171.2
 3.800  0.6948   97.3   1.359   11.8  0.2632   34.7  0.2469 -173.4
 3.900  0.6997   95.8   1.326   10.0  0.2689   33.6  0.2524 -175.4
 4.000  0.7050   94.3   1.294    8.1  0.2747   32.5  0.2582 -177.4
 4.100  0.7074   92.8   1.265    6.6  0.2798   31.2  0.2637 -179.9
 4.200  0.7102   91.3   1.236    5.1  0.2850   30.0  0.2697  177.8
 4.300  0.7136   89.9   1.208    3.5  0.2904   28.8  0.2761  175.5
 4.400  0.7174   88.4   1.182    1.8  0.2958   27.7  0.2830  173.3
 4.500  0.7216   87.0   1.156    0.0  0.3014   26.6  0.2902  171.3
 4.600  0.7252   85.6   1.132   -1.3  0.3062   25.4  0.2977  169.4
 4.700  0.7292   84.3   1.109   -2.6  0.3112   24.3  0.3055  167.5
 4.800  0.7335   82.9   1.086   -4.0  0.3163   23.1  0.3135  165.8
 4.900  0.7383   81.6   1.064   -5.5  0.3215   22.0  0.3219  164.2
 5.000  0.7435   80.3   1.043   -7.0  0.3268   21.0  0.3305  162.6
 5.100  0.7438   79.0   1.026   -8.2  0.3312   19.8  0.3391  161.4
 5.200  0.7446   77.6   1.009   -9.5  0.3358   18.5  0.3479  160.2
 5.300  0.7457   76.3   0.992  -10.8  0.3405   17.4  0.3568  159.1
 5.400  0.7473   75.0   0.976  -12.2  0.3453   16.2  0.3658  158.1
 5.500  0.7492   73.7   0.961  -13.6  0.3503   15.1  0.3749  157.1
 5.600  0.7490   72.5   0.945  -14.7  0.3543   14.0  0.3802  156.1
 5.700  0.7492   71.3   0.930  -15.8  0.3584   12.9  0.3857  155.2
 5.800  0.7497   70.2   0.915  -17.0  0.3626   11.8  0.3912  154.3
 5.900  0.7505   69.0   0.901  -18.2  0.3669   10.8  0.3968  153.4
 6.000  0.7516   67.8   0.887  -19.5  0.3714    9.8  0.4025  152.6
!
!  f       NFmin   Gammaopt  rn/50
! GHz       dB    MAG  ANG    -
 0.450      1.52  0.43 -170   0.08
 0.900      1.57  0.45 -164   0.09
 1.900      2.20  0.61 -132   0.23
 2.400      2.55  0.64 -119   0.48
!
! (c) 2017  Infineon Technologies AG, Munich