! Infineon Technologies  Discrete & RF Semiconductors
! BFP193
! VCE =  6.0 V,  IC =  10 mA
! Common Emitter S-Parameters:                            Jan 2017
# GHz  S  MA  R  50
!  f         S11            S21            S12            S22
! GHz     MAG   ANG      MAG   ANG      MAG   ANG      MAG   ANG
 0.010  0.6956   -7.8  29.032  175.7  0.0030   93.0  0.9985   -3.7
 0.020  0.7060  -15.3  29.113  171.6  0.0062   85.5  0.9808   -7.5
 0.030  0.6860  -22.3  28.436  167.7  0.0092   78.7  0.9632  -10.8
 0.040  0.6768  -29.7  27.895  163.7  0.0124   75.3  0.9489  -14.3
 0.050  0.6790  -37.1  27.498  159.5  0.0155   73.3  0.9381  -17.8
 0.060  0.6601  -43.1  26.619  156.5  0.0179   69.6  0.9100  -20.3
 0.070  0.6489  -49.4  25.817  153.3  0.0203   66.7  0.8838  -23.0
 0.080  0.6457  -55.8  25.099  150.0  0.0228   64.5  0.8595  -25.8
 0.090  0.6507  -62.3  24.473  146.4  0.0253   62.7  0.8375  -28.8
 0.100  0.6637  -68.5  23.946  142.7  0.0278   61.2  0.8179  -31.9
 0.110  0.6496  -73.0  23.087  140.5  0.0292   59.1  0.7912  -33.6
 0.120  0.6396  -77.7  22.266  138.1  0.0306   57.2  0.7653  -35.4
 0.130  0.6341  -82.5  21.487  135.5  0.0321   55.5  0.7402  -37.4
 0.140  0.6331  -87.4  20.753  132.8  0.0336   53.9  0.7160  -39.5
 0.150  0.6366  -92.2  20.072  129.8  0.0351   52.5  0.6928  -41.7
 0.200  0.6288 -109.9  16.957  120.5  0.0391   48.1  0.5926  -48.2
 0.250  0.6164 -123.3  14.470  113.1  0.0433   45.2  0.5131  -52.4
 0.300  0.6087 -133.3  12.523  107.9  0.0461   43.7  0.4521  -55.3
 0.350  0.6008 -140.5  11.156  104.2  0.0483   43.1  0.4109  -56.7
 0.400  0.6026 -147.8   9.846   99.6  0.0505   42.6  0.3701  -58.5
 0.450  0.5985 -153.1   8.927   96.9  0.0524   43.0  0.3442  -59.5
 0.500  0.5996 -158.4   8.033   93.5  0.0544   43.4  0.3184  -60.6
 0.600  0.6018 -166.5   6.796   88.6  0.0593   44.8  0.2832  -62.0
 0.700  0.5997 -172.9   5.863   84.4  0.0628   46.3  0.2588  -63.1
 0.800  0.6022 -178.4   5.167   80.4  0.0680   48.2  0.2434  -64.6
 0.900  0.6021  176.7   4.602   76.9  0.0729   48.7  0.2304  -66.1
 1.000  0.6048  172.3   4.168   73.6  0.0780   49.8  0.2201  -67.9
 1.100  0.6075  168.1   3.806   70.5  0.0827   50.2  0.2143  -69.8
 1.200  0.6106  164.3   3.497   67.4  0.0881   50.8  0.2085  -72.1
 1.300  0.6141  160.7   3.239   64.5  0.0934   51.3  0.2049  -74.6
 1.400  0.6175  157.3   3.021   61.6  0.0992   51.9  0.2018  -77.6
 1.500  0.6225  153.9   2.823   58.8  0.1049   51.8  0.2000  -80.6
 1.600  0.6244  150.4   2.657   56.0  0.1104   51.6  0.2007  -83.4
 1.700  0.6295  147.3   2.508   53.3  0.1166   51.9  0.2007  -87.1
 1.800  0.6366  144.2   2.382   50.6  0.1223   51.5  0.2009  -90.5
 1.900  0.6411  141.2   2.257   48.2  0.1280   51.4  0.2030  -94.0
 2.000  0.6440  138.3   2.146   45.5  0.1340   50.9  0.2061  -97.3
 2.100  0.6493  135.4   2.047   43.1  0.1399   50.4  0.2091 -100.8
 2.200  0.6562  132.6   1.953   40.4  0.1459   50.0  0.2129 -104.2
 2.300  0.6606  130.1   1.872   38.1  0.1522   49.5  0.2187 -107.4
 2.400  0.6663  127.7   1.795   35.7  0.1586   49.0  0.2251 -110.5
 2.500  0.6714  125.3   1.724   33.5  0.1646   48.2  0.2310 -113.9
 2.600  0.6776  122.9   1.655   31.2  0.1706   47.4  0.2377 -117.1
 2.700  0.6824  120.6   1.596   29.1  0.1766   46.7  0.2439 -119.9
 2.800  0.6883  118.3   1.539   26.9  0.1827   46.0  0.2506 -122.5
 2.900  0.6936  116.1   1.487   24.9  0.1885   45.1  0.2552 -125.4
 3.000  0.6999  113.9   1.436   22.7  0.1944   44.3  0.2605 -128.1
 3.100  0.7032  111.9   1.393   21.0  0.2004   43.4  0.2648 -130.8
 3.200  0.7073  109.9   1.351   19.2  0.2064   42.5  0.2696 -133.4
 3.300  0.7122  108.0   1.310   17.3  0.2125   41.7  0.2750 -135.9
 3.400  0.7180  106.1   1.271   15.3  0.2186   40.9  0.2809 -138.3
 3.500  0.7245  104.2   1.234   13.1  0.2248   40.2  0.2873 -140.6
 3.600  0.7279  102.5   1.202   11.5  0.2308   39.1  0.2912 -143.4
 3.700  0.7319  100.7   1.170    9.9  0.2369   38.1  0.2958 -146.2
 3.800  0.7365   99.0   1.140    8.1  0.2431   37.1  0.3010 -148.8
 3.900  0.7419   97.4   1.111    6.2  0.2494   36.2  0.3069 -151.3
 4.000  0.7478   95.7   1.083    4.3  0.2557   35.3  0.3133 -153.8
 4.100  0.7493   94.1   1.057    2.8  0.2618   34.1  0.3182 -156.8
 4.200  0.7514   92.5   1.032    1.3  0.2679   33.0  0.3239 -159.7
 4.300  0.7541   90.9   1.008   -0.3  0.2742   31.9  0.3304 -162.5
 4.400  0.7574   89.4   0.985   -1.9  0.2806   30.9  0.3377 -165.1
 4.500  0.7612   87.8   0.962   -3.7  0.2870   29.9  0.3457 -167.7
 4.600  0.7640   86.4   0.941   -4.9  0.2927   28.7  0.3533 -170.3
 4.700  0.7673   85.0   0.920   -6.2  0.2985   27.6  0.3616 -172.8
 4.800  0.7710   83.6   0.900   -7.5  0.3044   26.5  0.3706 -175.2
 4.900  0.7752   82.2   0.880   -8.9  0.3105   25.5  0.3802 -177.5
 5.000  0.7799   80.8   0.861  -10.3  0.3166   24.5  0.3903 -179.6
 5.100  0.7799   79.4   0.846  -11.4  0.3221   23.3  0.3998  178.4
 5.200  0.7805   78.0   0.832  -12.6  0.3277   22.1  0.4098  176.5
 5.300  0.7814   76.6   0.818  -13.8  0.3334   20.9  0.4203  174.7
 5.400  0.7829   75.2   0.804  -15.0  0.3393   19.8  0.4311  172.9
 5.500  0.7848   73.8   0.791  -16.3  0.3453   18.7  0.4423  171.3
 5.600  0.7845   72.6   0.777  -17.2  0.3501   17.5  0.4489  169.8
 5.700  0.7846   71.4   0.764  -18.2  0.3551   16.4  0.4559  168.4
 5.800  0.7850   70.2   0.751  -19.1  0.3603   15.2  0.4631  167.0
 5.900  0.7857   69.0   0.738  -20.2  0.3655   14.2  0.4706  165.6
 6.000  0.7868   67.8   0.725  -21.2  0.3709   13.1  0.4783  164.3
!
!  f       NFmin   Gammaopt  rn/50
! GHz       dB    MAG  ANG    -
 0.450      0.87  0.21  156   0.07
 0.900      1.00  0.35  173   0.06
 1.900      1.75  0.57 -146   0.13
 2.400      2.13  0.63 -128   0.31
!
! (c) 2017  Infineon Technologies AG, Munich