! Infineon Technologies  Discrete & RF Semiconductors
! BFP193
! VCE =  10. V,  IC =  16 mA
! Common Emitter S-Parameters:                            Jan 2017
# GHz  S  MA  R  50
!  f         S11            S21            S12            S22
! GHz     MAG   ANG      MAG   ANG      MAG   ANG      MAG   ANG
 0.010  0.6066   -9.5  40.027  174.5  0.0026   81.8  0.9884   -4.4
 0.020  0.6145  -19.1  39.952  169.7  0.0057   83.0  0.9746   -9.1
 0.030  0.5933  -27.7  38.650  165.3  0.0083   76.3  0.9473  -13.0
 0.040  0.5864  -36.8  37.596  160.6  0.0109   72.8  0.9245  -17.1
 0.050  0.5942  -45.8  36.809  155.6  0.0135   70.7  0.9068  -21.4
 0.060  0.5752  -52.6  35.292  152.5  0.0153   67.6  0.8719  -24.1
 0.070  0.5647  -59.7  33.889  149.1  0.0172   65.2  0.8391  -27.0
 0.080  0.5632  -67.0  32.613  145.4  0.0190   63.3  0.8086  -30.1
 0.090  0.5707  -74.2  31.481  141.5  0.0209   61.7  0.7808  -33.5
 0.100  0.5870  -81.1  30.508  137.3  0.0228   60.4  0.7558  -37.1
 0.110  0.5752  -85.8  29.221  135.1  0.0238   58.4  0.7262  -38.7
 0.120  0.5673  -90.6  27.980  132.8  0.0249   56.6  0.6973  -40.5
 0.130  0.5636  -95.5  26.789  130.2  0.0259   54.9  0.6691  -42.4
 0.140  0.5641 -100.5  25.657  127.4  0.0270   53.4  0.6417  -44.4
 0.150  0.5688 -105.4  24.592  124.4  0.0281   52.0  0.6152  -46.7
 0.200  0.5669 -122.2  20.225  115.7  0.0316   50.2  0.5136  -52.9
 0.250  0.5644 -134.4  16.976  108.9  0.0345   48.3  0.4387  -56.4
 0.300  0.5599 -143.3  14.531  104.3  0.0371   48.8  0.3828  -58.8
 0.350  0.5558 -149.7  12.884  101.1  0.0396   49.6  0.3464  -59.9
 0.400  0.5587 -156.1  11.289   96.9  0.0422   50.3  0.3102  -61.3
 0.450  0.5573 -160.6  10.210   94.5  0.0447   50.9  0.2879  -62.0
 0.500  0.5594 -165.1   9.154   91.5  0.0473   51.5  0.2657  -62.9
 0.600  0.5610 -172.1   7.718   87.1  0.0530   53.4  0.2360  -64.2
 0.700  0.5635 -177.6   6.645   83.4  0.0577   55.1  0.2147  -64.9
 0.800  0.5654  177.3   5.848   79.7  0.0647   56.1  0.2019  -66.2
 0.900  0.5656  172.9   5.200   76.5  0.0699   56.8  0.1912  -67.9
 1.000  0.5693  169.0   4.710   73.5  0.0761   57.1  0.1825  -69.5
 1.100  0.5740  165.1   4.295   70.6  0.0823   57.6  0.1774  -71.5
 1.200  0.5771  161.3   3.944   67.7  0.0882   57.2  0.1725  -73.7
 1.300  0.5795  158.1   3.649   65.0  0.0942   57.2  0.1699  -76.5
 1.400  0.5825  154.9   3.404   62.3  0.1004   57.3  0.1671  -79.6
 1.500  0.5886  151.7   3.179   59.7  0.1070   56.8  0.1659  -82.6
 1.600  0.5913  148.4   2.991   57.0  0.1130   56.2  0.1665  -85.7
 1.700  0.5962  145.5   2.822   54.5  0.1197   56.0  0.1670  -89.5
 1.800  0.6028  142.4   2.679   51.9  0.1263   55.1  0.1677  -93.2
 1.900  0.6065  139.6   2.540   49.6  0.1321   54.6  0.1698  -96.8
 2.000  0.6108  136.8   2.413   47.0  0.1387   53.7  0.1734 -100.4
 2.100  0.6164  134.0   2.302   44.7  0.1448   52.9  0.1766 -104.1
 2.200  0.6235  131.2   2.196   42.2  0.1510   52.2  0.1805 -107.7
 2.300  0.6279  128.9   2.105   40.0  0.1576   51.4  0.1863 -111.0
 2.400  0.6334  126.6   2.018   37.7  0.1642   50.7  0.1927 -114.0
 2.500  0.6386  124.2   1.939   35.6  0.1703   49.6  0.1983 -117.4
 2.600  0.6448  121.9   1.862   33.3  0.1764   48.6  0.2046 -120.6
 2.700  0.6504  119.7   1.795   31.3  0.1824   47.6  0.2104 -123.4
 2.800  0.6570  117.6   1.731   29.1  0.1885   46.7  0.2167 -126.0
 2.900  0.6618  115.4   1.672   27.1  0.1943   45.7  0.2213 -128.9
 3.000  0.6676  113.2   1.616   25.0  0.2002   44.8  0.2265 -131.6
 3.100  0.6714  111.3   1.568   23.3  0.2059   43.8  0.2303 -134.2
 3.200  0.6760  109.4   1.521   21.5  0.2117   42.8  0.2346 -136.8
 3.300  0.6814  107.5   1.475   19.6  0.2176   41.8  0.2394 -139.2
 3.400  0.6874  105.6   1.432   17.6  0.2235   40.9  0.2445 -141.6
 3.500  0.6942  103.8   1.390   15.5  0.2295   40.1  0.2501 -143.8
 3.600  0.6978  102.1   1.354   13.9  0.2351   38.9  0.2537 -146.6
 3.700  0.7020  100.5   1.320   12.2  0.2408   37.8  0.2578 -149.3
 3.800  0.7068   98.8   1.286   10.5  0.2465   36.8  0.2625 -151.9
 3.900  0.7122   97.2   1.254    8.6  0.2524   35.8  0.2677 -154.4
 4.000  0.7181   95.6   1.223    6.7  0.2583   34.8  0.2734 -156.8
 4.100  0.7204   94.1   1.194    5.2  0.2639   33.6  0.2782 -159.7
 4.200  0.7232   92.5   1.167    3.6  0.2696   32.4  0.2837 -162.5
 4.300  0.7265   91.0   1.140    2.0  0.2754   31.3  0.2898 -165.2
 4.400  0.7303   89.5   1.114    0.3  0.2813   30.2  0.2965 -167.8
 4.500  0.7346   88.0   1.089   -1.5  0.2873   29.2  0.3038 -170.2
 4.600  0.7379   86.6   1.065   -2.8  0.2927   28.0  0.3112 -172.7
 4.700  0.7417   85.2   1.042   -4.2  0.2982   26.9  0.3191 -175.1
 4.800  0.7459   83.9   1.019   -5.6  0.3038   25.8  0.3275 -177.4
 4.900  0.7505   82.5   0.997   -7.1  0.3096   24.8  0.3365 -179.6
 5.000  0.7555   81.2   0.976   -8.6  0.3154   23.8  0.3459  178.4
 5.100  0.7558   79.8   0.959   -9.8  0.3203   22.6  0.3553  176.6
 5.200  0.7566   78.4   0.943  -11.1  0.3254   21.4  0.3650  174.8
 5.300  0.7578   77.0   0.927  -12.4  0.3306   20.3  0.3751  173.2
 5.400  0.7594   75.7   0.912  -13.7  0.3359   19.2  0.3855  171.6
 5.500  0.7615   74.3   0.897  -15.1  0.3414   18.1  0.3961  170.1
 5.600  0.7615   73.1   0.881  -16.1  0.3460   17.0  0.4026  168.8
 5.700  0.7619   71.9   0.866  -17.2  0.3507   15.9  0.4094  167.5
 5.800  0.7626   70.6   0.850  -18.3  0.3555   14.8  0.4163  166.3
 5.900  0.7637   69.4   0.836  -19.5  0.3604   13.7  0.4234  165.1
 6.000  0.7651   68.2   0.821  -20.7  0.3655   12.7  0.4307  163.9
!
!  f       NFmin   Gammaopt  rn/50
! GHz       dB    MAG  ANG    -
 0.450      0.97  0.24  173   0.07
 0.900      1.06  0.36  179   0.07
 1.900      1.74  0.56 -142   0.14
 2.400      2.05  0.62 -125   0.33
!
! (c) 2017  Infineon Technologies AG, Munich