! Infineon Technologies  Discrete & RF Semiconductors
! BFP193
! VCE =  12. V,  IC =  45 mA
! Common Emitter S-Parameters:                            Jan 2017
# GHz  S  MA  R  50
!  f         S11            S21            S12            S22
! GHz     MAG   ANG      MAG   ANG      MAG   ANG      MAG   ANG
 0.010  0.3777  -17.2  52.750  171.8  0.0030   51.2  0.8908   -5.4
 0.020  0.3936  -34.3  51.760  165.0  0.0047   65.4  0.8638  -11.4
 0.030  0.3822  -48.3  48.680  159.6  0.0067   62.7  0.8248  -15.7
 0.040  0.3941  -62.2  46.084  153.6  0.0088   61.2  0.7910  -20.5
 0.050  0.4274  -74.7  44.057  146.9  0.0108   60.3  0.7630  -25.6
 0.060  0.4229  -83.0  41.439  143.9  0.0121   59.6  0.7253  -27.9
 0.070  0.4273  -91.3  38.949  140.5  0.0134   59.0  0.6889  -30.3
 0.080  0.4405  -99.3  36.612  136.7  0.0147   58.5  0.6540  -33.1
 0.090  0.4616 -106.7  34.461  132.4  0.0160   58.1  0.6207  -36.2
 0.100  0.4896 -113.3  32.532  127.5  0.0173   57.7  0.5894  -39.6
 0.110  0.4896 -117.4  30.870  125.7  0.0180   56.8  0.5646  -40.7
 0.120  0.4921 -121.5  29.243  123.7  0.0188   55.9  0.5399  -41.8
 0.130  0.4971 -125.6  27.656  121.4  0.0195   55.1  0.5155  -43.1
 0.140  0.5045 -129.5  26.116  118.9  0.0203   54.4  0.4914  -44.5
 0.150  0.5142 -133.3  24.633  116.1  0.0210   53.7  0.4676  -46.0
 0.200  0.5358 -145.4  19.693  108.9  0.0233   53.1  0.3916  -49.1
 0.250  0.5441 -154.2  16.426  103.3  0.0271   54.8  0.3403  -50.8
 0.300  0.5492 -160.4  13.965   99.4  0.0296   55.7  0.3014  -52.4
 0.350  0.5525 -164.9  12.312   96.8  0.0326   57.4  0.2784  -52.5
 0.400  0.5593 -169.4  10.691   93.5  0.0357   58.8  0.2554  -52.7
 0.450  0.5605 -172.8   9.668   91.4  0.0387   59.8  0.2424  -53.2
 0.500  0.5637 -176.1   8.660   88.9  0.0417   60.7  0.2294  -53.8
 0.600  0.5686  178.6   7.231   85.1  0.0484   62.2  0.2120  -54.6
 0.700  0.5714  174.4   6.289   81.8  0.0542   63.8  0.1978  -56.2
 0.800  0.5767  170.3   5.456   78.6  0.0611   64.6  0.1962  -57.0
 0.900  0.5768  166.6   4.861   75.6  0.0677   64.3  0.1894  -59.4
 1.000  0.5804  163.1   4.407   72.7  0.0743   64.4  0.1826  -61.9
 1.100  0.5823  159.9   4.084   70.0  0.0819   63.9  0.1747  -65.7
 1.200  0.5866  156.5   3.703   67.2  0.0882   63.3  0.1765  -67.5
 1.300  0.5871  153.3   3.466   64.5  0.0949   63.0  0.1714  -71.6
 1.400  0.5943  150.4   3.201   61.9  0.1018   62.6  0.1724  -74.6
 1.500  0.5966  147.5   3.012   59.4  0.1087   61.6  0.1690  -78.6
 1.600  0.6018  144.7   2.836   56.8  0.1158   61.0  0.1705  -82.1
 1.700  0.6022  141.9   2.699   54.3  0.1225   60.0  0.1688  -87.0
 1.800  0.6118  139.0   2.541   51.7  0.1293   59.3  0.1735  -90.2
 1.900  0.6172  136.3   2.404   49.5  0.1360   58.3  0.1749  -94.2
 2.000  0.6177  133.7   2.315   46.9  0.1429   57.2  0.1761  -98.9
 2.100  0.6223  131.1   2.211   44.6  0.1494   56.1  0.1790 -102.9
 2.200  0.6281  128.6   2.111   42.1  0.1559   55.0  0.1827 -106.7
 2.300  0.6338  126.2   2.012   40.0  0.1628   54.0  0.1907 -109.7
 2.400  0.6406  123.9   1.916   37.7  0.1697   53.1  0.1992 -112.5
 2.500  0.6453  121.7   1.844   35.6  0.1759   51.9  0.2042 -116.2
 2.600  0.6510  119.5   1.774   33.3  0.1822   50.8  0.2100 -119.7
 2.700  0.6552  117.4   1.721   31.3  0.1884   49.6  0.2143 -123.1
 2.800  0.6603  115.4   1.671   29.2  0.1947   48.4  0.2194 -126.3
 2.900  0.6656  113.3   1.608   27.2  0.2008   47.3  0.2258 -128.9
 3.000  0.6718  111.2   1.548   25.1  0.2069   46.2  0.2327 -131.4
 3.100  0.6752  109.3   1.503   23.4  0.2127   45.0  0.2362 -134.1
 3.200  0.6794  107.5   1.460   21.7  0.2187   43.9  0.2403 -136.8
 3.300  0.6843  105.7   1.418   19.8  0.2247   42.9  0.2448 -139.3
 3.400  0.6898  103.9   1.378   17.8  0.2308   41.9  0.2498 -141.8
 3.500  0.6960  102.1   1.339   15.7  0.2369   41.0  0.2552 -144.1
 3.600  0.6994  100.5   1.304   14.1  0.2425   39.7  0.2584 -146.9
 3.700  0.7033   98.8   1.271   12.5  0.2481   38.5  0.2622 -149.7
 3.800  0.7078   97.2   1.238   10.7  0.2539   37.4  0.2665 -152.3
 3.900  0.7128   95.7   1.207    8.8  0.2598   36.3  0.2714 -154.9
 4.000  0.7184   94.1   1.177    6.9  0.2658   35.2  0.2769 -157.4
 4.100  0.7201   92.6   1.152    5.4  0.2714   33.9  0.2811 -160.4
 4.200  0.7222   91.1   1.128    3.8  0.2771   32.7  0.2860 -163.3
 4.300  0.7249   89.6   1.105    2.2  0.2829   31.5  0.2916 -166.1
 4.400  0.7280   88.2   1.083    0.5  0.2889   30.4  0.2979 -168.7
 4.500  0.7316   86.7   1.062   -1.3  0.2949   29.3  0.3048 -171.3
 4.600  0.7351   85.3   1.038   -2.6  0.3001   28.1  0.3126 -173.7
 4.700  0.7390   84.0   1.015   -4.0  0.3054   26.9  0.3208 -176.0
 4.800  0.7433   82.6   0.993   -5.4  0.3109   25.8  0.3296 -178.1
 4.900  0.7480   81.3   0.971   -6.9  0.3164   24.7  0.3388  179.8
 5.000  0.7531   80.0   0.950   -8.4  0.3221   23.7  0.3484  177.9
 5.100  0.7535   78.7   0.933   -9.6  0.3269   22.4  0.3575  176.1
 5.200  0.7543   77.3   0.917  -10.9  0.3318   21.2  0.3670  174.4
 5.300  0.7556   76.0   0.901  -12.2  0.3368   20.1  0.3767  172.8
 5.400  0.7572   74.6   0.885  -13.5  0.3420   18.9  0.3868  171.3
 5.500  0.7593   73.3   0.870  -14.9  0.3473   17.8  0.3971  169.8
 5.600  0.7590   72.1   0.856  -15.9  0.3516   16.6  0.4027  168.4
 5.700  0.7590   70.9   0.841  -17.0  0.3561   15.4  0.4086  167.0
 5.800  0.7594   69.6   0.828  -18.1  0.3607   14.3  0.4146  165.7
 5.900  0.7601   68.4   0.814  -19.3  0.3655   13.2  0.4209  164.4
 6.000  0.7612   67.2   0.801  -20.5  0.3704   12.1  0.4274  163.2
!
!  f       NFmin   Gammaopt  rn/50
! GHz       dB    MAG  ANG    -
 0.450      1.45  0.40 -171   0.08
 0.900      1.49  0.43 -165   0.08
 1.900      2.13  0.59 -134   0.21
 2.400      2.45  0.63 -119   0.45
!
! (c) 2017  Infineon Technologies AG, Munich