! Infineon Technologies  Discrete & RF Semiconductors
! BFP193
! VCE =  2.0 V,  IC = 0.11 A
! Common Emitter S-Parameters:                            Jan 2017
# GHz  S  MA  R  50
!  f         S11            S21            S12            S22
! GHz     MAG   ANG      MAG   ANG      MAG   ANG      MAG   ANG
 0.010  0.3446 -148.4  58.717  160.9  0.0032   69.4  0.5631  -23.8
 0.020  0.5061 -147.9  51.489  145.3  0.0057   62.9  0.5014  -46.0
 0.030  0.5711 -153.2  43.801  139.3  0.0072   57.3  0.4250  -56.1
 0.040  0.6399 -157.4  36.798  130.8  0.0087   53.6  0.3670  -70.0
 0.050  0.7114 -160.7  30.949  118.8  0.0103   51.0  0.3373  -87.6
 0.060  0.7234 -163.0  28.083  116.9  0.0111   53.2  0.3120  -92.4
 0.070  0.7364 -165.2  25.253  114.6  0.0119   55.1  0.2892  -98.0
 0.080  0.7506 -167.3  22.474  111.8  0.0128   56.7  0.2696 -104.5
 0.090  0.7657 -169.3  19.767  108.1  0.0136   58.1  0.2541 -111.9
 0.100  0.7817 -171.3  17.166  103.3  0.0145   59.4  0.2432 -120.1
 0.110  0.7838 -172.3  16.055  102.3  0.0152   60.1  0.2357 -123.0
 0.120  0.7861 -173.4  14.950  101.2  0.0160   60.7  0.2288 -126.1
 0.130  0.7888 -174.4  13.851  100.0  0.0167   61.3  0.2226 -129.3
 0.140  0.7916 -175.4  12.760   98.5  0.0175   61.8  0.2172 -132.7
 0.150  0.7947 -176.4  11.679   96.7  0.0182   62.3  0.2126 -136.3
 0.200  0.8013 -179.5   8.816   92.3  0.0218   66.8  0.2022 -146.0
 0.250  0.8026  178.0   7.072   89.0  0.0263   67.0  0.1958 -151.8
 0.300  0.8009  175.9   5.901   86.5  0.0305   69.0  0.1932 -156.7
 0.350  0.8014  174.0   5.174   84.6  0.0351   69.8  0.1921 -159.3
 0.400  0.8028  172.2   4.454   82.0  0.0398   70.5  0.1914 -161.9
 0.450  0.8026  170.5   4.009   80.4  0.0443   71.2  0.1921 -163.7
 0.500  0.8031  168.9   3.569   78.3  0.0488   71.7  0.1929 -165.4
 0.600  0.8066  165.9   2.993   74.8  0.0583   71.0  0.1949 -168.1
 0.700  0.8056  163.2   2.573   71.7  0.0668   71.1  0.1959 -170.3
 0.800  0.8070  160.2   2.260   68.3  0.0769   70.4  0.1993 -171.3
 0.900  0.8051  157.4   2.013   65.2  0.0857   69.1  0.2041 -172.5
 1.000  0.8093  154.8   1.827   62.3  0.0944   68.0  0.2084 -173.9
 1.100  0.8113  152.0   1.672   59.4  0.1044   67.1  0.2121 -174.7
 1.200  0.8111  149.2   1.540   56.4  0.1126   65.7  0.2162 -175.7
 1.300  0.8131  146.5   1.431   53.6  0.1213   64.6  0.2224 -176.4
 1.400  0.8146  143.8   1.343   50.8  0.1304   63.5  0.2297 -177.6
 1.500  0.8198  141.3   1.258   48.2  0.1391   61.9  0.2357 -178.5
 1.600  0.8199  138.5   1.190   45.4  0.1479   60.4  0.2418 -178.9
 1.700  0.8224  135.8   1.129   42.8  0.1567   59.1  0.2503 -179.7
 1.800  0.8269  133.0   1.075   40.1  0.1651   57.6  0.2581  179.2
 1.900  0.8297  130.5   1.024   37.9  0.1729   56.4  0.2651  178.3
 2.000  0.8279  128.0   0.978   35.3  0.1812   54.8  0.2731  177.7
 2.100  0.8299  125.4   0.937   33.1  0.1888   53.4  0.2815  176.7
 2.200  0.8337  122.8   0.898   30.7  0.1966   52.1  0.2900  175.8
 2.300  0.8337  120.5   0.866   28.7  0.2046   50.5  0.2976  175.2
 2.400  0.8349  118.3   0.836   26.5  0.2128   49.1  0.3053  174.6
 2.500  0.8369  116.1   0.807   24.6  0.2199   47.6  0.3141  173.6
 2.600  0.8401  113.9   0.779   22.6  0.2271   46.1  0.3230  172.7
 2.700  0.8410  111.8   0.755   20.9  0.2337   44.7  0.3297  171.8
 2.800  0.8431  109.7   0.732   19.1  0.2405   43.3  0.3365  171.0
 2.900  0.8441  107.6   0.712   17.5  0.2468   41.9  0.3437  169.7
 3.000  0.8462  105.6   0.692   15.8  0.2533   40.6  0.3510  168.4
 3.100  0.8455  103.7   0.676   14.5  0.2593   39.2  0.3562  167.1
 3.200  0.8457  101.9   0.660   13.1  0.2653   37.9  0.3615  165.8
 3.300  0.8468  100.0   0.645   11.6  0.2716   36.6  0.3671  164.5
 3.400  0.8487   98.1   0.630   10.1  0.2779   35.4  0.3728  163.3
 3.500  0.8516   96.3   0.615    8.5  0.2844   34.3  0.3787  162.1
 3.600  0.8511   94.7   0.604    7.4  0.2899   32.9  0.3845  160.5
 3.700  0.8512   93.1   0.593    6.3  0.2956   31.5  0.3905  158.9
 3.800  0.8521   91.5   0.582    5.1  0.3015   30.2  0.3969  157.4
 3.900  0.8536   89.9   0.572    3.9  0.3075   29.0  0.4035  155.9
 4.000  0.8557   88.3   0.562    2.6  0.3136   27.8  0.4104  154.5
 4.100  0.8537   86.8   0.554    1.7  0.3189   26.5  0.4172  152.8
 4.200  0.8522   85.3   0.546    0.7  0.3244   25.1  0.4244  151.1
 4.300  0.8514   83.8   0.539   -0.3  0.3300   23.9  0.4320  149.5
 4.400  0.8511   82.3   0.531   -1.3  0.3358   22.7  0.4399  147.9
 4.500  0.8514   80.8   0.524   -2.3  0.3417   21.5  0.4481  146.4
 4.600  0.8514   79.5   0.518   -3.0  0.3463   20.2  0.4551  145.0
 4.700  0.8519   78.2   0.513   -3.8  0.3511   19.0  0.4625  143.7
 4.800  0.8528   77.0   0.507   -4.5  0.3560   17.7  0.4700  142.4
 4.900  0.8541   75.7   0.501   -5.3  0.3611   16.6  0.4778  141.1
 5.000  0.8559   74.4   0.496   -6.1  0.3663   15.4  0.4858  139.9
 5.100  0.8534   73.1   0.494   -6.8  0.3705   14.1  0.4929  139.0
 5.200  0.8513   71.8   0.492   -7.6  0.3748   12.9  0.5001  138.1
 5.300  0.8497   70.5   0.490   -8.4  0.3794   11.7  0.5075  137.2
 5.400  0.8485   69.2   0.488   -9.1  0.3841   10.5  0.5149  136.3
 5.500  0.8478   67.9   0.486   -9.9  0.3889    9.4  0.5225  135.5
 5.600  0.8451   66.7   0.484  -10.5  0.3927    8.2  0.5257  134.7
 5.700  0.8427   65.6   0.481  -11.1  0.3967    7.0  0.5290  133.8
 5.800  0.8407   64.4   0.479  -11.7  0.4008    5.9  0.5324  133.0
 5.900  0.8391   63.2   0.477  -12.4  0.4051    4.8  0.5360  132.2
 6.000  0.8378   62.0   0.475  -13.0  0.4095    3.7  0.5396  131.4
!
!  f       NFmin   Gammaopt  rn/50
! GHz       dB    MAG  ANG    -
!
! noise parameter not available yet for this operation point!
!
! (c) 2017  Infineon Technologies AG, Munich