! Infineon Technologies  Discrete & RF Semiconductors
! BFP193
! VCE =  1.0 V,  IC =  48 mA
! Common Emitter S-Parameters:                            Jan 2017
# GHz  S  MA  R  50
!  f         S11            S21            S12            S22
! GHz     MAG   ANG      MAG   ANG      MAG   ANG      MAG   ANG
 0.010  0.1897  -79.8  66.518  166.1  0.0038   78.4  0.8483  -16.7
 0.020  0.3291 -104.4  62.085  153.8  0.0069   70.7  0.7878  -32.8
 0.030  0.3894 -119.4  54.824  147.3  0.0089   61.6  0.6926  -42.0
 0.040  0.4689 -129.9  48.468  139.0  0.0110   55.8  0.6204  -53.7
 0.050  0.5593 -137.2  43.416  128.5  0.0132   52.0  0.5798  -67.7
 0.060  0.5750 -141.9  39.726  126.1  0.0143   52.0  0.5322  -72.2
 0.070  0.5943 -146.3  36.119  123.3  0.0154   52.0  0.4884  -77.5
 0.080  0.6170 -150.5  32.622  119.8  0.0166   52.1  0.4496  -83.8
 0.090  0.6426 -154.3  29.273  115.5  0.0177   52.1  0.4172  -91.2
 0.100  0.6709 -157.8  26.132  110.1  0.0188   52.1  0.3928  -99.6
 0.110  0.6742 -159.7  24.500  108.9  0.0195   52.6  0.3749 -102.6
 0.120  0.6783 -161.6  22.881  107.5  0.0201   53.2  0.3581 -105.9
 0.130  0.6831 -163.4  21.277  105.9  0.0208   53.6  0.3427 -109.6
 0.140  0.6885 -165.2  19.693  104.0  0.0214   54.1  0.3287 -113.5
 0.150  0.6947 -167.0  18.134  101.8  0.0221   54.5  0.3165 -117.8
 0.200  0.7053 -172.2  13.815   96.6  0.0254   58.0  0.2823 -129.8
 0.250  0.7129 -176.3  11.135   92.8  0.0302   59.7  0.2628 -138.3
 0.300  0.7126 -179.1   9.313   90.0  0.0338   62.8  0.2522 -145.0
 0.350  0.7148  178.6   8.170   88.0  0.0382   64.0  0.2465 -149.3
 0.400  0.7182  176.3   7.041   85.3  0.0427   64.9  0.2422 -153.8
 0.450  0.7183  174.3   6.338   83.7  0.0472   65.4  0.2403 -156.6
 0.500  0.7192  172.3   5.642   81.6  0.0518   65.9  0.2389 -159.5
 0.600  0.7234  168.7   4.726   78.2  0.0610   66.2  0.2380 -164.2
 0.700  0.7233  165.7   4.057   75.3  0.0697   66.6  0.2370 -167.5
 0.800  0.7252  162.6   3.560   72.0  0.0796   66.6  0.2389 -170.1
 0.900  0.7260  159.6   3.165   69.1  0.0885   65.4  0.2409 -172.1
 1.000  0.7288  156.8   2.870   66.4  0.0974   64.9  0.2441 -174.5
 1.100  0.7311  153.9   2.619   63.7  0.1069   64.0  0.2471 -175.9
 1.200  0.7326  151.1   2.406   60.8  0.1151   62.9  0.2491 -177.5
 1.300  0.7342  148.4   2.231   58.3  0.1239   61.6  0.2543 -178.7
 1.400  0.7373  145.7   2.087   55.6  0.1336   60.5  0.2600  179.7
 1.500  0.7409  143.1   1.951   53.0  0.1419   59.2  0.2651  178.5
 1.600  0.7443  140.3   1.841   50.4  0.1508   57.7  0.2693  177.6
 1.700  0.7458  137.5   1.742   47.8  0.1592   56.5  0.2762  176.6
 1.800  0.7508  134.9   1.656   45.2  0.1675   55.1  0.2828  175.5
 1.900  0.7539  132.4   1.574   43.0  0.1757   53.6  0.2885  174.4
 2.000  0.7549  129.7   1.498   40.4  0.1837   52.2  0.2953  173.7
 2.100  0.7581  127.2   1.432   38.2  0.1912   50.8  0.3021  172.6
 2.200  0.7628  124.7   1.369   35.7  0.1988   49.5  0.3091  171.6
 2.300  0.7643  122.4   1.317   33.6  0.2066   48.0  0.3154  170.9
 2.400  0.7669  120.2   1.266   31.4  0.2145   46.7  0.3218  170.3
 2.500  0.7698  118.0   1.220   29.4  0.2214   45.2  0.3292  169.3
 2.600  0.7738  115.8   1.176   27.2  0.2285   43.8  0.3366  168.4
 2.700  0.7760  113.7   1.138   25.3  0.2349   42.4  0.3421  167.5
 2.800  0.7791  111.7   1.101   23.3  0.2414   41.1  0.3476  166.7
 2.900  0.7815  109.7   1.066   21.5  0.2476   39.7  0.3537  165.5
 3.000  0.7849  107.7   1.033   19.6  0.2540   38.4  0.3599  164.3
 3.100  0.7856  105.8   1.006   18.0  0.2596   37.1  0.3639  163.0
 3.200  0.7871  104.0   0.980   16.4  0.2654   35.8  0.3680  161.7
 3.300  0.7894  102.1   0.954   14.7  0.2713   34.6  0.3724  160.4
 3.400  0.7925  100.3   0.930   12.8  0.2774   33.4  0.3769  159.2
 3.500  0.7964   98.5   0.906   10.9  0.2835   32.3  0.3816  158.0
 3.600  0.7973   96.9   0.886    9.5  0.2888   31.0  0.3864  156.5
 3.700  0.7988   95.3   0.867    8.1  0.2942   29.7  0.3914  155.0
 3.800  0.8009   93.7   0.849    6.6  0.2998   28.4  0.3967  153.6
 3.900  0.8036   92.1   0.831    5.0  0.3055   27.2  0.4022  152.2
 4.000  0.8070   90.5   0.814    3.4  0.3114   26.1  0.4079  150.9
 4.100  0.8065   89.0   0.799    2.1  0.3164   24.8  0.4137  149.3
 4.200  0.8064   87.6   0.784    0.8  0.3216   23.5  0.4198  147.8
 4.300  0.8069   86.1   0.769   -0.5  0.3269   22.3  0.4262  146.3
 4.400  0.8080   84.7   0.755   -1.9  0.3323   21.1  0.4329  144.8
 4.500  0.8095   83.2   0.741   -3.4  0.3379   20.0  0.4399  143.4
 4.600  0.8107   81.9   0.729   -4.4  0.3423   18.8  0.4465  142.2
 4.700  0.8124   80.5   0.717   -5.5  0.3469   17.6  0.4533  141.0
 4.800  0.8145   79.2   0.706   -6.6  0.3516   16.4  0.4603  139.8
 4.900  0.8170   77.9   0.695   -7.7  0.3564   15.3  0.4675  138.7
 5.000  0.8200   76.6   0.684   -8.9  0.3614   14.2  0.4749  137.6
 5.100  0.8187   75.3   0.677   -9.9  0.3655   13.0  0.4814  136.8
 5.200  0.8177   74.0   0.669  -10.9  0.3698   11.8  0.4881  136.0
 5.300  0.8172   72.7   0.662  -12.0  0.3742   10.6  0.4948  135.3
 5.400  0.8172   71.4   0.656  -13.0  0.3788    9.4  0.5016  134.5
 5.500  0.8175   70.1   0.649  -14.1  0.3835    8.3  0.5085  133.8
 5.600  0.8155   68.9   0.642  -14.9  0.3871    7.2  0.5113  133.1
 5.700  0.8139   67.8   0.635  -15.8  0.3909    6.1  0.5142  132.4
 5.800  0.8126   66.6   0.628  -16.7  0.3949    5.1  0.5171  131.7
 5.900  0.8116   65.5   0.621  -17.6  0.3989    4.0  0.5202  131.0
 6.000  0.8110   64.3   0.614  -18.5  0.4031    3.0  0.5233  130.3
!
!  f       NFmin   Gammaopt  rn/50
! GHz       dB    MAG  ANG    -
 0.450      1.49  0.42 -171   0.08
 0.900      1.54  0.44 -164   0.08
 1.900      2.17  0.61 -132   0.22
 2.400      2.50  0.64 -119   0.47
!
! (c) 2017  Infineon Technologies AG, Munich