! Infineon Technologies  Discrete & RF Semiconductors
! BFP193
! VCE =  1.0 V,  IC =  20 mA
! Common Emitter S-Parameters:                            Jan 2017
# GHz  S  MA  R  50
!  f         S11            S21            S12            S22
! GHz     MAG   ANG      MAG   ANG      MAG   ANG      MAG   ANG
 0.010  0.4436  -19.6  47.358  172.1  0.0042   83.9  0.9716   -9.0
 0.020  0.4625  -37.8  46.830  164.6  0.0084   81.9  0.9410  -17.9
 0.030  0.4482  -52.8  43.931  158.7  0.0114   72.2  0.8832  -24.8
 0.040  0.4653  -67.7  41.554  152.1  0.0147   66.6  0.8398  -32.6
 0.050  0.5106  -80.7  39.794  144.8  0.0180   63.1  0.8134  -41.0
 0.060  0.5052  -89.1  37.250  141.7  0.0197   60.0  0.7598  -45.0
 0.070  0.5108  -97.5  34.831  138.2  0.0215   57.3  0.7105  -49.6
 0.080  0.5271 -105.6  32.565  134.1  0.0234   55.1  0.6664  -54.8
 0.090  0.5530 -113.0  30.485  129.5  0.0252   53.2  0.6286  -60.7
 0.100  0.5874 -119.7  28.633  124.2  0.0271   51.6  0.5983  -67.3
 0.110  0.5866 -123.8  27.082  122.4  0.0281   50.6  0.5674  -69.9
 0.120  0.5887 -127.8  25.560  120.4  0.0291   49.7  0.5379  -72.9
 0.130  0.5938 -131.9  24.073  118.1  0.0301   48.8  0.5099  -76.1
 0.140  0.6017 -135.8  22.629  115.6  0.0311   48.0  0.4838  -79.8
 0.150  0.6124 -139.6  21.236  112.7  0.0321   47.2  0.4598  -83.8
 0.200  0.6314 -150.9  16.664  105.4  0.0348   46.5  0.3790  -95.8
 0.250  0.6376 -159.0  13.619  100.0  0.0385   47.0  0.3257 -104.8
 0.300  0.6411 -164.6  11.497   96.4  0.0416   48.6  0.2913 -112.6
 0.350  0.6436 -168.6  10.118   93.8  0.0446   50.4  0.2699 -117.9
 0.400  0.6492 -172.6   8.766   90.4  0.0477   51.9  0.2512 -124.0
 0.450  0.6485 -175.7   7.903   88.4  0.0516   53.2  0.2399 -128.3
 0.500  0.6498 -178.8   7.052   85.9  0.0555   54.3  0.2300 -133.0
 0.600  0.6556  176.6   5.915   82.0  0.0631   55.5  0.2192 -140.1
 0.700  0.6565  172.4   5.080   78.7  0.0704   57.0  0.2108 -145.6
 0.800  0.6581  168.5   4.461   75.3  0.0786   58.0  0.2083 -150.1
 0.900  0.6588  165.0   3.967   72.3  0.0875   57.9  0.2077 -153.7
 1.000  0.6639  161.7   3.590   69.4  0.0948   57.7  0.2077 -157.2
 1.100  0.6661  158.4   3.276   66.6  0.1034   57.6  0.2095 -159.6
 1.200  0.6684  155.1   3.008   63.8  0.1108   56.9  0.2114 -162.3
 1.300  0.6704  152.2   2.787   61.1  0.1190   56.4  0.2153 -164.3
 1.400  0.6747  149.4   2.603   58.5  0.1272   55.7  0.2199 -166.5
 1.500  0.6782  146.6   2.431   55.8  0.1352   54.7  0.2250 -168.4
 1.600  0.6816  143.7   2.291   53.2  0.1431   54.0  0.2293 -169.7
 1.700  0.6843  140.7   2.166   50.6  0.1513   53.1  0.2363 -171.3
 1.800  0.6903  138.0   2.056   48.0  0.1589   51.9  0.2427 -172.9
 1.900  0.6947  135.4   1.951   45.8  0.1664   50.9  0.2491 -174.3
 2.000  0.6967  132.7   1.855   43.2  0.1736   49.7  0.2564 -175.5
 2.100  0.7006  130.1   1.772   40.9  0.1809   48.6  0.2634 -176.9
 2.200  0.7059  127.5   1.692   38.4  0.1883   47.6  0.2705 -178.2
 2.300  0.7091  125.2   1.625   36.3  0.1958   46.4  0.2776 -179.1
 2.400  0.7134  122.9   1.560   34.0  0.2034   45.2  0.2848 -179.9
 2.500  0.7168  120.6   1.502   31.9  0.2098   43.9  0.2926  178.9
 2.600  0.7213  118.4   1.446   29.7  0.2164   42.6  0.3005  177.8
 2.700  0.7255  116.2   1.396   27.8  0.2229   41.4  0.3067  176.7
 2.800  0.7307  114.1   1.347   25.7  0.2294   40.2  0.3130  175.6
 2.900  0.7340  112.0   1.304   23.8  0.2355   39.0  0.3191  174.1
 3.000  0.7382  110.0   1.262   21.8  0.2417   37.8  0.3255  172.7
 3.100  0.7401  108.1   1.227   20.2  0.2474   36.6  0.3299  171.2
 3.200  0.7428  106.2   1.193   18.5  0.2532   35.4  0.3346  169.8
 3.300  0.7462  104.4   1.160   16.6  0.2591   34.3  0.3394  168.4
 3.400  0.7505  102.5   1.128   14.7  0.2651   33.2  0.3445  167.1
 3.500  0.7555  100.7   1.098   12.7  0.2712   32.2  0.3497  165.8
 3.600  0.7575   99.1   1.072   11.2  0.2766   30.9  0.3546  164.1
 3.700  0.7601   97.5   1.047    9.7  0.2820   29.7  0.3598  162.5
 3.800  0.7633   95.9   1.022    8.0  0.2877   28.6  0.3654  160.9
 3.900  0.7670   94.3   0.999    6.3  0.2934   27.5  0.3711  159.3
 4.000  0.7714   92.7   0.976    4.5  0.2992   26.4  0.3772  157.8
 4.100  0.7720   91.2   0.956    3.2  0.3042   25.1  0.3833  156.1
 4.200  0.7731   89.7   0.936    1.8  0.3094   23.9  0.3898  154.4
 4.300  0.7747   88.2   0.917    0.3  0.3146   22.7  0.3965  152.8
 4.400  0.7769   86.7   0.898   -1.2  0.3201   21.6  0.4036  151.2
 4.500  0.7796   85.2   0.880   -2.8  0.3256   20.5  0.4110  149.7
 4.600  0.7814   83.8   0.864   -3.9  0.3303   19.3  0.4181  148.3
 4.700  0.7835   82.5   0.848   -5.1  0.3351   18.2  0.4254  147.0
 4.800  0.7862   81.1   0.832   -6.4  0.3400   17.0  0.4329  145.7
 4.900  0.7893   79.7   0.817   -7.7  0.3451   16.0  0.4407  144.5
 5.000  0.7928   78.4   0.802   -9.0  0.3503   14.9  0.4486  143.3
 5.100  0.7921   77.1   0.792  -10.1  0.3545   13.7  0.4558  142.4
 5.200  0.7918   75.8   0.781  -11.2  0.3588   12.5  0.4632  141.5
 5.300  0.7919   74.6   0.772  -12.3  0.3633   11.4  0.4706  140.7
 5.400  0.7924   73.3   0.762  -13.5  0.3679   10.3  0.4782  139.9
 5.500  0.7933   72.0   0.753  -14.7  0.3727    9.2  0.4858  139.1
 5.600  0.7924   70.8   0.743  -15.6  0.3765    8.1  0.4893  138.3
 5.700  0.7918   69.6   0.733  -16.6  0.3805    7.0  0.4928  137.5
 5.800  0.7915   68.5   0.724  -17.6  0.3846    6.0  0.4965  136.8
 5.900  0.7916   67.3   0.714  -18.6  0.3888    4.9  0.5002  136.0
 6.000  0.7920   66.1   0.705  -19.7  0.3932    3.9  0.5040  135.3
!
!  f       NFmin   Gammaopt  rn/50
! GHz       dB    MAG  ANG    -
 0.450      1.05  0.27  180   0.07
 0.900      1.13  0.36 -178   0.07
 1.900      1.76  0.56 -140   0.15
 2.400      2.10  0.62 -124   0.34
!
! (c) 2017  Infineon Technologies AG, Munich