! Infineon Technologies  Discrete & RF Semiconductors
! BFP193
! VCE =  9.0 V,  IC =  16 mA
! Common Emitter S-Parameters:                            Jan 2017
# GHz  S  MA  R  50
!  f         S11            S21            S12            S22
! GHz     MAG   ANG      MAG   ANG      MAG   ANG      MAG   ANG
 0.010  0.5977   -9.8  40.229  174.5  0.0025   91.6  0.9906   -4.5
 0.020  0.6068  -19.5  40.133  169.6  0.0054   81.4  0.9776   -9.3
 0.030  0.5854  -28.3  38.816  165.1  0.0080   75.7  0.9490  -13.3
 0.040  0.5786  -37.5  37.751  160.4  0.0106   72.8  0.9251  -17.4
 0.050  0.5869  -46.7  36.959  155.4  0.0133   71.1  0.9064  -21.8
 0.060  0.5684  -53.6  35.407  152.3  0.0152   68.0  0.8707  -24.5
 0.070  0.5587  -60.8  33.971  148.9  0.0171   65.6  0.8372  -27.4
 0.080  0.5580  -68.2  32.665  145.2  0.0191   63.7  0.8060  -30.6
 0.090  0.5665  -75.5  31.506  141.2  0.0210   62.1  0.7775  -34.0
 0.100  0.5838  -82.4  30.511  136.9  0.0230   60.8  0.7519  -37.7
 0.110  0.5724  -87.1  29.212  134.8  0.0240   58.8  0.7222  -39.4
 0.120  0.5649  -91.9  27.957  132.4  0.0251   57.0  0.6933  -41.2
 0.130  0.5616  -96.8  26.753  129.9  0.0261   55.3  0.6650  -43.1
 0.140  0.5625 -101.8  25.605  127.1  0.0272   53.8  0.6376  -45.3
 0.150  0.5675 -106.7  24.524  124.1  0.0283   52.4  0.6112  -47.6
 0.200  0.5686 -123.4  20.133  115.4  0.0312   50.2  0.5092  -53.7
 0.250  0.5643 -135.4  16.891  108.6  0.0347   48.8  0.4344  -57.4
 0.300  0.5623 -144.2  14.452  104.0  0.0372   48.2  0.3785  -59.9
 0.350  0.5593 -150.5  12.809  100.8  0.0396   49.2  0.3422  -61.1
 0.400  0.5629 -156.7  11.217   96.7  0.0420   50.1  0.3061  -62.6
 0.450  0.5605 -161.1  10.144   94.3  0.0448   50.9  0.2838  -63.4
 0.500  0.5615 -165.6   9.093   91.3  0.0477   51.6  0.2616  -64.3
 0.600  0.5637 -172.5   7.666   86.9  0.0533   53.4  0.2314  -65.5
 0.700  0.5658 -178.0   6.598   83.2  0.0580   55.1  0.2108  -66.5
 0.800  0.5692  176.9   5.806   79.6  0.0645   56.5  0.1978  -67.9
 0.900  0.5695  172.5   5.164   76.4  0.0703   56.9  0.1870  -69.7
 1.000  0.5737  168.7   4.676   73.4  0.0762   57.7  0.1781  -71.5
 1.100  0.5773  164.8   4.263   70.5  0.0827   57.6  0.1731  -73.4
 1.200  0.5802  161.1   3.917   67.5  0.0885   57.4  0.1689  -75.8
 1.300  0.5816  157.9   3.624   64.9  0.0949   57.3  0.1660  -78.5
 1.400  0.5851  154.6   3.381   62.2  0.1015   57.3  0.1634  -81.8
 1.500  0.5919  151.5   3.157   59.6  0.1077   56.9  0.1622  -85.0
 1.600  0.5952  148.3   2.970   56.9  0.1142   56.4  0.1630  -88.0
 1.700  0.5995  145.3   2.803   54.4  0.1208   55.8  0.1640  -91.9
 1.800  0.6057  142.4   2.659   51.8  0.1271   55.1  0.1656  -95.6
 1.900  0.6113  139.5   2.521   49.5  0.1333   54.4  0.1673  -99.2
 2.000  0.6143  136.7   2.396   46.9  0.1402   53.6  0.1711 -102.6
 2.100  0.6202  133.9   2.287   44.6  0.1461   52.9  0.1744 -106.4
 2.200  0.6275  131.1   2.182   42.1  0.1520   52.3  0.1785 -110.0
 2.300  0.6315  128.8   2.091   39.9  0.1588   51.4  0.1846 -113.2
 2.400  0.6365  126.5   2.004   37.5  0.1657   50.5  0.1913 -116.2
 2.500  0.6410  124.1   1.926   35.4  0.1716   49.5  0.1972 -119.6
 2.600  0.6465  121.8   1.850   33.2  0.1775   48.5  0.2038 -122.7
 2.700  0.6529  119.6   1.784   31.2  0.1834   47.5  0.2099 -125.5
 2.800  0.6602  117.4   1.721   29.0  0.1893   46.6  0.2165 -128.1
 2.900  0.6648  115.2   1.662   27.0  0.1952   45.6  0.2211 -130.9
 3.000  0.6704  113.1   1.605   24.9  0.2011   44.6  0.2263 -133.6
 3.100  0.6740  111.2   1.557   23.2  0.2069   43.6  0.2303 -136.2
 3.200  0.6783  109.3   1.511   21.4  0.2128   42.6  0.2348 -138.7
 3.300  0.6834  107.4   1.466   19.5  0.2187   41.6  0.2398 -141.1
 3.400  0.6893  105.5   1.422   17.5  0.2247   40.7  0.2451 -143.4
 3.500  0.6958  103.7   1.381   15.4  0.2307   39.9  0.2508 -145.6
 3.600  0.6994  102.0   1.345   13.8  0.2363   38.7  0.2545 -148.3
 3.700  0.7036  100.4   1.311   12.1  0.2421   37.6  0.2587 -151.0
 3.800  0.7083   98.8   1.278   10.4  0.2479   36.6  0.2635 -153.6
 3.900  0.7136   97.2   1.246    8.5  0.2538   35.6  0.2687 -156.0
 4.000  0.7195   95.6   1.215    6.6  0.2598   34.6  0.2745 -158.4
 4.100  0.7217   94.0   1.187    5.1  0.2653   33.4  0.2794 -161.3
 4.200  0.7244   92.4   1.159    3.5  0.2710   32.2  0.2849 -164.1
 4.300  0.7277   90.9   1.132    1.9  0.2767   31.1  0.2911 -166.7
 4.400  0.7315   89.3   1.107    0.2  0.2826   30.0  0.2979 -169.3
 4.500  0.7359   87.8   1.082   -1.6  0.2885   29.0  0.3053 -171.7
 4.600  0.7392   86.4   1.059   -2.9  0.2939   27.8  0.3128 -174.2
 4.700  0.7430   85.0   1.036   -4.2  0.2994   26.7  0.3208 -176.5
 4.800  0.7471   83.6   1.014   -5.6  0.3050   25.6  0.3294 -178.8
 4.900  0.7518   82.2   0.992   -7.1  0.3107   24.6  0.3384  179.1
 5.000  0.7568   80.9   0.971   -8.6  0.3165   23.6  0.3479  177.1
 5.100  0.7573   79.6   0.954   -9.8  0.3214   22.4  0.3573  175.3
 5.200  0.7582   78.2   0.938  -11.1  0.3265   21.2  0.3670  173.6
 5.300  0.7595   76.9   0.922  -12.4  0.3317   20.1  0.3771  172.0
 5.400  0.7612   75.6   0.906  -13.7  0.3370   19.0  0.3874  170.5
 5.500  0.7633   74.3   0.891  -15.1  0.3425   17.9  0.3980  169.0
 5.600  0.7632   73.1   0.876  -16.1  0.3471   16.7  0.4045  167.7
 5.700  0.7635   71.9   0.860  -17.2  0.3519   15.6  0.4112  166.4
 5.800  0.7641   70.6   0.846  -18.3  0.3568   14.5  0.4181  165.2
 5.900  0.7651   69.4   0.831  -19.5  0.3618   13.4  0.4252  164.0
 6.000  0.7664   68.2   0.817  -20.7  0.3670   12.4  0.4325  162.9
!
!  f       NFmin   Gammaopt  rn/50
! GHz       dB    MAG  ANG    -
 0.450      0.97  0.24  173   0.07
 0.900      1.06  0.36  179   0.07
 1.900      1.74  0.56 -142   0.14
 2.400      2.05  0.62 -125   0.33
!
! (c) 2017  Infineon Technologies AG, Munich