! Infineon Technologies  Discrete & RF Semiconductors
! BFP193
! VCE =  2.0 V,  IC =  92 mA
! Common Emitter S-Parameters:                            Jan 2017
# GHz  S  MA  R  50
!  f         S11            S21            S12            S22
! GHz     MAG   ANG      MAG   ANG      MAG   ANG      MAG   ANG
 0.010  0.2604 -138.2  67.106  163.3  0.0031   76.3  0.6892  -19.1
 0.020  0.4186 -138.5  60.627  148.9  0.0051   73.4  0.6205  -37.3
 0.030  0.4880 -145.6  52.277  142.6  0.0067   64.1  0.5332  -46.0
 0.040  0.5630 -150.9  44.781  134.1  0.0084   58.5  0.4627  -57.8
 0.050  0.6417 -154.9  38.640  122.6  0.0101   54.8  0.4177  -72.8
 0.060  0.6564 -157.7  35.149  120.5  0.0109   55.6  0.3819  -76.8
 0.070  0.6726 -160.5  31.713  118.0  0.0116   56.2  0.3483  -81.5
 0.080  0.6902 -163.0  28.353  114.9  0.0124   56.8  0.3176  -87.3
 0.090  0.7092 -165.5  25.099  111.0  0.0131   57.3  0.2908  -94.2
 0.100  0.7294 -167.8  21.998  105.9  0.0139   57.8  0.2689 -102.3
 0.110  0.7323 -169.1  20.589  104.8  0.0148   58.6  0.2563 -105.0
 0.120  0.7356 -170.3  19.188  103.6  0.0157   59.3  0.2443 -108.1
 0.130  0.7392 -171.6  17.796  102.3  0.0165   59.9  0.2330 -111.4
 0.140  0.7432 -172.8  16.417  100.6  0.0174   60.5  0.2226 -115.0
 0.150  0.7475 -174.0  15.054   98.7  0.0183   61.0  0.2132 -119.0
 0.200  0.7541 -177.5  11.402   94.1  0.0214   66.2  0.1901 -130.1
 0.250  0.7586  179.6   9.161   90.6  0.0261   66.7  0.1766 -137.6
 0.300  0.7574  177.1   7.648   88.1  0.0300   68.6  0.1695 -143.7
 0.350  0.7579  175.2   6.706   86.2  0.0343   69.9  0.1660 -147.5
 0.400  0.7593  173.3   5.775   83.6  0.0386   70.9  0.1632 -151.4
 0.450  0.7599  171.6   5.198   82.0  0.0430   70.8  0.1621 -153.8
 0.500  0.7611  169.9   4.626   80.0  0.0474   70.8  0.1613 -156.3
 0.600  0.7635  166.7   3.876   76.6  0.0568   70.7  0.1632 -160.2
 0.700  0.7641  164.1   3.327   73.6  0.0653   70.8  0.1628 -162.8
 0.800  0.7661  161.1   2.922   70.3  0.0750   70.5  0.1659 -164.6
 0.900  0.7627  158.1   2.600   67.5  0.0832   69.0  0.1694 -166.1
 1.000  0.7693  155.4   2.357   64.5  0.0918   68.4  0.1737 -168.0
 1.100  0.7718  152.6   2.153   61.8  0.1009   67.1  0.1775 -169.0
 1.200  0.7703  149.9   1.980   58.9  0.1091   65.8  0.1813 -170.2
 1.300  0.7748  147.1   1.837   56.3  0.1177   64.6  0.1870 -171.0
 1.400  0.7761  144.4   1.718   53.5  0.1266   63.4  0.1939 -172.4
 1.500  0.7800  141.9   1.608   50.9  0.1353   62.1  0.2003 -173.5
 1.600  0.7813  139.1   1.518   48.2  0.1433   60.9  0.2058 -173.9
 1.700  0.7841  136.5   1.438   45.6  0.1516   59.5  0.2139 -174.8
 1.800  0.7902  133.8   1.368   43.0  0.1597   58.0  0.2216 -176.0
 1.900  0.7908  131.2   1.300   40.8  0.1675   56.7  0.2292 -176.8
 2.000  0.7921  128.7   1.239   38.2  0.1761   55.2  0.2369 -177.5
 2.100  0.7945  126.1   1.186   35.9  0.1833   53.8  0.2454 -178.5
 2.200  0.7984  123.6   1.135   33.4  0.1906   52.5  0.2539 -179.4
 2.300  0.7995  121.4   1.092   31.4  0.1985   51.0  0.2617  180.0
 2.400  0.8017  119.2   1.050   29.2  0.2065   49.6  0.2696  179.4
 2.500  0.8039  116.9   1.012   27.3  0.2134   48.2  0.2784  178.3
 2.600  0.8073  114.7   0.976   25.2  0.2204   46.8  0.2872  177.3
 2.700  0.8091  112.6   0.945   23.3  0.2270   45.4  0.2941  176.5
 2.800  0.8120  110.6   0.915   21.3  0.2337   44.0  0.3010  175.7
 2.900  0.8137  108.5   0.887   19.6  0.2400   42.7  0.3084  174.3
 3.000  0.8164  106.5   0.860   17.7  0.2465   41.4  0.3159  173.0
 3.100  0.8166  104.7   0.838   16.3  0.2524   40.0  0.3212  171.6
 3.200  0.8176  102.8   0.817   14.7  0.2584   38.7  0.3267  170.3
 3.300  0.8195  101.0   0.796   13.1  0.2646   37.5  0.3323  169.0
 3.400  0.8222   99.2   0.776   11.5  0.2708   36.3  0.3381  167.7
 3.500  0.8257   97.4   0.757    9.7  0.2772   35.2  0.3441  166.5
 3.600  0.8257   95.8   0.741    8.4  0.2827   33.8  0.3500  164.9
 3.700  0.8264   94.1   0.726    7.0  0.2884   32.5  0.3561  163.3
 3.800  0.8278   92.5   0.711    5.6  0.2942   31.3  0.3625  161.8
 3.900  0.8298   90.9   0.697    4.1  0.3001   30.1  0.3691  160.3
 4.000  0.8325   89.3   0.683    2.6  0.3062   28.9  0.3760  158.9
 4.100  0.8313   87.8   0.671    1.5  0.3115   27.6  0.3828  157.1
 4.200  0.8306   86.3   0.659    0.3  0.3169   26.3  0.3901  155.3
 4.300  0.8304   84.9   0.647   -0.9  0.3224   25.1  0.3976  153.7
 4.400  0.8308   83.4   0.636   -2.1  0.3281   23.9  0.4055  152.1
 4.500  0.8318   81.9   0.625   -3.4  0.3340   22.7  0.4137  150.5
 4.600  0.8325   80.6   0.616   -4.2  0.3388   21.4  0.4213  149.1
 4.700  0.8336   79.3   0.607   -5.1  0.3437   20.2  0.4291  147.8
 4.800  0.8352   78.0   0.598   -6.0  0.3488   19.0  0.4371  146.5
 4.900  0.8372   76.7   0.589   -6.9  0.3541   17.8  0.4453  145.2
 5.000  0.8396   75.4   0.581   -7.9  0.3595   16.7  0.4538  144.0
 5.100  0.8377   74.1   0.576   -8.8  0.3637   15.4  0.4616  143.0
 5.200  0.8362   72.8   0.571   -9.7  0.3681   14.2  0.4694  142.1
 5.300  0.8352   71.4   0.567  -10.6  0.3727   13.0  0.4775  141.2
 5.400  0.8346   70.1   0.562  -11.6  0.3774   11.8  0.4856  140.3
 5.500  0.8345   68.8   0.558  -12.5  0.3823   10.7  0.4938  139.5
 5.600  0.8323   67.6   0.553  -13.2  0.3863    9.5  0.4977  138.7
 5.700  0.8304   66.5   0.548  -13.9  0.3904    8.4  0.5016  137.9
 5.800  0.8289   65.3   0.543  -14.7  0.3946    7.3  0.5057  137.1
 5.900  0.8277   64.2   0.538  -15.4  0.3990    6.2  0.5098  136.3
 6.000  0.8269   63.0   0.533  -16.2  0.4036    5.1  0.5141  135.5
!
!  f       NFmin   Gammaopt  rn/50
! GHz       dB    MAG  ANG    -
!
! noise parameter not available yet for this operation point!
!
! (c) 2017  Infineon Technologies AG, Munich