! Infineon Technologies  Discrete & RF Semiconductors
! BFP193
! VCE =  6.0 V,  IC =  45 mA
! Common Emitter S-Parameters:                            Jan 2017
# GHz  S  MA  R  50
!  f         S11            S21            S12            S22
! GHz     MAG   ANG      MAG   ANG      MAG   ANG      MAG   ANG
 0.010  0.2704  -26.0  71.000  171.0  0.0022   84.7  0.9624   -8.1
 0.020  0.3018  -49.3  69.296  162.9  0.0049   80.4  0.9307  -16.8
 0.030  0.3065  -67.3  64.458  156.9  0.0066   71.0  0.8682  -22.8
 0.040  0.3390  -83.3  60.443  150.0  0.0084   65.5  0.8168  -29.7
 0.050  0.3926  -95.7  57.422  142.2  0.0103   62.0  0.7786  -37.4
 0.060  0.3976 -103.8  53.493  139.2  0.0114   61.3  0.7266  -40.4
 0.070  0.4103 -111.5  49.731  135.8  0.0124   60.7  0.6769  -43.8
 0.080  0.4298 -118.6  46.177  131.8  0.0135   60.3  0.6300  -47.8
 0.090  0.4554 -125.0  42.884  127.2  0.0145   59.9  0.5866  -52.4
 0.100  0.4861 -130.7  39.916  121.8  0.0156   59.5  0.5476  -57.7
 0.110  0.4888 -134.2  37.678  120.1  0.0164   58.9  0.5177  -59.3
 0.120  0.4934 -137.7  35.476  118.3  0.0171   58.4  0.4882  -61.2
 0.130  0.4997 -141.2  33.317  116.2  0.0179   57.9  0.4593  -63.2
 0.140  0.5078 -144.5  31.210  113.7  0.0186   57.5  0.4311  -65.5
 0.150  0.5176 -147.7  29.165  111.0  0.0194   57.1  0.4037  -68.2
 0.200  0.5373 -157.1  22.746  104.2  0.0220   60.6  0.3202  -74.8
 0.250  0.5450 -163.9  18.534   99.3  0.0260   61.4  0.2652  -79.1
 0.300  0.5485 -168.5  15.594   96.0  0.0291   62.9  0.2270  -82.9
 0.350  0.5511 -172.1  13.725   93.6  0.0328   64.8  0.2034  -85.2
 0.400  0.5558 -175.6  11.888   90.5  0.0365   66.3  0.1802  -88.2
 0.450  0.5559 -178.3  10.712   88.7  0.0403   66.7  0.1664  -90.3
 0.500  0.5573  179.0   9.548   86.5  0.0441   67.0  0.1528  -92.7
 0.600  0.5635  174.8   8.011   82.9  0.0518   67.0  0.1349  -97.1
 0.700  0.5656  171.1   6.875   79.9  0.0588   67.8  0.1222 -100.5
 0.800  0.5692  167.6   6.035   76.8  0.0668   68.1  0.1164 -104.1
 0.900  0.5692  164.1   5.361   74.0  0.0743   67.0  0.1122 -108.0
 1.000  0.5745  160.7   4.853   71.3  0.0822   66.9  0.1084 -112.1
 1.100  0.5789  157.8   4.420   68.8  0.0895   65.7  0.1078 -115.0
 1.200  0.5816  154.8   4.057   66.1  0.0970   64.7  0.1080 -118.4
 1.300  0.5831  151.9   3.753   63.6  0.1043   63.9  0.1098 -121.6
 1.400  0.5864  149.2   3.498   61.1  0.1125   63.0  0.1121 -125.7
 1.500  0.5932  146.4   3.265   58.7  0.1197   62.0  0.1156 -129.1
 1.600  0.5965  143.5   3.073   56.2  0.1271   60.7  0.1200 -131.4
 1.700  0.5999  140.7   2.900   53.8  0.1348   59.6  0.1261 -134.9
 1.800  0.6062  138.1   2.751   51.4  0.1420   58.4  0.1317 -138.0
 1.900  0.6108  135.5   2.608   49.2  0.1489   57.2  0.1373 -140.6
 2.000  0.6142  133.0   2.476   46.8  0.1563   56.0  0.1447 -142.9
 2.100  0.6194  130.3   2.363   44.6  0.1631   54.7  0.1515 -145.6
 2.200  0.6260  127.7   2.253   42.2  0.1699   53.6  0.1587 -148.1
 2.300  0.6303  125.5   2.160   40.1  0.1770   52.2  0.1667 -149.8
 2.400  0.6355  123.4   2.071   37.9  0.1841   51.0  0.1749 -151.4
 2.500  0.6400  121.2   1.991   35.9  0.1904   49.7  0.1831 -153.6
 2.600  0.6455  119.1   1.913   33.7  0.1968   48.5  0.1915 -155.7
 2.700  0.6509  117.0   1.845   31.8  0.2030   47.2  0.1986 -157.4
 2.800  0.6572  114.9   1.779   29.7  0.2093   45.9  0.2059 -158.9
 2.900  0.6619  112.9   1.720   27.8  0.2152   44.6  0.2119 -161.1
 3.000  0.6675  110.9   1.662   25.8  0.2213   43.4  0.2182 -163.1
 3.100  0.6708  109.0   1.614   24.2  0.2269   42.1  0.2229 -165.1
 3.200  0.6748  107.2   1.567   22.4  0.2327   40.9  0.2278 -166.9
 3.300  0.6795  105.4   1.521   20.6  0.2385   39.8  0.2329 -168.7
 3.400  0.6849  103.6   1.477   18.7  0.2444   38.7  0.2382 -170.5
 3.500  0.6909  101.8   1.435   16.6  0.2504   37.7  0.2438 -172.1
 3.600  0.6942  100.2   1.399   15.0  0.2557   36.4  0.2484 -174.3
 3.700  0.6981   98.7   1.364   13.4  0.2611   35.2  0.2534 -176.4
 3.800  0.7024   97.1   1.330   11.7  0.2667   34.0  0.2587 -178.5
 3.900  0.7073   95.6   1.297    9.9  0.2723   32.9  0.2643  179.6
 4.000  0.7126   94.1   1.266    8.0  0.2781   31.8  0.2702  177.7
 4.100  0.7148   92.6   1.237    6.5  0.2833   30.5  0.2759  175.4
 4.200  0.7175   91.1   1.209    5.0  0.2886   29.3  0.2820  173.2
 4.300  0.7206   89.6   1.182    3.4  0.2940   28.1  0.2885  171.1
 4.400  0.7243   88.2   1.156    1.7  0.2996   26.9  0.2954  169.0
 4.500  0.7284   86.7   1.131    0.0  0.3053   25.8  0.3026  167.1
 4.600  0.7317   85.4   1.108   -1.3  0.3100   24.6  0.3101  165.3
 4.700  0.7353   84.0   1.086   -2.6  0.3149   23.5  0.3179  163.5
 4.800  0.7393   82.7   1.064   -4.0  0.3199   22.3  0.3259  161.9
 4.900  0.7438   81.4   1.043   -5.4  0.3250   21.3  0.3342  160.3
 5.000  0.7486   80.1   1.022   -6.9  0.3302   20.2  0.3428  158.8
 5.100  0.7487   78.8   1.005   -8.1  0.3345   19.0  0.3512  157.7
 5.200  0.7492   77.5   0.989   -9.4  0.3390   17.8  0.3598  156.6
 5.300  0.7501   76.2   0.974  -10.7  0.3436   16.6  0.3684  155.6
 5.400  0.7514   74.9   0.959  -12.1  0.3484   15.5  0.3772  154.6
 5.500  0.7531   73.6   0.944  -13.5  0.3533   14.4  0.3861  153.7
 5.600  0.7530   72.4   0.929  -14.6  0.3573   13.2  0.3912  152.8
 5.700  0.7533   71.2   0.914  -15.7  0.3615   12.1  0.3963  152.0
 5.800  0.7539   70.0   0.900  -16.9  0.3657   11.0  0.4016  151.1
 5.900  0.7548   68.8   0.886  -18.1  0.3702    9.9  0.4069  150.3
 6.000  0.7561   67.6   0.872  -19.3  0.3747    8.9  0.4123  149.5
!
!  f       NFmin   Gammaopt  rn/50
! GHz       dB    MAG  ANG    -
 0.450      1.45  0.40 -171   0.08
 0.900      1.49  0.43 -165   0.08
 1.900      2.13  0.59 -134   0.21
 2.400      2.45  0.63 -119   0.45
!
! (c) 2017  Infineon Technologies AG, Munich