! Infineon Technologies  Discrete & RF Semiconductors
! BFP193
! VCE =  12. V,  IC =  16 mA
! Common Emitter S-Parameters:                            Jan 2017
# GHz  S  MA  R  50
!  f         S11            S21            S12            S22
! GHz     MAG   ANG      MAG   ANG      MAG   ANG      MAG   ANG
 0.010  0.6258   -9.2  39.712  174.4  0.0025   74.1  0.9776   -4.3
 0.020  0.6353  -18.3  39.625  169.8  0.0047   79.5  0.9656   -8.9
 0.030  0.6129  -26.6  38.368  165.5  0.0076   74.8  0.9392  -12.7
 0.040  0.6043  -35.4  37.346  160.8  0.0106   72.8  0.9172  -16.7
 0.050  0.6100  -44.2  36.579  156.0  0.0135   71.6  0.8997  -20.8
 0.060  0.5905  -50.9  35.112  152.9  0.0153   68.4  0.8661  -23.4
 0.070  0.5795  -57.9  33.758  149.5  0.0171   65.9  0.8345  -26.3
 0.080  0.5773  -65.0  32.529  145.9  0.0189   63.8  0.8051  -29.3
 0.090  0.5843  -72.2  31.443  142.0  0.0207   62.1  0.7781  -32.6
 0.100  0.5999  -79.0  30.512  137.8  0.0226   60.7  0.7539  -36.1
 0.110  0.5863  -83.6  29.238  135.7  0.0237   58.7  0.7251  -37.7
 0.120  0.5768  -88.4  28.009  133.3  0.0248   56.8  0.6968  -39.4
 0.130  0.5713  -93.3  26.831  130.8  0.0260   55.1  0.6693  -41.3
 0.140  0.5702  -98.3  25.710  128.0  0.0271   53.5  0.6426  -43.4
 0.150  0.5734 -103.3  24.655  125.0  0.0283   52.1  0.6167  -45.6
 0.200  0.5709 -120.0  20.310  116.2  0.0315   50.4  0.5168  -51.5
 0.250  0.5633 -132.7  17.077  109.4  0.0348   48.0  0.4425  -54.9
 0.300  0.5591 -141.6  14.636  104.6  0.0369   47.8  0.3867  -57.2
 0.350  0.5546 -148.1  12.979  101.4  0.0395   48.8  0.3506  -58.2
 0.400  0.5574 -154.7  11.376   97.2  0.0422   49.7  0.3147  -59.5
 0.450  0.5554 -159.4  10.293   94.8  0.0448   50.6  0.2925  -60.1
 0.500  0.5571 -164.1   9.233   91.8  0.0475   51.4  0.2704  -60.9
 0.600  0.5576 -171.2   7.783   87.3  0.0531   52.5  0.2407  -61.9
 0.700  0.5599 -176.8   6.704   83.6  0.0578   54.5  0.2205  -62.5
 0.800  0.5607  178.0   5.899   79.9  0.0640   56.1  0.2070  -63.7
 0.900  0.5621  173.4   5.248   76.7  0.0694   56.7  0.1963  -65.3
 1.000  0.5671  169.4   4.752   73.7  0.0758   56.8  0.1875  -67.0
 1.100  0.5702  165.6   4.333   70.8  0.0815   56.9  0.1827  -68.7
 1.200  0.5727  161.9   3.981   67.9  0.0871   56.9  0.1779  -70.8
 1.300  0.5739  158.5   3.684   65.2  0.0935   57.0  0.1753  -73.4
 1.400  0.5784  155.3   3.436   62.5  0.0998   57.1  0.1716  -76.5
 1.500  0.5846  152.0   3.208   59.9  0.1060   56.6  0.1702  -79.6
 1.600  0.5882  148.7   3.018   57.2  0.1124   56.0  0.1706  -82.6
 1.700  0.5916  145.8   2.849   54.7  0.1191   55.8  0.1707  -86.4
 1.800  0.5985  142.7   2.704   52.1  0.1251   55.0  0.1712  -90.0
 1.900  0.6036  139.9   2.563   49.8  0.1313   54.5  0.1730  -93.5
 2.000  0.6069  137.2   2.435   47.2  0.1374   53.8  0.1764  -97.1
 2.100  0.6123  134.3   2.323   44.9  0.1435   53.0  0.1790 -100.8
 2.200  0.6193  131.5   2.216   42.4  0.1497   52.2  0.1823 -104.4
 2.300  0.6237  129.1   2.125   40.2  0.1563   51.4  0.1879 -107.7
 2.400  0.6292  126.8   2.037   37.9  0.1629   50.7  0.1940 -110.8
 2.500  0.6342  124.4   1.957   35.8  0.1688   49.7  0.1992 -114.3
 2.600  0.6402  122.1   1.879   33.5  0.1747   48.7  0.2051 -117.6
 2.700  0.6462  119.9   1.812   31.5  0.1805   47.8  0.2108 -120.4
 2.800  0.6531  117.8   1.748   29.3  0.1864   46.9  0.2170 -123.1
 2.900  0.6577  115.6   1.688   27.3  0.1921   45.8  0.2214 -126.0
 3.000  0.6632  113.4   1.631   25.2  0.1979   44.8  0.2264 -128.8
 3.100  0.6672  111.5   1.582   23.5  0.2037   43.8  0.2301 -131.5
 3.200  0.6719  109.6   1.535   21.7  0.2095   42.9  0.2342 -134.0
 3.300  0.6774  107.7   1.489   19.8  0.2155   42.0  0.2388 -136.5
 3.400  0.6836  105.8   1.445   17.8  0.2214   41.2  0.2439 -138.9
 3.500  0.6905  104.0   1.403   15.7  0.2274   40.4  0.2493 -141.2
 3.600  0.6943  102.3   1.367   14.1  0.2330   39.2  0.2526 -144.0
 3.700  0.6986  100.7   1.331   12.4  0.2387   38.1  0.2565 -146.7
 3.800  0.7035   99.0   1.297   10.6  0.2445   37.1  0.2609 -149.4
 3.900  0.7090   97.4   1.264    8.8  0.2504   36.1  0.2659 -151.9
 4.000  0.7151   95.8   1.233    6.8  0.2563   35.1  0.2714 -154.4
 4.100  0.7173   94.2   1.204    5.3  0.2619   33.9  0.2760 -157.4
 4.200  0.7201   92.7   1.176    3.7  0.2677   32.8  0.2812 -160.2
 4.300  0.7234   91.1   1.149    2.1  0.2735   31.7  0.2872 -163.0
 4.400  0.7273   89.6   1.123    0.4  0.2795   30.6  0.2937 -165.6
 4.500  0.7316   88.1   1.098   -1.4  0.2855   29.6  0.3009 -168.1
 4.600  0.7351   86.7   1.074   -2.7  0.2908   28.4  0.3081 -170.7
 4.700  0.7389   85.3   1.050   -4.1  0.2963   27.3  0.3160 -173.1
 4.800  0.7432   84.0   1.028   -5.5  0.3018   26.2  0.3244 -175.5
 4.900  0.7480   82.6   1.005   -7.0  0.3075   25.2  0.3333 -177.7
 5.000  0.7531   81.3   0.984   -8.6  0.3132   24.2  0.3427 -179.8
 5.100  0.7536   79.9   0.967   -9.8  0.3181   23.0  0.3521  178.3
 5.200  0.7545   78.6   0.951  -11.1  0.3232   21.8  0.3618  176.5
 5.300  0.7559   77.2   0.935  -12.4  0.3285   20.6  0.3719  174.8
 5.400  0.7577   75.8   0.919  -13.7  0.3338   19.5  0.3822  173.2
 5.500  0.7599   74.5   0.904  -15.1  0.3393   18.4  0.3929  171.7
 5.600  0.7596   73.3   0.888  -16.1  0.3440   17.3  0.3995  170.3
 5.700  0.7596   72.1   0.872  -17.2  0.3488   16.1  0.4062  169.0
 5.800  0.7599   70.8   0.857  -18.3  0.3537   15.1  0.4132  167.7
 5.900  0.7607   69.6   0.842  -19.4  0.3588   14.0  0.4204  166.5
 6.000  0.7617   68.4   0.827  -20.6  0.3640   13.0  0.4278  165.3
!
!  f       NFmin   Gammaopt  rn/50
! GHz       dB    MAG  ANG    -
 0.450      0.97  0.24  173   0.07
 0.900      1.06  0.36  179   0.07
 1.900      1.74  0.56 -142   0.14
 2.400      2.05  0.62 -125   0.33
!
! (c) 2017  Infineon Technologies AG, Munich