! Infineon Technologies  Discrete & RF Semiconductors
! BFP193
! VCE =  10. V,  IC =  8.0 mA
! Common Emitter S-Parameters:                            Jan 2017
# GHz  S  MA  R  50
!  f         S11            S21            S12            S22
! GHz     MAG   ANG      MAG   ANG      MAG   ANG      MAG   ANG
 0.010  0.7618   -6.2  24.043  176.3  0.0030   80.9  0.9988   -2.8
 0.020  0.7724  -12.5  24.260  172.9  0.0064   90.6  0.9830   -5.8
 0.030  0.7546  -18.3  23.793  169.5  0.0093   81.2  0.9713   -8.4
 0.040  0.7448  -24.2  23.410  166.1  0.0124   76.4  0.9616  -11.1
 0.050  0.7433  -30.3  23.116  162.5  0.0155   73.5  0.9542  -13.9
 0.060  0.7270  -35.5  22.555  159.7  0.0179   70.7  0.9335  -16.1
 0.070  0.7169  -40.9  22.049  156.8  0.0204   68.6  0.9143  -18.3
 0.080  0.7133  -46.4  21.602  153.8  0.0229   66.9  0.8965  -20.7
 0.090  0.7163  -51.9  21.218  150.7  0.0254   65.6  0.8803  -23.2
 0.100  0.7258  -57.3  20.900  147.4  0.0279   64.5  0.8658  -25.7
 0.110  0.7098  -61.5  20.269  145.2  0.0296   62.1  0.8431  -27.2
 0.120  0.6976  -65.8  19.671  142.8  0.0313   60.0  0.8210  -28.8
 0.130  0.6895  -70.2  19.107  140.3  0.0331   58.1  0.7996  -30.5
 0.140  0.6857  -74.8  18.582  137.7  0.0349   56.3  0.7790  -32.3
 0.150  0.6862  -79.3  18.099  134.9  0.0367   54.8  0.7591  -34.2
 0.200  0.6672  -97.1  15.700  125.4  0.0417   49.9  0.6681  -40.3
 0.250  0.6459 -111.0  13.644  117.6  0.0457   44.8  0.5915  -44.1
 0.300  0.6323 -122.2  11.952  112.0  0.0488   43.2  0.5293  -46.8
 0.350  0.6186 -130.2  10.709  108.0  0.0510   42.2  0.4862  -48.2
 0.400  0.6173 -138.4   9.532  102.9  0.0533   41.2  0.4434  -49.8
 0.450  0.6095 -144.3   8.671   99.9  0.0552   40.6  0.4162  -50.5
 0.500  0.6081 -150.2   7.839   96.3  0.0571   40.1  0.3890  -51.4
 0.600  0.6040 -159.6   6.661   90.9  0.0606   40.6  0.3516  -52.4
 0.700  0.6040 -166.6   5.762   86.4  0.0636   41.8  0.3255  -53.2
 0.800  0.6028 -173.0   5.089   82.2  0.0673   43.2  0.3083  -54.3
 0.900  0.6032 -178.7   4.536   78.4  0.0712   44.2  0.2944  -55.5
 1.000  0.6047  176.5   4.114   75.0  0.0749   45.5  0.2832  -56.9
 1.100  0.6079  172.0   3.757   71.7  0.0794   46.4  0.2761  -58.5
 1.200  0.6116  167.7   3.455   68.4  0.0835   47.2  0.2698  -60.4
 1.300  0.6122  163.8   3.200   65.4  0.0880   48.1  0.2654  -62.6
 1.400  0.6150  160.3   2.986   62.4  0.0928   48.7  0.2605  -65.0
 1.500  0.6205  156.7   2.791   59.6  0.0973   49.2  0.2574  -67.6
 1.600  0.6253  153.2   2.627   56.6  0.1023   49.5  0.2569  -70.1
 1.700  0.6279  149.7   2.481   53.9  0.1075   50.0  0.2550  -73.3
 1.800  0.6359  146.5   2.355   51.1  0.1127   50.1  0.2539  -76.3
 1.900  0.6402  143.4   2.232   48.7  0.1178   50.2  0.2544  -79.4
 2.000  0.6442  140.4   2.122   45.9  0.1232   50.2  0.2558  -82.5
 2.100  0.6486  137.3   2.024   43.4  0.1285   50.1  0.2573  -85.8
 2.200  0.6549  134.3   1.931   40.7  0.1338   50.0  0.2596  -89.1
 2.300  0.6596  131.8   1.850   38.4  0.1400   49.7  0.2639  -92.3
 2.400  0.6656  129.3   1.773   35.9  0.1462   49.5  0.2689  -95.4
 2.500  0.6701  126.7   1.702   33.7  0.1519   48.9  0.2728  -98.8
 2.600  0.6760  124.2   1.634   31.3  0.1577   48.4  0.2777 -102.0
 2.700  0.6818  121.9   1.576   29.2  0.1635   47.9  0.2826 -105.0
 2.800  0.6886  119.6   1.520   26.9  0.1693   47.5  0.2883 -107.8
 2.900  0.6934  117.3   1.467   24.8  0.1752   46.8  0.2922 -110.7
 3.000  0.6993  115.0   1.417   22.6  0.1811   46.1  0.2968 -113.6
 3.100  0.7029  113.0   1.373   20.9  0.1872   45.4  0.3000 -116.4
 3.200  0.7074  111.0   1.331   19.1  0.1934   44.7  0.3039 -119.2
 3.300  0.7127  109.0   1.290   17.1  0.1996   44.0  0.3085 -121.9
 3.400  0.7189  107.0   1.251   15.1  0.2059   43.4  0.3138 -124.5
 3.500  0.7259  105.1   1.213   12.9  0.2121   42.8  0.3197 -127.0
 3.600  0.7292  103.3   1.181   11.3  0.2184   41.8  0.3224 -130.0
 3.700  0.7333  101.5   1.149    9.7  0.2248   40.8  0.3260 -132.9
 3.800  0.7380   99.8   1.119    7.9  0.2312   39.9  0.3304 -135.7
 3.900  0.7435   98.0   1.090    6.1  0.2377   39.0  0.3356 -138.4
 4.000  0.7496   96.3   1.062    4.1  0.2443   38.2  0.3415 -141.1
 4.100  0.7512   94.7   1.036    2.7  0.2508   37.0  0.3451 -144.3
 4.200  0.7535   93.1   1.011    1.1  0.2573   35.9  0.3497 -147.3
 4.300  0.7563   91.5   0.987   -0.5  0.2640   34.9  0.3553 -150.3
 4.400  0.7597   89.9   0.964   -2.1  0.2708   33.9  0.3619 -153.2
 4.500  0.7637   88.3   0.941   -3.9  0.2776   32.9  0.3693 -156.0
 4.600  0.7666   86.9   0.920   -5.1  0.2838   31.7  0.3759 -159.0
 4.700  0.7700   85.4   0.899   -6.4  0.2900   30.6  0.3835 -161.8
 4.800  0.7739   84.0   0.879   -7.7  0.2964   29.5  0.3920 -164.5
 4.900  0.7782   82.6   0.859   -9.1  0.3029   28.5  0.4013 -167.1
 5.000  0.7830   81.2   0.840  -10.6  0.3095   27.5  0.4114 -169.6
 5.100  0.7831   79.8   0.825  -11.7  0.3152   26.2  0.4205 -171.9
 5.200  0.7836   78.3   0.810  -12.8  0.3211   25.0  0.4303 -174.1
 5.300  0.7847   76.9   0.795  -14.0  0.3272   23.8  0.4407 -176.3
 5.400  0.7862   75.5   0.781  -15.2  0.3334   22.6  0.4516 -178.3
 5.500  0.7882   74.1   0.767  -16.4  0.3397   21.5  0.4631  179.8
 5.600  0.7877   72.8   0.753  -17.3  0.3449   20.3  0.4697  178.0
 5.700  0.7875   71.6   0.740  -18.2  0.3502   19.1  0.4768  176.3
 5.800  0.7877   70.3   0.726  -19.1  0.3557   17.9  0.4843  174.7
 5.900  0.7883   69.1   0.713  -20.1  0.3613   16.8  0.4922  173.1
 6.000  0.7893   67.8   0.700  -21.1  0.3671   15.7  0.5004  171.5
!
!  f       NFmin   Gammaopt  rn/50
! GHz       dB    MAG  ANG    -
 0.450      0.85  0.21  129   0.09
 0.900      0.97  0.36  162   0.07
 1.900      1.79  0.58 -148   0.12
 2.400      2.19  0.64 -129   0.31
!
! (c) 2017  Infineon Technologies AG, Munich