! Infineon Technologies  Discrete & RF Semiconductors
! BFP193
! VCE =  1.0 V,  IC =  92 mA
! Common Emitter S-Parameters:                            Jan 2017
# GHz  S  MA  R  50
!  f         S11            S21            S12            S22
! GHz     MAG   ANG      MAG   ANG      MAG   ANG      MAG   ANG
 0.010  0.4160 -145.9  49.172  155.6  0.0049   63.1  0.4289  -44.1
 0.020  0.6120 -149.8  40.206  137.8  0.0078   56.4  0.4105  -78.9
 0.030  0.6671 -155.6  33.469  132.5  0.0095   51.3  0.3699  -94.0
 0.040  0.7280 -160.5  27.157  124.7  0.0112   47.8  0.3598 -111.4
 0.050  0.7933 -164.6  21.645  112.5  0.0129   45.2  0.3827 -128.1
 0.060  0.8015 -166.5  19.573  110.9  0.0137   47.1  0.3754 -132.9
 0.070  0.8107 -168.5  17.520  109.0  0.0145   48.9  0.3708 -137.9
 0.080  0.8207 -170.3  15.491  106.6  0.0153   50.4  0.3691 -143.0
 0.090  0.8316 -172.1  13.498  103.4  0.0161   51.8  0.3703 -148.1
 0.100  0.8433 -173.9  11.561   99.2  0.0169   53.1  0.3744 -153.1
 0.110  0.8441 -174.8  10.802   98.4  0.0178   54.2  0.3731 -155.0
 0.120  0.8452 -175.7  10.045   97.5  0.0186   55.1  0.3722 -156.8
 0.130  0.8464 -176.5   9.291   96.4  0.0195   56.0  0.3716 -158.7
 0.140  0.8479 -177.4   8.542   95.1  0.0204   56.8  0.3715 -160.6
 0.150  0.8495 -178.3   7.797   93.6  0.0213   57.5  0.3718 -162.5
 0.200  0.8533  179.1   5.870   89.5  0.0251   63.4  0.3718 -167.6
 0.250  0.8526  176.7   4.702   86.4  0.0309   64.8  0.3704 -170.8
 0.300  0.8502  174.7   3.925   84.0  0.0358   67.2  0.3705 -173.3
 0.350  0.8506  173.0   3.442   82.0  0.0409   68.4  0.3711 -174.9
 0.400  0.8518  171.3   2.965   79.4  0.0461   69.4  0.3720 -176.4
 0.450  0.8517  169.7   2.670   77.7  0.0514   69.2  0.3727 -177.6
 0.500  0.8523  168.1   2.378   75.5  0.0567   69.0  0.3735 -178.7
 0.600  0.8549  165.2   1.999   71.8  0.0671   68.8  0.3769  179.3
 0.700  0.8514  162.5   1.724   68.5  0.0769   68.8  0.3775  177.6
 0.800  0.8538  159.5   1.519   64.9  0.0882   68.1  0.3803  176.3
 0.900  0.8516  156.8   1.359   61.7  0.0981   66.8  0.3838  175.1
 1.000  0.8560  154.0   1.238   58.6  0.1081   65.9  0.3871  173.5
 1.100  0.8559  151.2   1.138   55.5  0.1188   64.4  0.3910  172.5
 1.200  0.8565  148.5   1.054   52.4  0.1284   63.2  0.3935  171.2
 1.300  0.8575  145.8   0.985   49.7  0.1384   61.6  0.3985  170.3
 1.400  0.8589  143.0   0.928   46.8  0.1484   60.3  0.4045  169.0
 1.500  0.8615  140.4   0.873   44.1  0.1579   58.8  0.4097  167.8
 1.600  0.8634  137.7   0.831   41.3  0.1682   57.2  0.4144  166.9
 1.700  0.8645  134.9   0.792   38.8  0.1772   55.7  0.4210  166.0
 1.800  0.8671  132.3   0.760   36.2  0.1865   54.2  0.4279  164.8
 1.900  0.8678  129.7   0.727   34.2  0.1950   52.5  0.4334  163.8
 2.000  0.8675  127.1   0.698   31.7  0.2038   51.0  0.4388  162.9
 2.100  0.8679  124.4   0.673   29.6  0.2119   49.4  0.4453  161.8
 2.200  0.8702  121.8   0.648   27.4  0.2202   47.9  0.4519  160.8
 2.300  0.8698  119.5   0.629   25.6  0.2287   46.3  0.4572  160.0
 2.400  0.8707  117.3   0.611   23.7  0.2373   44.9  0.4626  159.2
 2.500  0.8708  115.1   0.594   22.1  0.2446   43.3  0.4693  158.1
 2.600  0.8722  112.9   0.578   20.4  0.2520   41.7  0.4762  157.1
 2.700  0.8723  110.8   0.563   18.9  0.2587   40.2  0.4802  156.1
 2.800  0.8735  108.7   0.549   17.4  0.2655   38.7  0.4844  155.1
 2.900  0.8732  106.6   0.536   16.1  0.2721   37.2  0.4897  153.9
 3.000  0.8740  104.6   0.524   14.7  0.2788   35.8  0.4952  152.7
 3.100  0.8723  102.8   0.516   13.6  0.2845   34.4  0.4980  151.4
 3.200  0.8715  100.9   0.508   12.5  0.2903   33.0  0.5010  150.1
 3.300  0.8717   99.1   0.500   11.4  0.2963   31.7  0.5043  148.8
 3.400  0.8727   97.2   0.492   10.2  0.3025   30.4  0.5078  147.5
 3.500  0.8746   95.4   0.485    9.0  0.3088   29.2  0.5116  146.3
 3.600  0.8731   93.8   0.480    8.1  0.3139   27.8  0.5154  144.9
 3.700  0.8724   92.2   0.475    7.2  0.3193   26.4  0.5194  143.5
 3.800  0.8723   90.5   0.470    6.2  0.3248   25.1  0.5238  142.1
 3.900  0.8730   88.9   0.466    5.3  0.3305   23.8  0.5285  140.7
 4.000  0.8743   87.3   0.461    4.3  0.3363   22.6  0.5335  139.4
 4.100  0.8715   85.9   0.458    3.5  0.3411   21.2  0.5383  137.9
 4.200  0.8692   84.4   0.454    2.7  0.3461   19.9  0.5434  136.5
 4.300  0.8674   82.9   0.451    1.9  0.3513   18.6  0.5489  135.1
 4.400  0.8663   81.5   0.448    1.0  0.3566   17.4  0.5548  133.7
 4.500  0.8657   80.0   0.445    0.2  0.3621   16.2  0.5609  132.3
 4.600  0.8648   78.7   0.443   -0.5  0.3661   14.9  0.5657  131.1
 4.700  0.8643   77.4   0.442   -1.1  0.3704   13.7  0.5707  130.0
 4.800  0.8643   76.1   0.440   -1.8  0.3748   12.5  0.5759  128.8
 4.900  0.8647   74.8   0.438   -2.5  0.3793   11.3  0.5814  127.7
 5.000  0.8656   73.5   0.437   -3.2  0.3840   10.2  0.5871  126.6
 5.100  0.8629   72.3   0.438   -3.9  0.3877    9.0  0.5914  125.8
 5.200  0.8606   71.0   0.439   -4.7  0.3916    7.7  0.5959  125.0
 5.300  0.8587   69.7   0.440   -5.4  0.3957    6.5  0.6004  124.2
 5.400  0.8572   68.5   0.442   -6.1  0.4000    5.4  0.6051  123.5
 5.500  0.8561   67.2   0.443   -6.8  0.4044    4.2  0.6099  122.7
 5.600  0.8530   66.1   0.443   -7.5  0.4075    3.1  0.6104  122.0
 5.700  0.8503   65.0   0.444   -8.2  0.4108    2.0  0.6111  121.2
 5.800  0.8479   63.9   0.445   -8.8  0.4142    0.9  0.6118  120.5
 5.900  0.8458   62.7   0.445   -9.5  0.4177   -0.2  0.6127  119.7
 6.000  0.8440   61.6   0.446  -10.2  0.4214   -1.2  0.6136  119.0
!
!  f       NFmin   Gammaopt  rn/50
! GHz       dB    MAG  ANG    -
!
! noise parameter not available yet for this operation point!
!
! (c) 2017  Infineon Technologies AG, Munich