! Infineon Technologies  Discrete & RF Semiconductors
! BFP193
! VCE =  9.0 V,  IC =  32 mA
! Common Emitter S-Parameters:                            Jan 2017
# GHz  S  MA  R  50
!  f         S11            S21            S12            S22
! GHz     MAG   ANG      MAG   ANG      MAG   ANG      MAG   ANG
 0.010  0.4185  -15.7  59.906  172.3  0.0024   82.6  0.9736   -6.5
 0.020  0.4315  -31.4  59.414  165.6  0.0050   86.3  0.9471  -13.3
 0.030  0.4154  -44.6  56.118  160.2  0.0071   77.6  0.9009  -18.5
 0.040  0.4224  -58.1  53.386  154.1  0.0093   73.0  0.8630  -24.2
 0.050  0.4514  -70.5  51.309  147.5  0.0115   70.1  0.8343  -30.4
 0.060  0.4420  -78.8  48.295  144.4  0.0127   66.7  0.7870  -33.3
 0.070  0.4421  -87.3  45.443  140.9  0.0139   64.0  0.7420  -36.5
 0.080  0.4518  -95.5  42.784  136.9  0.0151   61.6  0.6997  -40.2
 0.090  0.4704 -103.3  40.358  132.4  0.0164   59.7  0.6605  -44.3
 0.100  0.4970 -110.4  38.209  127.4  0.0177   58.0  0.6252  -48.9
 0.110  0.4941 -114.8  36.231  125.5  0.0185   57.3  0.5945  -50.5
 0.120  0.4941 -119.2  34.295  123.5  0.0192   56.6  0.5644  -52.2
 0.130  0.4970 -123.5  32.410  121.1  0.0200   56.0  0.5348  -54.2
 0.140  0.5028 -127.8  30.584  118.5  0.0207   55.4  0.5059  -56.4
 0.150  0.5113 -132.0  28.830  115.6  0.0215   54.9  0.4778  -58.8
 0.200  0.5256 -144.7  22.844  108.0  0.0246   55.2  0.3840  -64.6
 0.250  0.5327 -153.8  18.771  102.5  0.0280   56.5  0.3207  -67.9
 0.300  0.5341 -160.0  15.868   98.7  0.0307   57.8  0.2760  -70.6
 0.350  0.5350 -164.5  13.991   96.1  0.0338   59.4  0.2477  -71.9
 0.400  0.5391 -168.9  12.152   92.7  0.0370   60.7  0.2195  -73.6
 0.450  0.5404 -172.2  10.961   90.7  0.0402   61.6  0.2027  -74.7
 0.500  0.5435 -175.5   9.786   88.2  0.0435   62.4  0.1859  -76.1
 0.600  0.5476  179.2   8.221   84.4  0.0506   63.3  0.1631  -78.3
 0.700  0.5508  174.7   7.062   81.2  0.0568   64.3  0.1473  -80.2
 0.800  0.5534  170.7   6.202   77.9  0.0648   64.6  0.1381  -82.3
 0.900  0.5530  167.0   5.511   75.0  0.0718   64.0  0.1313  -85.1
 1.000  0.5579  163.7   4.986   72.3  0.0790   64.4  0.1246  -88.0
 1.100  0.5625  160.3   4.546   69.6  0.0860   63.7  0.1223  -90.4
 1.200  0.5645  157.0   4.174   66.9  0.0929   63.0  0.1201  -93.3
 1.300  0.5688  153.9   3.860   64.4  0.1004   62.5  0.1197  -96.9
 1.400  0.5694  151.1   3.599   61.9  0.1077   61.6  0.1192 -101.0
 1.500  0.5770  148.2   3.360   59.4  0.1144   60.7  0.1202 -104.7
 1.600  0.5806  145.2   3.161   56.8  0.1215   59.7  0.1233 -107.9
 1.700  0.5842  142.5   2.983   54.5  0.1282   59.0  0.1269 -112.2
 1.800  0.5905  139.6   2.829   52.0  0.1357   57.8  0.1306 -115.9
 1.900  0.5948  136.9   2.683   49.8  0.1423   56.8  0.1346 -119.6
 2.000  0.5994  134.3   2.548   47.3  0.1492   55.6  0.1406 -123.0
 2.100  0.6049  131.6   2.432   45.1  0.1557   54.6  0.1460 -126.5
 2.200  0.6117  129.0   2.319   42.7  0.1623   53.6  0.1519 -129.8
 2.300  0.6160  126.8   2.223   40.6  0.1691   52.4  0.1592 -132.4
 2.400  0.6213  124.6   2.131   38.4  0.1760   51.3  0.1668 -134.8
 2.500  0.6259  122.3   2.048   36.4  0.1823   50.0  0.1740 -137.7
 2.600  0.6315  120.1   1.967   34.2  0.1887   48.8  0.1817 -140.4
 2.700  0.6371  118.0   1.897   32.2  0.1947   47.6  0.1886 -142.6
 2.800  0.6436  115.9   1.830   30.1  0.2008   46.4  0.1958 -144.7
 2.900  0.6491  113.8   1.768   28.2  0.2067   45.2  0.2014 -147.3
 3.000  0.6555  111.8   1.708   26.2  0.2127   44.1  0.2074 -149.8
 3.100  0.6591  109.9   1.658   24.5  0.2183   42.9  0.2116 -152.1
 3.200  0.6633  108.1   1.609   22.8  0.2241   41.8  0.2162 -154.3
 3.300  0.6682  106.3   1.561   20.9  0.2299   40.8  0.2210 -156.4
 3.400  0.6738  104.5   1.516   18.9  0.2358   39.8  0.2262 -158.4
 3.500  0.6801  102.7   1.472   16.8  0.2417   38.8  0.2316 -160.3
 3.600  0.6839  101.1   1.435   15.2  0.2471   37.5  0.2358 -162.8
 3.700  0.6883   99.5   1.399   13.6  0.2526   36.3  0.2403 -165.2
 3.800  0.6932   97.9   1.364   11.8  0.2582   35.2  0.2453 -167.5
 3.900  0.6987   96.3   1.330   10.0  0.2639   34.1  0.2507 -169.7
 4.000  0.7046   94.8   1.298    8.1  0.2697   33.0  0.2564 -171.8
 4.100  0.7069   93.3   1.268    6.6  0.2749   31.7  0.2618 -174.4
 4.200  0.7097   91.8   1.239    5.1  0.2802   30.5  0.2676 -176.9
 4.300  0.7130   90.3   1.212    3.5  0.2857   29.4  0.2740 -179.3
 4.400  0.7168   88.9   1.185    1.8  0.2912   28.3  0.2808  178.5
 4.500  0.7210   87.4   1.159    0.0  0.2969   27.2  0.2880  176.3
 4.600  0.7244   86.0   1.134   -1.3  0.3018   26.0  0.2956  174.2
 4.700  0.7283   84.7   1.111   -2.7  0.3068   24.8  0.3035  172.2
 4.800  0.7325   83.3   1.087   -4.1  0.3120   23.7  0.3117  170.4
 4.900  0.7372   82.0   1.065   -5.6  0.3172   22.6  0.3203  168.6
 5.000  0.7422   80.7   1.043   -7.1  0.3226   21.6  0.3292  166.9
 5.100  0.7427   79.4   1.026   -8.3  0.3271   20.4  0.3380  165.5
 5.200  0.7437   78.0   1.009   -9.6  0.3318   19.2  0.3470  164.2
 5.300  0.7450   76.7   0.993  -10.9  0.3367   18.1  0.3562  163.0
 5.400  0.7467   75.3   0.977  -12.3  0.3416   17.0  0.3655  161.8
 5.500  0.7489   74.0   0.962  -13.7  0.3467   15.9  0.3750  160.7
 5.600  0.7488   72.8   0.946  -14.8  0.3509   14.8  0.3806  159.7
 5.700  0.7490   71.6   0.930  -15.9  0.3553   13.7  0.3864  158.7
 5.800  0.7496   70.5   0.915  -17.1  0.3598   12.6  0.3922  157.7
 5.900  0.7504   69.3   0.900  -18.3  0.3644   11.5  0.3982  156.7
 6.000  0.7516   68.1   0.885  -19.6  0.3691   10.5  0.4043  155.8
!
!  f       NFmin   Gammaopt  rn/50
! GHz       dB    MAG  ANG    -
 0.450      1.24  0.35 -173   0.08
 0.900      1.30  0.39 -171   0.07
 1.900      1.92  0.58 -136   0.17
 2.400      2.25  0.62 -121   0.38
!
! (c) 2017  Infineon Technologies AG, Munich