! Infineon Technologies  Discrete & RF Semiconductors
! BFP193
! VCE =  3.0 V,  IC =  20 mA
! Common Emitter S-Parameters:                            Jan 2017
# GHz  S  MA  R  50
!  f         S11            S21            S12            S22
! GHz     MAG   ANG      MAG   ANG      MAG   ANG      MAG   ANG
 0.010  0.4691  -14.8  47.542  173.3  0.0029   85.7  0.9852   -6.5
 0.020  0.4814  -29.2  47.348  167.0  0.0062   84.9  0.9585  -13.3
 0.030  0.4646  -41.6  45.052  161.7  0.0089   75.5  0.9165  -18.7
 0.040  0.4704  -54.2  43.180  155.9  0.0118   70.6  0.8832  -24.5
 0.050  0.4980  -66.0  41.792  149.6  0.0147   67.6  0.8597  -30.7
 0.060  0.4869  -74.2  39.499  146.4  0.0164   64.3  0.8126  -34.0
 0.070  0.4862  -82.6  37.344  142.8  0.0182   61.6  0.7685  -37.6
 0.080  0.4958  -90.9  35.351  138.9  0.0200   59.4  0.7279  -41.7
 0.090  0.5153  -98.7  33.549  134.4  0.0218   57.6  0.6914  -46.2
 0.100  0.5435 -105.8  31.970  129.5  0.0237   56.0  0.6596  -51.2
 0.110  0.5401 -110.3  30.372  127.6  0.0244   54.8  0.6276  -53.2
 0.120  0.5400 -114.9  28.813  125.4  0.0252   53.7  0.5964  -55.3
 0.130  0.5434 -119.4  27.300  123.0  0.0260   52.6  0.5662  -57.7
 0.140  0.5500 -123.8  25.841  120.3  0.0267   51.6  0.5370  -60.4
 0.150  0.5599 -128.1  24.445  117.3  0.0275   50.7  0.5092  -63.4
 0.200  0.5764 -141.7  19.503  109.3  0.0305   50.6  0.4118  -71.5
 0.250  0.5819 -151.2  16.087  103.4  0.0339   50.0  0.3440  -77.2
 0.300  0.5854 -157.8  13.627   99.4  0.0367   50.2  0.2952  -81.8
 0.350  0.5861 -162.7  12.025   96.6  0.0397   52.4  0.2643  -84.7
 0.400  0.5911 -167.5  10.460   93.0  0.0428   54.2  0.2343  -88.4
 0.450  0.5921 -171.0   9.441   90.9  0.0459   55.0  0.2159  -91.0
 0.500  0.5953 -174.4   8.438   88.2  0.0490   55.7  0.1980  -94.0
 0.600  0.5977  179.9   7.090   84.2  0.0560   56.5  0.1744  -99.0
 0.700  0.6001  175.5   6.094   80.8  0.0625   58.6  0.1577 -103.0
 0.800  0.6042  171.4   5.351   77.3  0.0706   59.6  0.1485 -107.1
 0.900  0.6036  167.7   4.758   74.3  0.0772   59.8  0.1422 -110.9
 1.000  0.6078  164.1   4.307   71.4  0.0836   59.6  0.1373 -114.9
 1.100  0.6120  160.8   3.927   68.7  0.0916   59.8  0.1360 -118.0
 1.200  0.6150  157.3   3.605   65.8  0.0990   59.2  0.1344 -121.3
 1.300  0.6176  154.2   3.336   63.1  0.1057   58.6  0.1364 -124.6
 1.400  0.6203  151.3   3.113   60.5  0.1135   58.2  0.1381 -128.3
 1.500  0.6264  148.3   2.907   57.9  0.1206   57.5  0.1412 -131.3
 1.600  0.6284  145.4   2.736   55.3  0.1274   56.5  0.1455 -133.8
 1.700  0.6324  142.5   2.582   52.8  0.1352   55.8  0.1514 -137.0
 1.800  0.6409  139.7   2.452   50.2  0.1420   54.6  0.1569 -140.0
 1.900  0.6439  137.0   2.324   48.0  0.1493   53.8  0.1627 -142.5
 2.000  0.6470  134.4   2.210   45.4  0.1564   52.7  0.1696 -144.8
 2.100  0.6521  131.7   2.109   43.1  0.1632   51.7  0.1767 -147.2
 2.200  0.6587  129.0   2.011   40.6  0.1700   50.8  0.1840 -149.5
 2.300  0.6622  126.7   1.930   38.5  0.1770   49.7  0.1920 -151.2
 2.400  0.6667  124.4   1.851   36.2  0.1841   48.6  0.2001 -152.8
 2.500  0.6708  122.1   1.779   34.1  0.1905   47.4  0.2082 -154.9
 2.600  0.6759  119.9   1.709   31.9  0.1970   46.2  0.2165 -156.8
 2.700  0.6810  117.8   1.648   29.9  0.2030   45.1  0.2238 -158.5
 2.800  0.6870  115.7   1.590   27.8  0.2091   44.0  0.2313 -160.0
 2.900  0.6918  113.6   1.537   25.9  0.2152   42.8  0.2376 -162.1
 3.000  0.6975  111.5   1.486   23.8  0.2213   41.7  0.2442 -164.0
 3.100  0.7005  109.6   1.443   22.2  0.2270   40.6  0.2492 -165.9
 3.200  0.7043  107.7   1.401   20.4  0.2328   39.5  0.2544 -167.8
 3.300  0.7088  105.8   1.360   18.5  0.2387   38.4  0.2600 -169.6
 3.400  0.7141  104.0   1.321   16.6  0.2446   37.4  0.2657 -171.3
 3.500  0.7201  102.2   1.284   14.5  0.2506   36.5  0.2717 -172.9
 3.600  0.7228  100.5   1.252   12.9  0.2561   35.3  0.2767 -175.0
 3.700  0.7261   98.9   1.220   11.3  0.2618   34.1  0.2820 -177.1
 3.800  0.7299   97.3   1.190    9.6  0.2675   32.9  0.2877 -179.1
 3.900  0.7344   95.7   1.161    7.8  0.2734   31.8  0.2937  179.0
 4.000  0.7394   94.1   1.133    5.9  0.2793   30.8  0.3000  177.2
 4.100  0.7413   92.6   1.107    4.5  0.2846   29.6  0.3062  174.9
 4.200  0.7436   91.1   1.083    3.0  0.2901   28.3  0.3129  172.8
 4.300  0.7465   89.6   1.059    1.4  0.2956   27.2  0.3200  170.7
 4.400  0.7499   88.1   1.035   -0.3  0.3013   26.1  0.3275  168.7
 4.500  0.7538   86.6   1.013   -2.0  0.3071   25.0  0.3354  166.8
 4.600  0.7563   85.2   0.993   -3.2  0.3120   23.8  0.3433  165.0
 4.700  0.7591   83.9   0.973   -4.5  0.3170   22.7  0.3516  163.3
 4.800  0.7625   82.5   0.953   -5.9  0.3221   21.6  0.3601  161.6
 4.900  0.7662   81.2   0.934   -7.3  0.3274   20.5  0.3689  160.1
 5.000  0.7703   79.9   0.916   -8.7  0.3327   19.5  0.3780  158.6
 5.100  0.7704   78.6   0.901   -9.9  0.3373   18.3  0.3867  157.4
 5.200  0.7708   77.2   0.887  -11.1  0.3421   17.1  0.3955  156.2
 5.300  0.7717   75.9   0.873  -12.3  0.3470   15.9  0.4045  155.1
 5.400  0.7731   74.5   0.860  -13.6  0.3520   14.8  0.4136  154.0
 5.500  0.7748   73.2   0.847  -14.9  0.3572   13.7  0.4229  153.0
 5.600  0.7744   72.0   0.833  -15.9  0.3613   12.6  0.4280  152.1
 5.700  0.7743   70.8   0.820  -17.0  0.3656   11.5  0.4333  151.1
 5.800  0.7746   69.6   0.807  -18.0  0.3700   10.4  0.4387  150.2
 5.900  0.7752   68.4   0.794  -19.2  0.3745    9.3  0.4441  149.4
 6.000  0.7762   67.2   0.782  -20.3  0.3792    8.3  0.4497  148.5
!
!  f       NFmin   Gammaopt  rn/50
! GHz       dB    MAG  ANG    -
 0.450      1.05  0.27  180   0.07
 0.900      1.13  0.36 -178   0.07
 1.900      1.76  0.56 -140   0.15
 2.400      2.10  0.62 -124   0.34
!
! (c) 2017  Infineon Technologies AG, Munich