! Infineon Technologies  Discrete & RF Semiconductors
! BFP193
! VCE =  3.0 V,  IC =  16 mA
! Common Emitter S-Parameters:                            Jan 2017
# GHz  S  MA  R  50
!  f         S11            S21            S12            S22
! GHz     MAG   ANG      MAG   ANG      MAG   ANG      MAG   ANG
 0.010  0.5417  -12.4  41.162  174.0  0.0032   88.7  0.9904   -5.7
 0.020  0.5524  -24.3  41.311  168.4  0.0068   84.2  0.9736  -11.7
 0.030  0.5317  -34.9  39.587  163.5  0.0096   75.6  0.9366  -16.6
 0.040  0.5301  -45.9  38.183  158.1  0.0125   71.0  0.9069  -21.8
 0.050  0.5479  -56.6  37.136  152.4  0.0154   68.1  0.8851  -27.3
 0.060  0.5326  -64.3  35.318  149.2  0.0173   64.7  0.8423  -30.4
 0.070  0.5273  -72.3  33.621  145.7  0.0193   62.0  0.8022  -33.9
 0.080  0.5323  -80.2  32.065  141.8  0.0214   59.8  0.7654  -37.7
 0.090  0.5473  -87.9  30.670  137.5  0.0234   57.9  0.7323  -41.9
 0.100  0.5716  -95.1  29.461  132.9  0.0255   56.4  0.7034  -46.4
 0.110  0.5646  -99.8  28.088  130.8  0.0265   55.0  0.6717  -48.4
 0.120  0.5615 -104.7  26.755  128.6  0.0275   53.8  0.6409  -50.5
 0.130  0.5625 -109.5  25.468  126.1  0.0286   52.6  0.6110  -52.9
 0.140  0.5675 -114.3  24.234  123.3  0.0296   51.5  0.5823  -55.4
 0.150  0.5763 -119.0  23.062  120.3  0.0307   50.5  0.5549  -58.3
 0.200  0.5884 -134.1  18.639  111.9  0.0340   47.3  0.4535  -66.3
 0.250  0.5912 -144.7  15.473  105.6  0.0372   47.3  0.3810  -71.6
 0.300  0.5915 -152.4  13.170  101.2  0.0399   48.0  0.3279  -75.8
 0.350  0.5913 -157.8  11.641   98.2  0.0428   48.9  0.2934  -78.5
 0.400  0.5964 -163.2  10.154   94.3  0.0458   49.7  0.2597  -81.8
 0.450  0.5963 -167.1   9.170   92.1  0.0485   50.7  0.2392  -84.0
 0.500  0.5990 -171.0   8.204   89.3  0.0513   51.5  0.2190  -86.5
 0.600  0.6033 -177.1   6.904   85.0  0.0575   53.5  0.1916  -90.7
 0.700  0.6048  178.2   5.936   81.4  0.0628   55.4  0.1727  -94.1
 0.800  0.6082  173.5   5.218   77.8  0.0695   56.5  0.1613  -97.6
 0.900  0.6078  169.4   4.640   74.7  0.0769   56.5  0.1535 -101.1
 1.000  0.6119  165.8   4.201   71.7  0.0834   56.8  0.1465 -104.7
 1.100  0.6158  162.2   3.830   68.9  0.0904   56.8  0.1440 -107.7
 1.200  0.6185  158.8   3.519   65.9  0.0971   56.4  0.1421 -111.0
 1.300  0.6204  155.6   3.256   63.2  0.1040   56.5  0.1425 -114.3
 1.400  0.6239  152.5   3.039   60.5  0.1111   56.2  0.1429 -118.1
 1.500  0.6294  149.5   2.837   57.9  0.1175   55.5  0.1454 -121.4
 1.600  0.6333  146.5   2.672   55.2  0.1250   55.0  0.1488 -124.1
 1.700  0.6366  143.6   2.523   52.6  0.1321   54.4  0.1537 -127.5
 1.800  0.6449  140.7   2.394   50.0  0.1390   53.6  0.1587 -130.9
 1.900  0.6473  137.9   2.270   47.7  0.1456   52.7  0.1642 -133.7
 2.000  0.6507  135.1   2.158   45.1  0.1522   51.9  0.1709 -136.4
 2.100  0.6558  132.4   2.059   42.8  0.1590   51.0  0.1773 -139.2
 2.200  0.6624  129.7   1.964   40.2  0.1659   50.1  0.1841 -141.8
 2.300  0.6661  127.4   1.884   38.0  0.1728   49.1  0.1923 -143.8
 2.400  0.6708  125.1   1.806   35.7  0.1798   48.2  0.2007 -145.7
 2.500  0.6755  122.8   1.736   33.6  0.1860   47.1  0.2086 -148.1
 2.600  0.6812  120.5   1.669   31.4  0.1923   46.1  0.2169 -150.3
 2.700  0.6861  118.3   1.609   29.4  0.1985   45.0  0.2243 -152.2
 2.800  0.6920  116.2   1.552   27.2  0.2047   43.9  0.2319 -153.9
 2.900  0.6960  114.0   1.500   25.3  0.2107   42.8  0.2383 -156.1
 3.000  0.7010  111.9   1.450   23.2  0.2168   41.8  0.2451 -158.2
 3.100  0.7042  110.0   1.407   21.5  0.2226   40.7  0.2502 -160.2
 3.200  0.7081  108.1   1.366   19.8  0.2284   39.6  0.2555 -162.2
 3.300  0.7128  106.2   1.326   17.9  0.2343   38.6  0.2612 -164.1
 3.400  0.7182  104.4   1.288   15.9  0.2403   37.6  0.2671 -165.9
 3.500  0.7244  102.6   1.251   13.8  0.2464   36.7  0.2733 -167.6
 3.600  0.7275  100.9   1.220   12.2  0.2521   35.5  0.2783 -169.9
 3.700  0.7311   99.3   1.189   10.6  0.2578   34.4  0.2837 -172.1
 3.800  0.7354   97.7   1.160    8.9  0.2637   33.3  0.2896 -174.2
 3.900  0.7402   96.1   1.131    7.1  0.2697   32.2  0.2958 -176.3
 4.000  0.7456   94.5   1.104    5.2  0.2757   31.2  0.3024 -178.2
 4.100  0.7470   92.9   1.079    3.8  0.2812   30.0  0.3086  179.4
 4.200  0.7489   91.4   1.054    2.3  0.2868   28.8  0.3153  177.2
 4.300  0.7514   89.8   1.031    0.7  0.2925   27.6  0.3224  175.0
 4.400  0.7544   88.3   1.008   -1.0  0.2983   26.6  0.3300  173.0
 4.500  0.7579   86.8   0.986   -2.7  0.3042   25.5  0.3380  171.0
 4.600  0.7606   85.4   0.966   -3.9  0.3092   24.3  0.3461  169.0
 4.700  0.7637   84.0   0.946   -5.2  0.3143   23.2  0.3546  167.2
 4.800  0.7673   82.7   0.927   -6.5  0.3196   22.2  0.3635  165.4
 4.900  0.7713   81.3   0.908   -7.9  0.3249   21.1  0.3727  163.7
 5.000  0.7757   80.0   0.890   -9.3  0.3304   20.1  0.3822  162.1
 5.100  0.7756   78.7   0.876  -10.5  0.3352   18.9  0.3913  160.8
 5.200  0.7759   77.3   0.862  -11.7  0.3401   17.7  0.4006  159.5
 5.300  0.7766   76.0   0.848  -12.9  0.3451   16.6  0.4100  158.3
 5.400  0.7777   74.6   0.835  -14.2  0.3503   15.5  0.4197  157.1
 5.500  0.7793   73.3   0.822  -15.5  0.3556   14.4  0.4295  156.0
 5.600  0.7788   72.1   0.809  -16.5  0.3599   13.2  0.4350  154.9
 5.700  0.7787   70.9   0.796  -17.4  0.3644   12.1  0.4406  153.9
 5.800  0.7788   69.8   0.783  -18.5  0.3689   11.0  0.4464  152.9
 5.900  0.7794   68.6   0.771  -19.5  0.3737    9.9  0.4523  151.9
 6.000  0.7802   67.4   0.759  -20.6  0.3785    8.9  0.4583  151.0
!
!  f       NFmin   Gammaopt  rn/50
! GHz       dB    MAG  ANG    -
 0.450      0.97  0.24  173   0.07
 0.900      1.06  0.36  179   0.07
 1.900      1.74  0.56 -142   0.14
 2.400      2.05  0.62 -125   0.33
!
! (c) 2017  Infineon Technologies AG, Munich