! Infineon Technologies  Discrete & RF Semiconductors
! BFP193
! VCE =  6.0 V,  IC =  30 mA
! Common Emitter S-Parameters:                            Jan 2017
# GHz  S  MA  R  50
!  f         S11            S21            S12            S22
! GHz     MAG   ANG      MAG   ANG      MAG   ANG      MAG   ANG
 0.010  0.3880  -17.3  59.176  172.3  0.0024   79.6  0.9765   -6.9
 0.020  0.3995  -34.4  58.444  165.4  0.0051   83.4  0.9524  -14.1
 0.030  0.3882  -48.7  55.154  159.8  0.0073   74.3  0.9025  -19.5
 0.040  0.4016  -63.0  52.449  153.6  0.0096   69.5  0.8616  -25.6
 0.050  0.4376  -75.6  50.423  146.8  0.0119   66.6  0.8311  -32.1
 0.060  0.4322  -84.0  47.396  143.7  0.0132   64.4  0.7822  -35.2
 0.070  0.4363  -92.4  44.528  140.2  0.0144   62.6  0.7359  -38.6
 0.080  0.4495 -100.6  41.850  136.2  0.0157   61.1  0.6925  -42.5
 0.090  0.4712 -108.1  39.402  131.7  0.0170   59.8  0.6528  -46.9
 0.100  0.5001 -114.8  37.230  126.6  0.0183   58.7  0.6174  -51.8
 0.110  0.4991 -119.0  35.272  124.7  0.0191   57.9  0.5861  -53.5
 0.120  0.5008 -123.2  33.355  122.7  0.0199   57.1  0.5554  -55.4
 0.130  0.5052 -127.4  31.487  120.4  0.0206   56.4  0.5254  -57.5
 0.140  0.5122 -131.5  29.677  117.7  0.0214   55.8  0.4962  -59.9
 0.150  0.5217 -135.4  27.937  114.8  0.0222   55.2  0.4679  -62.6
 0.200  0.5383 -147.4  22.075  107.4  0.0248   56.3  0.3748  -69.2
 0.250  0.5465 -156.1  18.108  101.9  0.0286   56.0  0.3123  -73.5
 0.300  0.5490 -161.9  15.295   98.2  0.0315   57.3  0.2672  -76.9
 0.350  0.5505 -166.1  13.481   95.6  0.0346   59.1  0.2394  -78.9
 0.400  0.5549 -170.3  11.704   92.2  0.0378   60.6  0.2119  -81.5
 0.450  0.5561 -173.6  10.556   90.2  0.0413   61.4  0.1950  -83.3
 0.500  0.5592 -176.9   9.423   87.8  0.0448   62.0  0.1783  -85.4
 0.600  0.5627  178.0   7.913   84.0  0.0519   63.2  0.1563  -89.0
 0.700  0.5643  173.9   6.797   80.8  0.0587   64.3  0.1411  -91.8
 0.800  0.5681  169.9   5.969   77.5  0.0666   64.7  0.1322  -95.0
 0.900  0.5692  166.4   5.303   74.7  0.0736   64.2  0.1256  -98.3
 1.000  0.5744  162.9   4.800   71.9  0.0807   64.0  0.1206 -101.8
 1.100  0.5782  159.7   4.375   69.3  0.0885   63.5  0.1186 -104.7
 1.200  0.5818  156.4   4.016   66.5  0.0957   62.9  0.1174 -107.9
 1.300  0.5839  153.5   3.715   64.0  0.1028   62.2  0.1185 -111.7
 1.400  0.5865  150.6   3.465   61.4  0.1101   61.3  0.1190 -115.6
 1.500  0.5919  147.8   3.235   59.0  0.1179   60.3  0.1218 -119.1
 1.600  0.5964  144.8   3.042   56.4  0.1246   59.3  0.1253 -122.0
 1.700  0.6004  142.1   2.872   54.0  0.1319   58.5  0.1299 -125.8
 1.800  0.6073  139.2   2.724   51.5  0.1394   57.4  0.1349 -129.1
 1.900  0.6123  136.6   2.583   49.3  0.1464   56.3  0.1400 -132.4
 2.000  0.6138  134.0   2.454   46.8  0.1532   55.3  0.1468 -135.1
 2.100  0.6190  131.3   2.341   44.6  0.1598   54.1  0.1532 -138.1
 2.200  0.6256  128.6   2.232   42.2  0.1665   53.0  0.1600 -140.9
 2.300  0.6303  126.4   2.140   40.1  0.1737   51.8  0.1677 -143.0
 2.400  0.6360  124.2   2.052   37.8  0.1809   50.6  0.1756 -144.9
 2.500  0.6401  121.9   1.972   35.8  0.1869   49.3  0.1835 -147.4
 2.600  0.6452  119.7   1.895   33.6  0.1929   48.1  0.1918 -149.6
 2.700  0.6514  117.6   1.828   31.7  0.1992   46.9  0.1986 -151.5
 2.800  0.6584  115.6   1.763   29.6  0.2055   45.8  0.2057 -153.3
 2.900  0.6628  113.5   1.703   27.7  0.2114   44.5  0.2119 -155.6
 3.000  0.6681  111.4   1.646   25.6  0.2175   43.3  0.2184 -157.8
 3.100  0.6716  109.5   1.598   24.0  0.2231   42.1  0.2230 -159.9
 3.200  0.6758  107.7   1.551   22.2  0.2289   41.0  0.2278 -161.9
 3.300  0.6807  105.9   1.506   20.4  0.2347   39.9  0.2329 -163.8
 3.400  0.6863  104.1   1.462   18.4  0.2406   38.9  0.2383 -165.6
 3.500  0.6925  102.3   1.420   16.3  0.2466   37.9  0.2439 -167.4
 3.600  0.6959  100.7   1.384   14.7  0.2519   36.6  0.2484 -169.7
 3.700  0.6999   99.1   1.350   13.1  0.2574   35.4  0.2534 -171.9
 3.800  0.7044   97.6   1.316   11.4  0.2630   34.3  0.2587 -174.1
 3.900  0.7094   96.0   1.284    9.6  0.2686   33.2  0.2643 -176.1
 4.000  0.7149   94.5   1.253    7.7  0.2744   32.1  0.2703 -178.1
 4.100  0.7171   93.0   1.224    6.2  0.2797   30.8  0.2759  179.5
 4.200  0.7197   91.5   1.197    4.7  0.2851   29.6  0.2821  177.2
 4.300  0.7229   90.0   1.170    3.1  0.2906   28.4  0.2886  175.0
 4.400  0.7266   88.5   1.144    1.4  0.2962   27.3  0.2956  172.9
 4.500  0.7307   87.0   1.119   -0.4  0.3020   26.2  0.3029  170.9
 4.600  0.7339   85.7   1.096   -1.7  0.3068   25.0  0.3106  169.0
 4.700  0.7376   84.3   1.073   -3.0  0.3118   23.9  0.3186  167.1
 4.800  0.7416   83.0   1.051   -4.4  0.3168   22.8  0.3269  165.4
 4.900  0.7461   81.7   1.030   -5.8  0.3220   21.7  0.3355  163.8
 5.000  0.7509   80.4   1.009   -7.3  0.3273   20.7  0.3444  162.2
 5.100  0.7512   79.1   0.993   -8.5  0.3319   19.5  0.3530  160.9
 5.200  0.7518   77.7   0.977   -9.8  0.3366   18.3  0.3618  159.8
 5.300  0.7529   76.4   0.962  -11.1  0.3414   17.1  0.3707  158.6
 5.400  0.7544   75.0   0.947  -12.5  0.3464   16.0  0.3798  157.5
 5.500  0.7563   73.7   0.933  -13.9  0.3515   14.9  0.3890  156.5
 5.600  0.7559   72.5   0.917  -15.0  0.3555   13.8  0.3943  155.5
 5.700  0.7558   71.3   0.902  -16.1  0.3597   12.7  0.3998  154.6
 5.800  0.7561   70.2   0.887  -17.2  0.3640   11.6  0.4054  153.7
 5.900  0.7566   69.0   0.872  -18.4  0.3684   10.5  0.4110  152.8
 6.000  0.7575   67.8   0.858  -19.6  0.3730    9.5  0.4168  151.9
!
!  f       NFmin   Gammaopt  rn/50
! GHz       dB    MAG  ANG    -
 0.450      1.22  0.33 -174   0.08
 0.900      1.27  0.38 -173   0.07
 1.900      1.89  0.57 -137   0.17
 2.400      2.22  0.62 -121   0.38
!
! (c) 2017  Infineon Technologies AG, Munich