! Infineon Technologies  Discrete & RF Semiconductors
! BFP193
! VCE =  2.0 V,  IC =  20 mA
! Common Emitter S-Parameters:                            Jan 2017
# GHz  S  MA  R  50
!  f         S11            S21            S12            S22
! GHz     MAG   ANG      MAG   ANG      MAG   ANG      MAG   ANG
 0.010  0.4564  -16.2  47.588  173.0  0.0031   85.5  0.9817   -7.2
 0.020  0.4728  -31.6  47.175  166.3  0.0065   87.1  0.9556  -14.6
 0.030  0.4556  -44.9  44.741  160.8  0.0094   76.0  0.9082  -20.4
 0.040  0.4641  -58.5  42.767  154.7  0.0125   70.3  0.8712  -26.8
 0.050  0.4969  -70.9  41.319  148.1  0.0156   66.8  0.8459  -33.7
 0.060  0.4880  -79.3  38.935  144.9  0.0173   63.5  0.7965  -37.2
 0.070  0.4897  -87.8  36.685  141.4  0.0190   60.8  0.7504  -41.1
 0.080  0.5020  -96.0  34.596  137.3  0.0208   58.6  0.7082  -45.5
 0.090  0.5241 -103.7  32.698  132.8  0.0226   56.7  0.6707  -50.4
 0.100  0.5549 -110.7  31.027  127.8  0.0244   55.1  0.6388  -55.9
 0.110  0.5527 -115.0  29.433  125.9  0.0253   53.7  0.6067  -58.1
 0.120  0.5536 -119.3  27.874  123.8  0.0262   52.4  0.5756  -60.5
 0.130  0.5576 -123.6  26.358  121.4  0.0271   51.2  0.5457  -63.2
 0.140  0.5647 -127.8  24.893  118.8  0.0280   50.1  0.5171  -66.2
 0.150  0.5748 -131.9  23.487  115.8  0.0289   49.0  0.4900  -69.5
 0.200  0.5937 -145.0  18.637  108.0  0.0317   49.3  0.3958  -78.8
 0.250  0.6003 -154.0  15.317  102.3  0.0348   48.8  0.3320  -85.6
 0.300  0.6025 -160.3  12.959   98.4  0.0379   49.9  0.2864  -91.4
 0.350  0.6046 -164.8  11.428   95.7  0.0412   51.7  0.2576  -95.3
 0.400  0.6103 -169.2   9.929   92.2  0.0445   53.3  0.2303 -100.2
 0.450  0.6114 -172.6   8.958   90.1  0.0478   54.6  0.2139 -103.6
 0.500  0.6146 -175.9   8.002   87.5  0.0512   55.7  0.1984 -107.6
 0.600  0.6156  178.7   6.718   83.5  0.0589   56.6  0.1785 -114.0
 0.700  0.6183  174.5   5.774   80.1  0.0647   58.4  0.1646 -119.2
 0.800  0.6202  170.6   5.070   76.7  0.0726   59.1  0.1575 -123.7
 0.900  0.6218  166.7   4.507   73.7  0.0799   59.0  0.1538 -128.0
 1.000  0.6269  163.2   4.079   70.8  0.0875   59.3  0.1507 -132.2
 1.100  0.6293  159.8   3.717   68.0  0.0950   58.8  0.1499 -135.3
 1.200  0.6325  156.7   3.416   65.1  0.1022   58.3  0.1504 -138.6
 1.300  0.6343  153.6   3.162   62.5  0.1100   58.1  0.1532 -141.3
 1.400  0.6389  150.8   2.951   59.8  0.1180   57.5  0.1563 -144.5
 1.500  0.6438  147.8   2.754   57.3  0.1250   56.5  0.1608 -147.0
 1.600  0.6477  144.8   2.594   54.6  0.1328   55.6  0.1652 -149.0
 1.700  0.6494  142.0   2.450   52.1  0.1410   55.0  0.1721 -151.4
 1.800  0.6568  139.2   2.326   49.5  0.1479   53.7  0.1782 -153.7
 1.900  0.6607  136.5   2.205   47.3  0.1545   52.9  0.1844 -155.6
 2.000  0.6615  133.8   2.096   44.7  0.1622   51.8  0.1917 -157.4
 2.100  0.6665  131.1   2.001   42.4  0.1689   50.7  0.1991 -159.3
 2.200  0.6730  128.5   1.910   39.9  0.1757   49.7  0.2067 -161.1
 2.300  0.6767  126.2   1.832   37.8  0.1830   48.6  0.2148 -162.4
 2.400  0.6815  124.0   1.757   35.5  0.1904   47.6  0.2230 -163.6
 2.500  0.6862  121.6   1.689   33.4  0.1967   46.3  0.2312 -165.3
 2.600  0.6921  119.3   1.624   31.2  0.2032   45.0  0.2396 -166.8
 2.700  0.6964  117.2   1.566   29.2  0.2095   43.9  0.2466 -168.2
 2.800  0.7016  115.2   1.511   27.1  0.2159   42.8  0.2538 -169.5
 2.900  0.7052  113.0   1.462   25.2  0.2221   41.6  0.2602 -171.2
 3.000  0.7097  110.9   1.414   23.1  0.2284   40.4  0.2669 -172.9
 3.100  0.7126  109.0   1.373   21.5  0.2341   39.2  0.2719 -174.6
 3.200  0.7162  107.2   1.334   19.7  0.2399   38.1  0.2771 -176.3
 3.300  0.7206  105.3   1.296   17.9  0.2458   37.1  0.2825 -177.9
 3.400  0.7257  103.5   1.259   16.0  0.2518   36.1  0.2882 -179.4
 3.500  0.7316  101.7   1.224   13.9  0.2578   35.1  0.2940  179.1
 3.600  0.7343  100.1   1.194   12.4  0.2632   33.8  0.2992  177.1
 3.700  0.7376   98.5   1.164   10.8  0.2688   32.6  0.3047  175.2
 3.800  0.7415   96.8   1.136    9.1  0.2745   31.5  0.3105  173.4
 3.900  0.7460   95.3   1.108    7.3  0.2802   30.4  0.3167  171.6
 4.000  0.7510   93.7   1.082    5.4  0.2861   29.3  0.3231  169.9
 4.100  0.7521   92.2   1.058    4.0  0.2914   28.1  0.3293  167.9
 4.200  0.7537   90.7   1.035    2.5  0.2968   26.9  0.3360  165.9
 4.300  0.7559   89.2   1.013    0.9  0.3023   25.7  0.3430  164.0
 4.400  0.7585   87.7   0.991   -0.7  0.3079   24.6  0.3503  162.2
 4.500  0.7617   86.2   0.970   -2.4  0.3137   23.5  0.3580  160.5
 4.600  0.7642   84.8   0.951   -3.6  0.3185   22.3  0.3658  158.9
 4.700  0.7672   83.4   0.932   -4.8  0.3234   21.2  0.3739  157.3
 4.800  0.7707   82.1   0.913   -6.1  0.3284   20.0  0.3823  155.8
 4.900  0.7745   80.7   0.895   -7.4  0.3335   19.0  0.3909  154.4
 5.000  0.7788   79.4   0.878   -8.8  0.3388   17.9  0.3998  153.0
 5.100  0.7786   78.1   0.865  -10.0  0.3432   16.7  0.4081  151.9
 5.200  0.7788   76.7   0.852  -11.1  0.3478   15.5  0.4165  150.9
 5.300  0.7795   75.4   0.840  -12.4  0.3525   14.3  0.4251  149.9
 5.400  0.7806   74.0   0.828  -13.6  0.3574   13.2  0.4337  149.0
 5.500  0.7821   72.7   0.817  -14.9  0.3624   12.1  0.4425  148.1
 5.600  0.7814   71.5   0.805  -15.9  0.3664   11.0  0.4471  147.2
 5.700  0.7809   70.3   0.793  -16.8  0.3706    9.9  0.4518  146.3
 5.800  0.7809   69.2   0.781  -17.9  0.3749    8.8  0.4566  145.5
 5.900  0.7811   68.0   0.769  -18.9  0.3793    7.8  0.4615  144.6
 6.000  0.7817   66.8   0.758  -20.0  0.3839    6.8  0.4665  143.8
!
!  f       NFmin   Gammaopt  rn/50
! GHz       dB    MAG  ANG    -
 0.450      1.05  0.27  180   0.07
 0.900      1.13  0.36 -178   0.07
 1.900      1.76  0.56 -140   0.15
 2.400      2.10  0.62 -124   0.34
!
! (c) 2017  Infineon Technologies AG, Munich