! Infineon Technologies  Discrete & RF Semiconductors
! BFP193
! VCE =  6.0 V,  IC =  90 mA
! Common Emitter S-Parameters:                            Jan 2017
# GHz  S  MA  R  50
!  f         S11            S21            S12            S22
! GHz     MAG   ANG      MAG   ANG      MAG   ANG      MAG   ANG
 0.010  0.1404  -72.1  80.348  168.4  0.0021   84.3  0.8881   -9.9
 0.020  0.2433  -97.5  76.862  157.9  0.0045   79.3  0.8387  -20.8
 0.030  0.2970 -113.0  69.254  151.4  0.0059   71.3  0.7608  -27.1
 0.040  0.3654 -123.3  62.752  143.4  0.0073   66.5  0.6941  -34.7
 0.050  0.4418 -130.2  57.729  133.8  0.0088   63.2  0.6420  -43.7
 0.060  0.4578 -135.5  53.104  131.2  0.0096   62.5  0.5925  -46.1
 0.070  0.4775 -140.5  48.611  128.1  0.0105   61.9  0.5441  -48.9
 0.080  0.5005 -145.0  44.288  124.4  0.0113   61.3  0.4974  -52.3
 0.090  0.5263 -149.1  40.191  119.9  0.0122   60.9  0.4528  -56.4
 0.100  0.5545 -152.8  36.397  114.4  0.0130   60.5  0.4109  -61.3
 0.110  0.5589 -155.0  34.192  113.0  0.0136   60.4  0.3877  -62.3
 0.120  0.5640 -157.1  32.010  111.5  0.0142   60.3  0.3646  -63.5
 0.130  0.5700 -159.2  29.855  109.7  0.0148   60.2  0.3417  -64.8
 0.140  0.5767 -161.3  27.734  107.6  0.0154   60.1  0.3190  -66.4
 0.150  0.5841 -163.3  25.655  105.2  0.0160   60.0  0.2966  -68.1
 0.200  0.5985 -169.3  19.674   99.6  0.0190   64.1  0.2337  -72.1
 0.250  0.6061 -173.8  15.902   95.4  0.0231   66.7  0.1952  -74.0
 0.300  0.6082 -177.1  13.311   92.6  0.0262   68.5  0.1685  -75.8
 0.350  0.6091 -179.6  11.696   90.6  0.0299   69.9  0.1533  -76.7
 0.400  0.6112  177.9  10.101   87.9  0.0337   70.9  0.1381  -77.9
 0.450  0.6132  175.8   9.099   86.3  0.0376   71.2  0.1297  -79.2
 0.500  0.6161  173.7   8.107   84.2  0.0415   71.4  0.1213  -80.7
 0.600  0.6202  170.1   6.793   81.0  0.0497   71.6  0.1100  -83.8
 0.700  0.6207  167.1   5.832   78.1  0.0568   71.7  0.1023  -85.9
 0.800  0.6241  163.9   5.117   75.1  0.0655   71.1  0.1009  -89.2
 0.900  0.6229  160.8   4.547   72.4  0.0727   70.0  0.0991  -93.1
 1.000  0.6291  157.9   4.118   69.7  0.0800   69.8  0.0975  -97.5
 1.100  0.6311  155.1   3.754   67.3  0.0878   68.7  0.0988 -100.7
 1.200  0.6344  152.1   3.447   64.6  0.0957   67.6  0.1008 -104.2
 1.300  0.6359  149.4   3.192   62.1  0.1027   66.6  0.1038 -108.5
 1.400  0.6394  146.8   2.978   59.6  0.1110   65.6  0.1067 -113.1
 1.500  0.6444  144.2   2.783   57.2  0.1184   64.3  0.1102 -116.8
 1.600  0.6479  141.3   2.619   54.6  0.1259   63.1  0.1158 -119.9
 1.700  0.6506  138.7   2.473   52.3  0.1338   61.8  0.1219 -124.2
 1.800  0.6572  136.0   2.348   49.8  0.1411   60.5  0.1283 -128.1
 1.900  0.6612  133.6   2.228   47.6  0.1479   59.5  0.1343 -131.1
 2.000  0.6630  131.0   2.118   45.1  0.1556   58.0  0.1424 -134.0
 2.100  0.6673  128.4   2.022   42.9  0.1624   56.7  0.1498 -137.2
 2.200  0.6730  125.9   1.929   40.5  0.1692   55.6  0.1577 -140.1
 2.300  0.6762  123.7   1.851   38.4  0.1765   54.2  0.1660 -142.3
 2.400  0.6804  121.6   1.776   36.1  0.1838   52.9  0.1746 -144.2
 2.500  0.6844  119.4   1.708   34.1  0.1902   51.5  0.1834 -146.8
 2.600  0.6894  117.3   1.643   32.0  0.1967   50.2  0.1925 -149.2
 2.700  0.6941  115.2   1.585   30.1  0.2030   48.9  0.1998 -151.0
 2.800  0.6996  113.2   1.529   28.0  0.2094   47.7  0.2073 -152.7
 2.900  0.7030  111.1   1.479   26.1  0.2155   46.4  0.2140 -155.1
 3.000  0.7074  109.1   1.431   24.1  0.2218   45.2  0.2210 -157.4
 3.100  0.7099  107.3   1.390   22.5  0.2276   43.9  0.2261 -159.5
 3.200  0.7131  105.5   1.350   20.8  0.2334   42.7  0.2314 -161.5
 3.300  0.7170  103.7   1.312   19.0  0.2394   41.5  0.2370 -163.4
 3.400  0.7215  101.9   1.275   17.0  0.2454   40.4  0.2429 -165.3
 3.500  0.7268  100.2   1.239   15.0  0.2516   39.3  0.2490 -167.0
 3.600  0.7295   98.6   1.209   13.5  0.2571   38.0  0.2540 -169.3
 3.700  0.7328   97.0   1.179   11.8  0.2628   36.7  0.2593 -171.6
 3.800  0.7367   95.5   1.151   10.1  0.2686   35.5  0.2651 -173.7
 3.900  0.7411   93.9   1.123    8.4  0.2745   34.3  0.2712 -175.7
 4.000  0.7460   92.4   1.097    6.5  0.2805   33.2  0.2776 -177.7
 4.100  0.7470   90.9   1.073    5.1  0.2858   31.9  0.2835  179.9
 4.200  0.7486   89.4   1.050    3.7  0.2913   30.6  0.2900  177.5
 4.300  0.7506   87.9   1.028    2.1  0.2968   29.4  0.2968  175.3
 4.400  0.7532   86.5   1.006    0.6  0.3026   28.2  0.3042  173.1
 4.500  0.7562   85.0   0.985   -1.1  0.3084   27.1  0.3119  171.1
 4.600  0.7589   83.7   0.965   -2.3  0.3133   25.9  0.3196  169.2
 4.700  0.7621   82.4   0.946   -3.6  0.3184   24.7  0.3277  167.3
 4.800  0.7656   81.1   0.927   -5.0  0.3235   23.5  0.3361  165.6
 4.900  0.7695   79.8   0.909   -6.4  0.3289   22.4  0.3448  163.9
 5.000  0.7738   78.5   0.891   -7.8  0.3343   21.3  0.3538  162.3
 5.100  0.7737   77.2   0.878   -9.0  0.3388   20.1  0.3626  161.0
 5.200  0.7739   75.9   0.865  -10.2  0.3434   18.8  0.3715  159.8
 5.300  0.7746   74.5   0.852  -11.5  0.3482   17.7  0.3806  158.7
 5.400  0.7757   73.2   0.840  -12.8  0.3531   16.5  0.3899  157.6
 5.500  0.7772   71.9   0.828  -14.1  0.3582   15.4  0.3993  156.5
 5.600  0.7764   70.7   0.815  -15.1  0.3624   14.2  0.4048  155.5
 5.700  0.7759   69.6   0.802  -16.1  0.3667   13.1  0.4104  154.5
 5.800  0.7757   68.4   0.790  -17.2  0.3711   12.0  0.4161  153.6
 5.900  0.7758   67.3   0.778  -18.3  0.3757   10.9  0.4220  152.7
 6.000  0.7763   66.1   0.766  -19.4  0.3804    9.8  0.4279  151.8
!
!  f       NFmin   Gammaopt  rn/50
! GHz       dB    MAG  ANG    -
!
! noise parameter not available yet for this operation point!
!
! (c) 2017  Infineon Technologies AG, Munich