! Infineon Technologies  Discrete & RF Semiconductors
! BFP193
! VCE =  7.0 V,  IC =  20 mA
! Common Emitter S-Parameters:                            Jan 2017
# GHz  S  MA  R  50
!  f         S11            S21            S12            S22
! GHz     MAG   ANG      MAG   ANG      MAG   ANG      MAG   ANG
 0.010  0.5197  -12.2  46.808  173.7  0.0026   85.0  0.9877   -5.4
 0.020  0.5292  -24.1  46.741  168.1  0.0058   80.4  0.9704  -11.1
 0.030  0.5094  -34.6  44.771  163.2  0.0082   75.1  0.9342  -15.7
 0.040  0.5077  -45.6  43.163  157.8  0.0106   72.2  0.9045  -20.6
 0.050  0.5243  -56.2  41.958  152.1  0.0130   70.4  0.8818  -25.8
 0.060  0.5086  -63.9  39.886  148.9  0.0147   66.7  0.8398  -28.7
 0.070  0.5024  -71.9  37.950  145.4  0.0164   63.8  0.8002  -31.9
 0.080  0.5062  -79.9  36.170  141.6  0.0181   61.4  0.7634  -35.4
 0.090  0.5197  -87.7  34.571  137.3  0.0199   59.4  0.7297  -39.3
 0.100  0.5421  -94.9  33.179  132.7  0.0217   57.8  0.6996  -43.5
 0.110  0.5347  -99.6  31.626  130.7  0.0225   56.6  0.6687  -45.2
 0.120  0.5309 -104.3  30.117  128.4  0.0234   55.4  0.6384  -47.1
 0.130  0.5308 -109.1  28.658  126.0  0.0243   54.4  0.6089  -49.1
 0.140  0.5343 -113.8  27.259  123.2  0.0251   53.4  0.5803  -51.4
 0.150  0.5415 -118.5  25.928  120.2  0.0260   52.5  0.5526  -53.9
 0.200  0.5518 -133.6  20.920  111.9  0.0287   51.2  0.4521  -60.2
 0.250  0.5550 -144.5  17.368  105.7  0.0322   50.5  0.3806  -64.2
 0.300  0.5562 -151.9  14.774  101.4  0.0345   51.3  0.3281  -67.1
 0.350  0.5548 -157.4  13.060   98.5  0.0373   52.7  0.2950  -68.6
 0.400  0.5584 -162.8  11.389   94.7  0.0402   53.9  0.2621  -70.5
 0.450  0.5589 -166.7  10.285   92.5  0.0432   55.1  0.2418  -71.6
 0.500  0.5619 -170.5   9.200   89.7  0.0463   56.1  0.2217  -72.9
 0.600  0.5635 -176.7   7.742   85.6  0.0527   57.2  0.1947  -75.1
 0.700  0.5687  178.5   6.658   82.1  0.0582   58.8  0.1759  -76.6
 0.800  0.5701  173.8   5.852   78.6  0.0653   60.0  0.1644  -78.8
 0.900  0.5716  169.8   5.202   75.6  0.0721   59.5  0.1555  -81.0
 1.000  0.5748  166.1   4.710   72.7  0.0789   60.0  0.1470  -83.8
 1.100  0.5790  162.5   4.293   69.9  0.0855   60.2  0.1439  -86.0
 1.200  0.5819  159.1   3.942   67.0  0.0924   59.6  0.1404  -88.8
 1.300  0.5840  155.8   3.648   64.4  0.0985   59.1  0.1391  -92.2
 1.400  0.5878  152.9   3.403   61.8  0.1057   59.0  0.1379  -95.7
 1.500  0.5936  149.9   3.176   59.2  0.1127   58.4  0.1383  -99.2
 1.600  0.5974  146.7   2.989   56.6  0.1191   57.5  0.1403 -102.4
 1.700  0.6012  143.7   2.820   54.1  0.1263   57.0  0.1432 -106.4
 1.800  0.6080  141.0   2.678   51.6  0.1327   56.0  0.1454 -110.3
 1.900  0.6113  138.1   2.537   49.3  0.1391   55.1  0.1499 -113.9
 2.000  0.6161  135.4   2.411   46.8  0.1463   54.2  0.1549 -117.3
 2.100  0.6212  132.7   2.300   44.5  0.1526   53.2  0.1598 -120.9
 2.200  0.6276  130.0   2.194   42.0  0.1590   52.3  0.1653 -124.2
 2.300  0.6317  127.7   2.104   39.9  0.1658   51.4  0.1723 -127.0
 2.400  0.6368  125.4   2.017   37.6  0.1726   50.5  0.1797 -129.6
 2.500  0.6419  123.1   1.938   35.5  0.1788   49.3  0.1867 -132.7
 2.600  0.6480  120.9   1.862   33.3  0.1851   48.1  0.1941 -135.5
 2.700  0.6535  118.7   1.795   31.3  0.1912   47.0  0.2008 -137.8
 2.800  0.6600  116.6   1.731   29.1  0.1973   46.0  0.2079 -140.0
 2.900  0.6653  114.4   1.673   27.2  0.2032   44.9  0.2134 -142.6
 3.000  0.6715  112.3   1.617   25.1  0.2091   43.8  0.2193 -145.1
 3.100  0.6749  110.4   1.569   23.4  0.2148   42.7  0.2237 -147.5
 3.200  0.6790  108.5   1.522   21.7  0.2205   41.6  0.2284 -149.8
 3.300  0.6838  106.7   1.477   19.8  0.2263   40.6  0.2335 -152.0
 3.400  0.6893  104.9   1.434   17.8  0.2322   39.7  0.2390 -154.1
 3.500  0.6955  103.1   1.392   15.7  0.2381   38.8  0.2447 -156.1
 3.600  0.6990  101.5   1.356   14.1  0.2437   37.6  0.2489 -158.6
 3.700  0.7031   99.8   1.322   12.5  0.2493   36.4  0.2535 -161.1
 3.800  0.7077   98.2   1.289   10.7  0.2551   35.4  0.2586 -163.5
 3.900  0.7129   96.7   1.257    8.9  0.2610   34.3  0.2642 -165.7
 4.000  0.7186   95.1   1.226    7.0  0.2669   33.3  0.2701 -167.9
 4.100  0.7208   93.6   1.198    5.5  0.2723   32.1  0.2756 -170.6
 4.200  0.7235   92.0   1.170    3.9  0.2779   30.9  0.2816 -173.1
 4.300  0.7267   90.5   1.144    2.3  0.2836   29.7  0.2882 -175.6
 4.400  0.7305   89.0   1.118    0.6  0.2893   28.6  0.2953 -177.9
 4.500  0.7347   87.5   1.094   -1.2  0.2952   27.6  0.3028  179.9
 4.600  0.7380   86.1   1.071   -2.5  0.3003   26.4  0.3105  177.7
 4.700  0.7418   84.7   1.048   -3.8  0.3055   25.3  0.3186  175.6
 4.800  0.7459   83.4   1.026   -5.2  0.3109   24.2  0.3272  173.6
 4.900  0.7505   82.0   1.004   -6.6  0.3163   23.1  0.3361  171.7
 5.000  0.7555   80.7   0.983   -8.1  0.3219   22.1  0.3454  169.9
 5.100  0.7558   79.4   0.967   -9.3  0.3266   20.9  0.3546  168.4
 5.200  0.7566   78.0   0.951  -10.6  0.3314   19.7  0.3640  166.9
 5.300  0.7577   76.7   0.935  -11.9  0.3364   18.5  0.3736  165.5
 5.400  0.7593   75.3   0.920  -13.2  0.3415   17.4  0.3834  164.2
 5.500  0.7613   74.0   0.906  -14.6  0.3467   16.3  0.3934  163.0
 5.600  0.7610   72.8   0.891  -15.7  0.3511   15.2  0.3995  161.9
 5.700  0.7611   71.6   0.876  -16.8  0.3557   14.1  0.4057  160.7
 5.800  0.7615   70.4   0.861  -17.9  0.3604   13.0  0.4121  159.7
 5.900  0.7622   69.2   0.847  -19.1  0.3653   11.9  0.4186  158.6
 6.000  0.7633   68.0   0.833  -20.3  0.3702   10.9  0.4253  157.6
!
!  f       NFmin   Gammaopt  rn/50
! GHz       dB    MAG  ANG    -
 0.450      1.05  0.27  180   0.07
 0.900      1.13  0.36 -178   0.07
 1.900      1.76  0.56 -140   0.15
 2.400      2.10  0.62 -124   0.34
!
! (c) 2017  Infineon Technologies AG, Munich