! Infineon Technologies  Discrete & RF Semiconductors
! BFP193
! VCE =  7.0 V,  IC =  70 mA
! Common Emitter S-Parameters:                            Jan 2017
# GHz  S  MA  R  50
!  f         S11            S21            S12            S22
! GHz     MAG   ANG      MAG   ANG      MAG   ANG      MAG   ANG
 0.010  0.1951  -38.8  79.772  169.7  0.0021   78.9  0.9352   -8.8
 0.020  0.2498  -68.2  77.372  160.5  0.0044   85.0  0.9004  -18.6
 0.030  0.2758  -87.7  70.859  154.2  0.0060   74.5  0.8282  -24.8
 0.040  0.3270 -102.5  65.366  146.7  0.0077   68.5  0.7673  -32.0
 0.050  0.3936 -112.8  61.168  138.1  0.0095   64.7  0.7205  -40.3
 0.060  0.4050 -119.8  56.607  135.3  0.0104   63.9  0.6683  -43.0
 0.070  0.4221 -126.3  52.208  132.0  0.0113   63.2  0.6179  -46.2
 0.080  0.4441 -132.2  48.012  128.1  0.0121   62.6  0.5697  -49.9
 0.090  0.4704 -137.5  44.081  123.5  0.0130   62.1  0.5243  -54.2
 0.100  0.5003 -142.2  40.489  118.0  0.0139   61.6  0.4825  -59.4
 0.110  0.5043 -145.1  38.117  116.5  0.0146   61.6  0.4555  -60.7
 0.120  0.5096 -147.9  35.776  114.8  0.0153   61.5  0.4287  -62.2
 0.130  0.5160 -150.6  33.471  112.8  0.0160   61.5  0.4022  -63.9
 0.140  0.5237 -153.3  31.210  110.6  0.0167   61.4  0.3762  -65.8
 0.150  0.5324 -155.9  29.005  108.0  0.0174   61.4  0.3506  -68.0
 0.200  0.5482 -163.3  22.403  101.8  0.0201   65.0  0.2769  -73.0
 0.250  0.5571 -169.1  18.184   97.3  0.0241   64.5  0.2296  -76.0
 0.300  0.5576 -172.9  15.244   94.2  0.0274   66.1  0.1963  -78.6
 0.350  0.5609 -175.8  13.404   92.0  0.0310   67.8  0.1765  -80.0
 0.400  0.5655 -178.6  11.590   89.2  0.0347   69.1  0.1568  -81.8
 0.450  0.5665  178.9  10.441   87.5  0.0386   69.4  0.1456  -83.3
 0.500  0.5685  176.4   9.303   85.3  0.0425   69.6  0.1345  -85.1
 0.600  0.5724  172.4   7.797   81.9  0.0503   69.5  0.1195  -88.3
 0.700  0.5748  169.2   6.693   79.0  0.0568   70.2  0.1092  -90.7
 0.800  0.5791  165.8   5.871   75.9  0.0658   70.4  0.1050  -93.9
 0.900  0.5799  162.6   5.216   73.2  0.0734   69.2  0.1016  -97.5
 1.000  0.5830  159.6   4.719   70.6  0.0805   68.5  0.0984 -101.6
 1.100  0.5876  156.7   4.298   68.1  0.0881   67.5  0.0984 -104.3
 1.200  0.5900  153.6   3.945   65.4  0.0961   66.3  0.0990 -107.6
 1.300  0.5936  150.9   3.650   62.9  0.1032   65.5  0.1016 -111.4
 1.400  0.5968  148.2   3.402   60.4  0.1111   64.4  0.1033 -115.7
 1.500  0.6023  145.5   3.177   58.1  0.1186   63.3  0.1068 -119.3
 1.600  0.6057  142.6   2.988   55.5  0.1258   62.2  0.1113 -122.2
 1.700  0.6081  140.0   2.819   53.1  0.1332   60.9  0.1170 -126.2
 1.800  0.6166  137.3   2.674   50.7  0.1405   59.6  0.1227 -129.9
 1.900  0.6203  134.8   2.536   48.5  0.1476   58.4  0.1283 -132.9
 2.000  0.6234  132.4   2.408   46.1  0.1547   57.1  0.1358 -135.7
 2.100  0.6279  129.7   2.298   43.9  0.1614   55.9  0.1427 -138.8
 2.200  0.6338  127.1   2.192   41.5  0.1682   54.8  0.1499 -141.6
 2.300  0.6379  124.9   2.101   39.4  0.1754   53.4  0.1580 -143.7
 2.400  0.6429  122.8   2.013   37.2  0.1827   52.2  0.1662 -145.5
 2.500  0.6481  120.6   1.935   35.2  0.1891   50.9  0.1745 -148.0
 2.600  0.6543  118.5   1.860   33.1  0.1955   49.6  0.1830 -150.2
 2.700  0.6593  116.4   1.794   31.1  0.2016   48.3  0.1903 -152.1
 2.800  0.6651  114.4   1.731   29.0  0.2078   47.0  0.1978 -153.8
 2.900  0.6696  112.3   1.673   27.1  0.2139   45.7  0.2041 -156.1
 3.000  0.6750  110.3   1.617   25.1  0.2201   44.4  0.2108 -158.3
 3.100  0.6782  108.5   1.570   23.5  0.2257   43.1  0.2155 -160.4
 3.200  0.6820  106.7   1.524   21.7  0.2314   41.9  0.2205 -162.4
 3.300  0.6865  104.9   1.480   19.9  0.2372   40.8  0.2258 -164.3
 3.400  0.6917  103.1   1.437   18.0  0.2431   39.7  0.2313 -166.1
 3.500  0.6975  101.4   1.396   15.9  0.2491   38.7  0.2370 -167.8
 3.600  0.7009   99.8   1.361   14.4  0.2545   37.4  0.2416 -170.1
 3.700  0.7048   98.2   1.327   12.8  0.2600   36.1  0.2466 -172.3
 3.800  0.7093   96.7   1.294   11.1  0.2656   34.9  0.2519 -174.4
 3.900  0.7143   95.1   1.262    9.3  0.2713   33.8  0.2575 -176.5
 4.000  0.7198   93.6   1.231    7.4  0.2771   32.7  0.2635 -178.4
 4.100  0.7216   92.1   1.203    5.9  0.2823   31.4  0.2693  179.2
 4.200  0.7238   90.6   1.177    4.4  0.2876   30.2  0.2755  176.8
 4.300  0.7265   89.2   1.151    2.8  0.2931   29.0  0.2821  174.6
 4.400  0.7297   87.7   1.126    1.1  0.2987   27.8  0.2892  172.5
 4.500  0.7334   86.3   1.102   -0.6  0.3044   26.7  0.2966  170.5
 4.600  0.7365   85.0   1.079   -1.9  0.3092   25.5  0.3040  168.6
 4.700  0.7401   83.6   1.057   -3.2  0.3142   24.3  0.3118  166.8
 4.800  0.7440   82.3   1.035   -4.6  0.3193   23.2  0.3198  165.1
 4.900  0.7484   81.0   1.014   -6.0  0.3246   22.1  0.3281  163.4
 5.000  0.7531   79.7   0.994   -7.5  0.3299   21.0  0.3367  161.9
 5.100  0.7532   78.4   0.978   -8.7  0.3343   19.8  0.3454  160.7
 5.200  0.7536   77.0   0.963  -10.0  0.3388   18.6  0.3543  159.5
 5.300  0.7545   75.7   0.948  -11.3  0.3435   17.4  0.3633  158.4
 5.400  0.7558   74.3   0.934  -12.7  0.3483   16.3  0.3724  157.3
 5.500  0.7575   73.0   0.920  -14.1  0.3532   15.2  0.3817  156.3
 5.600  0.7574   71.8   0.905  -15.1  0.3573   14.0  0.3869  155.4
 5.700  0.7577   70.6   0.890  -16.2  0.3615   12.9  0.3923  154.5
 5.800  0.7583   69.5   0.875  -17.3  0.3659   11.8  0.3977  153.6
 5.900  0.7592   68.3   0.861  -18.5  0.3704   10.7  0.4033  152.7
 6.000  0.7604   67.1   0.847  -19.7  0.3750    9.6  0.4089  151.9
!
!  f       NFmin   Gammaopt  rn/50
! GHz       dB    MAG  ANG    -
!
! noise parameter not available yet for this operation point!
!
! (c) 2017  Infineon Technologies AG, Munich