! Infineon Technologies  Discrete & RF Semiconductors
! BFP193
! VCE =  3.0 V,  IC =  48 mA
! Common Emitter S-Parameters:                            Jan 2017
# GHz  S  MA  R  50
!  f         S11            S21            S12            S22
! GHz     MAG   ANG      MAG   ANG      MAG   ANG      MAG   ANG
 0.010  0.1811  -43.3  72.901  170.1  0.0025   83.8  0.9508   -9.9
 0.020  0.2441  -71.8  70.818  161.0  0.0047   81.0  0.9093  -20.1
 0.030  0.2760  -91.1  65.016  154.7  0.0065   71.1  0.8367  -26.9
 0.040  0.3318 -105.3  60.147  147.3  0.0084   65.5  0.7782  -34.9
 0.050  0.4015 -114.9  56.454  138.7  0.0103   62.0  0.7370  -44.0
 0.060  0.4161 -121.7  52.294  135.9  0.0114   61.5  0.6824  -47.3
 0.070  0.4361 -128.0  48.285  132.5  0.0126   61.1  0.6306  -51.2
 0.080  0.4608 -133.6  44.469  128.6  0.0137   60.8  0.5821  -55.7
 0.090  0.4896 -138.7  40.899  124.0  0.0149   60.5  0.5379  -61.1
 0.100  0.5217 -143.1  37.646  118.5  0.0160   60.3  0.4992  -67.3
 0.110  0.5264 -145.9  35.454  117.0  0.0167   59.9  0.4710  -69.3
 0.120  0.5322 -148.6  33.292  115.2  0.0174   59.5  0.4434  -71.5
 0.130  0.5393 -151.3  31.165  113.2  0.0181   59.1  0.4166  -74.0
 0.140  0.5475 -153.9  29.081  110.9  0.0188   58.8  0.3906  -76.9
 0.150  0.5568 -156.4  27.050  108.3  0.0195   58.5  0.3658  -80.1
 0.200  0.5759 -163.9  20.914  102.0  0.0227   61.8  0.2911  -89.1
 0.250  0.5842 -169.5  16.978   97.4  0.0269   62.5  0.2437  -95.5
 0.300  0.5867 -173.2  14.247   94.3  0.0299   65.2  0.2115 -101.5
 0.350  0.5892 -176.2  12.527   92.1  0.0338   66.3  0.1922 -105.6
 0.400  0.5933 -179.1  10.832   89.1  0.0377   67.2  0.1742 -110.6
 0.450  0.5956  178.5   9.759   87.4  0.0419   67.8  0.1637 -114.1
 0.500  0.5989  176.2   8.697   85.2  0.0461   68.3  0.1538 -118.0
 0.600  0.6010  172.2   7.286   81.7  0.0542   68.0  0.1419 -124.5
 0.700  0.6027  168.8   6.255   78.8  0.0619   68.6  0.1333 -129.8
 0.800  0.6074  165.5   5.489   75.6  0.0706   68.3  0.1307 -133.9
 0.900  0.6071  162.4   4.873   72.9  0.0788   67.6  0.1302 -138.0
 1.000  0.6125  159.4   4.411   70.2  0.0867   66.9  0.1293 -141.9
 1.100  0.6150  156.5   4.018   67.7  0.0948   66.0  0.1310 -144.4
 1.200  0.6173  153.6   3.689   65.0  0.1025   64.6  0.1325 -147.2
 1.300  0.6210  150.7   3.413   62.5  0.1108   63.8  0.1364 -149.5
 1.400  0.6247  147.9   3.185   59.9  0.1188   62.7  0.1406 -152.4
 1.500  0.6303  145.3   2.971   57.6  0.1264   61.5  0.1453 -154.6
 1.600  0.6330  142.4   2.797   55.0  0.1346   60.3  0.1505 -155.8
 1.700  0.6353  139.7   2.640   52.6  0.1425   59.0  0.1573 -157.8
 1.800  0.6422  137.1   2.506   50.1  0.1501   57.7  0.1645 -159.8
 1.900  0.6476  134.7   2.375   48.0  0.1569   56.3  0.1709 -161.5
 2.000  0.6489  132.0   2.257   45.4  0.1645   55.1  0.1785 -162.8
 2.100  0.6539  129.4   2.154   43.2  0.1718   53.8  0.1860 -164.6
 2.200  0.6601  126.9   2.055   40.8  0.1791   52.6  0.1937 -166.2
 2.300  0.6637  124.7   1.972   38.8  0.1863   51.2  0.2016 -167.1
 2.400  0.6683  122.6   1.891   36.6  0.1935   50.0  0.2096 -168.0
 2.500  0.6724  120.4   1.818   34.6  0.2001   48.6  0.2179 -169.5
 2.600  0.6775  118.2   1.747   32.4  0.2069   47.2  0.2264 -170.9
 2.700  0.6822  116.1   1.685   30.5  0.2132   45.9  0.2332 -172.1
 2.800  0.6877  114.1   1.626   28.4  0.2197   44.6  0.2400 -173.2
 2.900  0.6920  112.0   1.572   26.5  0.2256   43.3  0.2465 -174.9
 3.000  0.6971  110.0   1.519   24.5  0.2317   42.1  0.2532 -176.6
 3.100  0.6999  108.2   1.475   22.9  0.2374   40.8  0.2579 -178.2
 3.200  0.7034  106.4   1.433   21.2  0.2431   39.6  0.2628 -179.8
 3.300  0.7077  104.6   1.392   19.4  0.2490   38.4  0.2679  178.7
 3.400  0.7125  102.8   1.353   17.4  0.2550   37.3  0.2732  177.2
 3.500  0.7181  101.1   1.315   15.4  0.2611   36.2  0.2786  175.8
 3.600  0.7211   99.5   1.283   13.9  0.2664   34.9  0.2835  173.9
 3.700  0.7246   97.9   1.251   12.2  0.2718   33.6  0.2887  172.0
 3.800  0.7287   96.3   1.221   10.6  0.2773   32.4  0.2941  170.3
 3.900  0.7333   94.7   1.191    8.8  0.2829   31.2  0.2999  168.5
 4.000  0.7385   93.2   1.163    6.9  0.2887   30.1  0.3059  166.9
 4.100  0.7400   91.7   1.137    5.5  0.2938   28.8  0.3119  164.9
 4.200  0.7420   90.2   1.112    4.0  0.2991   27.5  0.3183  163.0
 4.300  0.7445   88.7   1.088    2.4  0.3045   26.3  0.3251  161.2
 4.400  0.7475   87.3   1.065    0.8  0.3100   25.1  0.3321  159.4
 4.500  0.7510   85.8   1.042   -0.9  0.3157   24.0  0.3395  157.7
 4.600  0.7534   84.5   1.021   -2.1  0.3203   22.8  0.3468  156.2
 4.700  0.7562   83.1   1.001   -3.4  0.3251   21.7  0.3544  154.7
 4.800  0.7594   81.8   0.982   -4.8  0.3300   20.5  0.3622  153.3
 4.900  0.7630   80.5   0.962   -6.2  0.3351   19.5  0.3702  151.9
 5.000  0.7670   79.2   0.944   -7.6  0.3402   18.4  0.3784  150.6
 5.100  0.7669   77.9   0.930   -8.8  0.3444   17.2  0.3862  149.7
 5.200  0.7672   76.6   0.916  -10.0  0.3487   15.9  0.3941  148.8
 5.300  0.7679   75.3   0.903  -11.3  0.3532   14.8  0.4021  147.9
 5.400  0.7689   74.0   0.890  -12.6  0.3578   13.6  0.4102  147.1
 5.500  0.7704   72.7   0.878  -13.9  0.3626   12.5  0.4184  146.3
 5.600  0.7697   71.5   0.864  -14.9  0.3665   11.4  0.4227  145.5
 5.700  0.7693   70.4   0.851  -16.0  0.3705   10.2  0.4270  144.7
 5.800  0.7692   69.2   0.837  -17.0  0.3747    9.1  0.4315  143.9
 5.900  0.7694   68.1   0.825  -18.2  0.3790    8.1  0.4360  143.1
 6.000  0.7699   66.9   0.812  -19.3  0.3835    7.0  0.4406  142.4
!
!  f       NFmin   Gammaopt  rn/50
! GHz       dB    MAG  ANG    -
 0.450      1.49  0.42 -171   0.08
 0.900      1.54  0.44 -164   0.08
 1.900      2.17  0.61 -132   0.22
 2.400      2.50  0.64 -119   0.47
!
! (c) 2017  Infineon Technologies AG, Munich