! Infineon Technologies  Discrete & RF Semiconductors
! BFP193
! VCE =  3.0 V,  IC =  50 mA
! Common Emitter S-Parameters:                            Jan 2017
# GHz  S  MA  R  50
!  f         S11            S21            S12            S22
! GHz     MAG   ANG      MAG   ANG      MAG   ANG      MAG   ANG
 0.010  0.1714  -46.9  73.917  169.9  0.0023   80.7  0.9480  -10.0
 0.020  0.2369  -76.2  71.959  160.6  0.0049   76.5  0.9057  -20.4
 0.030  0.2745  -94.9  65.889  154.3  0.0068   69.0  0.8316  -27.3
 0.040  0.3332 -108.0  60.766  146.9  0.0087   64.9  0.7719  -35.4
 0.050  0.4040 -116.9  56.847  138.2  0.0107   62.2  0.7300  -44.7
 0.060  0.4190 -123.6  52.620  135.4  0.0116   61.2  0.6754  -48.0
 0.070  0.4392 -129.7  48.543  132.0  0.0125   60.3  0.6234  -51.8
 0.080  0.4639 -135.2  44.660  128.1  0.0134   59.5  0.5747  -56.4
 0.090  0.4925 -140.1  41.024  123.5  0.0143   58.9  0.5302  -61.7
 0.100  0.5244 -144.5  37.707  118.0  0.0152   58.3  0.4911  -67.9
 0.110  0.5289 -147.2  35.496  116.5  0.0160   58.8  0.4634  -69.9
 0.120  0.5346 -149.8  33.312  114.8  0.0168   59.3  0.4362  -72.1
 0.130  0.5414 -152.4  31.163  112.8  0.0175   59.7  0.4099  -74.6
 0.140  0.5492 -155.0  29.055  110.6  0.0183   60.1  0.3844  -77.5
 0.150  0.5581 -157.4  26.998  108.0  0.0191   60.4  0.3600  -80.7
 0.200  0.5758 -164.6  20.864  101.7  0.0223   62.4  0.2870  -89.6
 0.250  0.5869 -170.0  16.931   97.2  0.0262   63.4  0.2404  -96.2
 0.300  0.5885 -173.7  14.208   94.1  0.0299   64.8  0.2086 -102.1
 0.350  0.5913 -176.6  12.490   91.9  0.0338   66.3  0.1895 -106.2
 0.400  0.5956 -179.4  10.797   89.0  0.0378   67.5  0.1715 -111.2
 0.450  0.5969  178.2   9.725   87.2  0.0419   67.7  0.1615 -114.7
 0.500  0.5993  175.9   8.665   85.0  0.0461   67.9  0.1521 -118.7
 0.600  0.6019  172.0   7.263   81.6  0.0538   68.6  0.1406 -125.4
 0.700  0.6068  168.7   6.232   78.7  0.0616   69.2  0.1325 -130.5
 0.800  0.6075  165.3   5.468   75.5  0.0706   68.9  0.1298 -134.6
 0.900  0.6088  162.1   4.858   72.8  0.0786   67.6  0.1293 -138.4
 1.000  0.6139  159.3   4.394   70.1  0.0865   67.2  0.1291 -142.6
 1.100  0.6173  156.2   4.004   67.6  0.0947   66.1  0.1304 -145.1
 1.200  0.6184  153.3   3.675   64.8  0.1027   64.8  0.1323 -147.6
 1.300  0.6229  150.4   3.401   62.4  0.1108   63.9  0.1362 -150.0
 1.400  0.6249  147.9   3.172   59.8  0.1190   62.9  0.1406 -152.8
 1.500  0.6309  145.3   2.962   57.5  0.1268   61.5  0.1455 -154.9
 1.600  0.6344  142.3   2.787   54.9  0.1346   60.3  0.1506 -156.4
 1.700  0.6385  139.8   2.632   52.5  0.1424   59.1  0.1579 -158.2
 1.800  0.6439  137.0   2.497   50.0  0.1504   57.8  0.1643 -160.1
 1.900  0.6483  134.4   2.367   47.8  0.1574   56.7  0.1711 -161.9
 2.000  0.6499  131.9   2.248   45.4  0.1649   55.2  0.1785 -163.0
 2.100  0.6551  129.4   2.146   43.2  0.1720   53.9  0.1860 -164.7
 2.200  0.6615  126.9   2.047   40.7  0.1791   52.7  0.1936 -166.3
 2.300  0.6648  124.7   1.964   38.7  0.1863   51.3  0.2016 -167.3
 2.400  0.6690  122.5   1.884   36.5  0.1937   50.0  0.2096 -168.3
 2.500  0.6736  120.2   1.811   34.5  0.2003   48.6  0.2179 -169.8
 2.600  0.6793  118.0   1.741   32.3  0.2071   47.2  0.2264 -171.1
 2.700  0.6837  116.0   1.679   30.4  0.2133   45.9  0.2331 -172.3
 2.800  0.6890  114.0   1.620   28.3  0.2197   44.7  0.2400 -173.5
 2.900  0.6930  111.9   1.567   26.4  0.2257   43.3  0.2465 -175.2
 3.000  0.6978  109.9   1.515   24.4  0.2319   42.0  0.2532 -176.8
 3.100  0.7006  108.1   1.471   22.8  0.2375   40.7  0.2579 -178.4
 3.200  0.7041  106.3   1.429   21.1  0.2433   39.5  0.2629  180.0
 3.300  0.7084  104.5   1.388   19.3  0.2491   38.4  0.2680  178.5
 3.400  0.7132  102.7   1.349   17.3  0.2551   37.3  0.2733  177.0
 3.500  0.7188  101.0   1.311   15.3  0.2611   36.2  0.2788  175.6
 3.600  0.7215   99.4   1.279   13.8  0.2664   34.9  0.2837  173.7
 3.700  0.7248   97.8   1.247   12.1  0.2719   33.6  0.2889  171.9
 3.800  0.7287   96.2   1.217   10.5  0.2775   32.3  0.2944  170.1
 3.900  0.7331   94.6   1.187    8.7  0.2833   31.1  0.3001  168.4
 4.000  0.7380   93.1   1.159    6.8  0.2891   30.0  0.3061  166.8
 4.100  0.7395   91.6   1.133    5.4  0.2941   28.7  0.3121  164.8
 4.200  0.7415   90.1   1.109    3.9  0.2993   27.5  0.3184  162.9
 4.300  0.7440   88.6   1.085    2.3  0.3047   26.3  0.3251  161.1
 4.400  0.7470   87.2   1.061    0.7  0.3101   25.1  0.3321  159.3
 4.500  0.7505   85.7   1.039   -1.0  0.3157   24.0  0.3394  157.6
 4.600  0.7531   84.4   1.019   -2.2  0.3203   22.8  0.3468  156.1
 4.700  0.7560   83.1   0.999   -3.5  0.3251   21.6  0.3544  154.6
 4.800  0.7594   81.8   0.979   -4.8  0.3300   20.5  0.3622  153.2
 4.900  0.7632   80.5   0.960   -6.2  0.3350   19.4  0.3703  151.9
 5.000  0.7673   79.2   0.942   -7.6  0.3402   18.3  0.3785  150.6
 5.100  0.7674   77.9   0.928   -8.8  0.3445   17.1  0.3863  149.6
 5.200  0.7679   76.6   0.914  -10.0  0.3489   15.9  0.3943  148.7
 5.300  0.7688   75.2   0.900  -11.3  0.3535   14.7  0.4023  147.9
 5.400  0.7701   73.9   0.888  -12.6  0.3582   13.6  0.4104  147.0
 5.500  0.7718   72.6   0.875  -13.9  0.3631   12.5  0.4186  146.2
 5.600  0.7709   71.5   0.862  -14.9  0.3669   11.4  0.4229  145.4
 5.700  0.7703   70.3   0.849  -16.0  0.3708   10.3  0.4273  144.6
 5.800  0.7700   69.2   0.836  -17.0  0.3749    9.2  0.4318  143.8
 5.900  0.7700   68.0   0.824  -18.2  0.3791    8.1  0.4364  143.0
 6.000  0.7703   66.9   0.812  -19.3  0.3834    7.1  0.4410  142.3
!
!  f       NFmin   Gammaopt  rn/50
! GHz       dB    MAG  ANG    -
 0.450      1.52  0.43 -170   0.08
 0.900      1.57  0.45 -164   0.09
 1.900      2.20  0.61 -132   0.23
 2.400      2.55  0.64 -119   0.48
!
! (c) 2017  Infineon Technologies AG, Munich