! Infineon Technologies  Discrete & RF Semiconductors
! BFP193
! VCE =  7.0 V,  IC =  35 mA
! Common Emitter S-Parameters:                            Jan 2017
# GHz  S  MA  R  50
!  f         S11            S21            S12            S22
! GHz     MAG   ANG      MAG   ANG      MAG   ANG      MAG   ANG
 0.010  0.3619  -18.8  63.406  171.9  0.0023   90.0  0.9730   -7.2
 0.020  0.3809  -36.7  62.256  164.7  0.0045   84.1  0.9442  -14.6
 0.030  0.3703  -51.7  58.574  159.0  0.0066   73.9  0.8919  -20.2
 0.040  0.3856  -66.6  55.544  152.6  0.0089   68.8  0.8490  -26.4
 0.050  0.4240  -79.5  53.276  145.6  0.0112   65.8  0.8172  -33.2
 0.060  0.4198  -87.9  49.945  142.5  0.0124   64.0  0.7675  -36.2
 0.070  0.4248  -96.4  46.779  139.0  0.0135   62.4  0.7202  -39.5
 0.080  0.4386 -104.4  43.813  135.0  0.0147   61.1  0.6757  -43.4
 0.090  0.4604 -111.8  41.091  130.5  0.0159   60.0  0.6346  -47.7
 0.100  0.4893 -118.5  38.664  125.3  0.0171   59.1  0.5976  -52.6
 0.110  0.4891 -122.6  36.597  123.5  0.0179   58.5  0.5669  -54.2
 0.120  0.4914 -126.7  34.571  121.5  0.0187   57.9  0.5367  -56.0
 0.130  0.4962 -130.7  32.592  119.2  0.0194   57.3  0.5071  -58.1
 0.140  0.5034 -134.6  30.671  116.7  0.0202   56.9  0.4782  -60.3
 0.150  0.5128 -138.4  28.818  113.8  0.0210   56.4  0.4501  -62.9
 0.200  0.5297 -149.8  22.683  106.6  0.0236   58.3  0.3600  -69.3
 0.250  0.5387 -158.1  18.582  101.2  0.0268   57.1  0.2992  -73.1
 0.300  0.5414 -163.5  15.671   97.6  0.0303   59.9  0.2558  -76.3
 0.350  0.5432 -167.7  13.806   95.1  0.0338   61.2  0.2290  -78.1
 0.400  0.5479 -171.8  11.976   91.8  0.0374   62.2  0.2024  -80.4
 0.450  0.5495 -174.8  10.800   89.9  0.0407   63.2  0.1866  -82.0
 0.500  0.5527 -177.8   9.639   87.5  0.0440   64.0  0.1709  -84.0
 0.600  0.5561  177.3   8.090   83.8  0.0513   65.3  0.1500  -87.5
 0.700  0.5578  173.2   6.948   80.7  0.0581   65.4  0.1353  -90.0
 0.800  0.5619  169.4   6.099   77.4  0.0662   65.9  0.1272  -92.8
 0.900  0.5612  165.8   5.421   74.6  0.0732   65.2  0.1214  -96.2
 1.000  0.5649  162.5   4.907   71.8  0.0804   65.0  0.1159  -99.9
 1.100  0.5705  159.3   4.469   69.3  0.0880   64.6  0.1146 -102.4
 1.200  0.5735  156.1   4.102   66.5  0.0955   63.6  0.1133 -105.8
 1.300  0.5754  153.0   3.795   64.0  0.1022   62.8  0.1142 -109.5
 1.400  0.5799  150.3   3.539   61.5  0.1099   61.9  0.1150 -113.7
 1.500  0.5855  147.4   3.304   59.1  0.1173   61.2  0.1174 -117.2
 1.600  0.5894  144.6   3.108   56.6  0.1247   59.9  0.1207 -119.9
 1.700  0.5931  141.7   2.932   54.2  0.1320   59.0  0.1257 -123.9
 1.800  0.6007  139.0   2.782   51.7  0.1392   57.8  0.1303 -127.6
 1.900  0.6039  136.3   2.638   49.5  0.1456   56.7  0.1355 -130.6
 2.000  0.6083  133.7   2.505   47.0  0.1528   55.7  0.1422 -133.6
 2.100  0.6133  131.1   2.390   44.8  0.1594   54.5  0.1484 -136.7
 2.200  0.6195  128.6   2.279   42.4  0.1660   53.4  0.1550 -139.6
 2.300  0.6235  126.3   2.186   40.3  0.1731   52.2  0.1628 -141.7
 2.400  0.6285  124.0   2.096   38.1  0.1802   51.1  0.1708 -143.7
 2.500  0.6334  121.8   2.014   36.1  0.1866   49.8  0.1786 -146.2
 2.600  0.6393  119.6   1.934   33.9  0.1930   48.5  0.1867 -148.5
 2.700  0.6452  117.5   1.866   32.0  0.1991   47.3  0.1937 -150.5
 2.800  0.6519  115.5   1.800   29.9  0.2052   46.1  0.2010 -152.3
 2.900  0.6566  113.4   1.739   28.0  0.2113   44.9  0.2070 -154.6
 3.000  0.6622  111.4   1.680   26.0  0.2174   43.7  0.2134 -156.8
 3.100  0.6658  109.5   1.631   24.4  0.2229   42.5  0.2178 -158.9
 3.200  0.6701  107.7   1.583   22.6  0.2286   41.3  0.2226 -161.0
 3.300  0.6750  105.9   1.536   20.8  0.2343   40.2  0.2276 -162.9
 3.400  0.6807  104.1   1.492   18.8  0.2401   39.1  0.2328 -164.8
 3.500  0.6870  102.3   1.449   16.7  0.2460   38.1  0.2383 -166.6
 3.600  0.6904  100.7   1.412   15.1  0.2514   36.8  0.2427 -168.9
 3.700  0.6943   99.1   1.377   13.5  0.2569   35.6  0.2476 -171.2
 3.800  0.6988   97.5   1.343   11.7  0.2625   34.5  0.2528 -173.3
 3.900  0.7038   95.9   1.310    9.9  0.2683   33.4  0.2583 -175.4
 4.000  0.7093   94.4   1.278    8.0  0.2741   32.3  0.2642 -177.4
 4.100  0.7116   92.9   1.249    6.5  0.2792   31.0  0.2698 -179.8
 4.200  0.7143   91.4   1.221    5.0  0.2845   29.8  0.2758  177.9
 4.300  0.7175   89.9   1.194    3.4  0.2899   28.6  0.2823  175.6
 4.400  0.7212   88.5   1.168    1.7  0.2954   27.5  0.2892  173.5
 4.500  0.7254   87.0   1.143    0.0  0.3010   26.4  0.2964  171.5
 4.600  0.7288   85.7   1.119   -1.3  0.3058   25.2  0.3040  169.6
 4.700  0.7326   84.3   1.095   -2.6  0.3108   24.1  0.3119  167.7
 4.800  0.7368   83.0   1.073   -4.0  0.3159   23.0  0.3202  165.9
 4.900  0.7413   81.7   1.050   -5.5  0.3211   21.9  0.3287  164.3
 5.000  0.7463   80.4   1.029   -7.0  0.3264   20.9  0.3375  162.7
 5.100  0.7466   79.1   1.012   -8.2  0.3309   19.7  0.3460  161.4
 5.200  0.7472   77.7   0.996   -9.5  0.3355   18.5  0.3547  160.3
 5.300  0.7483   76.4   0.981  -10.8  0.3403   17.3  0.3636  159.1
 5.400  0.7497   75.1   0.966  -12.2  0.3452   16.2  0.3726  158.0
 5.500  0.7516   73.8   0.951  -13.6  0.3503   15.1  0.3817  157.0
 5.600  0.7514   72.6   0.935  -14.7  0.3544   14.0  0.3870  156.0
 5.700  0.7515   71.4   0.920  -15.8  0.3586   12.9  0.3925  155.1
 5.800  0.7520   70.3   0.905  -17.0  0.3629   11.8  0.3980  154.2
 5.900  0.7527   69.1   0.891  -18.2  0.3674   10.7  0.4037  153.4
 6.000  0.7538   67.9   0.877  -19.4  0.3720    9.7  0.4094  152.5
!
!  f       NFmin   Gammaopt  rn/50
! GHz       dB    MAG  ANG    -
 0.450      1.29  0.37 -172   0.08
 0.900      1.35  0.40 -169   0.08
 1.900      1.95  0.58 -135   0.18
 2.400      2.29  0.62 -120   0.40
!
! (c) 2017  Infineon Technologies AG, Munich