! Infineon Technologies  Discrete & RF Semiconductors
! BFP193
! VCE =  2.0 V,  IC =  30 mA
! Common Emitter S-Parameters:                            Jan 2017
# GHz  S  MA  R  50
!  f         S11            S21            S12            S22
! GHz     MAG   ANG      MAG   ANG      MAG   ANG      MAG   ANG
 0.010  0.3117  -25.2  59.604  171.5  0.0029   81.4  0.9679   -9.0
 0.020  0.3416  -47.9  58.838  163.4  0.0060   80.5  0.9340  -18.1
 0.030  0.3442  -65.2  54.729  157.4  0.0084   72.3  0.8715  -24.8
 0.040  0.3764  -80.9  51.311  150.5  0.0109   67.8  0.8226  -32.3
 0.050  0.4316  -93.4  48.730  142.8  0.0134   65.0  0.7896  -40.7
 0.060  0.4362 -101.7  45.436  139.8  0.0146   62.5  0.7354  -44.3
 0.070  0.4496 -109.6  42.288  136.3  0.0159   60.3  0.6845  -48.4
 0.080  0.4710 -117.0  39.322  132.2  0.0171   58.5  0.6376  -53.1
 0.090  0.4995 -123.6  36.582  127.6  0.0184   57.0  0.5958  -58.6
 0.100  0.5338 -129.4  34.123  122.2  0.0197   55.6  0.5602  -64.8
 0.110  0.5365 -133.0  32.225  120.5  0.0206   54.9  0.5300  -67.0
 0.120  0.5412 -136.5  30.358  118.6  0.0214   54.2  0.5008  -69.5
 0.130  0.5479 -140.0  28.530  116.4  0.0223   53.6  0.4726  -72.3
 0.140  0.5566 -143.3  26.748  114.0  0.0231   53.0  0.4456  -75.5
 0.150  0.5672 -146.6  25.021  111.2  0.0240   52.5  0.4202  -79.0
 0.200  0.5886 -156.5  19.523  104.3  0.0265   55.0  0.3378  -88.8
 0.250  0.5976 -163.4  15.908   99.2  0.0305   55.9  0.2844  -96.3
 0.300  0.6014 -168.3  13.394   95.8  0.0340   57.2  0.2486 -102.8
 0.350  0.6029 -171.8  11.786   93.4  0.0377   58.8  0.2260 -107.3
 0.400  0.6065 -175.2  10.206   90.2  0.0415   60.2  0.2051 -112.8
 0.450  0.6085 -178.0   9.198   88.3  0.0451   61.1  0.1930 -116.6
 0.500  0.6120  179.2   8.203   85.9  0.0488   61.9  0.1818 -120.9
 0.600  0.6158  174.8   6.879   82.3  0.0565   63.1  0.1684 -127.9
 0.700  0.6179  171.0   5.908   79.2  0.0644   64.4  0.1591 -133.5
 0.800  0.6215  167.3   5.183   75.9  0.0725   64.1  0.1557 -137.8
 0.900  0.6210  163.9   4.605   73.0  0.0810   63.7  0.1541 -141.9
 1.000  0.6264  160.8   4.169   70.2  0.0889   63.3  0.1534 -145.7
 1.100  0.6285  157.8   3.801   67.6  0.0972   62.7  0.1546 -148.3
 1.200  0.6323  154.5   3.488   64.8  0.1049   61.6  0.1564 -151.1
 1.300  0.6358  151.7   3.229   62.3  0.1121   60.7  0.1596 -153.5
 1.400  0.6377  148.9   3.013   59.7  0.1211   60.1  0.1640 -156.2
 1.500  0.6420  146.1   2.813   57.2  0.1288   59.0  0.1687 -158.1
 1.600  0.6464  143.2   2.649   54.6  0.1368   57.9  0.1738 -159.7
 1.700  0.6490  140.5   2.501   52.2  0.1442   56.9  0.1809 -161.6
 1.800  0.6559  137.8   2.374   49.7  0.1522   55.7  0.1874 -163.4
 1.900  0.6599  135.2   2.250   47.5  0.1593   54.4  0.1938 -164.9
 2.000  0.6627  132.7   2.139   44.9  0.1670   53.3  0.2012 -166.3
 2.100  0.6665  130.0   2.042   42.7  0.1741   52.0  0.2084 -167.9
 2.200  0.6718  127.3   1.948   40.2  0.1813   50.8  0.2158 -169.3
 2.300  0.6756  125.1   1.869   38.1  0.1886   49.5  0.2235 -170.3
 2.400  0.6804  123.0   1.793   35.9  0.1960   48.3  0.2313 -171.3
 2.500  0.6846  120.7   1.724   33.9  0.2026   46.9  0.2394 -172.7
 2.600  0.6899  118.5   1.657   31.7  0.2094   45.6  0.2477 -174.0
 2.700  0.6945  116.4   1.600   29.8  0.2156   44.4  0.2546 -175.2
 2.800  0.7001  114.3   1.544   27.7  0.2218   43.2  0.2616 -176.3
 2.900  0.7040  112.3   1.493   25.8  0.2279   41.9  0.2678 -177.9
 3.000  0.7087  110.3   1.443   23.7  0.2341   40.6  0.2742 -179.4
 3.100  0.7113  108.4   1.402   22.1  0.2398   39.3  0.2789  179.0
 3.200  0.7147  106.6   1.362   20.4  0.2455   38.2  0.2838  177.4
 3.300  0.7188  104.7   1.324   18.6  0.2514   37.0  0.2890  175.9
 3.400  0.7236  102.9   1.287   16.6  0.2574   35.9  0.2943  174.5
 3.500  0.7292  101.1   1.251   14.6  0.2634   34.9  0.2998  173.1
 3.600  0.7318   99.5   1.220   13.1  0.2688   33.6  0.3047  171.3
 3.700  0.7351   97.9   1.191   11.5  0.2743   32.4  0.3099  169.5
 3.800  0.7389   96.3   1.162    9.8  0.2800   31.2  0.3155  167.8
 3.900  0.7432   94.7   1.135    8.0  0.2857   30.0  0.3213  166.1
 4.000  0.7481   93.2   1.108    6.2  0.2916   28.9  0.3273  164.5
 4.100  0.7490   91.7   1.084    4.8  0.2967   27.6  0.3334  162.6
 4.200  0.7505   90.2   1.060    3.3  0.3019   26.4  0.3398  160.7
 4.300  0.7525   88.7   1.037    1.7  0.3073   25.2  0.3465  159.0
 4.400  0.7550   87.2   1.015    0.1  0.3128   24.0  0.3536  157.2
 4.500  0.7580   85.7   0.994   -1.6  0.3184   22.9  0.3610  155.6
 4.600  0.7606   84.4   0.974   -2.8  0.3230   21.7  0.3684  154.1
 4.700  0.7636   83.0   0.955   -4.0  0.3277   20.6  0.3760  152.7
 4.800  0.7670   81.7   0.936   -5.3  0.3325   19.4  0.3839  151.4
 4.900  0.7709   80.4   0.918   -6.7  0.3375   18.4  0.3919  150.0
 5.000  0.7751   79.1   0.900   -8.1  0.3426   17.3  0.4002  148.8
 5.100  0.7750   77.8   0.887   -9.3  0.3469   16.1  0.4079  147.8
 5.200  0.7753   76.5   0.874  -10.5  0.3513   14.9  0.4156  146.9
 5.300  0.7761   75.2   0.862  -11.7  0.3559   13.7  0.4235  146.0
 5.400  0.7772   73.9   0.850  -13.0  0.3606   12.6  0.4315  145.1
 5.500  0.7787   72.6   0.838  -14.3  0.3655   11.5  0.4396  144.3
 5.600  0.7775   71.4   0.826  -15.3  0.3693   10.4  0.4437  143.5
 5.700  0.7766   70.2   0.814  -16.3  0.3733    9.3  0.4479  142.7
 5.800  0.7761   69.1   0.802  -17.4  0.3775    8.2  0.4521  142.0
 5.900  0.7759   67.9   0.790  -18.5  0.3817    7.1  0.4565  141.2
 6.000  0.7760   66.7   0.779  -19.6  0.3861    6.1  0.4609  140.5
!
!  f       NFmin   Gammaopt  rn/50
! GHz       dB    MAG  ANG    -
 0.450      1.22  0.33 -174   0.08
 0.900      1.27  0.38 -173   0.07
 1.900      1.89  0.57 -137   0.17
 2.400      2.22  0.62 -121   0.38
!
! (c) 2017  Infineon Technologies AG, Munich