! Infineon Technologies  Discrete & RF Semiconductors
! BFP193
! VCE =  4.0 V,  IC = 0.12 A
! Common Emitter S-Parameters:                            Jan 2017
# GHz  S  MA  R  50
!  f         S11            S21            S12            S22
! GHz     MAG   ANG      MAG   ANG      MAG   ANG      MAG   ANG
 0.010  0.2415 -138.2  67.372  164.4  0.0025   72.0  0.6962  -14.7
 0.020  0.3897 -138.0  61.674  150.8  0.0044   70.2  0.6320  -29.6
 0.030  0.4597 -144.7  53.607  144.4  0.0058   64.4  0.5508  -36.4
 0.040  0.5342 -149.5  46.439  135.9  0.0073   60.9  0.4800  -45.4
 0.050  0.6117 -153.2  40.646  124.6  0.0088   58.6  0.4248  -57.1
 0.060  0.6273 -156.2  37.034  122.4  0.0095   58.8  0.3879  -59.6
 0.070  0.6445 -159.1  33.486  119.8  0.0102   59.0  0.3519  -62.5
 0.080  0.6632 -161.8  30.024  116.6  0.0109   59.1  0.3171  -66.1
 0.090  0.6833 -164.3  26.681  112.6  0.0116   59.3  0.2838  -70.6
 0.100  0.7047 -166.7  23.509  107.4  0.0123   59.4  0.2527  -76.3
 0.110  0.7081 -168.0  22.012  106.3  0.0131   60.0  0.2377  -77.7
 0.120  0.7119 -169.3  20.525  105.0  0.0138   60.6  0.2229  -79.2
 0.130  0.7161 -170.6  19.050  103.5  0.0146   61.1  0.2082  -81.0
 0.140  0.7206 -171.9  17.589  101.8  0.0153   61.6  0.1938  -83.0
 0.150  0.7255 -173.1  16.147   99.8  0.0161   62.0  0.1797  -85.4
 0.200  0.7334 -176.9  12.251   95.1  0.0194   66.2  0.1435  -91.7
 0.250  0.7382 -180.0   9.865   91.5  0.0233   68.0  0.1220  -95.7
 0.300  0.7375  177.5   8.236   89.0  0.0270   69.7  0.1074  -99.9
 0.350  0.7383  175.5   7.225   87.1  0.0311   70.8  0.1003 -102.7
 0.400  0.7400  173.6   6.225   84.6  0.0353   71.7  0.0934 -106.0
 0.450  0.7403  171.8   5.605   83.0  0.0393   72.0  0.0903 -108.4
 0.500  0.7414  170.0   4.990   80.9  0.0433   72.3  0.0874 -111.0
 0.600  0.7450  166.9   4.182   77.6  0.0512   71.8  0.0850 -116.2
 0.700  0.7446  164.2   3.593   74.7  0.0591   72.4  0.0837 -119.4
 0.800  0.7466  161.1   3.153   71.5  0.0679   72.2  0.0869 -122.1
 0.900  0.7458  158.3   2.807   68.7  0.0753   71.1  0.0914 -125.3
 1.000  0.7495  155.5   2.544   65.9  0.0831   70.1  0.0947 -129.2
 1.100  0.7514  152.7   2.323   63.2  0.0920   69.0  0.0996 -131.2
 1.200  0.7525  150.0   2.140   60.3  0.0993   67.8  0.1040 -133.6
 1.300  0.7543  147.3   1.982   57.7  0.1076   66.7  0.1115 -136.0
 1.400  0.7572  144.6   1.854   55.0  0.1163   65.6  0.1180 -139.3
 1.500  0.7611  142.0   1.735   52.4  0.1237   64.5  0.1246 -141.6
 1.600  0.7641  139.2   1.636   49.7  0.1316   63.1  0.1328 -142.8
 1.700  0.7661  136.6   1.548   47.2  0.1397   62.0  0.1419 -145.4
 1.800  0.7727  133.9   1.473   44.5  0.1473   60.6  0.1501 -147.9
 1.900  0.7731  131.5   1.400   42.3  0.1551   59.3  0.1585 -149.9
 2.000  0.7734  128.8   1.332   39.7  0.1627   58.0  0.1684 -151.4
 2.100  0.7764  126.2   1.274   37.5  0.1698   56.6  0.1779 -153.6
 2.200  0.7810  123.7   1.218   35.0  0.1770   55.4  0.1876 -155.5
 2.300  0.7826  121.5   1.171   32.9  0.1847   54.0  0.1972 -156.8
 2.400  0.7853  119.3   1.126   30.7  0.1926   52.7  0.2069 -157.9
 2.500  0.7879  117.1   1.084   28.7  0.1994   51.3  0.2169 -159.8
 2.600  0.7916  114.9   1.044   26.6  0.2063   49.9  0.2271 -161.6
 2.700  0.7935  112.8   1.010   24.7  0.2128   48.6  0.2358 -162.8
 2.800  0.7964  110.8   0.977   22.7  0.2194   47.3  0.2447 -164.0
 2.900  0.7988  108.7   0.947   20.9  0.2258   45.9  0.2526 -166.0
 3.000  0.8022  106.7   0.917   19.0  0.2324   44.6  0.2607 -167.9
 3.100  0.8026  104.8   0.893   17.5  0.2384   43.3  0.2669 -169.7
 3.200  0.8039  103.0   0.869   15.9  0.2446   42.1  0.2734 -171.5
 3.300  0.8061  101.1   0.846   14.3  0.2509   40.9  0.2802 -173.1
 3.400  0.8090   99.3   0.824   12.5  0.2572   39.8  0.2871 -174.7
 3.500  0.8128   97.5   0.803   10.7  0.2637   38.7  0.2943 -176.2
 3.600  0.8134   95.9   0.785    9.4  0.2695   37.3  0.3006 -178.3
 3.700  0.8146   94.2   0.768    8.0  0.2754   36.0  0.3074  179.7
 3.800  0.8165   92.6   0.751    6.6  0.2815   34.8  0.3145  177.7
 3.900  0.8191   91.0   0.735    5.1  0.2877   33.6  0.3219  175.9
 4.000  0.8223   89.4   0.719    3.6  0.2940   32.4  0.3297  174.1
 4.100  0.8214   87.9   0.706    2.4  0.2995   31.0  0.3368  171.8
 4.200  0.8211   86.4   0.693    1.2  0.3052   29.7  0.3445  169.7
 4.300  0.8213   84.9   0.680   -0.0  0.3111   28.4  0.3526  167.6
 4.400  0.8221   83.4   0.668   -1.3  0.3171   27.2  0.3611  165.6
 4.500  0.8235   81.9   0.656   -2.7  0.3232   26.0  0.3701  163.7
 4.600  0.8242   80.6   0.645   -3.6  0.3283   24.7  0.3782  161.9
 4.700  0.8253   79.3   0.635   -4.6  0.3335   23.5  0.3867  160.2
 4.800  0.8268   78.0   0.625   -5.5  0.3388   22.3  0.3956  158.6
 4.900  0.8288   76.8   0.615   -6.6  0.3444   21.1  0.4047  157.0
 5.000  0.8311   75.5   0.605   -7.6  0.3500   20.0  0.4141  155.5
 5.100  0.8296   74.2   0.599   -8.5  0.3546   18.7  0.4229  154.3
 5.200  0.8285   72.9   0.593   -9.4  0.3595   17.5  0.4320  153.1
 5.300  0.8279   71.5   0.587  -10.3  0.3645   16.2  0.4412  151.9
 5.400  0.8277   70.2   0.581  -11.2  0.3696   15.1  0.4506  150.8
 5.500  0.8279   68.9   0.576  -12.2  0.3749   13.9  0.4601  149.8
 5.600  0.8257   67.7   0.570  -12.9  0.3790   12.7  0.4652  148.8
 5.700  0.8238   66.6   0.564  -13.6  0.3833   11.5  0.4705  147.8
 5.800  0.8223   65.4   0.558  -14.4  0.3877   10.3  0.4759  146.8
 5.900  0.8211   64.3   0.553  -15.1  0.3923    9.2  0.4814  145.8
 6.000  0.8203   63.1   0.547  -15.9  0.3970    8.1  0.4871  144.9
!
!  f       NFmin   Gammaopt  rn/50
! GHz       dB    MAG  ANG    -
!
! noise parameter not available yet for this operation point!
!
! (c) 2017  Infineon Technologies AG, Munich