! Infineon Technologies  Discrete & RF Semiconductors
! BFP193
! VCE =  11. V,  IC =  35 mA
! Common Emitter S-Parameters:                            Jan 2017
# GHz  S  MA  R  50
!  f         S11            S21            S12            S22
! GHz     MAG   ANG      MAG   ANG      MAG   ANG      MAG   ANG
 0.010  0.4236  -15.3  61.247  172.0  0.0021   75.6  0.9601   -6.3
 0.020  0.4358  -31.2  60.523  165.4  0.0049   83.1  0.9334  -13.2
 0.030  0.4192  -44.2  57.181  160.0  0.0070   74.1  0.8883  -18.3
 0.040  0.4253  -57.6  54.414  153.9  0.0091   69.3  0.8510  -24.0
 0.050  0.4532  -69.9  52.313  147.3  0.0113   66.3  0.8228  -30.1
 0.060  0.4433  -78.2  49.229  144.2  0.0124   63.9  0.7761  -32.9
 0.070  0.4429  -86.6  46.309  140.7  0.0136   62.0  0.7315  -36.1
 0.080  0.4520  -94.9  43.587  136.7  0.0147   60.3  0.6895  -39.7
 0.090  0.4701 -102.7  41.101  132.2  0.0159   58.9  0.6504  -43.7
 0.100  0.4962 -109.8  38.898  127.2  0.0171   57.7  0.6150  -48.2
 0.110  0.4927 -114.2  36.874  125.3  0.0179   57.1  0.5849  -49.7
 0.120  0.4921 -118.6  34.894  123.3  0.0187   56.5  0.5553  -51.4
 0.130  0.4944 -123.0  32.964  120.9  0.0196   56.0  0.5263  -53.3
 0.140  0.4997 -127.4  31.096  118.3  0.0204   55.5  0.4978  -55.4
 0.150  0.5077 -131.6  29.300  115.4  0.0212   55.1  0.4701  -57.7
 0.200  0.5200 -144.4  23.194  107.9  0.0233   55.9  0.3791  -63.1
 0.250  0.5256 -153.5  19.059  102.4  0.0271   55.7  0.3172  -66.1
 0.300  0.5259 -159.6  16.108   98.6  0.0300   58.0  0.2722  -68.4
 0.350  0.5276 -164.2  14.201   96.0  0.0332   59.6  0.2449  -69.5
 0.400  0.5327 -168.7  12.333   92.6  0.0365   60.9  0.2178  -70.8
 0.450  0.5341 -172.2  11.124   90.6  0.0397   61.6  0.2014  -71.7
 0.500  0.5374 -175.6   9.931   88.2  0.0429   62.2  0.1850  -72.8
 0.600  0.5398  179.2   8.343   84.4  0.0503   63.2  0.1630  -74.7
 0.700  0.5440  175.0   7.167   81.2  0.0565   65.0  0.1476  -76.0
 0.800  0.5453  170.8   6.293   77.9  0.0643   65.1  0.1384  -77.8
 0.900  0.5459  167.2   5.594   75.1  0.0714   64.7  0.1317  -80.5
 1.000  0.5517  163.8   5.059   72.3  0.0780   64.1  0.1252  -83.2
 1.100  0.5558  160.3   4.614   69.7  0.0850   63.9  0.1227  -85.4
 1.200  0.5578  157.1   4.234   67.0  0.0922   63.2  0.1203  -88.5
 1.300  0.5606  154.0   3.917   64.5  0.0989   62.7  0.1198  -91.8
 1.400  0.5638  151.2   3.653   61.9  0.1067   62.0  0.1191  -96.1
 1.500  0.5697  148.2   3.408   59.5  0.1138   61.0  0.1202  -99.7
 1.600  0.5739  145.3   3.207   57.0  0.1206   60.0  0.1229 -102.9
 1.700  0.5777  142.5   3.026   54.6  0.1276   59.1  0.1258 -107.4
 1.800  0.5844  139.6   2.871   52.1  0.1344   58.1  0.1290 -111.4
 1.900  0.5889  137.1   2.720   49.9  0.1412   57.0  0.1327 -115.0
 2.000  0.5927  134.4   2.584   47.4  0.1482   56.0  0.1386 -118.6
 2.100  0.5975  131.7   2.466   45.2  0.1546   54.8  0.1434 -122.3
 2.200  0.6037  129.0   2.352   42.8  0.1610   53.7  0.1487 -125.8
 2.300  0.6089  126.8   2.256   40.7  0.1679   52.6  0.1561 -128.6
 2.400  0.6149  124.7   2.163   38.5  0.1749   51.6  0.1639 -131.1
 2.500  0.6197  122.4   2.078   36.5  0.1811   50.3  0.1706 -134.2
 2.600  0.6255  120.1   1.995   34.3  0.1874   49.0  0.1778 -137.1
 2.700  0.6313  118.0   1.924   32.4  0.1934   47.9  0.1846 -139.5
 2.800  0.6380  116.0   1.856   30.3  0.1994   46.8  0.1916 -141.7
 2.900  0.6434  113.9   1.793   28.4  0.2052   45.6  0.1969 -144.3
 3.000  0.6496  111.8   1.733   26.3  0.2110   44.4  0.2026 -146.7
 3.100  0.6534  109.9   1.682   24.6  0.2166   43.2  0.2068 -149.1
 3.200  0.6578  108.1   1.632   22.9  0.2224   42.1  0.2113 -151.4
 3.300  0.6629  106.3   1.584   21.0  0.2282   41.0  0.2161 -153.5
 3.400  0.6687  104.5   1.538   19.0  0.2340   40.0  0.2212 -155.6
 3.500  0.6751  102.8   1.494   16.9  0.2400   39.0  0.2266 -157.6
 3.600  0.6788  101.2   1.456   15.3  0.2454   37.8  0.2306 -160.1
 3.700  0.6831   99.6   1.419   13.7  0.2509   36.6  0.2350 -162.6
 3.800  0.6879   98.0   1.383   11.9  0.2564   35.4  0.2398 -165.0
 3.900  0.6933   96.4   1.349   10.1  0.2621   34.3  0.2450 -167.2
 4.000  0.6991   94.9   1.316    8.2  0.2679   33.3  0.2506 -169.4
 4.100  0.7015   93.4   1.286    6.7  0.2731   32.0  0.2557 -172.1
 4.200  0.7044   91.9   1.257    5.1  0.2785   30.8  0.2614 -174.6
 4.300  0.7078   90.5   1.228    3.5  0.2840   29.7  0.2676 -177.1
 4.400  0.7116   89.0   1.201    1.8  0.2896   28.6  0.2742 -179.4
 4.500  0.7159   87.6   1.175    0.0  0.2953   27.5  0.2813  178.4
 4.600  0.7195   86.2   1.150   -1.3  0.3001   26.3  0.2887  176.2
 4.700  0.7235   84.8   1.126   -2.7  0.3051   25.2  0.2965  174.2
 4.800  0.7279   83.5   1.103   -4.1  0.3102   24.1  0.3047  172.3
 4.900  0.7328   82.1   1.080   -5.6  0.3154   23.0  0.3132  170.4
 5.000  0.7380   80.8   1.058   -7.1  0.3207   22.0  0.3220  168.7
 5.100  0.7386   79.5   1.040   -8.4  0.3253   20.8  0.3309  167.3
 5.200  0.7396   78.1   1.023   -9.7  0.3300   19.6  0.3400  165.9
 5.300  0.7410   76.8   1.006  -11.0  0.3349   18.4  0.3493  164.7
 5.400  0.7427   75.5   0.990  -12.4  0.3400   17.3  0.3587  163.4
 5.500  0.7449   74.2   0.974  -13.9  0.3451   16.2  0.3683  162.3
 5.600  0.7448   73.0   0.957  -15.0  0.3493   15.1  0.3741  161.2
 5.700  0.7450   71.8   0.941  -16.1  0.3536   14.0  0.3800  160.2
 5.800  0.7455   70.6   0.925  -17.3  0.3580   12.9  0.3861  159.2
 5.900  0.7464   69.4   0.909  -18.5  0.3626   11.8  0.3922  158.2
 6.000  0.7476   68.2   0.894  -19.8  0.3673   10.8  0.3985  157.3
!
!  f       NFmin   Gammaopt  rn/50
! GHz       dB    MAG  ANG    -
 0.450      1.29  0.37 -172   0.08
 0.900      1.35  0.40 -169   0.08
 1.900      1.95  0.58 -135   0.18
 2.400      2.29  0.62 -120   0.40
!
! (c) 2017  Infineon Technologies AG, Munich