! Infineon Technologies  Discrete & RF Semiconductors
! BFP193
! VCE =  10. V,  IC =  10 mA
! Common Emitter S-Parameters:                            Jan 2017
# GHz  S  MA  R  50
!  f         S11            S21            S12            S22
! GHz     MAG   ANG      MAG   ANG      MAG   ANG      MAG   ANG
 0.010  0.7165   -7.2  28.627  175.7  0.0027   80.9  0.9966   -3.3
 0.020  0.7256  -14.2  28.782  171.9  0.0057   86.8  0.9882   -6.8
 0.030  0.7067  -20.8  28.134  168.2  0.0086   79.3  0.9701   -9.8
 0.040  0.6975  -27.7  27.607  164.4  0.0116   75.6  0.9548  -13.0
 0.050  0.6986  -34.6  27.209  160.4  0.0146   73.4  0.9424  -16.2
 0.060  0.6804  -40.3  26.409  157.5  0.0169   70.2  0.9168  -18.5
 0.070  0.6691  -46.2  25.682  154.4  0.0193   67.7  0.8928  -21.0
 0.080  0.6652  -52.2  25.033  151.2  0.0217   65.8  0.8706  -23.6
 0.090  0.6687  -58.3  24.468  147.8  0.0242   64.3  0.8502  -26.3
 0.100  0.6795  -64.2  23.994  144.2  0.0266   63.0  0.8319  -29.2
 0.110  0.6640  -68.6  23.175  142.0  0.0279   60.8  0.8069  -30.8
 0.120  0.6525  -73.1  22.394  139.6  0.0293   58.8  0.7825  -32.5
 0.130  0.6453  -77.8  21.654  137.0  0.0307   57.0  0.7589  -34.3
 0.140  0.6424  -82.5  20.960  134.3  0.0321   55.4  0.7360  -36.3
 0.150  0.6440  -87.3  20.317  131.4  0.0335   53.9  0.7141  -38.3
 0.200  0.6294 -105.1  17.304  122.1  0.0383   49.6  0.6178  -44.4
 0.250  0.6134 -118.9  14.853  114.6  0.0420   45.5  0.5395  -48.1
 0.300  0.6035 -129.3  12.892  109.2  0.0445   44.4  0.4786  -50.7
 0.350  0.5939 -136.8  11.506  105.5  0.0467   43.9  0.4372  -51.9
 0.400  0.5946 -144.4  10.181  100.8  0.0490   43.4  0.3961  -53.4
 0.450  0.5891 -149.9   9.240   98.0  0.0511   43.7  0.3700  -54.1
 0.500  0.5892 -155.5   8.325   94.6  0.0532   44.0  0.3440  -55.0
 0.600  0.5884 -163.9   7.052   89.5  0.0576   44.3  0.3092  -56.0
 0.700  0.5885 -170.5   6.091   85.3  0.0612   46.5  0.2846  -56.6
 0.800  0.5894 -176.5   5.369   81.3  0.0659   48.0  0.2688  -57.7
 0.900  0.5877  178.4   4.783   77.7  0.0703   49.1  0.2558  -59.0
 1.000  0.5908  173.8   4.335   74.4  0.0748   50.0  0.2448  -60.5
 1.100  0.5955  169.6   3.958   71.3  0.0800   50.7  0.2390  -62.2
 1.200  0.5973  165.4   3.638   68.1  0.0852   51.1  0.2332  -64.0
 1.300  0.5992  161.7   3.367   65.3  0.0896   51.4  0.2287  -66.3
 1.400  0.6036  158.3   3.141   62.4  0.0953   51.8  0.2251  -68.9
 1.500  0.6084  154.9   2.937   59.6  0.1008   52.4  0.2222  -71.7
 1.600  0.6122  151.5   2.763   56.8  0.1062   52.3  0.2222  -74.4
 1.700  0.6160  148.2   2.606   54.2  0.1114   52.4  0.2207  -77.7
 1.800  0.6234  145.1   2.475   51.4  0.1177   52.3  0.2204  -81.0
 1.900  0.6279  142.1   2.347   49.0  0.1232   51.9  0.2211  -84.2
 2.000  0.6301  139.1   2.230   46.3  0.1288   51.3  0.2235  -87.4
 2.100  0.6357  136.2   2.127   43.9  0.1346   51.1  0.2251  -90.9
 2.200  0.6430  133.3   2.029   41.3  0.1404   50.9  0.2276  -94.3
 2.300  0.6471  130.8   1.945   39.0  0.1466   50.3  0.2321  -97.5
 2.400  0.6525  128.3   1.865   36.6  0.1529   49.8  0.2374 -100.6
 2.500  0.6579  125.8   1.791   34.4  0.1588   49.1  0.2420 -104.0
 2.600  0.6646  123.4   1.719   32.1  0.1647   48.5  0.2475 -107.3
 2.700  0.6698  121.1   1.658   30.0  0.1704   47.8  0.2527 -110.3
 2.800  0.6761  118.9   1.599   27.7  0.1762   47.1  0.2586 -113.1
 2.900  0.6817  116.7   1.544   25.7  0.1822   46.3  0.2625 -116.0
 3.000  0.6884  114.5   1.491   23.5  0.1882   45.5  0.2670 -118.9
 3.100  0.6918  112.5   1.446   21.8  0.1941   44.6  0.2705 -121.7
 3.200  0.6960  110.5   1.402   20.0  0.2001   43.8  0.2746 -124.4
 3.300  0.7011  108.5   1.359   18.0  0.2061   43.1  0.2794 -127.0
 3.400  0.7071  106.5   1.318   16.0  0.2121   42.4  0.2847 -129.6
 3.500  0.7138  104.6   1.279   13.8  0.2182   41.7  0.2905 -132.0
 3.600  0.7171  102.9   1.245   12.2  0.2242   40.6  0.2935 -134.9
 3.700  0.7211  101.2   1.213   10.6  0.2304   39.6  0.2973 -137.7
 3.800  0.7257   99.5   1.181    8.8  0.2365   38.6  0.3018 -140.5
 3.900  0.7310   97.8   1.151    6.9  0.2428   37.7  0.3069 -143.1
 4.000  0.7368   96.2   1.122    5.0  0.2491   36.8  0.3127 -145.7
 4.100  0.7388   94.6   1.095    3.5  0.2551   35.6  0.3167 -148.8
 4.200  0.7414   92.9   1.069    2.0  0.2612   34.5  0.3215 -151.9
 4.300  0.7446   91.3   1.044    0.4  0.2674   33.5  0.3273 -154.8
 4.400  0.7483   89.7   1.019   -1.3  0.2737   32.5  0.3339 -157.7
 4.500  0.7527   88.1   0.996   -3.1  0.2801   31.5  0.3413 -160.4
 4.600  0.7559   86.7   0.974   -4.3  0.2860   30.4  0.3483 -163.2
 4.700  0.7596   85.3   0.952   -5.6  0.2920   29.2  0.3562 -165.9
 4.800  0.7637   83.9   0.931   -7.0  0.2982   28.2  0.3648 -168.4
 4.900  0.7682   82.5   0.910   -8.4  0.3044   27.2  0.3741 -170.9
 5.000  0.7732   81.2   0.890   -9.9  0.3107   26.2  0.3840 -173.2
 5.100  0.7734   79.8   0.874  -11.1  0.3162   24.9  0.3933 -175.4
 5.200  0.7741   78.4   0.859  -12.2  0.3219   23.7  0.4032 -177.4
 5.300  0.7752   77.0   0.844  -13.5  0.3277   22.5  0.4136 -179.4
 5.400  0.7768   75.7   0.829  -14.8  0.3336   21.4  0.4244  178.8
 5.500  0.7788   74.3   0.815  -16.1  0.3397   20.3  0.4357  177.0
 5.600  0.7786   73.0   0.801  -17.0  0.3447   19.1  0.4424  175.4
 5.700  0.7787   71.8   0.786  -18.0  0.3498   17.9  0.4495  173.8
 5.800  0.7792   70.5   0.772  -19.0  0.3551   16.8  0.4570  172.3
 5.900  0.7801   69.3   0.758  -20.1  0.3605   15.7  0.4647  170.8
 6.000  0.7814   68.0   0.745  -21.2  0.3660   14.6  0.4727  169.4
!
!  f       NFmin   Gammaopt  rn/50
! GHz       dB    MAG  ANG    -
 0.450      0.87  0.21  156   0.07
 0.900      1.00  0.35  173   0.06
 1.900      1.75  0.57 -146   0.13
 2.400      2.13  0.63 -128   0.31
!
! (c) 2017  Infineon Technologies AG, Munich