! Infineon Technologies  Discrete & RF Semiconductors
! BFP193
! VCE =  3.0 V,  IC =  70 mA
! Common Emitter S-Parameters:                            Jan 2017
# GHz  S  MA  R  50
!  f         S11            S21            S12            S22
! GHz     MAG   ANG      MAG   ANG      MAG   ANG      MAG   ANG
 0.010  0.1280  -92.0  79.651  168.4  0.0023   80.0  0.9073  -11.5
 0.020  0.2435 -109.0  76.563  157.7  0.0045   79.4  0.8586  -23.5
 0.030  0.3030 -121.4  68.844  151.2  0.0060   71.3  0.7742  -30.6
 0.040  0.3720 -129.5  62.217  143.2  0.0076   66.4  0.7047  -39.4
 0.050  0.4460 -135.0  57.062  133.6  0.0092   63.3  0.6547  -49.7
 0.060  0.4645 -139.8  52.496  131.0  0.0102   63.2  0.6021  -52.8
 0.070  0.4860 -144.2  48.060  127.9  0.0111   63.0  0.5516  -56.6
 0.080  0.5101 -148.2  43.796  124.1  0.0121   63.0  0.5039  -61.0
 0.090  0.5364 -151.8  39.758  119.6  0.0130   62.9  0.4599  -66.4
 0.100  0.5647 -155.1  36.021  114.1  0.0140   62.8  0.4207  -72.8
 0.110  0.5694 -157.1  33.830  112.7  0.0147   62.6  0.3963  -74.7
 0.120  0.5749 -159.1  31.660  111.2  0.0155   62.4  0.3723  -76.8
 0.130  0.5810 -161.1  29.517  109.4  0.0162   62.3  0.3489  -79.2
 0.140  0.5878 -163.0  27.407  107.4  0.0170   62.1  0.3262  -82.0
 0.150  0.5953 -164.9  25.337  105.0  0.0177   62.0  0.3044  -85.1
 0.200  0.6103 -170.4  19.420   99.3  0.0208   65.6  0.2421  -93.8
 0.250  0.6180 -174.6  15.686   95.2  0.0253   67.6  0.2037 -100.3
 0.300  0.6198 -177.6  13.145   92.3  0.0287   68.7  0.1780 -106.1
 0.350  0.6213  179.9  11.544   90.2  0.0328   69.5  0.1632 -110.1
 0.400  0.6240  177.4   9.963   87.5  0.0369   70.2  0.1494 -114.9
 0.450  0.6250  175.3   8.970   85.8  0.0411   70.7  0.1415 -118.4
 0.500  0.6268  173.3   7.987   83.7  0.0454   71.1  0.1342 -122.3
 0.600  0.6305  169.9   6.693   80.4  0.0532   70.3  0.1263 -128.6
 0.700  0.6338  166.9   5.742   77.5  0.0618   71.0  0.1200 -133.3
 0.800  0.6362  163.7   5.035   74.4  0.0702   70.5  0.1194 -137.0
 0.900  0.6380  160.9   4.474   71.7  0.0779   69.1  0.1205 -140.7
 1.000  0.6406  158.0   4.045   69.0  0.0863   68.3  0.1216 -144.3
 1.100  0.6451  155.1   3.689   66.4  0.0945   67.5  0.1230 -146.4
 1.200  0.6469  152.2   3.386   63.7  0.1021   66.2  0.1257 -148.8
 1.300  0.6491  149.5   3.134   61.2  0.1105   65.0  0.1306 -151.0
 1.400  0.6530  146.8   2.924   58.6  0.1191   64.0  0.1359 -153.6
 1.500  0.6573  144.3   2.730   56.2  0.1269   62.7  0.1409 -155.3
 1.600  0.6613  141.5   2.570   53.6  0.1345   61.3  0.1462 -156.7
 1.700  0.6649  138.7   2.426   51.2  0.1426   60.2  0.1536 -158.5
 1.800  0.6706  136.1   2.303   48.7  0.1503   58.7  0.1613 -160.3
 1.900  0.6744  133.7   2.183   46.6  0.1573   57.4  0.1681 -161.8
 2.000  0.6758  131.2   2.074   44.0  0.1652   56.1  0.1760 -162.9
 2.100  0.6809  128.6   1.980   41.8  0.1724   54.7  0.1838 -164.6
 2.200  0.6873  126.1   1.889   39.3  0.1797   53.5  0.1917 -166.1
 2.300  0.6903  123.9   1.813   37.2  0.1869   52.1  0.1997 -167.0
 2.400  0.6943  121.7   1.739   35.0  0.1943   50.8  0.2077 -167.9
 2.500  0.6983  119.5   1.672   33.0  0.2008   49.3  0.2166 -169.4
 2.600  0.7032  117.4   1.607   30.9  0.2074   47.9  0.2256 -170.7
 2.700  0.7074  115.3   1.551   29.0  0.2138   46.6  0.2326 -171.8
 2.800  0.7126  113.3   1.496   26.9  0.2203   45.3  0.2397 -172.9
 2.900  0.7159  111.2   1.447   25.0  0.2264   44.0  0.2465 -174.6
 3.000  0.7201  109.2   1.399   23.0  0.2327   42.7  0.2536 -176.2
 3.100  0.7228  107.4   1.359   21.4  0.2384   41.4  0.2586 -177.8
 3.200  0.7261  105.6   1.320   19.7  0.2443   40.1  0.2637 -179.4
 3.300  0.7302  103.8   1.282   17.9  0.2502   38.9  0.2691  179.1
 3.400  0.7350  102.0   1.246   15.9  0.2563   37.8  0.2746  177.7
 3.500  0.7405  100.3   1.211   13.9  0.2624   36.7  0.2803  176.3
 3.600  0.7427   98.7   1.181   12.4  0.2677   35.4  0.2855  174.4
 3.700  0.7454   97.1   1.153   10.8  0.2731   34.1  0.2910  172.6
 3.800  0.7488   95.5   1.125    9.2  0.2787   32.9  0.2968  170.9
 3.900  0.7526   93.9   1.098    7.4  0.2844   31.7  0.3028  169.2
 4.000  0.7571   92.4   1.072    5.6  0.2902   30.6  0.3091  167.6
 4.100  0.7582   90.9   1.049    4.2  0.2955   29.3  0.3154  165.6
 4.200  0.7598   89.4   1.026    2.8  0.3009   28.0  0.3220  163.7
 4.300  0.7619   87.9   1.004    1.2  0.3064   26.8  0.3290  161.8
 4.400  0.7646   86.5   0.983   -0.3  0.3121   25.6  0.3364  160.1
 4.500  0.7677   85.0   0.962   -2.0  0.3179   24.5  0.3440  158.4
 4.600  0.7699   83.7   0.943   -3.2  0.3226   23.3  0.3515  156.8
 4.700  0.7725   82.3   0.925   -4.4  0.3274   22.1  0.3592  155.3
 4.800  0.7755   81.0   0.907   -5.7  0.3324   20.9  0.3671  153.9
 4.900  0.7789   79.7   0.890   -7.1  0.3375   19.8  0.3753  152.5
 5.000  0.7827   78.4   0.873   -8.5  0.3427   18.7  0.3837  151.2
 5.100  0.7822   77.1   0.860   -9.7  0.3469   17.5  0.3918  150.2
 5.200  0.7821   75.8   0.848  -10.8  0.3513   16.2  0.4001  149.3
 5.300  0.7825   74.5   0.836  -12.1  0.3559   15.1  0.4084  148.4
 5.400  0.7832   73.2   0.824  -13.3  0.3606   13.9  0.4169  147.5
 5.500  0.7843   71.9   0.813  -14.6  0.3654   12.8  0.4254  146.7
 5.600  0.7836   70.7   0.801  -15.6  0.3695   11.6  0.4299  145.9
 5.700  0.7833   69.5   0.789  -16.6  0.3737   10.5  0.4344  145.1
 5.800  0.7832   68.4   0.777  -17.7  0.3780    9.4  0.4390  144.3
 5.900  0.7836   67.2   0.765  -18.8  0.3825    8.3  0.4437  143.5
 6.000  0.7842   66.0   0.754  -19.9  0.3871    7.3  0.4485  142.8
!
!  f       NFmin   Gammaopt  rn/50
! GHz       dB    MAG  ANG    -
!
! noise parameter not available yet for this operation point!
!
! (c) 2017  Infineon Technologies AG, Munich