! Infineon Technologies  Discrete & RF Semiconductors
! BFP193
! VCE =  11. V,  IC =  45 mA
! Common Emitter S-Parameters:                            Jan 2017
# GHz  S  MA  R  50
!  f         S11            S21            S12            S22
! GHz     MAG   ANG      MAG   ANG      MAG   ANG      MAG   ANG
 0.010  0.3746  -17.9  66.479  171.3  0.0020   75.4  0.9497   -6.7
 0.020  0.3917  -36.2  65.452  164.2  0.0047   81.2  0.9205  -14.2
 0.030  0.3794  -51.0  61.388  158.5  0.0067   73.3  0.8699  -19.6
 0.040  0.3929  -65.7  58.008  152.1  0.0087   69.1  0.8278  -25.6
 0.050  0.4298  -78.6  55.438  145.0  0.0108   66.5  0.7956  -32.1
 0.060  0.4240  -86.9  51.914  141.9  0.0119   64.4  0.7473  -34.9
 0.070  0.4274  -95.3  48.560  138.4  0.0130   62.7  0.7010  -38.0
 0.080  0.4397 -103.4  45.416  134.4  0.0141   61.2  0.6570  -41.6
 0.090  0.4602 -110.9  42.527  129.8  0.0153   60.0  0.6160  -45.7
 0.100  0.4878 -117.7  39.948  124.6  0.0164   58.9  0.5786  -50.3
 0.110  0.4864 -121.8  37.792  122.8  0.0171   58.1  0.5492  -51.7
 0.120  0.4875 -126.0  35.677  120.9  0.0178   57.4  0.5201  -53.2
 0.130  0.4912 -130.1  33.609  118.6  0.0184   56.8  0.4914  -54.9
 0.140  0.4973 -134.1  31.598  116.1  0.0191   56.2  0.4632  -56.8
 0.150  0.5058 -138.0  29.656  113.3  0.0198   55.6  0.4356  -59.0
 0.200  0.5199 -149.3  23.293  106.1  0.0223   58.3  0.3490  -64.0
 0.250  0.5264 -157.7  19.067  100.9  0.0262   58.4  0.2916  -66.4
 0.300  0.5289 -163.4  16.068   97.3  0.0291   60.1  0.2506  -68.3
 0.350  0.5299 -167.5  14.144   94.8  0.0324   61.8  0.2258  -69.1
 0.400  0.5336 -171.5  12.255   91.6  0.0357   63.2  0.2011  -70.1
 0.450  0.5344 -174.6  11.056   89.7  0.0388   64.0  0.1863  -71.0
 0.500  0.5367 -177.6   9.873   87.3  0.0419   64.6  0.1715  -72.0
 0.600  0.5418  177.3   8.289   83.7  0.0500   65.6  0.1512  -73.5
 0.700  0.5441  173.5   7.119   80.6  0.0564   66.1  0.1381  -74.7
 0.800  0.5471  169.7   6.249   77.3  0.0648   66.5  0.1302  -76.6
 0.900  0.5471  165.8   5.555   74.5  0.0711   66.4  0.1239  -79.1
 1.000  0.5525  162.7   5.025   71.8  0.0784   65.7  0.1187  -82.0
 1.100  0.5579  159.4   4.580   69.2  0.0855   65.3  0.1164  -84.2
 1.200  0.5602  156.2   4.202   66.4  0.0925   64.3  0.1146  -87.2
 1.300  0.5628  153.2   3.889   64.0  0.0994   63.6  0.1144  -90.8
 1.400  0.5662  150.4   3.627   61.4  0.1066   62.7  0.1138  -94.9
 1.500  0.5721  147.6   3.384   59.0  0.1139   61.6  0.1151  -98.6
 1.600  0.5758  144.5   3.183   56.5  0.1210   60.8  0.1180 -101.9
 1.700  0.5787  142.0   3.004   54.1  0.1286   59.7  0.1210 -106.5
 1.800  0.5860  139.0   2.851   51.6  0.1352   58.4  0.1241 -110.6
 1.900  0.5921  136.5   2.701   49.4  0.1418   57.4  0.1283 -114.3
 2.000  0.5947  133.8   2.568   46.9  0.1489   56.3  0.1342 -117.9
 2.100  0.5998  131.2   2.450   44.7  0.1552   55.1  0.1392 -121.7
 2.200  0.6060  128.7   2.335   42.3  0.1616   54.0  0.1448 -125.2
 2.300  0.6105  126.4   2.239   40.2  0.1686   52.8  0.1521 -128.0
 2.400  0.6160  124.2   2.147   38.0  0.1756   51.7  0.1597 -130.6
 2.500  0.6219  122.0   2.063   36.0  0.1817   50.5  0.1667 -133.7
 2.600  0.6288  119.8   1.982   33.8  0.1879   49.3  0.1741 -136.5
 2.700  0.6344  117.7   1.911   31.8  0.1938   48.1  0.1807 -139.0
 2.800  0.6409  115.7   1.842   29.7  0.1998   46.9  0.1876 -141.3
 2.900  0.6454  113.7   1.780   27.8  0.2059   45.7  0.1930 -143.9
 3.000  0.6507  111.7   1.721   25.7  0.2120   44.5  0.1988 -146.4
 3.100  0.6544  109.8   1.670   24.0  0.2176   43.3  0.2031 -148.7
 3.200  0.6589  108.0   1.621   22.3  0.2232   42.2  0.2077 -151.0
 3.300  0.6640  106.2   1.573   20.4  0.2289   41.1  0.2126 -153.1
 3.400  0.6698  104.4   1.527   18.4  0.2347   40.1  0.2178 -155.2
 3.500  0.6762  102.6   1.483   16.3  0.2406   39.1  0.2233 -157.1
 3.600  0.6801  101.0   1.445   14.7  0.2460   37.9  0.2274 -159.6
 3.700  0.6845   99.4   1.409   13.0  0.2514   36.7  0.2318 -162.1
 3.800  0.6894   97.9   1.373   11.3  0.2570   35.5  0.2367 -164.4
 3.900  0.6949   96.3   1.339    9.4  0.2626   34.4  0.2420 -166.7
 4.000  0.7008   94.8   1.307    7.5  0.2684   33.4  0.2476 -168.8
 4.100  0.7034   93.3   1.277    6.0  0.2736   32.1  0.2528 -171.4
 4.200  0.7065   91.8   1.248    4.4  0.2789   30.9  0.2585 -174.0
 4.300  0.7101   90.3   1.219    2.8  0.2843   29.7  0.2646 -176.4
 4.400  0.7141   88.8   1.192    1.1  0.2898   28.6  0.2713 -178.7
 4.500  0.7186   87.4   1.166   -0.7  0.2955   27.5  0.2783  179.1
 4.600  0.7220   86.1   1.141   -2.0  0.3004   26.3  0.2858  176.9
 4.700  0.7258   84.7   1.118   -3.4  0.3055   25.2  0.2937  174.9
 4.800  0.7300   83.4   1.094   -4.8  0.3107   24.1  0.3019  172.9
 4.900  0.7346   82.1   1.072   -6.3  0.3160   23.0  0.3105  171.0
 5.000  0.7395   80.8   1.050   -7.9  0.3214   22.0  0.3194  169.3
 5.100  0.7401   79.5   1.032   -9.2  0.3259   20.8  0.3284  167.9
 5.200  0.7411   78.1   1.014  -10.4  0.3306   19.6  0.3376  166.5
 5.300  0.7425   76.8   0.997  -11.8  0.3354   18.4  0.3469  165.3
 5.400  0.7444   75.4   0.981  -13.2  0.3403   17.3  0.3564  164.0
 5.500  0.7466   74.1   0.965  -14.6  0.3454   16.2  0.3661  162.9
 5.600  0.7465   72.9   0.949  -15.7  0.3495   15.1  0.3719  161.9
 5.700  0.7468   71.7   0.933  -16.9  0.3538   14.0  0.3779  160.8
 5.800  0.7473   70.6   0.917  -18.1  0.3582   12.9  0.3839  159.9
 5.900  0.7482   69.4   0.902  -19.3  0.3628   11.8  0.3901  158.9
 6.000  0.7494   68.2   0.887  -20.6  0.3674   10.8  0.3964  158.0
!
!  f       NFmin   Gammaopt  rn/50
! GHz       dB    MAG  ANG    -
 0.450      1.45  0.40 -171   0.08
 0.900      1.49  0.43 -165   0.08
 1.900      2.13  0.59 -134   0.21
 2.400      2.45  0.63 -119   0.45
!
! (c) 2017  Infineon Technologies AG, Munich