! Infineon Technologies  Discrete & RF Semiconductors
! BFP193
! VCE =  11. V,  IC =  30 mA
! Common Emitter S-Parameters:                            Jan 2017
# GHz  S  MA  R  50
!  f         S11            S21            S12            S22
! GHz     MAG   ANG      MAG   ANG      MAG   ANG      MAG   ANG
 0.010  0.4593  -14.0  57.132  172.5  0.0023   81.7  0.9658   -6.0
 0.020  0.4701  -27.9  56.294  166.3  0.0051   79.1  0.9407  -12.4
 0.030  0.4504  -40.0  53.536  161.0  0.0072   74.0  0.8997  -17.3
 0.040  0.4519  -52.6  51.276  155.2  0.0093   71.2  0.8659  -22.7
 0.050  0.4745  -64.5  49.584  149.0  0.0114   69.4  0.8402  -28.4
 0.060  0.4621  -72.6  46.810  145.8  0.0128   66.5  0.7954  -31.2
 0.070  0.4593  -80.9  44.195  142.3  0.0142   64.2  0.7527  -34.4
 0.080  0.4663  -89.2  41.769  138.3  0.0157   62.3  0.7127  -38.0
 0.090  0.4826  -97.1  39.567  133.9  0.0171   60.7  0.6756  -41.9
 0.100  0.5073 -104.3  37.628  129.0  0.0186   59.4  0.6422  -46.3
 0.110  0.5024 -108.8  35.734  127.1  0.0193   58.3  0.6116  -47.8
 0.120  0.5007 -113.3  33.884  125.0  0.0201   57.2  0.5815  -49.6
 0.130  0.5021 -117.9  32.086  122.6  0.0208   56.3  0.5520  -51.4
 0.140  0.5067 -122.4  30.349  120.0  0.0215   55.3  0.5232  -53.6
 0.150  0.5143 -126.8  28.684  117.0  0.0223   54.5  0.4951  -55.9
 0.200  0.5247 -140.4  22.835  109.2  0.0250   54.9  0.4013  -61.5
 0.250  0.5295 -150.3  18.827  103.5  0.0279   55.1  0.3366  -64.7
 0.300  0.5319 -156.9  15.934   99.6  0.0311   56.3  0.2898  -66.9
 0.350  0.5315 -161.8  14.053   96.9  0.0340   57.9  0.2609  -68.0
 0.400  0.5349 -166.6  12.214   93.3  0.0369   59.2  0.2322  -69.3
 0.450  0.5352 -170.2  11.029   91.3  0.0402   60.1  0.2147  -70.3
 0.500  0.5376 -173.7   9.861   88.8  0.0436   60.9  0.1972  -71.4
 0.600  0.5417 -179.4   8.286   84.9  0.0507   61.6  0.1735  -73.1
 0.700  0.5454  176.2   7.121   81.6  0.0565   63.5  0.1565  -74.1
 0.800  0.5469  171.9   6.257   78.3  0.0642   64.0  0.1481  -76.1
 0.900  0.5470  168.0   5.560   75.4  0.0708   63.4  0.1401  -78.4
 1.000  0.5526  164.4   5.030   72.6  0.0776   63.8  0.1329  -80.8
 1.100  0.5551  161.1   4.587   70.0  0.0844   63.0  0.1302  -83.2
 1.200  0.5597  157.7   4.208   67.2  0.0916   62.4  0.1273  -85.9
 1.300  0.5603  154.7   3.894   64.6  0.0987   61.8  0.1266  -89.3
 1.400  0.5658  151.7   3.631   62.1  0.1060   61.2  0.1253  -93.2
 1.500  0.5714  148.9   3.389   59.6  0.1127   60.4  0.1259  -96.8
 1.600  0.5753  145.8   3.187   57.1  0.1196   59.4  0.1275  -99.9
 1.700  0.5788  143.0   3.009   54.7  0.1265   58.7  0.1310 -104.3
 1.800  0.5852  140.1   2.854   52.2  0.1328   57.5  0.1331 -108.3
 1.900  0.5918  137.4   2.707   50.0  0.1399   56.7  0.1369 -112.3
 2.000  0.5941  134.7   2.571   47.5  0.1467   55.7  0.1420 -115.7
 2.100  0.5994  132.1   2.452   45.3  0.1531   54.6  0.1468 -119.5
 2.200  0.6060  129.5   2.338   42.8  0.1596   53.6  0.1522 -123.0
 2.300  0.6102  127.2   2.241   40.7  0.1665   52.5  0.1591 -125.9
 2.400  0.6153  124.9   2.148   38.5  0.1734   51.4  0.1663 -128.6
 2.500  0.6207  122.6   2.065   36.5  0.1795   50.1  0.1733 -131.8
 2.600  0.6271  120.4   1.984   34.3  0.1857   48.9  0.1807 -134.7
 2.700  0.6333  118.3   1.914   32.3  0.1917   47.8  0.1871 -137.1
 2.800  0.6403  116.3   1.846   30.2  0.1977   46.7  0.1938 -139.4
 2.900  0.6454  114.2   1.784   28.3  0.2037   45.5  0.1990 -142.1
 3.000  0.6514  112.1   1.724   26.2  0.2098   44.4  0.2047 -144.6
 3.100  0.6549  110.2   1.673   24.6  0.2154   43.2  0.2088 -147.0
 3.200  0.6591  108.4   1.623   22.8  0.2210   42.1  0.2133 -149.3
 3.300  0.6640  106.6   1.575   21.0  0.2268   41.1  0.2182 -151.5
 3.400  0.6696  104.8   1.529   19.0  0.2326   40.1  0.2233 -153.6
 3.500  0.6758  103.0   1.485   16.9  0.2385   39.1  0.2287 -155.6
 3.600  0.6797  101.4   1.447   15.3  0.2439   37.9  0.2326 -158.2
 3.700  0.6842   99.8   1.410   13.6  0.2494   36.7  0.2369 -160.7
 3.800  0.6892   98.2   1.375   11.9  0.2550   35.6  0.2416 -163.1
 3.900  0.6948   96.6   1.341   10.0  0.2607   34.5  0.2468 -165.4
 4.000  0.7008   95.1   1.308    8.1  0.2665   33.5  0.2523 -167.6
 4.100  0.7033   93.6   1.278    6.6  0.2718   32.2  0.2574 -170.3
 4.200  0.7062   92.1   1.249    5.0  0.2772   31.0  0.2631 -172.9
 4.300  0.7097   90.6   1.220    3.4  0.2827   29.9  0.2693 -175.4
 4.400  0.7136   89.1   1.193    1.7  0.2883   28.8  0.2760 -177.7
 4.500  0.7180   87.6   1.167   -0.1  0.2940   27.7  0.2831 -180.0
 4.600  0.7215   86.2   1.142   -1.4  0.2989   26.5  0.2905  177.8
 4.700  0.7255   84.9   1.118   -2.8  0.3040   25.4  0.2984  175.7
 4.800  0.7298   83.5   1.095   -4.2  0.3092   24.3  0.3066  173.7
 4.900  0.7346   82.2   1.072   -5.7  0.3145   23.2  0.3151  171.9
 5.000  0.7397   80.9   1.050   -7.2  0.3199   22.2  0.3240  170.1
 5.100  0.7403   79.6   1.032   -8.5  0.3245   21.0  0.3330  168.6
 5.200  0.7413   78.2   1.015   -9.7  0.3292   19.8  0.3422  167.2
 5.300  0.7427   76.9   0.999  -11.1  0.3341   18.6  0.3516  165.9
 5.400  0.7446   75.5   0.982  -12.5  0.3392   17.5  0.3612  164.6
 5.500  0.7468   74.2   0.967  -13.9  0.3443   16.4  0.3709  163.4
 5.600  0.7468   73.0   0.950  -15.0  0.3485   15.3  0.3767  162.3
 5.700  0.7472   71.8   0.934  -16.1  0.3528   14.2  0.3827  161.3
 5.800  0.7479   70.6   0.918  -17.3  0.3572   13.1  0.3887  160.2
 5.900  0.7489   69.4   0.903  -18.5  0.3617   12.1  0.3949  159.3
 6.000  0.7502   68.2   0.888  -19.8  0.3664   11.1  0.4012  158.3
!
!  f       NFmin   Gammaopt  rn/50
! GHz       dB    MAG  ANG    -
 0.450      1.22  0.33 -174   0.08
 0.900      1.27  0.38 -173   0.07
 1.900      1.89  0.57 -137   0.17
 2.400      2.22  0.62 -121   0.38
!
! (c) 2017  Infineon Technologies AG, Munich