! Infineon Technologies  Discrete & RF Semiconductors
! BFP193
! VCE =  9.0 V,  IC =  55 mA
! Common Emitter S-Parameters:                            Jan 2017
# GHz  S  MA  R  50
!  f         S11            S21            S12            S22
! GHz     MAG   ANG      MAG   ANG      MAG   ANG      MAG   ANG
 0.010  0.2940  -23.8  73.327  170.6  0.0019   75.6  0.9511   -7.6
 0.020  0.3205  -46.7  71.563  162.6  0.0045   80.1  0.9236  -16.1
 0.030  0.3203  -64.2  66.471  156.6  0.0062   71.6  0.8614  -21.9
 0.040  0.3486  -80.3  62.223  149.7  0.0081   66.9  0.8093  -28.4
 0.050  0.3993  -93.1  59.002  141.9  0.0099   63.9  0.7691  -35.8
 0.060  0.4016 -101.3  54.941  138.9  0.0110   62.5  0.7180  -38.5
 0.070  0.4119 -109.2  51.051  135.5  0.0120   61.3  0.6687  -41.7
 0.080  0.4297 -116.6  47.375  131.5  0.0131   60.3  0.6218  -45.3
 0.090  0.4539 -123.3  43.966  126.9  0.0141   59.4  0.5778  -49.5
 0.100  0.4838 -129.3  40.891  121.5  0.0152   58.7  0.5374  -54.4
 0.110  0.4852 -132.9  38.588  119.8  0.0159   58.7  0.5087  -55.8
 0.120  0.4886 -136.5  36.321  118.0  0.0166   58.7  0.4803  -57.3
 0.130  0.4938 -140.0  34.097  115.9  0.0172   58.7  0.4523  -59.0
 0.140  0.5008 -143.4  31.927  113.5  0.0179   58.7  0.4248  -61.0
 0.150  0.5095 -146.7  29.821  110.7  0.0186   58.7  0.3978  -63.2
 0.200  0.5269 -156.3  23.227  104.1  0.0209   60.8  0.3159  -68.1
 0.250  0.5355 -163.1  18.932   99.2  0.0247   61.2  0.2631  -70.8
 0.300  0.5367 -168.0  15.905   95.8  0.0276   63.2  0.2252  -73.0
 0.350  0.5393 -171.6  13.991   93.5  0.0311   65.1  0.2023  -74.1
 0.400  0.5439 -175.1  12.108   90.4  0.0347   66.6  0.1795  -75.4
 0.450  0.5452 -177.8  10.917   88.6  0.0384   66.8  0.1664  -76.5
 0.500  0.5478  179.5   9.740   86.4  0.0422   67.0  0.1533  -77.7
 0.600  0.5517  174.9   8.168   82.9  0.0495   67.5  0.1357  -80.0
 0.700  0.5533  171.3   7.012   79.9  0.0564   68.5  0.1232  -81.7
 0.800  0.5579  167.7   6.156   76.7  0.0645   68.4  0.1170  -84.3
 0.900  0.5566  164.4   5.469   74.0  0.0719   67.8  0.1118  -87.4
 1.000  0.5631  161.1   4.946   71.3  0.0795   67.3  0.1070  -90.5
 1.100  0.5670  158.0   4.508   68.8  0.0869   66.5  0.1062  -93.0
 1.200  0.5705  155.0   4.136   66.1  0.0942   65.3  0.1054  -96.2
 1.300  0.5714  151.9   3.827   63.6  0.1014   64.6  0.1060 -100.1
 1.400  0.5766  149.4   3.567   61.1  0.1089   63.7  0.1069 -104.5
 1.500  0.5820  146.6   3.330   58.7  0.1163   62.6  0.1091 -108.6
 1.600  0.5855  143.7   3.133   56.2  0.1236   61.3  0.1129 -111.6
 1.700  0.5900  140.9   2.955   53.8  0.1305   60.3  0.1171 -115.9
 1.800  0.5957  138.3   2.804   51.4  0.1380   59.1  0.1219 -120.0
 1.900  0.6004  135.8   2.658   49.2  0.1446   58.2  0.1263 -123.3
 2.000  0.6035  133.2   2.525   46.7  0.1515   56.8  0.1333 -126.5
 2.100  0.6088  130.5   2.409   44.5  0.1582   55.6  0.1393 -130.1
 2.200  0.6155  127.9   2.297   42.1  0.1650   54.5  0.1458 -133.4
 2.300  0.6194  125.8   2.203   40.0  0.1718   53.2  0.1535 -135.8
 2.400  0.6241  123.7   2.112   37.8  0.1787   52.0  0.1614 -138.0
 2.500  0.6295  121.4   2.029   35.8  0.1851   50.7  0.1691 -140.9
 2.600  0.6359  119.2   1.949   33.7  0.1916   49.4  0.1771 -143.5
 2.700  0.6411  117.2   1.880   31.7  0.1977   48.2  0.1840 -145.6
 2.800  0.6470  115.2   1.813   29.6  0.2039   47.0  0.1912 -147.6
 2.900  0.6520  113.1   1.752   27.7  0.2100   45.7  0.1973 -150.1
 3.000  0.6578  111.0   1.694   25.7  0.2161   44.5  0.2037 -152.4
 3.100  0.6615  109.2   1.644   24.1  0.2216   43.3  0.2080 -154.6
 3.200  0.6659  107.4   1.596   22.3  0.2273   42.1  0.2127 -156.7
 3.300  0.6709  105.6   1.549   20.5  0.2330   41.0  0.2176 -158.7
 3.400  0.6765  103.8   1.503   18.5  0.2388   39.9  0.2228 -160.7
 3.500  0.6828  102.1   1.460   16.4  0.2447   38.9  0.2282 -162.5
 3.600  0.6864  100.5   1.423   14.8  0.2501   37.6  0.2326 -165.0
 3.700  0.6906   98.9   1.387   13.2  0.2555   36.4  0.2373 -167.3
 3.800  0.6953   97.4   1.352   11.4  0.2611   35.2  0.2425 -169.6
 3.900  0.7005   95.8   1.319    9.6  0.2668   34.1  0.2480 -171.7
 4.000  0.7062   94.3   1.287    7.7  0.2726   33.0  0.2539 -173.8
 4.100  0.7084   92.8   1.258    6.2  0.2778   31.7  0.2593 -176.3
 4.200  0.7111   91.3   1.229    4.7  0.2831   30.5  0.2651 -178.8
 4.300  0.7143   89.8   1.201    3.1  0.2886   29.3  0.2714  178.9
 4.400  0.7180   88.4   1.175    1.4  0.2941   28.2  0.2782  176.7
 4.500  0.7221   86.9   1.149   -0.4  0.2998   27.1  0.2853  174.6
 4.600  0.7255   85.6   1.125   -1.7  0.3046   25.9  0.2928  172.6
 4.700  0.7293   84.2   1.102   -3.1  0.3095   24.8  0.3007  170.6
 4.800  0.7335   82.9   1.079   -4.5  0.3146   23.6  0.3089  168.8
 4.900  0.7380   81.6   1.057   -6.0  0.3197   22.5  0.3173  167.0
 5.000  0.7430   80.3   1.036   -7.5  0.3250   21.5  0.3261  165.4
 5.100  0.7438   79.0   1.019   -8.7  0.3294   20.3  0.3349  164.1
 5.200  0.7450   77.6   1.002  -10.0  0.3340   19.1  0.3439  162.9
 5.300  0.7466   76.3   0.986  -11.3  0.3387   17.9  0.3530  161.7
 5.400  0.7485   75.0   0.970  -12.7  0.3436   16.8  0.3622  160.6
 5.500  0.7509   73.7   0.955  -14.1  0.3486   15.7  0.3716  159.5
 5.600  0.7503   72.5   0.939  -15.2  0.3527   14.6  0.3771  158.5
 5.700  0.7501   71.3   0.924  -16.3  0.3570   13.5  0.3827  157.6
 5.800  0.7501   70.2   0.909  -17.5  0.3614   12.4  0.3885  156.7
 5.900  0.7505   69.0   0.894  -18.7  0.3659   11.3  0.3943  155.8
 6.000  0.7512   67.8   0.880  -19.9  0.3706   10.3  0.4002  154.9
!
!  f       NFmin   Gammaopt  rn/50
! GHz       dB    MAG  ANG    -
 0.450      1.60  0.45 -170   0.09
 0.900      1.65  0.47 -163   0.09
 1.900      2.29  0.62 -131   0.25
 2.400      2.64  0.64 -118   0.51
!
! (c) 2017  Infineon Technologies AG, Munich