! Infineon Technologies  Discrete & RF Semiconductors
! BFP193
! VCE =  12. V,  IC =  8.0 mA
! Common Emitter S-Parameters:                            Jan 2017
# GHz  S  MA  R  50
!  f         S11            S21            S12            S22
! GHz     MAG   ANG      MAG   ANG      MAG   ANG      MAG   ANG
 0.010  0.7770   -6.2  24.010  176.2  0.0029   79.9  0.9943   -2.7
 0.020  0.7886  -12.2  24.164  172.9  0.0064   88.6  0.9825   -5.7
 0.030  0.7704  -17.8  23.720  169.6  0.0093   79.8  0.9701   -8.3
 0.040  0.7599  -23.7  23.356  166.2  0.0123   75.3  0.9597  -11.0
 0.050  0.7575  -29.6  23.078  162.7  0.0154   72.5  0.9515  -13.7
 0.060  0.7408  -34.7  22.527  159.9  0.0178   70.1  0.9309  -15.8
 0.070  0.7302  -40.0  22.030  157.1  0.0203   68.2  0.9116  -18.0
 0.080  0.7261  -45.4  21.592  154.1  0.0227   66.7  0.8937  -20.3
 0.090  0.7285  -50.9  21.216  150.9  0.0252   65.6  0.8773  -22.6
 0.100  0.7373  -56.2  20.905  147.7  0.0277   64.6  0.8624  -25.1
 0.110  0.7209  -60.3  20.285  145.5  0.0293   62.4  0.8407  -26.6
 0.120  0.7083  -64.5  19.697  143.2  0.0309   60.4  0.8196  -28.2
 0.130  0.6997  -68.9  19.144  140.7  0.0326   58.6  0.7992  -29.9
 0.140  0.6954  -73.4  18.628  138.1  0.0343   57.0  0.7795  -31.7
 0.150  0.6953  -77.9  18.154  135.3  0.0360   55.6  0.7606  -33.6
 0.200  0.6730  -95.7  15.760  125.8  0.0414   50.3  0.6713  -39.4
 0.250  0.6503 -109.7  13.729  117.9  0.0461   45.8  0.5945  -43.2
 0.300  0.6341 -120.8  12.037  112.3  0.0488   42.9  0.5341  -45.8
 0.350  0.6196 -128.9  10.785  108.3  0.0510   41.7  0.4915  -47.1
 0.400  0.6179 -137.2   9.601  103.2  0.0532   40.6  0.4491  -48.6
 0.450  0.6091 -143.3   8.737  100.2  0.0550   40.4  0.4219  -49.3
 0.500  0.6074 -149.5   7.902   96.6  0.0568   40.3  0.3948  -50.2
 0.600  0.6037 -158.6   6.715   91.2  0.0606   40.4  0.3574  -51.2
 0.700  0.6017 -165.9   5.812   86.6  0.0631   41.7  0.3313  -51.8
 0.800  0.6022 -172.3   5.133   82.4  0.0674   43.3  0.3142  -52.9
 0.900  0.6010 -178.0   4.580   78.6  0.0710   43.9  0.3006  -54.1
 1.000  0.6031  177.2   4.152   75.1  0.0744   45.1  0.2891  -55.4
 1.100  0.6054  172.6   3.793   71.9  0.0790   46.2  0.2824  -57.0
 1.200  0.6075  168.2   3.487   68.6  0.0830   46.8  0.2762  -58.9
 1.300  0.6080  164.3   3.230   65.6  0.0872   47.8  0.2708  -61.0
 1.400  0.6128  160.6   3.014   62.6  0.0918   48.7  0.2667  -63.4
 1.500  0.6179  157.0   2.816   59.8  0.0964   49.2  0.2634  -66.0
 1.600  0.6213  153.4   2.650   56.9  0.1012   49.3  0.2623  -68.3
 1.700  0.6254  150.2   2.503   54.1  0.1064   49.9  0.2602  -71.5
 1.800  0.6310  146.7   2.375   51.4  0.1118   50.1  0.2595  -74.4
 1.900  0.6372  143.7   2.253   48.9  0.1163   50.1  0.2596  -77.4
 2.000  0.6408  140.6   2.141   46.1  0.1219   49.9  0.2611  -80.7
 2.100  0.6451  137.6   2.043   43.6  0.1273   50.0  0.2621  -83.9
 2.200  0.6512  134.6   1.949   40.9  0.1327   50.1  0.2639  -87.0
 2.300  0.6557  132.0   1.867   38.7  0.1385   49.8  0.2678  -90.3
 2.400  0.6615  129.5   1.789   36.2  0.1444   49.5  0.2725  -93.4
 2.500  0.6672  127.0   1.718   33.9  0.1503   49.0  0.2763  -96.8
 2.600  0.6742  124.5   1.650   31.5  0.1562   48.5  0.2810 -100.0
 2.700  0.6797  122.1   1.590   29.4  0.1621   48.0  0.2858 -102.9
 2.800  0.6863  119.8   1.533   27.1  0.1680   47.5  0.2914 -105.7
 2.900  0.6908  117.4   1.480   25.1  0.1736   46.9  0.2949 -108.6
 3.000  0.6964  115.1   1.429   22.9  0.1793   46.3  0.2991 -111.5
 3.100  0.7000  113.0   1.385   21.2  0.1854   45.6  0.3021 -114.3
 3.200  0.7045  111.0   1.342   19.3  0.1916   44.9  0.3059 -117.1
 3.300  0.7099  109.0   1.301   17.4  0.1978   44.3  0.3104 -119.8
 3.400  0.7161  107.0   1.261   15.3  0.2040   43.7  0.3155 -122.5
 3.500  0.7232  105.1   1.223   13.1  0.2102   43.1  0.3213 -125.0
 3.600  0.7266  103.3   1.191   11.5  0.2165   42.1  0.3238 -127.9
 3.700  0.7306  101.6   1.159    9.9  0.2229   41.1  0.3272 -130.8
 3.800  0.7353   99.9   1.129    8.1  0.2294   40.2  0.3313 -133.7
 3.900  0.7407   98.2   1.099    6.3  0.2359   39.4  0.3363 -136.4
 4.000  0.7467   96.5   1.071    4.3  0.2424   38.6  0.3420 -139.1
 4.100  0.7484   94.9   1.045    2.8  0.2488   37.4  0.3454 -142.3
 4.200  0.7508   93.2   1.020    1.3  0.2553   36.3  0.3499 -145.4
 4.300  0.7537   91.6   0.996   -0.3  0.2619   35.2  0.3553 -148.4
 4.400  0.7573   90.0   0.973   -2.0  0.2685   34.2  0.3618 -151.4
 4.500  0.7614   88.4   0.950   -3.8  0.2753   33.2  0.3691 -154.2
 4.600  0.7646   87.0   0.928   -5.0  0.2816   32.0  0.3754 -157.2
 4.700  0.7683   85.5   0.907   -6.3  0.2879   30.9  0.3828 -160.1
 4.800  0.7725   84.1   0.886   -7.6  0.2944   29.9  0.3910 -162.8
 4.900  0.7771   82.7   0.866   -9.0  0.3009   28.9  0.4002 -165.5
 5.000  0.7822   81.3   0.846  -10.5  0.3076   27.9  0.4101 -168.0
 5.100  0.7822   79.9   0.831  -11.6  0.3134   26.6  0.4191 -170.3
 5.200  0.7827   78.5   0.815  -12.7  0.3193   25.4  0.4287 -172.6
 5.300  0.7837   77.1   0.801  -13.9  0.3254   24.2  0.4390 -174.7
 5.400  0.7851   75.7   0.786  -15.1  0.3316   23.0  0.4499 -176.8
 5.500  0.7870   74.3   0.772  -16.3  0.3379   21.9  0.4613 -178.7
 5.600  0.7866   73.0   0.758  -17.2  0.3432   20.7  0.4680  179.5
 5.700  0.7865   71.7   0.745  -18.1  0.3486   19.5  0.4751  177.7
 5.800  0.7868   70.5   0.732  -19.1  0.3542   18.3  0.4827  176.0
 5.900  0.7876   69.2   0.719  -20.1  0.3599   17.2  0.4907  174.4
 6.000  0.7887   67.9   0.706  -21.1  0.3657   16.1  0.4991  172.8
!
!  f       NFmin   Gammaopt  rn/50
! GHz       dB    MAG  ANG    -
 0.450      0.85  0.21  129   0.09
 0.900      0.97  0.36  162   0.07
 1.900      1.79  0.58 -148   0.12
 2.400      2.19  0.64 -129   0.31
!
! (c) 2017  Infineon Technologies AG, Munich