! Infineon Technologies  Discrete & RF Semiconductors
! BFP193
! VCE =  6.0 V,  IC =  75 mA
! Common Emitter S-Parameters:                            Jan 2017
# GHz  S  MA  R  50
!  f         S11            S21            S12            S22
! GHz     MAG   ANG      MAG   ANG      MAG   ANG      MAG   ANG
 0.010  0.1577  -51.5  81.603  169.3  0.0019   75.6  0.9265   -9.3
 0.020  0.2312  -80.6  78.792  159.6  0.0033   77.3  0.8847  -19.7
 0.030  0.2702  -99.1  71.752  153.2  0.0051   68.8  0.8095  -26.1
 0.040  0.3294 -112.0  65.785  145.6  0.0070   64.8  0.7463  -33.7
 0.050  0.3999 -120.6  61.205  136.6  0.0089   62.5  0.6985  -42.5
 0.060  0.4147 -126.9  56.523  133.8  0.0099   62.1  0.6461  -45.2
 0.070  0.4341 -132.8  51.994  130.6  0.0109   61.8  0.5953  -48.4
 0.080  0.4577 -138.1  47.662  126.8  0.0118   61.5  0.5468  -52.2
 0.090  0.4847 -142.8  43.587  122.2  0.0128   61.3  0.5012  -56.7
 0.100  0.5147 -147.0  39.847  116.7  0.0138   61.1  0.4592  -62.1
 0.110  0.5191 -149.6  37.479  115.2  0.0144   61.4  0.4331  -63.5
 0.120  0.5246 -152.1  35.139  113.6  0.0150   61.6  0.4073  -65.0
 0.130  0.5310 -154.5  32.833  111.6  0.0157   61.8  0.3818  -66.8
 0.140  0.5383 -156.9  30.570  109.4  0.0163   62.0  0.3567  -68.8
 0.150  0.5466 -159.2  28.358  106.9  0.0169   62.2  0.3321  -71.1
 0.200  0.5614 -166.0  21.833  101.0  0.0199   65.0  0.2614  -76.6
 0.250  0.5691 -171.0  17.697   96.6  0.0238   66.2  0.2167  -79.9
 0.300  0.5716 -174.6  14.833   93.6  0.0276   67.8  0.1851  -83.0
 0.350  0.5736 -177.4  13.037   91.4  0.0314   68.8  0.1666  -84.9
 0.400  0.5769  179.9  11.266   88.6  0.0353   69.6  0.1484  -87.3
 0.450  0.5786  177.6  10.146   87.0  0.0390   70.0  0.1378  -89.2
 0.500  0.5813  175.3   9.036   84.9  0.0428   70.3  0.1273  -91.4
 0.600  0.5834  171.5   7.573   81.5  0.0508   70.2  0.1135  -95.4
 0.700  0.5874  168.3   6.500   78.6  0.0578   71.1  0.1042  -98.5
 0.800  0.5917  165.2   5.701   75.5  0.0662   70.6  0.1009 -101.9
 0.900  0.5921  162.1   5.064   72.8  0.0740   69.5  0.0984 -105.9
 1.000  0.5967  159.0   4.582   70.2  0.0814   68.6  0.0963 -109.9
 1.100  0.5996  156.2   4.173   67.7  0.0895   67.8  0.0970 -112.9
 1.200  0.6021  153.2   3.831   65.0  0.0966   66.6  0.0979 -116.0
 1.300  0.6058  150.3   3.544   62.5  0.1042   65.6  0.1012 -119.6
 1.400  0.6080  147.7   3.306   60.0  0.1127   64.7  0.1040 -123.8
 1.500  0.6152  145.1   3.084   57.6  0.1203   63.3  0.1077 -127.0
 1.600  0.6190  142.3   2.903   55.1  0.1272   62.2  0.1127 -129.6
 1.700  0.6215  139.6   2.738   52.8  0.1349   60.9  0.1196 -133.1
 1.800  0.6275  136.9   2.598   50.2  0.1424   59.8  0.1257 -136.4
 1.900  0.6332  134.5   2.462   48.1  0.1492   58.5  0.1318 -139.0
 2.000  0.6340  131.9   2.338   45.6  0.1567   57.1  0.1397 -141.3
 2.100  0.6395  129.3   2.232   43.4  0.1635   55.8  0.1468 -144.1
 2.200  0.6463  126.8   2.129   41.0  0.1703   54.6  0.1542 -146.7
 2.300  0.6500  124.6   2.041   39.0  0.1774   53.3  0.1626 -148.4
 2.400  0.6547  122.5   1.956   36.8  0.1845   52.1  0.1711 -150.0
 2.500  0.6587  120.3   1.881   34.8  0.1909   50.7  0.1795 -152.3
 2.600  0.6637  118.2   1.808   32.6  0.1975   49.3  0.1882 -154.4
 2.700  0.6693  116.1   1.744   30.7  0.2038   48.0  0.1955 -156.0
 2.800  0.6758  114.1   1.682   28.6  0.2101   46.8  0.2030 -157.5
 2.900  0.6801  112.1   1.626   26.7  0.2162   45.5  0.2094 -159.8
 3.000  0.6852  110.1   1.572   24.7  0.2224   44.2  0.2162 -161.9
 3.100  0.6883  108.3   1.526   23.1  0.2280   42.9  0.2210 -163.9
 3.200  0.6920  106.4   1.482   21.3  0.2337   41.7  0.2260 -165.7
 3.300  0.6965  104.6   1.438   19.5  0.2395   40.6  0.2313 -167.5
 3.400  0.7016  102.9   1.397   17.6  0.2454   39.4  0.2368 -169.3
 3.500  0.7074  101.1   1.357   15.5  0.2514   38.4  0.2425 -170.9
 3.600  0.7104   99.5   1.323   14.0  0.2568   37.1  0.2474 -173.1
 3.700  0.7140   98.0   1.290   12.4  0.2623   35.8  0.2526 -175.2
 3.800  0.7180   96.4   1.258   10.7  0.2679   34.6  0.2582 -177.3
 3.900  0.7226   94.9   1.227    8.9  0.2737   33.5  0.2640 -179.2
 4.000  0.7277   93.4   1.198    7.0  0.2795   32.4  0.2702  178.9
 4.100  0.7293   91.9   1.171    5.6  0.2847   31.1  0.2760  176.5
 4.200  0.7313   90.4   1.145    4.0  0.2901   29.8  0.2822  174.3
 4.300  0.7339   88.9   1.120    2.5  0.2955   28.6  0.2889  172.1
 4.400  0.7369   87.5   1.095    0.8  0.3012   27.4  0.2960  170.1
 4.500  0.7404   86.0   1.072   -0.9  0.3069   26.3  0.3034  168.1
 4.600  0.7434   84.6   1.050   -2.2  0.3117   25.1  0.3110  166.3
 4.700  0.7468   83.3   1.029   -3.5  0.3166   24.0  0.3189  164.5
 4.800  0.7506   81.9   1.008   -4.8  0.3216   22.8  0.3270  162.9
 4.900  0.7549   80.6   0.988   -6.2  0.3267   21.8  0.3354  161.3
 5.000  0.7595   79.3   0.969   -7.7  0.3320   20.7  0.3441  159.8
 5.100  0.7598   78.0   0.954   -8.9  0.3364   19.5  0.3527  158.7
 5.200  0.7605   76.7   0.939  -10.2  0.3410   18.2  0.3614  157.6
 5.300  0.7616   75.4   0.925  -11.5  0.3457   17.1  0.3703  156.5
 5.400  0.7631   74.1   0.911  -12.8  0.3505   15.9  0.3792  155.5
 5.500  0.7650   72.8   0.898  -14.2  0.3555   14.8  0.3883  154.6
 5.600  0.7644   71.6   0.883  -15.2  0.3595   13.6  0.3935  153.7
 5.700  0.7641   70.4   0.869  -16.3  0.3637   12.5  0.3988  152.8
 5.800  0.7641   69.3   0.855  -17.5  0.3679   11.4  0.4042  152.0
 5.900  0.7645   68.1   0.841  -18.6  0.3724   10.3  0.4096  151.1
 6.000  0.7652   66.9   0.828  -19.8  0.3769    9.3  0.4152  150.3
!
!  f       NFmin   Gammaopt  rn/50
! GHz       dB    MAG  ANG    -
!
! noise parameter not available yet for this operation point!
!
! (c) 2017  Infineon Technologies AG, Munich