! Infineon Technologies  Discrete & RF Semiconductors
! BFP193
! VCE =  3.0 V,  IC =  65 mA
! Common Emitter S-Parameters:                            Jan 2017
# GHz  S  MA  R  50
!  f         S11            S21            S12            S22
! GHz     MAG   ANG      MAG   ANG      MAG   ANG      MAG   ANG
 0.010  0.1283  -79.6  78.959  168.8  0.0022   86.6  0.9218  -11.1
 0.020  0.2321 -100.8  75.776  158.5  0.0041   86.2  0.8723  -22.7
 0.030  0.2879 -115.4  68.561  152.0  0.0057   73.1  0.7905  -29.8
 0.040  0.3562 -124.9  62.416  144.2  0.0075   66.0  0.7236  -38.4
 0.050  0.4309 -131.2  57.685  134.8  0.0094   61.7  0.6760  -48.5
 0.060  0.4492 -136.4  53.134  132.1  0.0104   61.3  0.6226  -51.7
 0.070  0.4709 -141.2  48.720  129.0  0.0113   60.9  0.5715  -55.5
 0.080  0.4956 -145.5  44.485  125.2  0.0123   60.7  0.5233  -60.0
 0.090  0.5229 -149.4  40.483  120.6  0.0132   60.4  0.4790  -65.3
 0.100  0.5523 -152.9  36.793  115.1  0.0142   60.2  0.4397  -71.7
 0.110  0.5571 -155.1  34.581  113.7  0.0149   60.7  0.4142  -73.6
 0.120  0.5626 -157.2  32.392  112.1  0.0156   61.2  0.3892  -75.8
 0.130  0.5689 -159.3  30.232  110.3  0.0163   61.6  0.3649  -78.2
 0.140  0.5760 -161.4  28.108  108.2  0.0170   62.0  0.3413  -81.0
 0.150  0.5838 -163.4  26.028  105.7  0.0177   62.4  0.3186  -84.2
 0.200  0.5979 -169.1  19.991   99.9  0.0211   65.0  0.2537  -93.0
 0.250  0.6074 -173.6  16.156   95.7  0.0251   66.1  0.2133  -99.4
 0.300  0.6079 -176.8  13.549   92.7  0.0287   67.8  0.1861 -105.4
 0.350  0.6103 -179.3  11.902   90.6  0.0327   69.0  0.1704 -109.5
 0.400  0.6138  178.2  10.276   87.8  0.0367   70.0  0.1557 -114.4
 0.450  0.6154  176.0   9.252   86.2  0.0408   70.1  0.1472 -117.8
 0.500  0.6178  173.9   8.237   84.1  0.0450   70.2  0.1392 -121.7
 0.600  0.6229  170.4   6.902   80.7  0.0536   70.5  0.1301 -128.4
 0.700  0.6247  167.3   5.922   77.9  0.0611   70.8  0.1242 -133.2
 0.800  0.6264  164.2   5.196   74.7  0.0706   70.4  0.1228 -137.0
 0.900  0.6271  161.1   4.614   72.0  0.0784   68.9  0.1232 -140.6
 1.000  0.6317  158.3   4.174   69.3  0.0865   68.2  0.1235 -144.5
 1.100  0.6349  155.5   3.805   66.8  0.0949   67.0  0.1254 -146.7
 1.200  0.6368  152.5   3.491   64.1  0.1031   65.9  0.1281 -149.0
 1.300  0.6400  149.8   3.232   61.6  0.1108   64.9  0.1326 -151.3
 1.400  0.6425  147.2   3.015   59.1  0.1190   63.7  0.1379 -153.8
 1.500  0.6483  144.5   2.815   56.6  0.1271   62.2  0.1422 -155.8
 1.600  0.6527  141.7   2.649   54.0  0.1349   61.2  0.1477 -157.1
 1.700  0.6551  139.1   2.501   51.6  0.1429   59.9  0.1554 -158.8
 1.800  0.6613  136.4   2.375   49.1  0.1502   58.5  0.1624 -160.7
 1.900  0.6644  133.9   2.251   47.0  0.1577   57.3  0.1695 -162.3
 2.000  0.6669  131.5   2.138   44.5  0.1654   55.8  0.1771 -163.3
 2.100  0.6717  128.8   2.041   42.3  0.1723   54.4  0.1848 -165.0
 2.200  0.6779  126.2   1.947   39.8  0.1793   53.2  0.1926 -166.6
 2.300  0.6815  124.0   1.868   37.7  0.1869   51.8  0.2005 -167.5
 2.400  0.6860  121.9   1.791   35.5  0.1945   50.6  0.2085 -168.3
 2.500  0.6899  119.7   1.722   33.5  0.2011   49.2  0.2169 -169.8
 2.600  0.6947  117.6   1.656   31.4  0.2078   47.8  0.2255 -171.1
 2.700  0.6993  115.5   1.598   29.4  0.2139   46.4  0.2326 -172.3
 2.800  0.7048  113.5   1.542   27.3  0.2202   45.1  0.2398 -173.4
 2.900  0.7080  111.4   1.491   25.5  0.2262   43.8  0.2465 -175.0
 3.000  0.7122  109.4   1.442   23.5  0.2323   42.5  0.2533 -176.6
 3.100  0.7149  107.6   1.400   21.9  0.2380   41.2  0.2582 -178.2
 3.200  0.7183  105.8   1.360   20.2  0.2438   39.9  0.2633 -179.8
 3.300  0.7224  104.0   1.321   18.4  0.2497   38.7  0.2685  178.7
 3.400  0.7272  102.2   1.283   16.4  0.2557   37.6  0.2740  177.3
 3.500  0.7327  100.5   1.247   14.4  0.2618   36.5  0.2796  175.9
 3.600  0.7352   98.9   1.216   12.9  0.2672   35.2  0.2847  174.0
 3.700  0.7383   97.3   1.187   11.3  0.2727   33.9  0.2900  172.2
 3.800  0.7420   95.7   1.158    9.6  0.2783   32.7  0.2957  170.4
 3.900  0.7462   94.1   1.131    7.8  0.2841   31.5  0.3016  168.7
 4.000  0.7510   92.6   1.104    6.0  0.2900   30.4  0.3078  167.1
 4.100  0.7521   91.1   1.080    4.6  0.2952   29.1  0.3140  165.1
 4.200  0.7537   89.7   1.057    3.1  0.3005   27.8  0.3205  163.2
 4.300  0.7558   88.2   1.034    1.6  0.3060   26.6  0.3274  161.3
 4.400  0.7584   86.7   1.012   -0.0  0.3117   25.4  0.3346  159.6
 4.500  0.7615   85.3   0.991   -1.7  0.3174   24.3  0.3421  157.9
 4.600  0.7640   83.9   0.971   -2.9  0.3220   23.1  0.3496  156.4
 4.700  0.7669   82.6   0.952   -4.1  0.3268   21.9  0.3572  154.9
 4.800  0.7703   81.2   0.934   -5.4  0.3316   20.7  0.3652  153.5
 4.900  0.7740   79.9   0.916   -6.8  0.3367   19.6  0.3733  152.2
 5.000  0.7782   78.6   0.898   -8.2  0.3418   18.5  0.3816  150.9
 5.100  0.7778   77.3   0.884   -9.4  0.3461   17.3  0.3896  149.9
 5.200  0.7778   76.0   0.871  -10.6  0.3506   16.1  0.3976  149.0
 5.300  0.7782   74.7   0.858  -11.8  0.3552   14.9  0.4058  148.1
 5.400  0.7790   73.4   0.846  -13.1  0.3599   13.8  0.4140  147.2
 5.500  0.7802   72.1   0.834  -14.4  0.3648   12.7  0.4224  146.4
 5.600  0.7795   70.9   0.822  -15.4  0.3687   11.6  0.4269  145.6
 5.700  0.7790   69.8   0.810  -16.4  0.3727   10.4  0.4314  144.8
 5.800  0.7789   68.6   0.798  -17.5  0.3769    9.3  0.4360  144.0
 5.900  0.7792   67.5   0.786  -18.6  0.3812    8.3  0.4407  143.2
 6.000  0.7797   66.3   0.775  -19.7  0.3856    7.2  0.4455  142.5
!
!  f       NFmin   Gammaopt  rn/50
! GHz       dB    MAG  ANG    -
!
! noise parameter not available yet for this operation point!
!
! (c) 2017  Infineon Technologies AG, Munich