! Infineon Technologies  Discrete & RF Semiconductors
! BFP193
! VCE =  6.0 V,  IC =  70 mA
! Common Emitter S-Parameters:                            Jan 2017
# GHz  S  MA  R  50
!  f         S11            S21            S12            S22
! GHz     MAG   ANG      MAG   ANG      MAG   ANG      MAG   ANG
 0.010  0.1687  -46.1  80.892  169.5  0.0023   82.1  0.9343   -9.3
 0.020  0.2380  -76.1  78.464  160.1  0.0044   85.6  0.8982  -19.4
 0.030  0.2715  -94.7  71.628  153.8  0.0059   74.8  0.8232  -25.7
 0.040  0.3264 -108.2  65.841  146.2  0.0075   68.4  0.7602  -33.2
 0.050  0.3938 -117.4  61.401  137.4  0.0091   64.3  0.7123  -41.9
 0.060  0.4077 -124.0  56.764  134.6  0.0100   63.7  0.6595  -44.7
 0.070  0.4266 -130.1  52.284  131.3  0.0110   63.1  0.6086  -48.0
 0.080  0.4500 -135.7  48.006  127.5  0.0119   62.7  0.5600  -51.8
 0.090  0.4771 -140.6  43.989  122.9  0.0129   62.3  0.5144  -56.4
 0.100  0.5074 -145.0  40.310  117.4  0.0138   62.0  0.4727  -61.8
 0.110  0.5113 -147.7  37.936  115.9  0.0145   62.0  0.4459  -63.3
 0.120  0.5162 -150.3  35.590  114.2  0.0152   62.0  0.4194  -64.9
 0.130  0.5223 -152.9  33.281  112.3  0.0160   62.0  0.3933  -66.7
 0.140  0.5294 -155.4  31.015  110.1  0.0167   62.0  0.3677  -68.9
 0.150  0.5375 -157.9  28.802  107.5  0.0174   62.0  0.3427  -71.3
 0.200  0.5548 -164.9  22.221  101.4  0.0199   64.7  0.2696  -77.1
 0.250  0.5632 -170.2  18.013   96.9  0.0244   66.6  0.2234  -80.8
 0.300  0.5654 -174.0  15.110   93.9  0.0274   67.0  0.1907  -84.2
 0.350  0.5674 -176.8  13.283   91.7  0.0313   68.3  0.1714  -86.2
 0.400  0.5707 -179.5  11.481   88.9  0.0352   69.4  0.1523  -88.7
 0.450  0.5727  178.2  10.341   87.2  0.0391   69.6  0.1415  -90.7
 0.500  0.5755  176.0   9.212   85.1  0.0430   69.8  0.1308  -93.0
 0.600  0.5780  171.9   7.720   81.7  0.0512   70.4  0.1167  -97.4
 0.700  0.5807  168.6   6.624   78.8  0.0579   70.4  0.1068 -100.7
 0.800  0.5834  165.5   5.813   75.8  0.0667   70.2  0.1023 -104.2
 0.900  0.5852  162.2   5.163   73.1  0.0741   69.1  0.1001 -107.9
 1.000  0.5894  159.3   4.670   70.4  0.0819   68.5  0.0980 -112.1
 1.100  0.5931  156.3   4.255   67.9  0.0899   67.4  0.0982 -114.9
 1.200  0.5961  153.5   3.905   65.2  0.0973   66.3  0.0993 -118.2
 1.300  0.5996  150.5   3.612   62.8  0.1046   65.6  0.1024 -121.8
 1.400  0.6021  148.0   3.369   60.3  0.1126   64.5  0.1057 -126.0
 1.500  0.6086  145.2   3.144   57.9  0.1201   63.1  0.1090 -129.1
 1.600  0.6122  142.5   2.958   55.3  0.1279   61.8  0.1140 -131.5
 1.700  0.6147  139.9   2.791   53.0  0.1356   60.7  0.1203 -135.0
 1.800  0.6224  137.1   2.648   50.5  0.1426   59.5  0.1269 -138.2
 1.900  0.6263  134.6   2.510   48.4  0.1497   58.2  0.1326 -140.8
 2.000  0.6274  132.1   2.384   45.9  0.1567   56.9  0.1401 -142.9
 2.100  0.6328  129.5   2.275   43.7  0.1638   55.6  0.1474 -145.7
 2.200  0.6395  127.0   2.169   41.3  0.1709   54.4  0.1551 -148.2
 2.300  0.6433  124.8   2.080   39.2  0.1780   53.1  0.1633 -149.8
 2.400  0.6481  122.7   1.994   37.0  0.1851   51.9  0.1716 -151.3
 2.500  0.6530  120.5   1.917   35.0  0.1915   50.5  0.1799 -153.6
 2.600  0.6589  118.3   1.843   32.9  0.1980   49.1  0.1885 -155.6
 2.700  0.6640  116.3   1.777   31.0  0.2042   47.8  0.1960 -157.3
 2.800  0.6700  114.3   1.714   28.9  0.2104   46.6  0.2036 -158.8
 2.900  0.6744  112.2   1.657   27.0  0.2164   45.3  0.2098 -160.9
 3.000  0.6797  110.2   1.601   25.0  0.2225   44.0  0.2162 -162.9
 3.100  0.6829  108.4   1.554   23.4  0.2281   42.7  0.2210 -164.8
 3.200  0.6867  106.6   1.509   21.6  0.2338   41.5  0.2261 -166.7
 3.300  0.6913  104.8   1.465   19.8  0.2397   40.4  0.2313 -168.5
 3.400  0.6965  103.0   1.423   17.9  0.2456   39.2  0.2368 -170.2
 3.500  0.7023  101.3   1.382   15.8  0.2516   38.2  0.2425 -171.8
 3.600  0.7055   99.7   1.347   14.3  0.2570   36.9  0.2473 -174.0
 3.700  0.7092   98.1   1.314   12.7  0.2624   35.6  0.2524 -176.1
 3.800  0.7134   96.6   1.281   11.0  0.2681   34.4  0.2578 -178.2
 3.900  0.7181   95.0   1.250    9.2  0.2738   33.3  0.2636  179.9
 4.000  0.7234   93.5   1.220    7.3  0.2796   32.2  0.2696  178.0
 4.100  0.7252   92.0   1.193    5.9  0.2848   30.9  0.2754  175.7
 4.200  0.7275   90.5   1.166    4.4  0.2901   29.7  0.2816  173.5
 4.300  0.7303   89.1   1.140    2.8  0.2955   28.5  0.2882  171.3
 4.400  0.7335   87.6   1.115    1.1  0.3010   27.3  0.2952  169.3
 4.500  0.7372   86.2   1.091   -0.6  0.3067   26.2  0.3025  167.4
 4.600  0.7402   84.8   1.069   -1.9  0.3115   25.0  0.3101  165.6
 4.700  0.7437   83.5   1.047   -3.2  0.3164   23.8  0.3179  163.9
 4.800  0.7475   82.1   1.026   -4.6  0.3214   22.6  0.3261  162.2
 4.900  0.7517   80.8   1.006   -6.0  0.3266   21.5  0.3345  160.7
 5.000  0.7564   79.5   0.986   -7.5  0.3319   20.4  0.3431  159.2
 5.100  0.7566   78.2   0.971   -8.7  0.3362   19.2  0.3516  158.1
 5.200  0.7571   76.9   0.956  -10.0  0.3407   18.0  0.3602  157.0
 5.300  0.7581   75.6   0.941  -11.3  0.3453   16.8  0.3690  156.0
 5.400  0.7595   74.3   0.927  -12.6  0.3500   15.7  0.3778  155.0
 5.500  0.7612   73.0   0.914  -14.0  0.3549   14.6  0.3868  154.1
 5.600  0.7607   71.8   0.899  -15.1  0.3590   13.4  0.3919  153.2
 5.700  0.7605   70.6   0.885  -16.2  0.3633   12.3  0.3970  152.3
 5.800  0.7606   69.5   0.870  -17.3  0.3676   11.2  0.4023  151.5
 5.900  0.7610   68.3   0.856  -18.5  0.3722   10.1  0.4076  150.6
 6.000  0.7618   67.1   0.843  -19.7  0.3768    9.1  0.4130  149.8
!
!  f       NFmin   Gammaopt  rn/50
! GHz       dB    MAG  ANG    -
!
! noise parameter not available yet for this operation point!
!
! (c) 2017  Infineon Technologies AG, Munich