! Infineon Technologies  Discrete & RF Semiconductors
! BFP193
! VCE =  8.0 V,  IC =  45 mA
! Common Emitter S-Parameters:                            Jan 2017
# GHz  S  MA  R  50
!  f         S11            S21            S12            S22
! GHz     MAG   ANG      MAG   ANG      MAG   ANG      MAG   ANG
 0.010  0.3138  -21.7  70.064  171.1  0.0023   86.2  0.9627   -7.6
 0.020  0.3364  -42.6  68.533  163.5  0.0050   83.7  0.9298  -15.7
 0.030  0.3323  -59.4  63.966  157.6  0.0067   74.3  0.8726  -21.5
 0.040  0.3560  -75.2  60.181  150.8  0.0085   68.8  0.8254  -28.0
 0.050  0.4026  -88.2  57.334  143.3  0.0104   65.2  0.7901  -35.2
 0.060  0.4032  -96.5  53.529  140.3  0.0114   63.4  0.7389  -38.1
 0.070  0.4121 -104.7  49.896  136.8  0.0125   61.9  0.6899  -41.4
 0.080  0.4290 -112.4  46.474  132.8  0.0136   60.7  0.6435  -45.2
 0.090  0.4529 -119.3  43.313  128.2  0.0146   59.6  0.6003  -49.5
 0.100  0.4828 -125.5  40.476  122.9  0.0157   58.7  0.5611  -54.5
 0.110  0.4838 -129.3  38.235  121.2  0.0164   58.4  0.5316  -56.0
 0.120  0.4870 -133.0  36.032  119.3  0.0171   58.1  0.5025  -57.8
 0.130  0.4921 -136.7  33.874  117.1  0.0177   57.9  0.4739  -59.7
 0.140  0.4993 -140.3  31.771  114.7  0.0184   57.6  0.4460  -61.8
 0.150  0.5084 -143.8  29.734  111.9  0.0191   57.4  0.4187  -64.3
 0.200  0.5246 -154.0  23.244  105.0  0.0219   59.7  0.3323  -70.0
 0.250  0.5327 -161.4  18.980   99.9  0.0255   60.1  0.2766  -73.4
 0.300  0.5379 -166.4  15.984   96.5  0.0286   62.0  0.2363  -76.4
 0.350  0.5392 -170.1  14.070   94.1  0.0324   63.7  0.2115  -78.0
 0.400  0.5427 -173.7  12.187   91.0  0.0362   65.1  0.1870  -80.0
 0.450  0.5438 -176.7  10.987   89.2  0.0394   65.6  0.1727  -81.5
 0.500  0.5463 -179.6   9.801   86.9  0.0427   66.0  0.1586  -83.3
 0.600  0.5503  175.7   8.224   83.3  0.0506   66.9  0.1399  -86.3
 0.700  0.5528  172.1   7.062   80.2  0.0573   67.7  0.1263  -88.7
 0.800  0.5563  168.3   6.194   77.1  0.0658   67.9  0.1191  -91.3
 0.900  0.5566  164.9   5.505   74.3  0.0726   66.7  0.1137  -95.0
 1.000  0.5621  161.6   4.980   71.6  0.0803   66.5  0.1090  -98.6
 1.100  0.5654  158.4   4.538   69.1  0.0879   65.7  0.1079 -101.2
 1.200  0.5685  155.4   4.166   66.4  0.0952   64.8  0.1070 -104.3
 1.300  0.5717  152.4   3.853   63.9  0.1023   63.9  0.1080 -108.1
 1.400  0.5766  149.6   3.593   61.4  0.1098   63.0  0.1090 -112.6
 1.500  0.5815  146.9   3.353   59.0  0.1173   62.1  0.1117 -116.0
 1.600  0.5843  143.9   3.154   56.5  0.1245   60.9  0.1152 -119.1
 1.700  0.5884  141.2   2.975   54.2  0.1321   59.9  0.1202 -123.1
 1.800  0.5944  138.5   2.823   51.7  0.1391   58.7  0.1245 -127.0
 1.900  0.5996  135.8   2.677   49.6  0.1453   57.5  0.1303 -130.0
 2.000  0.6021  133.3   2.543   47.1  0.1529   56.2  0.1372 -132.8
 2.100  0.6074  130.7   2.426   44.9  0.1596   55.0  0.1434 -136.0
 2.200  0.6140  128.1   2.313   42.5  0.1663   53.9  0.1501 -139.0
 2.300  0.6186  125.9   2.218   40.4  0.1734   52.7  0.1579 -141.2
 2.400  0.6241  123.8   2.126   38.2  0.1805   51.5  0.1659 -143.1
 2.500  0.6288  121.6   2.043   36.2  0.1867   50.1  0.1737 -145.8
 2.600  0.6345  119.4   1.963   34.0  0.1931   48.8  0.1818 -148.2
 2.700  0.6409  117.3   1.893   32.1  0.1993   47.6  0.1887 -150.1
 2.800  0.6481  115.2   1.826   30.0  0.2055   46.5  0.1957 -151.9
 2.900  0.6524  113.1   1.764   28.1  0.2114   45.3  0.2017 -154.2
 3.000  0.6575  111.1   1.704   26.1  0.2173   44.1  0.2081 -156.4
 3.100  0.6611  109.3   1.654   24.5  0.2229   42.8  0.2126 -158.6
 3.200  0.6654  107.5   1.606   22.7  0.2286   41.6  0.2173 -160.6
 3.300  0.6703  105.7   1.559   20.9  0.2344   40.5  0.2223 -162.6
 3.400  0.6758  103.9   1.513   19.0  0.2402   39.4  0.2276 -164.5
 3.500  0.6820  102.2   1.470   16.9  0.2462   38.4  0.2331 -166.3
 3.600  0.6855  100.6   1.433   15.3  0.2515   37.1  0.2375 -168.6
 3.700  0.6896   99.0   1.397   13.7  0.2570   35.9  0.2423 -170.9
 3.800  0.6942   97.5   1.362   11.9  0.2626   34.8  0.2474 -173.1
 3.900  0.6993   95.9   1.329   10.1  0.2682   33.7  0.2529 -175.1
 4.000  0.7049   94.4   1.297    8.2  0.2740   32.6  0.2587 -177.1
 4.100  0.7073   92.9   1.267    6.7  0.2791   31.3  0.2642 -179.6
 4.200  0.7102   91.4   1.238    5.2  0.2844   30.0  0.2701  178.1
 4.300  0.7136   90.0   1.211    3.6  0.2898   28.8  0.2765  175.8
 4.400  0.7174   88.5   1.184    1.9  0.2953   27.6  0.2832  173.7
 4.500  0.7217   87.1   1.158    0.1  0.3010   26.5  0.2904  171.6
 4.600  0.7251   85.8   1.134   -1.2  0.3058   25.3  0.2979  169.7
 4.700  0.7290   84.4   1.111   -2.5  0.3108   24.2  0.3057  167.8
 4.800  0.7332   83.1   1.088   -3.9  0.3158   23.1  0.3138  166.0
 4.900  0.7378   81.8   1.066   -5.4  0.3210   22.0  0.3222  164.4
 5.000  0.7428   80.5   1.045   -6.9  0.3263   21.0  0.3308  162.8
 5.100  0.7431   79.1   1.028   -8.2  0.3307   19.8  0.3394  161.6
 5.200  0.7437   77.8   1.011   -9.5  0.3353   18.6  0.3482  160.4
 5.300  0.7448   76.4   0.995  -10.8  0.3400   17.4  0.3571  159.3
 5.400  0.7464   75.1   0.980  -12.2  0.3449   16.3  0.3661  158.3
 5.500  0.7483   73.7   0.965  -13.6  0.3499   15.2  0.3752  157.3
 5.600  0.7480   72.5   0.949  -14.7  0.3539   14.0  0.3805  156.3
 5.700  0.7480   71.4   0.933  -15.8  0.3580   12.9  0.3860  155.4
 5.800  0.7483   70.2   0.918  -17.0  0.3623   11.8  0.3915  154.5
 5.900  0.7490   69.1   0.903  -18.2  0.3667   10.7  0.3972  153.6
 6.000  0.7499   67.9   0.888  -19.5  0.3712    9.7  0.4029  152.8
!
!  f       NFmin   Gammaopt  rn/50
! GHz       dB    MAG  ANG    -
 0.450      1.45  0.40 -171   0.08
 0.900      1.49  0.43 -165   0.08
 1.900      2.13  0.59 -134   0.21
 2.400      2.45  0.63 -119   0.45
!
! (c) 2017  Infineon Technologies AG, Munich