! Infineon Technologies  Discrete & RF Semiconductors
! BFP193
! VCE =  10. V,  IC =  40 mA
! Common Emitter S-Parameters:                            Jan 2017
# GHz  S  MA  R  50
!  f         S11            S21            S12            S22
! GHz     MAG   ANG      MAG   ANG      MAG   ANG      MAG   ANG
 0.010  0.3787  -17.6  65.585  171.6  0.0023   81.5  0.9621   -6.9
 0.020  0.3973  -35.1  64.382  164.5  0.0041   82.7  0.9319  -14.2
 0.030  0.3829  -49.7  60.536  158.8  0.0063   72.3  0.8818  -19.6
 0.040  0.3942  -64.4  57.355  152.5  0.0086   67.4  0.8405  -25.6
 0.050  0.4292  -77.5  54.954  145.5  0.0109   64.5  0.8093  -32.2
 0.060  0.4233  -85.8  51.529  142.4  0.0120   63.0  0.7606  -35.0
 0.070  0.4264  -94.2  48.275  138.9  0.0132   61.7  0.7140  -38.3
 0.080  0.4385 -102.3  45.227  134.9  0.0143   60.7  0.6700  -41.9
 0.090  0.4587 -109.8  42.430  130.4  0.0155   59.8  0.6291  -46.1
 0.100  0.4861 -116.6  39.938  125.2  0.0166   59.0  0.5920  -50.8
 0.110  0.4848 -120.8  37.791  123.4  0.0173   58.2  0.5619  -52.3
 0.120  0.4861 -124.9  35.686  121.4  0.0180   57.5  0.5322  -53.9
 0.130  0.4900 -129.0  33.629  119.2  0.0187   56.8  0.5029  -55.8
 0.140  0.4963 -133.1  31.629  116.7  0.0194   56.2  0.4743  -57.9
 0.150  0.5050 -137.0  29.700  113.8  0.0201   55.6  0.4464  -60.2
 0.200  0.5200 -148.8  23.376  106.5  0.0232   58.1  0.3580  -65.6
 0.250  0.5272 -157.2  19.142  101.2  0.0266   58.4  0.2979  -68.6
 0.300  0.5290 -162.7  16.142   97.6  0.0293   59.2  0.2558  -71.0
 0.350  0.5305 -166.9  14.217   95.1  0.0326   61.1  0.2298  -72.2
 0.400  0.5348 -171.1  12.327   91.9  0.0360   62.6  0.2040  -73.8
 0.450  0.5357 -174.2  11.119   90.0  0.0396   63.5  0.1886  -74.8
 0.500  0.5382 -177.3   9.926   87.6  0.0433   64.2  0.1733  -76.0
 0.600  0.5424  177.7   8.337   83.9  0.0503   64.7  0.1521  -78.3
 0.700  0.5464  173.4   7.157   80.8  0.0570   66.0  0.1375  -80.0
 0.800  0.5478  169.6   6.287   77.5  0.0643   66.5  0.1293  -82.3
 0.900  0.5485  166.0   5.587   74.8  0.0719   65.8  0.1235  -84.7
 1.000  0.5541  162.7   5.053   72.0  0.0785   65.4  0.1177  -87.9
 1.100  0.5574  159.5   4.605   69.5  0.0861   65.0  0.1156  -90.4
 1.200  0.5605  156.4   4.228   66.7  0.0933   64.1  0.1135  -93.4
 1.300  0.5638  153.3   3.910   64.3  0.1000   63.2  0.1137  -97.0
 1.400  0.5676  150.4   3.645   61.7  0.1076   62.6  0.1137 -101.1
 1.500  0.5734  147.7   3.403   59.4  0.1149   61.5  0.1151 -105.0
 1.600  0.5751  144.6   3.200   56.8  0.1222   60.5  0.1183 -108.2
 1.700  0.5806  141.9   3.020   54.4  0.1291   59.6  0.1220 -112.5
 1.800  0.5868  139.1   2.866   52.0  0.1364   58.4  0.1255 -116.4
 1.900  0.5901  136.5   2.717   49.8  0.1428   57.3  0.1300 -120.0
 2.000  0.5961  133.9   2.580   47.3  0.1500   56.2  0.1363 -123.4
 2.100  0.6012  131.3   2.462   45.1  0.1564   55.0  0.1417 -127.0
 2.200  0.6075  128.7   2.347   42.7  0.1629   53.8  0.1477 -130.3
 2.300  0.6117  126.4   2.250   40.6  0.1699   52.7  0.1550 -132.9
 2.400  0.6168  124.2   2.157   38.4  0.1769   51.6  0.1626 -135.2
 2.500  0.6220  122.0   2.074   36.4  0.1833   50.3  0.1699 -138.2
 2.600  0.6282  119.8   1.993   34.3  0.1898   49.1  0.1776 -140.9
 2.700  0.6335  117.7   1.921   32.3  0.1956   47.9  0.1844 -143.1
 2.800  0.6397  115.7   1.852   30.2  0.2015   46.7  0.1914 -145.2
 2.900  0.6453  113.6   1.789   28.3  0.2075   45.5  0.1971 -147.8
 3.000  0.6517  111.5   1.729   26.2  0.2136   44.3  0.2032 -150.3
 3.100  0.6552  109.7   1.678   24.6  0.2192   43.1  0.2075 -152.5
 3.200  0.6594  107.8   1.629   22.8  0.2248   42.0  0.2121 -154.7
 3.300  0.6642  106.0   1.582   21.0  0.2306   40.9  0.2170 -156.8
 3.400  0.6697  104.2   1.536   19.0  0.2364   39.9  0.2221 -158.7
 3.500  0.6758  102.5   1.492   16.9  0.2423   38.9  0.2275 -160.6
 3.600  0.6798  100.9   1.454   15.3  0.2476   37.6  0.2316 -163.1
 3.700  0.6843   99.4   1.417   13.7  0.2531   36.4  0.2361 -165.5
 3.800  0.6893   97.8   1.381   11.9  0.2586   35.2  0.2409 -167.8
 3.900  0.6948   96.3   1.347   10.1  0.2643   34.1  0.2462 -170.0
 4.000  0.7008   94.8   1.314    8.2  0.2700   33.0  0.2518 -172.1
 4.100  0.7031   93.3   1.284    6.7  0.2752   31.7  0.2571 -174.7
 4.200  0.7058   91.8   1.255    5.1  0.2806   30.5  0.2629 -177.2
 4.300  0.7091   90.3   1.226    3.5  0.2861   29.4  0.2692 -179.5
 4.400  0.7128   88.8   1.199    1.8  0.2917   28.3  0.2760  178.2
 4.500  0.7170   87.3   1.173    0.0  0.2974   27.2  0.2831  176.1
 4.600  0.7205   85.9   1.148   -1.3  0.3022   26.0  0.2905  174.0
 4.700  0.7243   84.6   1.125   -2.7  0.3072   24.8  0.2982  172.0
 4.800  0.7286   83.2   1.101   -4.1  0.3122   23.7  0.3063  170.1
 4.900  0.7333   81.9   1.079   -5.6  0.3174   22.6  0.3147  168.3
 5.000  0.7383   80.6   1.057   -7.1  0.3227   21.6  0.3234  166.6
 5.100  0.7389   79.3   1.039   -8.3  0.3272   20.4  0.3322  165.2
 5.200  0.7399   78.0   1.022   -9.6  0.3319   19.2  0.3412  164.0
 5.300  0.7413   76.7   1.006  -10.9  0.3367   18.1  0.3503  162.7
 5.400  0.7431   75.4   0.989  -12.3  0.3416   17.0  0.3596  161.6
 5.500  0.7452   74.1   0.974  -13.7  0.3467   15.9  0.3690  160.5
 5.600  0.7448   72.9   0.957  -14.8  0.3508   14.8  0.3747  159.5
 5.700  0.7448   71.7   0.941  -16.0  0.3551   13.7  0.3805  158.5
 5.800  0.7451   70.5   0.925  -17.2  0.3595   12.6  0.3865  157.6
 5.900  0.7457   69.3   0.910  -18.4  0.3641   11.5  0.3925  156.7
 6.000  0.7467   68.1   0.895  -19.7  0.3687   10.5  0.3986  155.8
!
!  f       NFmin   Gammaopt  rn/50
! GHz       dB    MAG  ANG    -
 0.450      1.38  0.38 -172   0.08
 0.900      1.43  0.41 -167   0.08
 1.900      2.05  0.59 -135   0.20
 2.400      2.37  0.63 -120   0.42
!
! (c) 2017  Infineon Technologies AG, Munich