! Infineon Technologies  Discrete & RF Semiconductors
! BFP193
! VCE =  12. V,  IC =  48 mA
! Common Emitter S-Parameters:                            Jan 2017
# GHz  S  MA  R  50
!  f         S11            S21            S12            S22
! GHz     MAG   ANG      MAG   ANG      MAG   ANG      MAG   ANG
 0.010  0.3621  -18.1  49.564  171.8  0.0031   41.9  0.8681   -5.2
 0.020  0.3849  -35.2  49.672  164.9  0.0045   56.8  0.8498  -11.0
 0.030  0.3734  -49.5  46.754  159.5  0.0066   58.7  0.8120  -15.2
 0.040  0.3857  -63.8  44.308  153.4  0.0087   59.7  0.7790  -19.7
 0.050  0.4199  -76.5  42.414  146.7  0.0108   60.3  0.7512  -24.6
 0.060  0.4168  -84.9  39.863  143.7  0.0121   58.9  0.7151  -26.7
 0.070  0.4226  -93.2  37.434  140.4  0.0134   57.8  0.6802  -29.1
 0.080  0.4369 -101.1  35.153  136.5  0.0147   56.9  0.6465  -31.7
 0.090  0.4590 -108.4  33.049  132.2  0.0160   56.1  0.6143  -34.6
 0.100  0.4878 -114.9  31.160  127.3  0.0173   55.5  0.5838  -37.8
 0.110  0.4889 -119.0  29.578  125.5  0.0180   54.8  0.5604  -38.8
 0.120  0.4925 -123.0  28.028  123.5  0.0187   54.1  0.5372  -39.8
 0.130  0.4985 -127.0  26.516  121.3  0.0195   53.5  0.5141  -40.9
 0.140  0.5067 -130.8  25.049  118.8  0.0202   52.9  0.4913  -42.1
 0.150  0.5172 -134.5  23.635  116.0  0.0209   52.4  0.4687  -43.5
 0.200  0.5410 -146.4  18.818  108.9  0.0236   54.3  0.3969  -46.2
 0.250  0.5510 -154.8  15.573  103.5  0.0268   53.9  0.3493  -47.3
 0.300  0.5603 -160.9  13.204   99.7  0.0295   55.3  0.3144  -47.8
 0.350  0.5625 -165.3  11.641   97.1  0.0323   56.7  0.2955  -47.6
 0.400  0.5679 -169.6  10.110   93.7  0.0352   57.9  0.2767  -47.3
 0.450  0.5693 -173.0   9.153   91.7  0.0381   59.4  0.2640  -47.8
 0.500  0.5728 -176.4   8.209   89.2  0.0410   60.6  0.2513  -48.4
 0.600  0.5781  178.2   6.927   85.3  0.0476   62.0  0.2345  -49.8
 0.700  0.5821  174.1   5.945   82.1  0.0531   63.9  0.2189  -51.9
 0.800  0.5854  169.8   5.225   78.7  0.0605   64.4  0.2159  -53.4
 0.900  0.5875  166.0   4.631   75.8  0.0667   64.0  0.2094  -56.0
 1.000  0.5894  162.8   4.253   72.8  0.0733   64.7  0.2029  -58.4
 1.100  0.5965  159.3   3.823   70.2  0.0804   64.3  0.1937  -62.0
 1.200  0.5952  156.2   3.585   67.3  0.0867   63.8  0.1971  -64.0
 1.300  0.6007  153.0   3.263   64.7  0.0934   63.3  0.1884  -68.2
 1.400  0.6010  150.2   3.096   61.9  0.1005   62.9  0.1921  -70.9
 1.500  0.6098  147.3   2.855   59.4  0.1074   62.0  0.1843  -75.5
 1.600  0.6091  144.3   2.734   56.8  0.1139   61.6  0.1916  -78.1
 1.700  0.6142  141.7   2.579   54.3  0.1211   60.8  0.1914  -82.3
 1.800  0.6194  138.8   2.443   51.7  0.1282   59.5  0.1893  -86.6
 1.900  0.6253  136.0   2.310   49.4  0.1351   58.6  0.1871  -91.2
 2.000  0.6276  133.5   2.206   46.7  0.1415   57.7  0.1954  -94.4
 2.100  0.6334  130.8   2.101   44.4  0.1481   56.7  0.1969  -98.5
 2.200  0.6405  128.2   1.999   41.9  0.1548   55.8  0.1994 -102.6
 2.300  0.6443  125.8   1.921   39.8  0.1619   54.6  0.2036 -106.3
 2.400  0.6491  123.5   1.846   37.5  0.1690   53.5  0.2087 -109.8
 2.500  0.6531  121.4   1.783   35.3  0.1750   52.5  0.2163 -112.9
 2.600  0.6579  119.3   1.723   33.0  0.1810   51.5  0.2245 -115.8
 2.700  0.6641  117.2   1.651   31.0  0.1874   50.3  0.2291 -119.2
 2.800  0.6711  115.1   1.581   28.8  0.1938   49.1  0.2344 -122.4
 2.900  0.6750  113.0   1.535   26.9  0.2000   47.9  0.2377 -125.6
 3.000  0.6799  110.9   1.491   24.8  0.2063   46.7  0.2417 -128.8
 3.100  0.6835  109.0   1.445   23.1  0.2122   45.6  0.2458 -131.5
 3.200  0.6878  107.1   1.400   21.3  0.2182   44.5  0.2505 -134.1
 3.300  0.6928  105.3   1.357   19.4  0.2243   43.5  0.2556 -136.5
 3.400  0.6985  103.5   1.316   17.4  0.2304   42.5  0.2613 -138.9
 3.500  0.7049  101.7   1.276   15.2  0.2366   41.6  0.2673 -141.2
 3.600  0.7076  100.1   1.247   13.6  0.2422   40.3  0.2700 -144.1
 3.700  0.7108   98.5   1.220   12.0  0.2480   39.1  0.2733 -146.9
 3.800  0.7145   97.0   1.193   10.3  0.2538   37.9  0.2773 -149.6
 3.900  0.7188   95.4   1.167    8.5  0.2598   36.8  0.2819 -152.2
 4.000  0.7236   93.9   1.143    6.6  0.2658   35.7  0.2871 -154.8
 4.100  0.7255   92.4   1.117    5.1  0.2714   34.4  0.2912 -157.8
 4.200  0.7280   90.9   1.091    3.5  0.2772   33.2  0.2961 -160.8
 4.300  0.7309   89.4   1.067    1.9  0.2830   32.0  0.3017 -163.6
 4.400  0.7344   87.9   1.043    0.2  0.2890   30.9  0.3080 -166.3
 4.500  0.7383   86.4   1.020   -1.6  0.2951   29.8  0.3150 -168.9
 4.600  0.7415   85.0   0.997   -2.9  0.3003   28.6  0.3222 -171.5
 4.700  0.7452   83.6   0.975   -4.3  0.3057   27.4  0.3299 -173.9
 4.800  0.7492   82.3   0.954   -5.7  0.3112   26.3  0.3383 -176.2
 4.900  0.7537   80.9   0.933   -7.2  0.3168   25.2  0.3471 -178.4
 5.000  0.7586   79.6   0.913   -8.7  0.3225   24.1  0.3565  179.5
 5.100  0.7589   78.3   0.897   -9.9  0.3275   22.8  0.3660  177.7
 5.200  0.7597   76.9   0.881  -11.1  0.3326   21.6  0.3759  175.9
 5.300  0.7608   75.6   0.866  -12.4  0.3379   20.4  0.3860  174.3
 5.400  0.7624   74.2   0.851  -13.7  0.3433   19.2  0.3965  172.7
 5.500  0.7644   72.9   0.837  -15.1  0.3489   18.1  0.4073  171.2
 5.600  0.7643   71.7   0.823  -16.1  0.3534   16.9  0.4138  169.9
 5.700  0.7645   70.5   0.809  -17.2  0.3580   15.8  0.4206  168.6
 5.800  0.7651   69.3   0.795  -18.3  0.3628   14.7  0.4276  167.3
 5.900  0.7660   68.1   0.781  -19.4  0.3677   13.6  0.4347  166.1
 6.000  0.7672   66.9   0.768  -20.6  0.3727   12.6  0.4421  164.9
!
!  f       NFmin   Gammaopt  rn/50
! GHz       dB    MAG  ANG    -
 0.450      1.49  0.42 -171   0.08
 0.900      1.54  0.44 -164   0.08
 1.900      2.17  0.61 -132   0.22
 2.400      2.50  0.64 -119   0.47
!
! (c) 2017  Infineon Technologies AG, Munich