! Infineon Technologies  Discrete & RF Semiconductors
! BFP193
! VCE =  2.0 V,  IC =  48 mA
! Common Emitter S-Parameters:                            Jan 2017
# GHz  S  MA  R  50
!  f         S11            S21            S12            S22
! GHz     MAG   ANG      MAG   ANG      MAG   ANG      MAG   ANG
 0.010  0.1641  -54.3  72.121  169.4  0.0026   85.8  0.9385  -11.2
 0.020  0.2470  -83.3  69.767  159.6  0.0049   81.7  0.8927  -22.4
 0.030  0.2911 -101.3  63.514  153.2  0.0068   71.3  0.8134  -29.8
 0.040  0.3556 -113.8  58.219  145.5  0.0088   65.4  0.7504  -38.6
 0.050  0.4315 -122.1  54.163  136.5  0.0108   61.8  0.7079  -48.7
 0.060  0.4476 -128.3  50.008  133.7  0.0119   60.8  0.6530  -52.2
 0.070  0.4684 -133.9  45.990  130.5  0.0130   59.9  0.6009  -56.4
 0.080  0.4934 -139.1  42.148  126.6  0.0142   59.2  0.5527  -61.4
 0.090  0.5220 -143.7  38.535  122.0  0.0153   58.5  0.5094  -67.2
 0.100  0.5536 -147.8  35.221  116.5  0.0164   58.0  0.4722  -74.0
 0.110  0.5583 -150.3  33.131  115.0  0.0171   58.2  0.4456  -76.2
 0.120  0.5641 -152.8  31.066  113.3  0.0178   58.4  0.4197  -78.8
 0.130  0.5710 -155.2  29.032  111.4  0.0186   58.5  0.3947  -81.6
 0.140  0.5788 -157.5  27.034  109.2  0.0193   58.7  0.3709  -84.8
 0.150  0.5875 -159.8  25.083  106.7  0.0200   58.8  0.3484  -88.5
 0.200  0.6066 -166.4  19.324  100.7  0.0231   62.0  0.2822  -98.9
 0.250  0.6145 -171.5  15.644   96.3  0.0276   62.5  0.2407 -106.8
 0.300  0.6163 -175.0  13.115   93.3  0.0309   64.9  0.2139 -113.8
 0.350  0.6186 -177.8  11.527   91.1  0.0352   65.9  0.1982 -118.5
 0.400  0.6223  179.5   9.962   88.2  0.0395   66.7  0.1840 -124.0
 0.450  0.6242  177.2   8.971   86.5  0.0434   67.5  0.1760 -127.9
 0.500  0.6271  175.0   7.990   84.3  0.0474   68.1  0.1688 -132.1
 0.600  0.6296  171.2   6.696   80.9  0.0561   67.6  0.1608 -138.8
 0.700  0.6321  168.1   5.749   78.0  0.0644   68.6  0.1548 -144.0
 0.800  0.6359  164.8   5.039   74.8  0.0726   67.9  0.1538 -147.7
 0.900  0.6366  161.7   4.478   72.1  0.0811   66.9  0.1548 -151.0
 1.000  0.6405  158.6   4.052   69.3  0.0895   66.3  0.1553 -154.5
 1.100  0.6439  155.7   3.692   66.8  0.0985   65.4  0.1574 -156.8
 1.200  0.6463  153.0   3.391   64.0  0.1063   64.3  0.1600 -159.1
 1.300  0.6482  150.2   3.139   61.6  0.1141   63.0  0.1641 -160.8
 1.400  0.6513  147.4   2.928   59.0  0.1228   62.3  0.1693 -163.2
 1.500  0.6566  144.7   2.735   56.5  0.1308   60.9  0.1744 -164.9
 1.600  0.6587  142.0   2.574   54.0  0.1386   59.6  0.1795 -166.0
 1.700  0.6636  139.2   2.431   51.5  0.1470   58.4  0.1865 -167.4
 1.800  0.6697  136.5   2.307   49.0  0.1549   57.1  0.1936 -169.0
 1.900  0.6724  134.2   2.188   46.9  0.1624   55.9  0.2001 -170.3
 2.000  0.6749  131.5   2.081   44.3  0.1700   54.5  0.2073 -171.2
 2.100  0.6791  128.9   1.986   42.1  0.1771   53.1  0.2147 -172.6
 2.200  0.6847  126.4   1.894   39.7  0.1843   51.8  0.2223 -174.0
 2.300  0.6876  124.2   1.818   37.6  0.1921   50.4  0.2298 -174.8
 2.400  0.6916  122.0   1.745   35.4  0.1999   49.2  0.2373 -175.6
 2.500  0.6959  119.8   1.678   33.4  0.2062   47.7  0.2456 -176.8
 2.600  0.7013  117.6   1.613   31.2  0.2127   46.3  0.2540 -178.0
 2.700  0.7056  115.5   1.556   29.3  0.2191   45.0  0.2605 -179.0
 2.800  0.7109  113.5   1.501   27.2  0.2257   43.7  0.2671  180.0
 2.900  0.7143  111.5   1.452   25.3  0.2319   42.3  0.2736  178.5
 3.000  0.7185  109.5   1.405   23.3  0.2383   41.0  0.2802  177.1
 3.100  0.7209  107.6   1.365   21.7  0.2440   39.7  0.2848  175.6
 3.200  0.7240  105.8   1.326   20.0  0.2497   38.5  0.2897  174.1
 3.300  0.7278  104.0   1.289   18.2  0.2556   37.3  0.2947  172.6
 3.400  0.7324  102.2   1.253   16.2  0.2616   36.2  0.2999  171.2
 3.500  0.7377  100.4   1.218   14.2  0.2677   35.1  0.3053  169.9
 3.600  0.7401   98.8   1.188   12.7  0.2729   33.8  0.3102  168.1
 3.700  0.7432   97.2   1.160   11.1  0.2783   32.5  0.3154  166.4
 3.800  0.7467   95.7   1.132    9.5  0.2839   31.2  0.3208  164.7
 3.900  0.7508   94.1   1.105    7.7  0.2895   30.0  0.3265  163.1
 4.000  0.7555   92.6   1.079    5.9  0.2953   28.9  0.3325  161.6
 4.100  0.7567   91.1   1.056    4.5  0.3003   27.6  0.3385  159.8
 4.200  0.7584   89.6   1.033    3.1  0.3054   26.3  0.3449  158.0
 4.300  0.7606   88.1   1.011    1.5  0.3107   25.1  0.3516  156.3
 4.400  0.7633   86.7   0.990   -0.0  0.3161   23.9  0.3586  154.7
 4.500  0.7665   85.2   0.970   -1.7  0.3217   22.8  0.3659  153.1
 4.600  0.7684   83.9   0.951   -2.9  0.3263   21.6  0.3731  151.7
 4.700  0.7707   82.5   0.933   -4.2  0.3311   20.5  0.3806  150.3
 4.800  0.7734   81.2   0.915   -5.4  0.3360   19.3  0.3882  149.0
 4.900  0.7765   79.9   0.898   -6.8  0.3411   18.3  0.3961  147.7
 5.000  0.7800   78.6   0.881   -8.2  0.3462   17.2  0.4041  146.5
 5.100  0.7797   77.3   0.868   -9.3  0.3504   16.0  0.4116  145.6
 5.200  0.7797   76.0   0.856  -10.5  0.3547   14.8  0.4192  144.8
 5.300  0.7802   74.7   0.844  -11.7  0.3591   13.6  0.4269  144.0
 5.400  0.7810   73.4   0.833  -12.9  0.3637   12.4  0.4347  143.2
 5.500  0.7823   72.1   0.822  -14.2  0.3685   11.3  0.4425  142.4
 5.600  0.7813   70.9   0.810  -15.2  0.3724   10.2  0.4464  141.6
 5.700  0.7806   69.8   0.798  -16.3  0.3765    9.1  0.4503  140.9
 5.800  0.7803   68.6   0.787  -17.3  0.3806    8.0  0.4543  140.1
 5.900  0.7802   67.5   0.776  -18.5  0.3850    6.9  0.4584  139.4
 6.000  0.7805   66.3   0.765  -19.6  0.3894    5.9  0.4626  138.7
!
!  f       NFmin   Gammaopt  rn/50
! GHz       dB    MAG  ANG    -
 0.450      1.49  0.42 -171   0.08
 0.900      1.54  0.44 -164   0.08
 1.900      2.17  0.61 -132   0.22
 2.400      2.50  0.64 -119   0.47
!
! (c) 2017  Infineon Technologies AG, Munich