! Infineon Technologies  Discrete & RF Semiconductors
! BFP193
! VCE =  6.0 V,  IC =  92 mA
! Common Emitter S-Parameters:                            Jan 2017
# GHz  S  MA  R  50
!  f         S11            S21            S12            S22
! GHz     MAG   ANG      MAG   ANG      MAG   ANG      MAG   ANG
 0.010  0.1404  -75.1  79.665  168.2  0.0020   82.9  0.8800  -10.0
 0.020  0.2486  -98.9  76.060  157.6  0.0039   85.6  0.8367  -21.1
 0.030  0.3023 -114.3  68.435  151.1  0.0056   73.2  0.7565  -27.3
 0.040  0.3708 -124.6  61.907  143.1  0.0073   66.6  0.6870  -34.8
 0.050  0.4475 -131.5  56.854  133.4  0.0092   62.7  0.6319  -43.8
 0.060  0.4639 -136.7  52.266  130.8  0.0099   61.9  0.5831  -46.1
 0.070  0.4839 -141.5  47.805  127.7  0.0106   61.3  0.5355  -48.9
 0.080  0.5070 -145.9  43.510  124.0  0.0114   60.7  0.4894  -52.2
 0.090  0.5328 -149.9  39.434  119.6  0.0121   60.2  0.4453  -56.2
 0.100  0.5610 -153.5  35.654  114.1  0.0128   59.7  0.4037  -61.0
 0.110  0.5658 -155.7  33.491  112.7  0.0135   60.3  0.3808  -62.0
 0.120  0.5714 -157.8  31.350  111.2  0.0143   60.9  0.3579  -63.1
 0.130  0.5778 -159.9  29.236  109.4  0.0150   61.4  0.3353  -64.4
 0.140  0.5849 -161.9  27.154  107.3  0.0158   61.9  0.3128  -65.9
 0.150  0.5927 -163.9  25.114  104.9  0.0165   62.3  0.2906  -67.6
 0.200  0.6051 -169.7  19.246   99.4  0.0196   66.8  0.2308  -71.2
 0.250  0.6139 -174.1  15.553   95.3  0.0229   66.2  0.1931  -72.7
 0.300  0.6147 -177.4  13.023   92.5  0.0264   69.9  0.1665  -74.3
 0.350  0.6162 -179.9  11.442   90.5  0.0301   70.2  0.1520  -75.2
 0.400  0.6188  177.6   9.879   87.8  0.0339   70.5  0.1376  -76.2
 0.450  0.6209  175.6   8.897   86.2  0.0377   70.9  0.1292  -77.4
 0.500  0.6237  173.6   7.924   84.2  0.0416   71.3  0.1209  -78.7
 0.600  0.6261  169.9   6.645   80.9  0.0493   71.6  0.1101  -81.8
 0.700  0.6267  166.8   5.706   78.1  0.0563   72.2  0.1033  -84.2
 0.800  0.6303  163.7   5.009   75.1  0.0648   71.6  0.1014  -87.4
 0.900  0.6312  160.6   4.453   72.4  0.0724   70.4  0.1004  -91.4
 1.000  0.6334  157.8   4.032   69.7  0.0800   70.1  0.0987  -95.5
 1.100  0.6371  154.8   3.677   67.3  0.0879   69.0  0.1000  -98.8
 1.200  0.6388  152.0   3.379   64.6  0.0953   67.9  0.1015 -102.6
 1.300  0.6426  149.3   3.129   62.1  0.1026   66.8  0.1051 -107.1
 1.400  0.6449  146.4   2.921   59.6  0.1114   65.8  0.1078 -111.7
 1.500  0.6490  143.9   2.728   57.1  0.1185   64.4  0.1113 -115.5
 1.600  0.6526  141.2   2.569   54.6  0.1260   63.4  0.1171 -118.5
 1.700  0.6555  138.5   2.427   52.2  0.1336   62.2  0.1236 -122.9
 1.800  0.6615  135.8   2.306   49.7  0.1409   60.8  0.1291 -126.7
 1.900  0.6646  133.4   2.186   47.6  0.1477   59.6  0.1357 -130.1
 2.000  0.6672  130.8   2.079   45.1  0.1555   58.1  0.1435 -132.9
 2.100  0.6716  128.3   1.985   42.9  0.1623   56.9  0.1508 -136.2
 2.200  0.6773  125.8   1.894   40.4  0.1691   55.8  0.1585 -139.2
 2.300  0.6807  123.5   1.818   38.3  0.1763   54.4  0.1671 -141.4
 2.400  0.6852  121.3   1.744   36.1  0.1836   53.1  0.1760 -143.3
 2.500  0.6891  119.2   1.678   34.1  0.1900   51.7  0.1844 -146.1
 2.600  0.6940  117.1   1.614   32.0  0.1966   50.4  0.1931 -148.6
 2.700  0.6984  115.1   1.558   30.1  0.2028   49.1  0.2008 -150.4
 2.800  0.7037  113.1   1.504   28.0  0.2092   47.8  0.2087 -152.1
 2.900  0.7072  111.1   1.455   26.1  0.2154   46.5  0.2153 -154.5
 3.000  0.7116  109.1   1.408   24.0  0.2218   45.2  0.2223 -156.8
 3.100  0.7140  107.3   1.368   22.4  0.2276   43.9  0.2274 -158.9
 3.200  0.7172  105.4   1.329   20.7  0.2335   42.7  0.2327 -160.9
 3.300  0.7211  103.6   1.291   18.9  0.2396   41.5  0.2384 -162.8
 3.400  0.7256  101.9   1.254   17.0  0.2457   40.4  0.2443 -164.7
 3.500  0.7309  100.1   1.219   15.0  0.2519   39.4  0.2504 -166.4
 3.600  0.7333   98.5   1.189   13.5  0.2574   38.1  0.2554 -168.7
 3.700  0.7363   96.9   1.160   11.9  0.2629   36.8  0.2609 -171.0
 3.800  0.7398   95.4   1.133   10.2  0.2686   35.6  0.2667 -173.2
 3.900  0.7438   93.8   1.106    8.4  0.2745   34.4  0.2729 -175.2
 4.000  0.7484   92.3   1.080    6.6  0.2804   33.3  0.2794 -177.2
 4.100  0.7496   90.8   1.057    5.2  0.2857   32.0  0.2853 -179.7
 4.200  0.7512   89.3   1.034    3.7  0.2912   30.7  0.2918  178.0
 4.300  0.7534   87.8   1.012    2.1  0.2968   29.4  0.2987  175.7
 4.400  0.7560   86.4   0.990    0.5  0.3025   28.2  0.3061  173.5
 4.500  0.7592   84.9   0.970   -1.2  0.3084   27.1  0.3139  171.5
 4.600  0.7618   83.6   0.951   -2.4  0.3133   25.9  0.3216  169.5
 4.700  0.7647   82.2   0.932   -3.7  0.3184   24.7  0.3296  167.7
 4.800  0.7681   80.9   0.914   -5.0  0.3236   23.6  0.3380  165.9
 4.900  0.7719   79.6   0.896   -6.4  0.3290   22.5  0.3467  164.2
 5.000  0.7761   78.3   0.879   -7.8  0.3344   21.4  0.3557  162.6
 5.100  0.7756   77.0   0.866   -8.9  0.3389   20.1  0.3646  161.3
 5.200  0.7755   75.7   0.853  -10.1  0.3436   18.9  0.3737  160.1
 5.300  0.7758   74.4   0.841  -11.4  0.3485   17.7  0.3829  158.9
 5.400  0.7765   73.1   0.829  -12.6  0.3535   16.5  0.3924  157.8
 5.500  0.7776   71.8   0.817  -13.9  0.3586   15.4  0.4019  156.7
 5.600  0.7769   70.6   0.804  -14.9  0.3628   14.2  0.4074  155.7
 5.700  0.7765   69.4   0.792  -16.0  0.3671   13.1  0.4129  154.7
 5.800  0.7765   68.3   0.780  -17.0  0.3716   12.0  0.4186  153.8
 5.900  0.7768   67.1   0.768  -18.2  0.3762   10.9  0.4244  152.9
 6.000  0.7774   65.9   0.757  -19.3  0.3809    9.9  0.4303  152.0
!
!  f       NFmin   Gammaopt  rn/50
! GHz       dB    MAG  ANG    -
!
! noise parameter not available yet for this operation point!
!
! (c) 2017  Infineon Technologies AG, Munich