! Infineon Technologies  Discrete & RF Semiconductors
! BFP193
! VCE =  8.0 V,  IC =  20 mA
! Common Emitter S-Parameters:                            Jan 2017
# GHz  S  MA  R  50
!  f         S11            S21            S12            S22
! GHz     MAG   ANG      MAG   ANG      MAG   ANG      MAG   ANG
 0.010  0.5300  -11.7  46.569  173.7  0.0025   88.1  0.9875   -5.3
 0.020  0.5397  -23.2  46.443  168.2  0.0053   84.4  0.9713  -10.9
 0.030  0.5187  -33.5  44.554  163.3  0.0075   77.1  0.9358  -15.4
 0.040  0.5155  -44.3  43.012  158.1  0.0098   73.2  0.9065  -20.1
 0.050  0.5303  -54.8  41.856  152.5  0.0121   70.8  0.8838  -25.2
 0.060  0.5145  -62.3  39.837  149.3  0.0138   67.5  0.8432  -28.0
 0.070  0.5081  -70.2  37.953  145.8  0.0156   65.0  0.8049  -31.2
 0.080  0.5114  -78.1  36.224  142.0  0.0173   63.0  0.7692  -34.6
 0.090  0.5243  -85.8  34.675  137.8  0.0191   61.4  0.7366  -38.3
 0.100  0.5460  -93.0  33.329  133.2  0.0209   60.0  0.7073  -42.4
 0.110  0.5380  -97.7  31.775  131.2  0.0219   58.4  0.6762  -44.1
 0.120  0.5336 -102.5  30.266  128.9  0.0229   57.0  0.6457  -45.9
 0.130  0.5330 -107.3  28.808  126.4  0.0240   55.6  0.6159  -47.9
 0.140  0.5362 -112.1  27.409  123.7  0.0250   54.4  0.5870  -50.2
 0.150  0.5431 -116.8  26.079  120.7  0.0261   53.3  0.5590  -52.6
 0.200  0.5509 -132.1  21.093  112.4  0.0288   51.5  0.4589  -58.8
 0.250  0.5508 -143.2  17.531  106.1  0.0321   50.6  0.3872  -62.5
 0.300  0.5512 -150.8  14.915  101.7  0.0343   51.6  0.3345  -65.1
 0.350  0.5511 -156.4  13.190   98.8  0.0371   52.6  0.3012  -66.5
 0.400  0.5562 -162.0  11.510   95.0  0.0400   53.4  0.2681  -68.3
 0.450  0.5553 -166.1  10.397   92.8  0.0431   54.5  0.2478  -69.3
 0.500  0.5572 -170.2   9.303   90.0  0.0462   55.4  0.2276  -70.4
 0.600  0.5606 -176.2   7.829   85.8  0.0524   57.5  0.2003  -72.2
 0.700  0.5626  178.9   6.732   82.3  0.0578   58.7  0.1811  -73.6
 0.800  0.5645  174.3   5.918   78.8  0.0649   60.3  0.1691  -75.3
 0.900  0.5669  170.2   5.262   75.7  0.0711   59.8  0.1599  -77.5
 1.000  0.5699  166.4   4.763   72.8  0.0776   60.3  0.1517  -79.9
 1.100  0.5737  162.9   4.344   70.1  0.0848   60.2  0.1482  -82.1
 1.200  0.5767  159.4   3.988   67.2  0.0913   59.6  0.1448  -84.8
 1.300  0.5788  156.2   3.689   64.6  0.0976   59.3  0.1427  -88.1
 1.400  0.5826  152.9   3.441   61.9  0.1043   58.9  0.1412  -91.5
 1.500  0.5878  150.0   3.213   59.4  0.1115   58.4  0.1413  -95.0
 1.600  0.5927  146.8   3.024   56.8  0.1180   57.6  0.1429  -98.0
 1.700  0.5963  144.0   2.853   54.3  0.1249   57.0  0.1451 -102.3
 1.800  0.6028  141.1   2.706   51.8  0.1316   56.1  0.1477 -106.2
 1.900  0.6071  138.3   2.566   49.5  0.1379   55.3  0.1510 -109.8
 2.000  0.6118  135.6   2.438   47.0  0.1445   54.4  0.1557 -113.2
 2.100  0.6172  132.9   2.326   44.7  0.1510   53.5  0.1603 -116.9
 2.200  0.6239  130.2   2.219   42.2  0.1576   52.6  0.1655 -120.3
 2.300  0.6273  127.8   2.127   40.1  0.1643   51.6  0.1724 -123.3
 2.400  0.6318  125.5   2.039   37.8  0.1711   50.7  0.1797 -126.0
 2.500  0.6378  123.2   1.959   35.7  0.1772   49.5  0.1863 -129.2
 2.600  0.6447  121.0   1.882   33.5  0.1833   48.3  0.1935 -132.1
 2.700  0.6504  118.8   1.815   31.5  0.1893   47.3  0.1999 -134.6
 2.800  0.6570  116.7   1.751   29.3  0.1953   46.4  0.2067 -137.0
 2.900  0.6618  114.6   1.691   27.4  0.2013   45.2  0.2119 -139.7
 3.000  0.6674  112.6   1.633   25.3  0.2074   44.1  0.2176 -142.2
 3.100  0.6709  110.7   1.585   23.6  0.2131   43.0  0.2218 -144.6
 3.200  0.6752  108.8   1.538   21.8  0.2188   42.0  0.2265 -147.0
 3.300  0.6802  106.9   1.492   19.9  0.2247   41.0  0.2314 -149.2
 3.400  0.6859  105.0   1.449   17.9  0.2306   40.1  0.2368 -151.4
 3.500  0.6923  103.2   1.407   15.8  0.2365   39.2  0.2424 -153.4
 3.600  0.6959  101.6   1.371   14.2  0.2420   38.0  0.2465 -156.0
 3.700  0.7001   99.9   1.336   12.6  0.2476   36.8  0.2510 -158.5
 3.800  0.7048   98.3   1.303   10.8  0.2533   35.7  0.2561 -160.9
 3.900  0.7101   96.8   1.270    9.0  0.2590   34.6  0.2615 -163.3
 4.000  0.7159   95.2   1.239    7.1  0.2649   33.6  0.2674 -165.5
 4.100  0.7181   93.7   1.210    5.6  0.2704   32.4  0.2726 -168.2
 4.200  0.7208   92.1   1.183    4.1  0.2760   31.2  0.2785 -170.8
 4.300  0.7241   90.6   1.156    2.5  0.2818   30.0  0.2849 -173.3
 4.400  0.7278   89.1   1.130    0.8  0.2876   28.9  0.2918 -175.7
 4.500  0.7321   87.6   1.105   -1.0  0.2936   27.9  0.2992 -178.0
 4.600  0.7354   86.2   1.081   -2.3  0.2987   26.7  0.3068  179.7
 4.700  0.7390   84.9   1.058   -3.7  0.3039   25.6  0.3149  177.5
 4.800  0.7431   83.5   1.036   -5.1  0.3092   24.5  0.3234  175.4
 4.900  0.7476   82.2   1.014   -6.6  0.3147   23.5  0.3323  173.5
 5.000  0.7525   80.9   0.993   -8.1  0.3202   22.5  0.3416  171.6
 5.100  0.7531   79.6   0.977   -9.3  0.3250   21.3  0.3508  170.0
 5.200  0.7540   78.2   0.961  -10.6  0.3299   20.1  0.3602  168.5
 5.300  0.7554   76.9   0.945  -11.9  0.3349   18.9  0.3699  167.1
 5.400  0.7572   75.5   0.930  -13.2  0.3401   17.8  0.3798  165.8
 5.500  0.7594   74.2   0.916  -14.6  0.3454   16.7  0.3899  164.5
 5.600  0.7592   73.0   0.900  -15.7  0.3498   15.6  0.3961  163.3
 5.700  0.7594   71.8   0.884  -16.8  0.3544   14.5  0.4024  162.2
 5.800  0.7600   70.5   0.869  -17.9  0.3591   13.4  0.4089  161.1
 5.900  0.7609   69.3   0.854  -19.1  0.3640   12.3  0.4155  160.0
 6.000  0.7621   68.1   0.839  -20.3  0.3689   11.3  0.4223  159.0
!
!  f       NFmin   Gammaopt  rn/50
! GHz       dB    MAG  ANG    -
 0.450      1.05  0.27  180   0.07
 0.900      1.13  0.36 -178   0.07
 1.900      1.76  0.56 -140   0.15
 2.400      2.10  0.62 -124   0.34
!
! (c) 2017  Infineon Technologies AG, Munich