! Infineon Technologies  Discrete & RF Semiconductors
! BFP193
! VCE =  3.0 V,  IC =  10 mA
! Common Emitter S-Parameters:                            Jan 2017
# GHz  S  MA  R  50
!  f         S11            S21            S12            S22
! GHz     MAG   ANG      MAG   ANG      MAG   ANG      MAG   ANG
 0.010  0.6772   -8.7  29.299  175.4  0.0037   83.3  0.9965   -4.2
 0.020  0.6845  -17.1  29.401  171.1  0.0074   83.7  0.9779   -8.6
 0.030  0.6646  -24.9  28.618  166.9  0.0107   77.8  0.9568  -12.4
 0.040  0.6575  -33.0  27.994  162.6  0.0140   74.7  0.9402  -16.4
 0.050  0.6637  -41.1  27.541  158.0  0.0173   72.8  0.9283  -20.5
 0.060  0.6447  -47.5  26.564  154.9  0.0199   68.9  0.8966  -23.3
 0.070  0.6342  -54.2  25.670  151.6  0.0225   66.0  0.8671  -26.3
 0.080  0.6326  -61.1  24.867  148.1  0.0252   63.6  0.8403  -29.5
 0.090  0.6400  -67.9  24.164  144.4  0.0279   61.8  0.8162  -32.9
 0.100  0.6561  -74.4  23.570  140.4  0.0306   60.2  0.7951  -36.5
 0.110  0.6428  -79.1  22.658  138.2  0.0321   57.9  0.7659  -38.4
 0.120  0.6338  -83.9  21.783  135.8  0.0336   55.8  0.7376  -40.4
 0.130  0.6295  -88.8  20.948  133.2  0.0351   53.9  0.7103  -42.6
 0.140  0.6299  -93.8  20.160  130.4  0.0367   52.2  0.6841  -45.0
 0.150  0.6350  -98.7  19.424  127.4  0.0383   50.6  0.6592  -47.5
 0.200  0.6331 -116.2  16.233  118.2  0.0426   46.4  0.5554  -54.9
 0.250  0.6261 -129.2  13.750  111.0  0.0465   43.5  0.4758  -59.9
 0.300  0.6220 -138.7  11.861  105.9  0.0491   41.8  0.4152  -63.6
 0.350  0.6169 -145.5  10.535  102.4  0.0513   42.0  0.3742  -65.7
 0.400  0.6205 -152.3   9.259   97.9  0.0536   42.1  0.3339  -68.3
 0.450  0.6172 -157.2   8.386   95.3  0.0558   42.3  0.3083  -69.9
 0.500  0.6185 -162.1   7.536   92.0  0.0580   42.5  0.2829  -71.8
 0.600  0.6207 -169.6   6.364   87.2  0.0625   43.8  0.2485  -74.5
 0.700  0.6221 -175.5   5.487   83.1  0.0670   45.5  0.2251  -76.6
 0.800  0.6235  179.2   4.829   79.1  0.0723   47.2  0.2097  -78.9
 0.900  0.6233  174.6   4.301   75.7  0.0775   47.6  0.1979  -81.5
 1.000  0.6275  170.4   3.897   72.4  0.0822   48.8  0.1882  -84.2
 1.100  0.6297  166.3   3.554   69.3  0.0886   49.4  0.1832  -86.6
 1.200  0.6318  162.7   3.268   66.1  0.0939   49.9  0.1789  -89.3
 1.300  0.6343  159.1   3.025   63.3  0.0995   50.4  0.1771  -92.5
 1.400  0.6381  155.9   2.824   60.4  0.1060   50.6  0.1757  -95.9
 1.500  0.6429  152.5   2.638   57.6  0.1116   50.5  0.1754  -99.1
 1.600  0.6465  149.2   2.483   54.8  0.1176   50.6  0.1774 -102.3
 1.700  0.6507  146.2   2.346   52.1  0.1244   50.5  0.1800 -106.0
 1.800  0.6581  143.2   2.227   49.3  0.1303   50.1  0.1834 -109.6
 1.900  0.6621  140.2   2.113   47.0  0.1365   49.8  0.1866 -113.0
 2.000  0.6645  137.4   2.008   44.2  0.1423   49.3  0.1922 -116.2
 2.100  0.6689  134.5   1.917   41.8  0.1483   48.8  0.1974 -119.5
 2.200  0.6750  131.7   1.829   39.1  0.1544   48.3  0.2032 -122.7
 2.300  0.6791  129.2   1.754   36.9  0.1611   47.6  0.2107 -125.4
 2.400  0.6845  126.8   1.681   34.5  0.1678   47.0  0.2186 -128.0
 2.500  0.6892  124.4   1.615   32.3  0.1741   46.2  0.2261 -130.9
 2.600  0.6952  122.0   1.552   29.9  0.1805   45.4  0.2342 -133.7
 2.700  0.7005  119.8   1.496   27.9  0.1863   44.6  0.2414 -136.1
 2.800  0.7069  117.6   1.443   25.7  0.1922   43.8  0.2491 -138.4
 2.900  0.7110  115.4   1.394   23.7  0.1984   42.9  0.2552 -141.0
 3.000  0.7162  113.2   1.347   21.5  0.2046   42.1  0.2619 -143.5
 3.100  0.7191  111.2   1.307   19.8  0.2106   41.2  0.2671 -145.9
 3.200  0.7229  109.2   1.268   18.0  0.2167   40.3  0.2728 -148.2
 3.300  0.7274  107.3   1.230   16.1  0.2228   39.4  0.2789 -150.4
 3.400  0.7329  105.4   1.194   14.1  0.2289   38.7  0.2854 -152.5
 3.500  0.7391  103.5   1.159   12.0  0.2351   37.9  0.2922 -154.5
 3.600  0.7421  101.8   1.129   10.5  0.2410   36.8  0.2971 -157.1
 3.700  0.7459  100.0   1.100    8.8  0.2470   35.7  0.3026 -159.5
 3.800  0.7503   98.3   1.072    7.1  0.2531   34.7  0.3087 -161.9
 3.900  0.7553   96.7   1.045    5.3  0.2593   33.7  0.3153 -164.2
 4.000  0.7610   95.0   1.019    3.4  0.2655   32.8  0.3223 -166.4
 4.100  0.7622   93.4   0.995    2.0  0.2715   31.6  0.3284 -169.1
 4.200  0.7641   91.9   0.972    0.5  0.2776   30.5  0.3353 -171.7
 4.300  0.7664   90.3   0.950   -1.1  0.2837   29.4  0.3427 -174.2
 4.400  0.7694   88.7   0.929   -2.7  0.2900   28.4  0.3508 -176.5
 4.500  0.7729   87.2   0.908   -4.4  0.2964   27.4  0.3595 -178.8
 4.600  0.7754   85.8   0.889   -5.6  0.3020   26.2  0.3678  178.9
 4.700  0.7785   84.4   0.870   -6.8  0.3077   25.1  0.3766  176.6
 4.800  0.7819   83.0   0.851   -8.1  0.3135   24.0  0.3860  174.5
 4.900  0.7859   81.6   0.834   -9.4  0.3194   22.9  0.3959  172.5
 5.000  0.7903   80.2   0.816  -10.8  0.3254   21.9  0.4063  170.6
 5.100  0.7900   78.8   0.803  -11.9  0.3306   20.7  0.4158  168.9
 5.200  0.7901   77.4   0.789  -13.0  0.3359   19.5  0.4257  167.3
 5.300  0.7907   76.1   0.777  -14.1  0.3413   18.3  0.4359  165.8
 5.400  0.7918   74.7   0.764  -15.3  0.3469   17.2  0.4464  164.3
 5.500  0.7933   73.3   0.752  -16.5  0.3526   16.1  0.4572  162.9
 5.600  0.7928   72.1   0.740  -17.4  0.3573   14.9  0.4634  161.6
 5.700  0.7926   70.9   0.728  -18.3  0.3622   13.8  0.4699  160.3
 5.800  0.7928   69.6   0.717  -19.2  0.3671   12.7  0.4765  159.1
 5.900  0.7934   68.4   0.705  -20.1  0.3723   11.6  0.4834  157.9
 6.000  0.7943   67.2   0.694  -21.1  0.3775   10.6  0.4905  156.7
!
!  f       NFmin   Gammaopt  rn/50
! GHz       dB    MAG  ANG    -
 0.450      0.87  0.21  156   0.07
 0.900      1.00  0.35  173   0.06
 1.900      1.75  0.57 -146   0.13
 2.400      2.13  0.63 -128   0.31
!
! (c) 2017  Infineon Technologies AG, Munich