! Infineon Technologies  Discrete & RF Semiconductors
! BFP193
! VCE =  1.0 V,  IC = 0.10 A
! Common Emitter S-Parameters:                            Jan 2017
# GHz  S  MA  R  50
!  f         S11            S21            S12            S22
! GHz     MAG   ANG      MAG   ANG      MAG   ANG      MAG   ANG
 0.010  0.4546 -150.0  45.927  154.5  0.0054   61.9  0.3836  -50.4
 0.020  0.6483 -153.4  37.227  136.3  0.0081   51.7  0.3879  -87.4
 0.030  0.6988 -158.4  30.849  131.2  0.0094   49.5  0.3599 -102.8
 0.040  0.7540 -162.8  24.844  123.5  0.0108   47.9  0.3610 -119.4
 0.050  0.8129 -166.5  19.557  111.3  0.0121   46.6  0.3909 -134.7
 0.060  0.8202 -168.2  17.678  109.8  0.0130   48.0  0.3867 -139.1
 0.070  0.8282 -170.0  15.815  107.9  0.0138   49.3  0.3849 -143.6
 0.080  0.8370 -171.6  13.972  105.6  0.0147   50.4  0.3854 -148.1
 0.090  0.8464 -173.3  12.160  102.5  0.0156   51.4  0.3883 -152.6
 0.100  0.8566 -174.9  10.395   98.4  0.0165   52.3  0.3936 -157.0
 0.110  0.8574 -175.7   9.711   97.6  0.0174   53.9  0.3928 -158.6
 0.120  0.8585 -176.5   9.029   96.7  0.0183   55.3  0.3924 -160.2
 0.130  0.8596 -177.3   8.350   95.6  0.0193   56.6  0.3922 -161.9
 0.140  0.8610 -178.1   7.674   94.4  0.0202   57.8  0.3924 -163.5
 0.150  0.8625 -178.9   7.002   92.9  0.0212   58.9  0.3929 -165.1
 0.200  0.8633  178.5   5.267   88.9  0.0254   63.4  0.3937 -169.7
 0.250  0.8640  176.3   4.219   85.7  0.0313   65.4  0.3929 -172.4
 0.300  0.8622  174.4   3.523   83.2  0.0362   67.7  0.3931 -174.7
 0.350  0.8618  172.7   3.090   81.2  0.0415   68.6  0.3937 -176.1
 0.400  0.8622  170.9   2.661   78.6  0.0468   69.3  0.3945 -177.4
 0.450  0.8618  169.3   2.397   76.8  0.0521   69.2  0.3954 -178.5
 0.500  0.8620  167.7   2.137   74.5  0.0575   69.1  0.3965 -179.6
 0.600  0.8637  164.9   1.798   70.7  0.0679   69.0  0.4000  178.6
 0.700  0.8631  162.3   1.551   67.4  0.0781   69.4  0.4001  176.9
 0.800  0.8648  159.3   1.368   63.7  0.0898   68.1  0.4034  175.7
 0.900  0.8615  156.6   1.226   60.4  0.0996   67.1  0.4071  174.6
 1.000  0.8633  153.8   1.117   57.2  0.1100   65.7  0.4118  173.0
 1.100  0.8659  151.0   1.029   54.1  0.1209   64.6  0.4149  171.9
 1.200  0.8667  148.3   0.953   50.9  0.1309   63.2  0.4179  170.7
 1.300  0.8691  145.6   0.891   48.2  0.1408   61.7  0.4232  169.7
 1.400  0.8690  142.9   0.841   45.3  0.1513   60.4  0.4292  168.4
 1.500  0.8712  140.3   0.793   42.6  0.1609   58.8  0.4347  167.2
 1.600  0.8735  137.5   0.754   39.9  0.1705   57.1  0.4392  166.3
 1.700  0.8739  134.7   0.720   37.3  0.1800   55.7  0.4466  165.4
 1.800  0.8796  132.1   0.690   34.7  0.1896   54.0  0.4532  164.2
 1.900  0.8783  129.5   0.662   32.8  0.1985   52.4  0.4592  163.1
 2.000  0.8765  126.9   0.637   30.3  0.2077   50.8  0.4646  162.1
 2.100  0.8764  124.2   0.615   28.4  0.2157   49.2  0.4713  161.0
 2.200  0.8782  121.6   0.593   26.3  0.2239   47.7  0.4781  159.9
 2.300  0.8779  119.3   0.576   24.6  0.2326   46.1  0.4834  159.0
 2.400  0.8789  117.1   0.560   22.9  0.2414   44.6  0.4889  158.2
 2.500  0.8790  114.8   0.545   21.4  0.2488   42.9  0.4954  157.1
 2.600  0.8805  112.6   0.530   19.8  0.2565   41.3  0.5021  156.0
 2.700  0.8801  110.5   0.518   18.4  0.2632   39.8  0.5060  155.0
 2.800  0.8808  108.5   0.507   17.0  0.2701   38.3  0.5101  154.0
 2.900  0.8805  106.4   0.496   15.8  0.2767   36.8  0.5154  152.7
 3.000  0.8813  104.4   0.486   14.6  0.2834   35.3  0.5209  151.4
 3.100  0.8793  102.5   0.479   13.6  0.2890   33.9  0.5234  150.1
 3.200  0.8782  100.7   0.473   12.5  0.2948   32.5  0.5261  148.8
 3.300  0.8780   98.8   0.466   11.4  0.3007   31.1  0.5291  147.5
 3.400  0.8788   97.0   0.460   10.3  0.3068   29.8  0.5324  146.2
 3.500  0.8805   95.1   0.454    9.2  0.3131   28.6  0.5359  144.9
 3.600  0.8785   93.5   0.450    8.4  0.3182   27.2  0.5393  143.5
 3.700  0.8772   91.9   0.447    7.6  0.3236   25.8  0.5431  142.0
 3.800  0.8766   90.2   0.444    6.7  0.3291   24.4  0.5472  140.6
 3.900  0.8767   88.6   0.440    5.9  0.3348   23.2  0.5517  139.3
 4.000  0.8775   87.0   0.437    5.0  0.3406   21.9  0.5564  137.9
 4.100  0.8746   85.6   0.435    4.2  0.3453   20.5  0.5608  136.4
 4.200  0.8722   84.1   0.433    3.5  0.3501   19.2  0.5656  134.9
 4.300  0.8704   82.6   0.431    2.7  0.3552   18.0  0.5707  133.5
 4.400  0.8692   81.2   0.429    1.9  0.3604   16.7  0.5763  132.1
 4.500  0.8685   79.7   0.427    1.1  0.3658   15.5  0.5821  130.7
 4.600  0.8676   78.4   0.427    0.5  0.3697   14.2  0.5864  129.5
 4.700  0.8671   77.2   0.426   -0.1  0.3739   13.0  0.5910  128.4
 4.800  0.8670   75.9   0.426   -0.8  0.3781   11.8  0.5957  127.2
 4.900  0.8673   74.7   0.425   -1.4  0.3826   10.6  0.6008  126.1
 5.000  0.8681   73.4   0.425   -2.0  0.3872    9.5  0.6060  125.0
 5.100  0.8650   72.1   0.427   -2.8  0.3908    8.3  0.6099  124.2
 5.200  0.8623   70.8   0.429   -3.5  0.3947    7.0  0.6140  123.4
 5.300  0.8600   69.5   0.431   -4.3  0.3987    5.8  0.6181  122.6
 5.400  0.8582   68.2   0.433   -5.1  0.4029    4.7  0.6224  121.8
 5.500  0.8568   66.9   0.435   -5.8  0.4072    3.5  0.6268  121.0
 5.600  0.8538   65.8   0.436   -6.5  0.4104    2.4  0.6267  120.3
 5.700  0.8510   64.7   0.437   -7.2  0.4137    1.2  0.6268  119.5
 5.800  0.8486   63.6   0.438   -7.9  0.4172    0.1  0.6269  118.8
 5.900  0.8465   62.4   0.440   -8.5  0.4208   -0.9  0.6272  118.0
 6.000  0.8448   61.3   0.441   -9.2  0.4246   -2.0  0.6275  117.3
!
!  f       NFmin   Gammaopt  rn/50
! GHz       dB    MAG  ANG    -
!
! noise parameter not available yet for this operation point!
!
! (c) 2017  Infineon Technologies AG, Munich