! Infineon Technologies  Discrete & RF Semiconductors
! BFP193
! VCE =  3.0 V,  IC =  45 mA
! Common Emitter S-Parameters:                            Jan 2017
# GHz  S  MA  R  50
!  f         S11            S21            S12            S22
! GHz     MAG   ANG      MAG   ANG      MAG   ANG      MAG   ANG
 0.010  0.1984  -38.7  71.305  170.4  0.0026   78.8  0.9541   -9.7
 0.020  0.2547  -66.9  69.565  161.4  0.0044   78.5  0.9201  -19.7
 0.030  0.2811  -86.1  64.007  155.2  0.0065   70.9  0.8478  -26.4
 0.040  0.3324 -100.8  59.339  147.9  0.0086   67.0  0.7891  -34.2
 0.050  0.3992 -111.0  55.785  139.5  0.0108   64.7  0.7473  -43.1
 0.060  0.4123 -118.2  51.729  136.6  0.0119   63.0  0.6926  -46.4
 0.070  0.4314 -124.8  47.827  133.3  0.0131   61.5  0.6407  -50.3
 0.080  0.4558 -130.8  44.118  129.3  0.0142   60.3  0.5922  -54.9
 0.090  0.4846 -136.1  40.656  124.7  0.0153   59.3  0.5481  -60.2
 0.100  0.5171 -140.8  37.509  119.2  0.0165   58.4  0.5096  -66.4
 0.110  0.5217 -143.8  35.345  117.6  0.0172   58.4  0.4812  -68.4
 0.120  0.5276 -146.7  33.212  115.9  0.0178   58.4  0.4534  -70.6
 0.130  0.5348 -149.5  31.114  113.8  0.0185   58.3  0.4264  -73.1
 0.140  0.5434 -152.2  29.061  111.5  0.0191   58.3  0.4003  -75.9
 0.150  0.5531 -154.9  27.061  108.9  0.0198   58.3  0.3753  -79.1
 0.200  0.5728 -162.6  20.964  102.4  0.0226   61.1  0.2991  -88.0
 0.250  0.5818 -168.4  17.021   97.8  0.0264   62.2  0.2503  -94.6
 0.300  0.5847 -172.4  14.295   94.6  0.0305   63.9  0.2165 -100.4
 0.350  0.5861 -175.5  12.571   92.4  0.0343   65.1  0.1964 -104.4
 0.400  0.5892 -178.5  10.873   89.4  0.0381   66.0  0.1775 -109.3
 0.450  0.5916  179.1   9.795   87.6  0.0421   66.8  0.1666 -112.9
 0.500  0.5951  176.7   8.728   85.4  0.0461   67.5  0.1565 -116.9
 0.600  0.5991  172.6   7.316   81.9  0.0544   67.4  0.1436 -123.4
 0.700  0.6022  169.3   6.281   79.0  0.0620   67.8  0.1347 -128.5
 0.800  0.6040  165.9   5.512   75.8  0.0704   67.8  0.1319 -132.9
 0.900  0.6050  162.6   4.897   73.0  0.0785   66.9  0.1305 -136.9
 1.000  0.6088  159.7   4.431   70.3  0.0864   66.2  0.1302 -141.1
 1.100  0.6131  156.8   4.038   67.8  0.0949   65.7  0.1307 -143.4
 1.200  0.6158  153.7   3.705   65.1  0.1026   64.4  0.1325 -146.2
 1.300  0.6182  150.8   3.428   62.6  0.1103   63.4  0.1367 -148.6
 1.400  0.6211  148.1   3.198   60.1  0.1183   62.5  0.1409 -151.5
 1.500  0.6276  145.6   2.985   57.6  0.1267   61.2  0.1455 -153.7
 1.600  0.6304  142.6   2.809   55.1  0.1341   60.2  0.1504 -155.2
 1.700  0.6348  139.9   2.654   52.7  0.1421   58.9  0.1578 -157.2
 1.800  0.6406  137.3   2.517   50.2  0.1496   57.7  0.1642 -159.1
 1.900  0.6448  134.7   2.386   48.0  0.1569   56.4  0.1711 -161.1
 2.000  0.6470  132.1   2.267   45.5  0.1647   55.0  0.1781 -162.2
 2.100  0.6519  129.5   2.164   43.3  0.1716   53.6  0.1857 -164.0
 2.200  0.6581  127.0   2.064   40.9  0.1786   52.4  0.1934 -165.6
 2.300  0.6614  124.8   1.980   38.8  0.1860   51.1  0.2012 -166.6
 2.400  0.6657  122.6   1.899   36.6  0.1934   49.9  0.2090 -167.6
 2.500  0.6702  120.4   1.825   34.6  0.1998   48.5  0.2173 -169.1
 2.600  0.6757  118.2   1.754   32.5  0.2064   47.1  0.2258 -170.5
 2.700  0.6810  116.2   1.693   30.6  0.2127   45.8  0.2326 -171.7
 2.800  0.6872  114.2   1.634   28.5  0.2191   44.6  0.2396 -172.9
 2.900  0.6911  112.2   1.579   26.6  0.2251   43.3  0.2461 -174.6
 3.000  0.6958  110.2   1.526   24.6  0.2312   42.0  0.2528 -176.2
 3.100  0.6985  108.3   1.482   23.0  0.2368   40.7  0.2575 -177.9
 3.200  0.7020  106.5   1.439   21.2  0.2426   39.5  0.2623 -179.5
 3.300  0.7062  104.7   1.398   19.4  0.2485   38.3  0.2674  178.9
 3.400  0.7110  102.9   1.358   17.5  0.2544   37.2  0.2727  177.4
 3.500  0.7166  101.1   1.320   15.4  0.2605   36.1  0.2781  176.0
 3.600  0.7193   99.5   1.287   13.9  0.2658   34.8  0.2830  174.1
 3.700  0.7226   97.9   1.256   12.3  0.2712   33.6  0.2882  172.2
 3.800  0.7265   96.3   1.225   10.6  0.2767   32.4  0.2937  170.5
 3.900  0.7309   94.7   1.195    8.8  0.2823   31.2  0.2995  168.7
 4.000  0.7358   93.2   1.167    7.0  0.2881   30.1  0.3055  167.1
 4.100  0.7376   91.7   1.141    5.6  0.2933   28.8  0.3115  165.1
 4.200  0.7398   90.2   1.116    4.1  0.2986   27.5  0.3179  163.2
 4.300  0.7425   88.8   1.092    2.5  0.3040   26.3  0.3246  161.4
 4.400  0.7457   87.3   1.069    0.9  0.3096   25.1  0.3317  159.6
 4.500  0.7494   85.9   1.046   -0.8  0.3153   24.0  0.3390  157.9
 4.600  0.7520   84.6   1.025   -2.0  0.3199   22.8  0.3464  156.4
 4.700  0.7549   83.2   1.005   -3.3  0.3246   21.6  0.3540  154.9
 4.800  0.7583   81.9   0.986   -4.7  0.3295   20.5  0.3618  153.5
 4.900  0.7620   80.6   0.966   -6.1  0.3345   19.4  0.3699  152.2
 5.000  0.7662   79.3   0.948   -7.5  0.3396   18.3  0.3781  150.9
 5.100  0.7660   78.0   0.934   -8.7  0.3438   17.1  0.3859  149.9
 5.200  0.7663   76.7   0.919   -9.9  0.3481   15.9  0.3938  149.0
 5.300  0.7669   75.3   0.906  -11.2  0.3526   14.7  0.4017  148.1
 5.400  0.7679   74.0   0.893  -12.5  0.3572   13.6  0.4098  147.2
 5.500  0.7694   72.7   0.880  -13.8  0.3620   12.5  0.4180  146.4
 5.600  0.7688   71.5   0.867  -14.9  0.3660   11.4  0.4223  145.6
 5.700  0.7685   70.4   0.854  -15.9  0.3700   10.3  0.4266  144.8
 5.800  0.7685   69.2   0.841  -17.1  0.3743    9.2  0.4310  144.1
 5.900  0.7688   68.1   0.829  -18.2  0.3786    8.1  0.4355  143.3
 6.000  0.7694   66.9   0.817  -19.4  0.3831    7.1  0.4401  142.6
!
!  f       NFmin   Gammaopt  rn/50
! GHz       dB    MAG  ANG    -
 0.450      1.45  0.40 -171   0.08
 0.900      1.49  0.43 -165   0.08
 1.900      2.13  0.59 -134   0.21
 2.400      2.45  0.63 -119   0.45
!
! (c) 2017  Infineon Technologies AG, Munich