! Infineon Technologies  Discrete & RF Semiconductors
! BFP193
! VCE =  4.0 V,  IC =  45 mA
! Common Emitter S-Parameters:                            Jan 2017
# GHz  S  MA  R  50
!  f         S11            S21            S12            S22
! GHz     MAG   ANG      MAG   ANG      MAG   ANG      MAG   ANG
 0.010  0.2222  -32.8  71.424  170.7  0.0024   88.5  0.9592   -9.0
 0.020  0.2656  -59.4  69.640  162.1  0.0046   76.8  0.9198  -18.3
 0.030  0.2843  -78.7  64.406  155.9  0.0065   69.9  0.8535  -24.8
 0.040  0.3297  -94.1  60.038  148.8  0.0084   66.1  0.7998  -32.2
 0.050  0.3927 -105.2  56.737  140.7  0.0103   63.7  0.7615  -40.6
 0.060  0.4030 -112.8  52.715  137.8  0.0114   62.8  0.7078  -43.8
 0.070  0.4198 -119.8  48.854  134.4  0.0125   62.0  0.6566  -47.5
 0.080  0.4426 -126.3  45.195  130.4  0.0137   61.3  0.6086  -51.7
 0.090  0.4704 -132.0  41.791  125.7  0.0148   60.8  0.5646  -56.7
 0.100  0.5023 -137.1  38.709  120.3  0.0159   60.3  0.5255  -62.5
 0.110  0.5060 -140.2  36.499  118.7  0.0167   59.7  0.4962  -64.3
 0.120  0.5113 -143.3  34.323  116.9  0.0175   59.2  0.4675  -66.4
 0.130  0.5179 -146.3  32.186  114.8  0.0183   58.7  0.4395  -68.7
 0.140  0.5260 -149.3  30.097  112.4  0.0191   58.2  0.4123  -71.3
 0.150  0.5354 -152.1  28.067  109.7  0.0199   57.8  0.3861  -74.3
 0.200  0.5556 -160.5  21.790  103.2  0.0224   61.8  0.3069  -82.2
 0.250  0.5644 -166.7  17.722   98.4  0.0265   62.4  0.2545  -87.8
 0.300  0.5683 -170.9  14.897   95.2  0.0299   63.8  0.2186  -92.7
 0.350  0.5697 -174.1  13.103   92.9  0.0335   65.4  0.1966  -96.1
 0.400  0.5729 -177.3  11.337   89.9  0.0372   66.7  0.1755 -100.3
 0.450  0.5749 -179.8  10.217   88.1  0.0412   66.6  0.1633 -103.3
 0.500  0.5779  177.7   9.109   85.8  0.0452   66.5  0.1516 -106.8
 0.600  0.5818  173.5   7.637   82.3  0.0532   67.3  0.1363 -112.9
 0.700  0.5864  170.0   6.551   79.3  0.0609   68.2  0.1260 -117.3
 0.800  0.5888  166.6   5.753   76.2  0.0696   68.0  0.1214 -121.5
 0.900  0.5891  163.2   5.108   73.4  0.0770   67.1  0.1190 -125.8
 1.000  0.5937  160.2   4.624   70.8  0.0847   66.8  0.1172 -130.0
 1.100  0.5971  157.1   4.212   68.2  0.0925   65.9  0.1179 -132.7
 1.200  0.6006  154.1   3.865   65.5  0.1005   64.6  0.1190 -135.9
 1.300  0.6034  151.2   3.577   63.1  0.1078   63.7  0.1223 -138.6
 1.400  0.6069  148.5   3.336   60.5  0.1162   62.8  0.1260 -141.9
 1.500  0.6118  145.9   3.114   58.1  0.1237   61.6  0.1302 -144.6
 1.600  0.6157  142.9   2.930   55.6  0.1318   60.5  0.1351 -146.5
 1.700  0.6181  140.3   2.765   53.2  0.1390   59.4  0.1419 -148.9
 1.800  0.6266  137.6   2.624   50.8  0.1464   58.1  0.1480 -151.4
 1.900  0.6292  135.1   2.486   48.6  0.1539   56.8  0.1542 -153.5
 2.000  0.6329  132.4   2.363   46.1  0.1610   55.3  0.1621 -155.1
 2.100  0.6376  129.8   2.254   43.9  0.1679   54.1  0.1694 -157.2
 2.200  0.6435  127.3   2.149   41.5  0.1749   52.9  0.1770 -159.1
 2.300  0.6474  125.1   2.062   39.4  0.1821   51.6  0.1849 -160.3
 2.400  0.6523  123.0   1.978   37.2  0.1893   50.4  0.1929 -161.4
 2.500  0.6574  120.8   1.901   35.2  0.1958   49.0  0.2012 -163.2
 2.600  0.6634  118.6   1.826   33.1  0.2025   47.6  0.2097 -164.8
 2.700  0.6677  116.5   1.762   31.2  0.2088   46.3  0.2167 -166.2
 2.800  0.6729  114.5   1.700   29.1  0.2152   45.1  0.2239 -167.6
 2.900  0.6775  112.4   1.643   27.2  0.2212   43.9  0.2305 -169.5
 3.000  0.6830  110.4   1.588   25.1  0.2272   42.7  0.2373 -171.2
 3.100  0.6860  108.6   1.542   23.5  0.2328   41.4  0.2419 -173.0
 3.200  0.6897  106.7   1.498   21.8  0.2385   40.2  0.2468 -174.7
 3.300  0.6940  104.9   1.454   20.0  0.2444   39.0  0.2518 -176.3
 3.400  0.6991  103.2   1.413   18.0  0.2503   37.9  0.2571 -177.9
 3.500  0.7048  101.4   1.373   16.0  0.2563   36.8  0.2625 -179.4
 3.600  0.7079   99.8   1.339   14.5  0.2616   35.5  0.2673  178.6
 3.700  0.7116   98.2   1.305   12.9  0.2670   34.3  0.2723  176.6
 3.800  0.7158   96.7   1.273   11.2  0.2725   33.1  0.2777  174.7
 3.900  0.7205   95.1   1.242    9.4  0.2782   31.9  0.2834  172.9
 4.000  0.7257   93.6   1.212    7.5  0.2839   30.8  0.2893  171.2
 4.100  0.7274   92.1   1.185    6.0  0.2890   29.5  0.2953  169.1
 4.200  0.7296   90.6   1.159    4.5  0.2943   28.2  0.3016  167.1
 4.300  0.7322   89.1   1.134    2.9  0.2996   27.0  0.3084  165.1
 4.400  0.7354   87.7   1.109    1.2  0.3052   25.8  0.3154  163.3
 4.500  0.7390   86.2   1.086   -0.5  0.3108   24.7  0.3228  161.5
 4.600  0.7420   84.9   1.064   -1.7  0.3155   23.5  0.3303  159.9
 4.700  0.7455   83.6   1.043   -3.0  0.3203   22.4  0.3380  158.3
 4.800  0.7493   82.3   1.022   -4.4  0.3253   21.2  0.3459  156.8
 4.900  0.7535   81.0   1.002   -5.8  0.3304   20.2  0.3541  155.4
 5.000  0.7581   79.7   0.982   -7.2  0.3356   19.1  0.3625  154.0
 5.100  0.7581   78.4   0.967   -8.4  0.3399   17.9  0.3706  153.0
 5.200  0.7586   77.1   0.952   -9.7  0.3443   16.7  0.3788  152.0
 5.300  0.7594   75.7   0.937  -11.0  0.3489   15.5  0.3871  151.1
 5.400  0.7607   74.4   0.923  -12.3  0.3536   14.4  0.3955  150.2
 5.500  0.7623   73.1   0.910  -13.7  0.3584   13.3  0.4040  149.3
 5.600  0.7620   71.9   0.896  -14.8  0.3623   12.2  0.4085  148.5
 5.700  0.7620   70.7   0.882  -15.8  0.3664   11.1  0.4130  147.6
 5.800  0.7623   69.6   0.868  -17.0  0.3706   10.0  0.4177  146.8
 5.900  0.7630   68.4   0.855  -18.1  0.3749    8.9  0.4224  146.1
 6.000  0.7640   67.2   0.842  -19.3  0.3794    7.9  0.4272  145.3
!
!  f       NFmin   Gammaopt  rn/50
! GHz       dB    MAG  ANG    -
 0.450      1.45  0.40 -171   0.08
 0.900      1.49  0.43 -165   0.08
 1.900      2.13  0.59 -134   0.21
 2.400      2.45  0.63 -119   0.45
!
! (c) 2017  Infineon Technologies AG, Munich