! Infineon Technologies  Discrete & RF Semiconductors
! BFP193
! VCE =  2.0 V,  IC =  95 mA
! Common Emitter S-Parameters:                            Jan 2017
# GHz  S  MA  R  50
!  f         S11            S21            S12            S22
! GHz     MAG   ANG      MAG   ANG      MAG   ANG      MAG   ANG
 0.010  0.2750 -140.4  65.680  162.8  0.0031   74.2  0.6663  -19.9
 0.020  0.4351 -140.4  59.047  148.2  0.0055   67.7  0.6007  -38.8
 0.030  0.5039 -147.1  50.769  142.0  0.0069   60.9  0.5142  -47.7
 0.040  0.5778 -152.1  43.316  133.5  0.0084   56.4  0.4446  -59.7
 0.050  0.6551 -155.9  37.190  121.8  0.0099   53.3  0.4009  -75.2
 0.060  0.6693 -158.7  33.817  119.8  0.0108   54.9  0.3670  -79.3
 0.070  0.6849 -161.3  30.495  117.3  0.0118   56.3  0.3353  -84.2
 0.080  0.7020 -163.8  27.243  114.3  0.0127   57.4  0.3067  -90.1
 0.090  0.7204 -166.2  24.089  110.4  0.0137   58.4  0.2819  -97.2
 0.100  0.7399 -168.5  21.078  105.4  0.0146   59.3  0.2621 -105.4
 0.110  0.7425 -169.7  19.721  104.4  0.0153   59.9  0.2504 -108.2
 0.120  0.7455 -170.9  18.371  103.2  0.0160   60.5  0.2394 -111.2
 0.130  0.7488 -172.1  17.030  101.8  0.0166   61.1  0.2291 -114.5
 0.140  0.7524 -173.2  15.701  100.2  0.0173   61.5  0.2196 -118.2
 0.150  0.7563 -174.4  14.386   98.3  0.0180   62.0  0.2111 -122.1
 0.200  0.7643 -178.0  10.897   93.7  0.0216   65.2  0.1900 -133.2
 0.250  0.7657  179.2   8.750   90.3  0.0258   66.7  0.1782 -140.4
 0.300  0.7654  176.9   7.302   87.8  0.0301   68.6  0.1717 -146.3
 0.350  0.7660  175.0   6.403   85.9  0.0345   69.7  0.1687 -149.7
 0.400  0.7674  173.2   5.514   83.3  0.0389   70.5  0.1664 -153.3
 0.450  0.7678  171.4   4.963   81.7  0.0433   70.8  0.1659 -155.7
 0.500  0.7689  169.7   4.417   79.6  0.0477   71.1  0.1656 -158.1
 0.600  0.7726  166.6   3.701   76.3  0.0569   70.8  0.1675 -161.7
 0.700  0.7725  163.9   3.181   73.3  0.0648   70.6  0.1671 -164.5
 0.800  0.7731  160.8   2.791   70.0  0.0750   70.4  0.1705 -165.9
 0.900  0.7715  158.0   2.485   67.1  0.0833   68.9  0.1750 -167.4
 1.000  0.7761  155.2   2.252   64.2  0.0928   68.2  0.1790 -169.4
 1.100  0.7780  152.5   2.058   61.4  0.1018   67.2  0.1825 -170.1
 1.200  0.7799  149.8   1.894   58.5  0.1097   65.9  0.1864 -171.2
 1.300  0.7812  147.1   1.758   55.9  0.1185   64.7  0.1926 -172.0
 1.400  0.7843  144.4   1.644   53.1  0.1274   63.4  0.1994 -173.4
 1.500  0.7869  141.8   1.538   50.5  0.1353   62.1  0.2049 -174.4
 1.600  0.7899  139.1   1.454   47.7  0.1443   60.8  0.2110 -174.9
 1.700  0.7918  136.4   1.376   45.2  0.1528   59.4  0.2200 -175.8
 1.800  0.7980  133.7   1.311   42.5  0.1607   58.1  0.2274 -176.9
 1.900  0.7982  131.2   1.247   40.4  0.1688   56.6  0.2345 -177.7
 2.000  0.7984  128.6   1.187   37.7  0.1761   55.1  0.2424 -178.2
 2.100  0.8008  126.0   1.137   35.5  0.1838   53.7  0.2506 -179.3
 2.200  0.8049  123.4   1.089   33.0  0.1916   52.4  0.2589  179.7
 2.300  0.8059  121.2   1.048   30.9  0.1993   50.9  0.2667  179.1
 2.400  0.8081  119.0   1.008   28.7  0.2072   49.6  0.2745  178.5
 2.500  0.8107  116.8   0.972   26.8  0.2142   48.1  0.2837  177.5
 2.600  0.8145  114.6   0.938   24.7  0.2214   46.6  0.2929  176.5
 2.700  0.8156  112.5   0.908   22.9  0.2280   45.2  0.2996  175.7
 2.800  0.8178  110.4   0.878   20.9  0.2347   43.9  0.3064  174.9
 2.900  0.8190  108.3   0.853   19.2  0.2410   42.5  0.3136  173.6
 3.000  0.8212  106.3   0.828   17.3  0.2474   41.2  0.3209  172.3
 3.100  0.8214  104.5   0.807   15.9  0.2533   39.9  0.3262  170.9
 3.200  0.8225  102.6   0.787   14.4  0.2594   38.6  0.3318  169.6
 3.300  0.8245  100.8   0.767   12.8  0.2656   37.4  0.3374  168.3
 3.400  0.8272   99.0   0.748   11.1  0.2719   36.2  0.3433  167.1
 3.500  0.8308   97.2   0.729    9.4  0.2783   35.1  0.3493  165.9
 3.600  0.8308   95.6   0.714    8.1  0.2838   33.7  0.3551  164.3
 3.700  0.8315   93.9   0.700    6.8  0.2895   32.4  0.3612  162.7
 3.800  0.8328   92.3   0.686    5.5  0.2953   31.1  0.3676  161.1
 3.900  0.8348   90.7   0.672    4.1  0.3013   29.9  0.3742  159.6
 4.000  0.8375   89.1   0.659    2.6  0.3074   28.7  0.3811  158.2
 4.100  0.8361   87.6   0.648    1.5  0.3127   27.4  0.3880  156.4
 4.200  0.8353   86.1   0.637    0.4  0.3181   26.0  0.3953  154.7
 4.300  0.8351   84.6   0.626   -0.8  0.3237   24.8  0.4029  153.0
 4.400  0.8354   83.1   0.616   -2.0  0.3294   23.6  0.4108  151.4
 4.500  0.8363   81.6   0.606   -3.2  0.3353   22.4  0.4191  149.9
 4.600  0.8367   80.3   0.597   -4.0  0.3400   21.2  0.4266  148.5
 4.700  0.8375   79.0   0.589   -4.9  0.3449   20.0  0.4343  147.1
 4.800  0.8387   77.7   0.580   -5.8  0.3499   18.8  0.4422  145.8
 4.900  0.8403   76.5   0.572   -6.7  0.3551   17.7  0.4504  144.5
 5.000  0.8424   75.2   0.564   -7.7  0.3604   16.6  0.4588  143.3
 5.100  0.8406   73.9   0.560   -8.5  0.3647   15.3  0.4665  142.3
 5.200  0.8392   72.6   0.555   -9.4  0.3692   14.0  0.4743  141.4
 5.300  0.8382   71.2   0.551  -10.2  0.3739   12.8  0.4822  140.5
 5.400  0.8377   69.9   0.547  -11.1  0.3787   11.6  0.4902  139.6
 5.500  0.8377   68.6   0.543  -12.0  0.3837   10.4  0.4984  138.8
 5.600  0.8354   67.4   0.538  -12.7  0.3876    9.3  0.5022  138.0
 5.700  0.8335   66.3   0.534  -13.3  0.3917    8.1  0.5061  137.2
 5.800  0.8319   65.1   0.530  -14.0  0.3959    7.0  0.5101  136.4
 5.900  0.8307   64.0   0.525  -14.7  0.4002    6.0  0.5142  135.7
 6.000  0.8298   62.8   0.521  -15.4  0.4047    4.9  0.5184  134.9
!
!  f       NFmin   Gammaopt  rn/50
! GHz       dB    MAG  ANG    -
!
! noise parameter not available yet for this operation point!
!
! (c) 2017  Infineon Technologies AG, Munich