! Infineon Technologies  Discrete & RF Semiconductors
! BFP193
! VCE =  4.0 V,  IC =  55 mA
! Common Emitter S-Parameters:                            Jan 2017
# GHz  S  MA  R  50
!  f         S11            S21            S12            S22
! GHz     MAG   ANG      MAG   ANG      MAG   ANG      MAG   ANG
 0.010  0.1702  -45.0  76.479  169.9  0.0020   83.9  0.9471   -9.6
 0.020  0.2344  -73.7  74.127  160.8  0.0043   78.2  0.9057  -19.7
 0.030  0.2684  -93.1  67.986  154.5  0.0062   70.1  0.8328  -26.4
 0.040  0.3254 -107.0  62.827  147.0  0.0081   65.8  0.7733  -34.2
 0.050  0.3954 -116.4  58.909  138.4  0.0101   63.2  0.7303  -43.1
 0.060  0.4095 -123.0  54.533  135.6  0.0110   62.8  0.6764  -46.2
 0.070  0.4287 -129.1  50.313  132.2  0.0119   62.5  0.6250  -49.9
 0.080  0.4523 -134.6  46.294  128.3  0.0129   62.2  0.5765  -54.2
 0.090  0.4797 -139.5  42.531  123.7  0.0138   62.0  0.5319  -59.3
 0.100  0.5102 -143.9  39.098  118.2  0.0147   61.8  0.4921  -65.2
 0.110  0.5150 -146.7  36.814  116.7  0.0154   61.5  0.4641  -67.0
 0.120  0.5210 -149.3  34.560  114.9  0.0162   61.2  0.4366  -69.0
 0.130  0.5282 -152.0  32.342  113.0  0.0169   61.0  0.4097  -71.3
 0.140  0.5364 -154.5  30.167  110.7  0.0177   60.7  0.3836  -73.9
 0.150  0.5456 -157.0  28.047  108.1  0.0184   60.5  0.3584  -76.9
 0.200  0.5635 -164.4  21.690  101.9  0.0215   65.1  0.2842  -84.7
 0.250  0.5734 -169.9  17.594   97.4  0.0256   64.3  0.2358  -90.2
 0.300  0.5727 -173.4  14.765   94.3  0.0287   66.1  0.2029  -95.4
 0.350  0.5759 -176.4  12.984   92.1  0.0328   67.3  0.1832  -98.8
 0.400  0.5807 -179.3  11.228   89.2  0.0370   68.3  0.1643 -103.1
 0.450  0.5821  178.3  10.114   87.4  0.0410   68.7  0.1533 -106.2
 0.500  0.5844  176.0   9.012   85.2  0.0451   69.1  0.1428 -109.7
 0.600  0.5887  172.1   7.552   81.9  0.0529   69.2  0.1291 -115.7
 0.700  0.5902  168.9   6.481   78.9  0.0606   69.4  0.1202 -120.2
 0.800  0.5949  165.6   5.686   75.8  0.0693   69.5  0.1167 -124.8
 0.900  0.5951  162.4   5.051   73.1  0.0770   68.2  0.1154 -128.7
 1.000  0.5996  159.4   4.568   70.4  0.0850   67.3  0.1143 -132.9
 1.100  0.6029  156.4   4.164   67.9  0.0928   66.7  0.1154 -135.5
 1.200  0.6051  153.4   3.821   65.2  0.1006   65.4  0.1165 -138.4
 1.300  0.6084  150.6   3.536   62.8  0.1086   64.6  0.1204 -141.1
 1.400  0.6117  148.1   3.297   60.3  0.1166   63.6  0.1243 -144.6
 1.500  0.6178  145.3   3.078   57.8  0.1242   62.3  0.1289 -146.9
 1.600  0.6212  142.5   2.896   55.3  0.1317   61.1  0.1343 -148.5
 1.700  0.6231  139.8   2.733   52.9  0.1397   59.6  0.1415 -150.9
 1.800  0.6310  137.1   2.595   50.5  0.1472   58.4  0.1476 -153.1
 1.900  0.6350  134.7   2.459   48.3  0.1544   57.3  0.1539 -155.2
 2.000  0.6379  132.1   2.336   45.8  0.1618   55.9  0.1617 -156.7
 2.100  0.6426  129.5   2.229   43.6  0.1687   54.5  0.1691 -158.6
 2.200  0.6487  126.9   2.126   41.2  0.1757   53.2  0.1766 -160.4
 2.300  0.6525  124.7   2.040   39.1  0.1830   51.9  0.1846 -161.6
 2.400  0.6572  122.6   1.956   36.9  0.1903   50.7  0.1927 -162.7
 2.500  0.6619  120.4   1.880   34.9  0.1967   49.3  0.2013 -164.4
 2.600  0.6676  118.3   1.806   32.8  0.2033   47.9  0.2100 -165.9
 2.700  0.6721  116.2   1.742   30.9  0.2096   46.6  0.2169 -167.3
 2.800  0.6774  114.2   1.680   28.8  0.2160   45.4  0.2240 -168.6
 2.900  0.6821  112.2   1.624   26.9  0.2220   44.0  0.2305 -170.4
 3.000  0.6877  110.2   1.570   24.9  0.2282   42.7  0.2372 -172.1
 3.100  0.6906  108.3   1.525   23.3  0.2338   41.4  0.2420 -173.8
 3.200  0.6941  106.5   1.480   21.6  0.2395   40.2  0.2470 -175.5
 3.300  0.6984  104.7   1.438   19.8  0.2453   39.1  0.2522 -177.1
 3.400  0.7034  102.9   1.397   17.8  0.2512   38.0  0.2576 -178.6
 3.500  0.7091  101.1   1.357   15.8  0.2572   36.9  0.2632  179.9
 3.600  0.7120   99.5   1.323   14.3  0.2626   35.6  0.2680  177.9
 3.700  0.7155   98.0   1.291   12.6  0.2681   34.3  0.2732  176.0
 3.800  0.7195   96.4   1.259   11.0  0.2737   33.1  0.2786  174.1
 3.900  0.7240   94.9   1.229    9.2  0.2794   31.9  0.2843  172.3
 4.000  0.7290   93.4   1.200    7.3  0.2853   30.8  0.2903  170.6
 4.100  0.7309   91.9   1.173    5.9  0.2904   29.5  0.2962  168.5
 4.200  0.7333   90.4   1.147    4.3  0.2956   28.3  0.3025  166.4
 4.300  0.7362   88.9   1.122    2.8  0.3010   27.1  0.3092  164.5
 4.400  0.7395   87.5   1.097    1.1  0.3065   25.9  0.3162  162.6
 4.500  0.7434   86.0   1.074   -0.6  0.3121   24.8  0.3236  160.8
 4.600  0.7461   84.7   1.052   -1.9  0.3167   23.6  0.3310  159.2
 4.700  0.7492   83.4   1.031   -3.2  0.3214   22.5  0.3386  157.7
 4.800  0.7527   82.1   1.010   -4.5  0.3263   21.3  0.3465  156.2
 4.900  0.7566   80.8   0.990   -5.9  0.3313   20.3  0.3545  154.8
 5.000  0.7609   79.5   0.971   -7.4  0.3364   19.2  0.3628  153.5
 5.100  0.7609   78.2   0.956   -8.6  0.3407   17.9  0.3708  152.5
 5.200  0.7614   76.9   0.942   -9.8  0.3452   16.7  0.3790  151.5
 5.300  0.7623   75.5   0.928  -11.1  0.3499   15.5  0.3873  150.6
 5.400  0.7635   74.2   0.915  -12.4  0.3547   14.3  0.3956  149.7
 5.500  0.7652   72.9   0.902  -13.8  0.3596   13.2  0.4041  148.8
 5.600  0.7647   71.7   0.887  -14.8  0.3635   12.1  0.4087  148.0
 5.700  0.7645   70.5   0.873  -15.9  0.3675   11.0  0.4134  147.2
 5.800  0.7646   69.4   0.859  -17.0  0.3716    9.9  0.4182  146.4
 5.900  0.7650   68.2   0.845  -18.1  0.3758    8.9  0.4230  145.6
 6.000  0.7658   67.0   0.832  -19.3  0.3802    7.9  0.4279  144.9
!
!  f       NFmin   Gammaopt  rn/50
! GHz       dB    MAG  ANG    -
 0.450      1.60  0.45 -170   0.09
 0.900      1.65  0.47 -163   0.09
 1.900      2.29  0.62 -131   0.25
 2.400      2.64  0.64 -118   0.51
!
! (c) 2017  Infineon Technologies AG, Munich