! Infineon Technologies  Discrete & RF Semiconductors
! BFP193
! VCE =  4.0 V,  IC =  20 mA
! Common Emitter S-Parameters:                            Jan 2017
# GHz  S  MA  R  50
!  f         S11            S21            S12            S22
! GHz     MAG   ANG      MAG   ANG      MAG   ANG      MAG   ANG
 0.010  0.4834  -13.9  47.426  173.5  0.0029   84.6  0.9861   -6.1
 0.020  0.4955  -27.2  47.096  167.4  0.0059   83.1  0.9627  -12.5
 0.030  0.4772  -39.0  44.972  162.2  0.0085   74.7  0.9230  -17.6
 0.040  0.4801  -51.1  43.251  156.6  0.0111   70.3  0.8912  -23.1
 0.050  0.5037  -62.6  41.983  150.5  0.0138   67.6  0.8681  -28.9
 0.060  0.4908  -70.7  39.764  147.3  0.0155   64.2  0.8227  -32.0
 0.070  0.4881  -79.1  37.682  143.8  0.0172   61.6  0.7801  -35.5
 0.080  0.4958  -87.3  35.762  139.8  0.0189   59.4  0.7407  -39.3
 0.090  0.5134  -95.2  34.031  135.4  0.0207   57.5  0.7049  -43.6
 0.100  0.5399 -102.4  32.520  130.6  0.0225   56.0  0.6735  -48.3
 0.110  0.5353 -107.0  30.926  128.6  0.0234   55.0  0.6416  -50.2
 0.120  0.5343 -111.7  29.373  126.4  0.0243   54.0  0.6105  -52.2
 0.130  0.5367 -116.3  27.868  124.0  0.0252   53.2  0.5803  -54.5
 0.140  0.5426 -120.9  26.418  121.3  0.0261   52.4  0.5511  -57.0
 0.150  0.5519 -125.3  25.034  118.3  0.0270   51.6  0.5230  -59.8
 0.200  0.5664 -139.1  20.051  110.2  0.0300   50.8  0.4247  -67.3
 0.250  0.5711 -149.2  16.572  104.2  0.0334   50.5  0.3546  -72.2
 0.300  0.5732 -156.1  14.057  100.1  0.0358   51.9  0.3050  -76.1
 0.350  0.5744 -161.1  12.412   97.3  0.0389   52.8  0.2729  -78.4
 0.400  0.5800 -166.0  10.807   93.6  0.0420   53.6  0.2413  -81.4
 0.450  0.5800 -169.7   9.754   91.4  0.0450   54.8  0.2222  -83.4
 0.500  0.5825 -173.4   8.719   88.7  0.0481   55.8  0.2035  -85.8
 0.600  0.5851 -178.9   7.330   84.7  0.0551   57.3  0.1780  -89.7
 0.700  0.5883  176.5   6.301   81.2  0.0609   58.9  0.1600  -92.9
 0.800  0.5921  172.2   5.534   77.8  0.0684   60.0  0.1499  -96.2
 0.900  0.5925  168.3   4.921   74.7  0.0753   60.0  0.1426  -99.7
 1.000  0.5961  164.7   4.454   71.8  0.0823   60.0  0.1363 -103.2
 1.100  0.5999  161.2   4.060   69.1  0.0891   59.8  0.1337 -105.9
 1.200  0.6029  157.9   3.728   66.2  0.0965   59.4  0.1319 -109.4
 1.300  0.6058  154.7   3.450   63.6  0.1031   58.7  0.1325 -112.7
 1.400  0.6102  151.8   3.219   61.0  0.1108   58.5  0.1330 -116.6
 1.500  0.6138  148.9   3.006   58.4  0.1179   57.7  0.1354 -120.3
 1.600  0.6174  145.8   2.829   55.8  0.1248   57.0  0.1391 -122.9
 1.700  0.6215  142.9   2.669   53.3  0.1321   56.3  0.1436 -126.4
 1.800  0.6281  140.0   2.533   50.7  0.1389   55.3  0.1483 -129.8
 1.900  0.6326  137.4   2.402   48.4  0.1455   54.3  0.1538 -132.7
 2.000  0.6366  134.6   2.282   45.9  0.1524   53.3  0.1602 -135.4
 2.100  0.6410  131.9   2.178   43.6  0.1592   52.3  0.1666 -138.3
 2.200  0.6468  129.3   2.077   41.1  0.1660   51.3  0.1734 -141.0
 2.300  0.6509  127.0   1.993   39.0  0.1729   50.3  0.1813 -143.1
 2.400  0.6560  124.7   1.911   36.7  0.1798   49.4  0.1895 -145.0
 2.500  0.6610  122.4   1.836   34.6  0.1863   48.2  0.1974 -147.4
 2.600  0.6670  120.2   1.764   32.4  0.1928   47.0  0.2056 -149.7
 2.700  0.6719  118.1   1.701   30.4  0.1988   45.8  0.2128 -151.6
 2.800  0.6777  116.0   1.641   28.3  0.2048   44.7  0.2203 -153.3
 2.900  0.6825  113.8   1.586   26.4  0.2109   43.6  0.2264 -155.6
 3.000  0.6882  111.7   1.533   24.3  0.2170   42.5  0.2328 -157.7
 3.100  0.6914  109.8   1.488   22.6  0.2227   41.4  0.2377 -159.8
 3.200  0.6953  107.9   1.444   20.9  0.2286   40.3  0.2428 -161.8
 3.300  0.6999  106.1   1.402   19.0  0.2345   39.3  0.2483 -163.7
 3.400  0.7053  104.3   1.361   17.0  0.2405   38.3  0.2540 -165.5
 3.500  0.7113  102.5   1.322   14.9  0.2465   37.4  0.2599 -167.2
 3.600  0.7146  100.9   1.289   13.3  0.2520   36.2  0.2647 -169.5
 3.700  0.7184   99.2   1.257   11.7  0.2576   35.0  0.2699 -171.7
 3.800  0.7229   97.6   1.226   10.0  0.2634   33.8  0.2755 -173.8
 3.900  0.7279   96.1   1.196    8.2  0.2692   32.7  0.2814 -175.9
 4.000  0.7334   94.5   1.167    6.3  0.2751   31.7  0.2877 -177.8
 4.100  0.7352   93.0   1.140    4.8  0.2803   30.5  0.2937  179.8
 4.200  0.7374   91.4   1.114    3.3  0.2857   29.2  0.3001  177.5
 4.300  0.7402   89.9   1.089    1.7  0.2912   28.1  0.3071  175.3
 4.400  0.7436   88.4   1.065    0.0  0.2968   27.0  0.3144  173.2
 4.500  0.7474   86.9   1.042   -1.7  0.3025   25.9  0.3222  171.2
 4.600  0.7503   85.5   1.020   -2.9  0.3076   24.7  0.3302  169.3
 4.700  0.7537   84.2   0.999   -4.3  0.3128   23.6  0.3385  167.4
 4.800  0.7574   82.8   0.979   -5.6  0.3181   22.5  0.3472  165.7
 4.900  0.7616   81.5   0.958   -7.0  0.3236   21.4  0.3561  164.0
 5.000  0.7662   80.2   0.939   -8.5  0.3291   20.4  0.3654  162.4
 5.100  0.7662   78.8   0.924   -9.7  0.3337   19.2  0.3742  161.1
 5.200  0.7666   77.5   0.910  -10.9  0.3384   18.0  0.3832  159.8
 5.300  0.7675   76.1   0.896  -12.2  0.3433   16.9  0.3924  158.6
 5.400  0.7688   74.8   0.882  -13.5  0.3483   15.8  0.4018  157.5
 5.500  0.7705   73.4   0.869  -14.8  0.3534   14.7  0.4113  156.4
 5.600  0.7702   72.2   0.855  -15.8  0.3575   13.5  0.4168  155.4
 5.700  0.7703   71.0   0.841  -16.9  0.3618   12.4  0.4224  154.4
 5.800  0.7707   69.9   0.828  -18.0  0.3663   11.3  0.4281  153.4
 5.900  0.7714   68.7   0.815  -19.1  0.3708   10.2  0.4339  152.5
 6.000  0.7725   67.5   0.802  -20.3  0.3755    9.2  0.4399  151.6
!
!  f       NFmin   Gammaopt  rn/50
! GHz       dB    MAG  ANG    -
 0.450      1.05  0.27  180   0.07
 0.900      1.13  0.36 -178   0.07
 1.900      1.76  0.56 -140   0.15
 2.400      2.10  0.62 -124   0.34
!
! (c) 2017  Infineon Technologies AG, Munich