! Infineon Technologies  Discrete & RF Semiconductors
! BFP193
! VCE =  1.0 V,  IC =  75 mA
! Common Emitter S-Parameters:                            Jan 2017
# GHz  S  MA  R  50
!  f         S11            S21            S12            S22
! GHz     MAG   ANG      MAG   ANG      MAG   ANG      MAG   ANG
 0.010  0.3224 -133.4  56.907  158.8  0.0048   68.1  0.5599  -32.1
 0.020  0.5250 -140.1  48.708  142.2  0.0081   58.2  0.5047  -59.6
 0.030  0.5878 -147.8  40.993  136.5  0.0096   53.5  0.4330  -72.7
 0.040  0.6592 -154.0  33.863  128.3  0.0112   50.1  0.3914  -89.6
 0.050  0.7367 -158.9  27.771  116.2  0.0128   47.6  0.3895 -108.5
 0.060  0.7472 -161.4  25.157  114.5  0.0136   48.8  0.3711 -114.0
 0.070  0.7590 -163.8  22.572  112.3  0.0145   49.8  0.3565 -119.9
 0.080  0.7722 -166.2  20.026  109.6  0.0153   50.7  0.3460 -126.3
 0.090  0.7866 -168.4  17.536  106.2  0.0162   51.6  0.3400 -133.0
 0.100  0.8022 -170.6  15.132  101.6  0.0170   52.3  0.3389 -139.9
 0.110  0.8040 -171.7  14.146  100.7  0.0178   53.2  0.3349 -142.4
 0.120  0.8060 -172.7  13.165   99.7  0.0186   54.1  0.3316 -145.0
 0.130  0.8084 -173.8  12.188   98.5  0.0194   54.8  0.3290 -147.6
 0.140  0.8110 -174.9  11.217   97.1  0.0202   55.5  0.3271 -150.3
 0.150  0.8139 -175.9  10.254   95.5  0.0210   56.2  0.3259 -153.0
 0.200  0.8189 -179.3   7.731   91.3  0.0249   61.3  0.3220 -160.3
 0.250  0.8210  178.1   6.196   88.1  0.0303   63.0  0.3190 -164.7
 0.300  0.8180  175.9   5.170   85.7  0.0345   65.1  0.3183 -168.1
 0.350  0.8189  174.1   4.533   83.8  0.0396   66.4  0.3180 -170.2
 0.400  0.8206  172.3   3.903   81.3  0.0447   67.4  0.3181 -172.3
 0.450  0.8201  170.6   3.514   79.7  0.0497   68.0  0.3183 -173.8
 0.500  0.8203  168.9   3.128   77.6  0.0547   68.4  0.3188 -175.3
 0.600  0.8212  165.8   2.625   74.1  0.0645   67.6  0.3223 -177.7
 0.700  0.8225  163.2   2.261   71.0  0.0739   68.2  0.3223 -179.8
 0.800  0.8230  160.1   1.988   67.5  0.0846   67.6  0.3250  178.7
 0.900  0.8224  157.2   1.774   64.6  0.0941   66.4  0.3282  177.4
 1.000  0.8233  154.6   1.612   61.6  0.1040   65.6  0.3316  175.8
 1.100  0.8257  151.8   1.479   58.7  0.1138   64.3  0.3350  174.6
 1.200  0.8256  149.0   1.366   55.7  0.1233   63.0  0.3371  173.4
 1.300  0.8264  146.3   1.271   53.0  0.1330   61.7  0.3421  172.4
 1.400  0.8295  143.5   1.195   50.2  0.1430   60.4  0.3475  171.1
 1.500  0.8322  141.0   1.123   47.5  0.1518   58.9  0.3524  170.0
 1.600  0.8348  138.2   1.064   44.8  0.1615   57.5  0.3567  169.2
 1.700  0.8370  135.5   1.012   42.3  0.1704   56.1  0.3634  168.4
 1.800  0.8413  132.8   0.968   39.5  0.1791   54.5  0.3694  167.2
 1.900  0.8405  130.3   0.924   37.4  0.1878   53.0  0.3746  166.2
 2.000  0.8394  127.6   0.883   34.8  0.1956   51.5  0.3807  165.5
 2.100  0.8407  125.0   0.848   32.6  0.2036   50.0  0.3871  164.5
 2.200  0.8437  122.4   0.815   30.3  0.2117   48.6  0.3937  163.5
 2.300  0.8442  120.2   0.789   28.4  0.2199   47.0  0.3992  162.8
 2.400  0.8460  118.0   0.764   26.3  0.2282   45.6  0.4047  162.1
 2.500  0.8463  115.8   0.740   24.5  0.2353   44.0  0.4112  161.2
 2.600  0.8478  113.6   0.717   22.5  0.2426   42.5  0.4179  160.3
 2.700  0.8492  111.5   0.697   20.8  0.2492   41.0  0.4226  159.4
 2.800  0.8516  109.5   0.678   19.1  0.2559   39.6  0.4274  158.5
 2.900  0.8521  107.4   0.660   17.5  0.2624   38.2  0.4329  157.3
 3.000  0.8538  105.3   0.643   15.9  0.2690   36.8  0.4386  156.2
 3.100  0.8526  103.5   0.630   14.6  0.2746   35.4  0.4419  154.9
 3.200  0.8523  101.6   0.617   13.2  0.2804   34.1  0.4453  153.7
 3.300  0.8529   99.8   0.605   11.8  0.2863   32.8  0.4490  152.5
 3.400  0.8544   97.9   0.593   10.3  0.2923   31.6  0.4529  151.3
 3.500  0.8567   96.1   0.582    8.8  0.2985   30.4  0.4570  150.1
 3.600  0.8557   94.5   0.573    7.7  0.3038   29.0  0.4613  148.7
 3.700  0.8553   92.9   0.565    6.6  0.3093   27.7  0.4659  147.3
 3.800  0.8556   91.3   0.556    5.5  0.3149   26.5  0.4708  146.0
 3.900  0.8566   89.7   0.548    4.3  0.3207   25.3  0.4759  144.7
 4.000  0.8582   88.1   0.540    3.1  0.3266   24.1  0.4812  143.4
 4.100  0.8559   86.6   0.533    2.1  0.3314   22.7  0.4866  141.9
 4.200  0.8542   85.2   0.527    1.2  0.3364   21.4  0.4924  140.5
 4.300  0.8530   83.7   0.521    0.2  0.3415   20.1  0.4984  139.0
 4.400  0.8524   82.2   0.515   -0.9  0.3468   18.9  0.5048  137.7
 4.500  0.8524   80.7   0.509   -1.9  0.3523   17.7  0.5114  136.3
 4.600  0.8521   79.4   0.505   -2.6  0.3566   16.5  0.5172  135.1
 4.700  0.8523   78.2   0.500   -3.4  0.3610   15.3  0.5232  133.9
 4.800  0.8528   76.9   0.496   -4.1  0.3656   14.1  0.5294  132.8
 4.900  0.8538   75.7   0.492   -4.9  0.3703   13.0  0.5359  131.7
 5.000  0.8552   74.4   0.488   -5.7  0.3752   11.9  0.5425  130.6
 5.100  0.8527   73.1   0.487   -6.5  0.3792   10.6  0.5479  129.8
 5.200  0.8506   71.8   0.485   -7.2  0.3833    9.4  0.5534  129.1
 5.300  0.8489   70.5   0.484   -8.0  0.3876    8.2  0.5590  128.3
 5.400  0.8477   69.2   0.483   -8.7  0.3921    7.0  0.5646  127.6
 5.500  0.8469   67.9   0.482   -9.5  0.3967    5.9  0.5704  126.9
 5.600  0.8444   66.8   0.481  -10.2  0.4001    4.8  0.5720  126.2
 5.700  0.8422   65.6   0.479  -10.8  0.4036    3.7  0.5737  125.4
 5.800  0.8404   64.5   0.478  -11.5  0.4072    2.6  0.5755  124.7
 5.900  0.8389   63.3   0.477  -12.2  0.4111    1.5  0.5773  124.0
 6.000  0.8377   62.2   0.476  -12.9  0.4150    0.5  0.5793  123.3
!
!  f       NFmin   Gammaopt  rn/50
! GHz       dB    MAG  ANG    -
!
! noise parameter not available yet for this operation point!
!
! (c) 2017  Infineon Technologies AG, Munich