! Infineon Technologies  Discrete & RF Semiconductors
! BFP193
! VCE =  3.0 V,  IC =  75 mA
! Common Emitter S-Parameters:                            Jan 2017
# GHz  S  MA  R  50
!  f         S11            S21            S12            S22
! GHz     MAG   ANG      MAG   ANG      MAG   ANG      MAG   ANG
 0.010  0.1337 -102.4  79.737  167.9  0.0024   84.0  0.8919  -12.0
 0.020  0.2540 -114.5  75.866  156.9  0.0041   74.9  0.8416  -24.4
 0.030  0.3175 -125.8  67.992  150.4  0.0057   68.5  0.7547  -31.6
 0.040  0.3891 -133.2  61.221  142.3  0.0074   64.9  0.6825  -40.5
 0.050  0.4651 -138.2  55.957  132.4  0.0091   62.7  0.6302  -51.1
 0.060  0.4835 -142.7  51.388  129.8  0.0101   62.3  0.5787  -54.2
 0.070  0.5045 -146.8  46.941  126.8  0.0111   61.9  0.5291  -57.9
 0.080  0.5280 -150.5  42.654  123.1  0.0122   61.6  0.4822  -62.3
 0.090  0.5535 -154.0  38.579  118.7  0.0132   61.3  0.4388  -67.6
 0.100  0.5809 -157.1  34.793  113.2  0.0142   61.1  0.3999  -74.0
 0.110  0.5853 -159.0  32.666  111.9  0.0148   61.5  0.3765  -75.9
 0.120  0.5905 -160.9  30.560  110.3  0.0154   61.8  0.3536  -78.0
 0.130  0.5962 -162.8  28.478  108.6  0.0159   62.1  0.3312  -80.3
 0.140  0.6025 -164.6  26.427  106.6  0.0165   62.4  0.3095  -83.1
 0.150  0.6095 -166.4  24.415  104.2  0.0171   62.7  0.2886  -86.2
 0.200  0.6237 -171.5  18.684   98.7  0.0205   66.1  0.2303  -94.6
 0.250  0.6305 -175.5  15.088   94.6  0.0249   66.9  0.1935 -100.9
 0.300  0.6316 -178.5  12.625   91.8  0.0288   69.6  0.1694 -106.9
 0.350  0.6340  179.2  11.087   89.8  0.0327   70.2  0.1556 -110.8
 0.400  0.6375  176.9   9.568   87.1  0.0366   70.7  0.1426 -115.5
 0.450  0.6382  174.9   8.614   85.4  0.0409   71.0  0.1355 -118.9
 0.500  0.6396  172.9   7.670   83.3  0.0453   71.2  0.1290 -122.7
 0.600  0.6446  169.5   6.428   80.0  0.0530   71.0  0.1217 -129.0
 0.700  0.6462  166.5   5.515   77.1  0.0608   71.0  0.1164 -133.6
 0.800  0.6483  163.5   4.836   74.0  0.0702   70.7  0.1163 -137.1
 0.900  0.6501  160.5   4.296   71.3  0.0782   69.5  0.1172 -140.7
 1.000  0.6531  157.7   3.888   68.6  0.0861   68.8  0.1186 -144.2
 1.100  0.6577  154.7   3.544   66.0  0.0944   67.7  0.1207 -146.2
 1.200  0.6591  152.0   3.252   63.3  0.1025   66.5  0.1237 -148.5
 1.300  0.6609  149.1   3.011   60.8  0.1106   65.2  0.1284 -150.4
 1.400  0.6647  146.6   2.810   58.2  0.1190   64.1  0.1342 -153.0
 1.500  0.6694  144.0   2.622   55.7  0.1266   62.9  0.1394 -155.0
 1.600  0.6728  141.2   2.468   53.2  0.1345   61.5  0.1454 -156.0
 1.700  0.6772  138.6   2.332   50.7  0.1427   60.3  0.1529 -158.0
 1.800  0.6819  135.9   2.213   48.2  0.1502   58.9  0.1603 -159.8
 1.900  0.6860  133.5   2.098   46.0  0.1574   57.6  0.1671 -161.1
 2.000  0.6883  130.8   1.994   43.5  0.1650   56.2  0.1751 -162.4
 2.100  0.6923  128.3   1.903   41.3  0.1722   54.9  0.1832 -164.0
 2.200  0.6976  125.8   1.816   38.8  0.1794   53.7  0.1914 -165.5
 2.300  0.7007  123.6   1.743   36.7  0.1870   52.3  0.1994 -166.4
 2.400  0.7047  121.5   1.672   34.5  0.1947   51.0  0.2075 -167.3
 2.500  0.7083  119.3   1.608   32.5  0.2012   49.5  0.2163 -168.8
 2.600  0.7130  117.1   1.546   30.3  0.2078   48.0  0.2253 -170.1
 2.700  0.7175  115.1   1.492   28.4  0.2142   46.7  0.2326 -171.2
 2.800  0.7228  113.1   1.440   26.3  0.2207   45.5  0.2400 -172.3
 2.900  0.7261  111.0   1.392   24.4  0.2268   44.2  0.2469 -174.0
 3.000  0.7304  109.0   1.346   22.4  0.2331   42.9  0.2540 -175.6
 3.100  0.7326  107.2   1.308   20.8  0.2388   41.6  0.2592 -177.2
 3.200  0.7355  105.3   1.270   19.1  0.2446   40.3  0.2645 -178.8
 3.300  0.7391  103.5   1.234   17.3  0.2505   39.1  0.2701  179.7
 3.400  0.7435  101.8   1.199   15.3  0.2566   38.0  0.2758  178.3
 3.500  0.7486  100.0   1.166   13.3  0.2627   36.9  0.2817  176.9
 3.600  0.7508   98.4   1.138   11.8  0.2681   35.6  0.2870  175.0
 3.700  0.7536   96.8   1.110   10.3  0.2736   34.3  0.2926  173.2
 3.800  0.7569   95.3   1.084    8.7  0.2792   33.1  0.2985  171.5
 3.900  0.7608   93.7   1.058    7.0  0.2849   31.9  0.3046  169.8
 4.000  0.7653   92.2   1.033    5.2  0.2908   30.8  0.3110  168.2
 4.100  0.7662   90.7   1.011    3.8  0.2960   29.5  0.3173  166.2
 4.200  0.7676   89.2   0.989    2.4  0.3014   28.2  0.3240  164.2
 4.300  0.7695   87.7   0.968    0.8  0.3070   26.9  0.3310  162.3
 4.400  0.7720   86.3   0.948   -0.7  0.3127   25.8  0.3384  160.5
 4.500  0.7749   84.8   0.928   -2.4  0.3185   24.6  0.3461  158.8
 4.600  0.7768   83.5   0.910   -3.6  0.3232   23.4  0.3538  157.2
 4.700  0.7792   82.1   0.893   -4.8  0.3280   22.2  0.3617  155.7
 4.800  0.7820   80.8   0.876   -6.0  0.3329   21.0  0.3699  154.3
 4.900  0.7852   79.5   0.859   -7.3  0.3380   19.9  0.3783  152.9
 5.000  0.7888   78.2   0.843   -8.7  0.3432   18.8  0.3869  151.6
 5.100  0.7881   76.9   0.831   -9.8  0.3475   17.6  0.3951  150.6
 5.200  0.7879   75.6   0.819  -11.0  0.3519   16.3  0.4034  149.6
 5.300  0.7881   74.2   0.807  -12.2  0.3566   15.2  0.4118  148.7
 5.400  0.7887   72.9   0.796  -13.4  0.3613   14.0  0.4204  147.8
 5.500  0.7897   71.6   0.785  -14.7  0.3662   12.9  0.4290  147.0
 5.600  0.7892   70.4   0.774  -15.7  0.3702   11.8  0.4336  146.2
 5.700  0.7889   69.3   0.762  -16.7  0.3743   10.7  0.4382  145.4
 5.800  0.7890   68.1   0.751  -17.7  0.3785    9.6  0.4430  144.6
 5.900  0.7895   67.0   0.741  -18.7  0.3829    8.5  0.4478  143.8
 6.000  0.7902   65.8   0.730  -19.8  0.3874    7.5  0.4527  143.1
!
!  f       NFmin   Gammaopt  rn/50
! GHz       dB    MAG  ANG    -
!
! noise parameter not available yet for this operation point!
!
! (c) 2017  Infineon Technologies AG, Munich