! Infineon Technologies  Discrete & RF Semiconductors
! BFP193
! VCE =  12. V,  IC =  32 mA
! Common Emitter S-Parameters:                            Jan 2017
# GHz  S  MA  R  50
!  f         S11            S21            S12            S22
! GHz     MAG   ANG      MAG   ANG      MAG   ANG      MAG   ANG
 0.010  0.4566  -14.0  58.125  172.3  0.0022   70.8  0.9517   -6.0
 0.020  0.4682  -28.3  57.712  166.1  0.0047   76.4  0.9318  -12.4
 0.030  0.4490  -40.6  54.698  160.8  0.0068   70.7  0.8889  -17.4
 0.040  0.4515  -53.3  52.202  155.0  0.0089   67.7  0.8533  -22.8
 0.050  0.4755  -65.3  50.300  148.6  0.0111   65.9  0.8260  -28.6
 0.060  0.4627  -73.3  47.476  145.5  0.0124   63.6  0.7815  -31.4
 0.070  0.4594  -81.6  44.811  142.0  0.0138   61.7  0.7391  -34.5
 0.080  0.4658  -89.9  42.336  138.0  0.0151   60.2  0.6992  -38.0
 0.090  0.4814  -97.8  40.086  133.6  0.0165   58.9  0.6622  -41.9
 0.100  0.5055 -105.0  38.100  128.7  0.0179   57.8  0.6286  -46.3
 0.110  0.5005 -109.5  36.160  126.8  0.0187   56.8  0.5987  -47.8
 0.120  0.4986 -114.0  34.265  124.7  0.0194   55.8  0.5693  -49.5
 0.130  0.4998 -118.5  32.423  122.3  0.0202   55.0  0.5405  -51.4
 0.140  0.5041 -123.0  30.642  119.7  0.0210   54.1  0.5123  -53.5
 0.150  0.5114 -127.4  28.934  116.7  0.0218   53.4  0.4848  -55.8
 0.200  0.5235 -140.9  23.010  109.0  0.0247   55.5  0.3927  -61.2
 0.250  0.5276 -150.5  18.946  103.3  0.0280   55.0  0.3293  -64.2
 0.300  0.5284 -157.5  16.044   99.4  0.0304   56.0  0.2833  -66.4
 0.350  0.5284 -162.2  14.148   96.7  0.0338   58.1  0.2553  -67.4
 0.400  0.5320 -166.9  12.292   93.2  0.0372   59.8  0.2275  -68.7
 0.450  0.5326 -170.4  11.097   91.2  0.0399   60.4  0.2106  -69.4
 0.500  0.5351 -173.9   9.919   88.7  0.0427   61.0  0.1938  -70.3
 0.600  0.5386 -179.5   8.333   84.8  0.0505   62.5  0.1706  -71.9
 0.700  0.5407  176.1   7.161   81.5  0.0564   63.3  0.1549  -73.0
 0.800  0.5434  171.9   6.292   78.2  0.0643   64.2  0.1457  -74.9
 0.900  0.5457  167.9   5.594   75.3  0.0704   63.5  0.1385  -77.1
 1.000  0.5482  164.4   5.059   72.5  0.0773   63.7  0.1311  -79.6
 1.100  0.5527  161.0   4.611   69.9  0.0850   63.6  0.1286  -81.8
 1.200  0.5574  157.6   4.235   67.1  0.0915   62.8  0.1261  -84.7
 1.300  0.5587  154.5   3.917   64.6  0.0985   61.9  0.1253  -88.0
 1.400  0.5631  151.6   3.651   62.1  0.1057   61.3  0.1240  -91.9
 1.500  0.5685  148.7   3.408   59.7  0.1124   60.5  0.1243  -95.5
 1.600  0.5728  145.6   3.207   57.1  0.1195   59.6  0.1265  -98.8
 1.700  0.5757  142.7   3.026   54.7  0.1266   58.8  0.1289 -103.2
 1.800  0.5838  140.0   2.871   52.2  0.1332   57.8  0.1312 -107.4
 1.900  0.5886  137.5   2.720   50.0  0.1398   56.8  0.1353 -111.2
 2.000  0.5912  134.7   2.586   47.5  0.1465   55.8  0.1401 -114.7
 2.100  0.5970  132.0   2.467   45.3  0.1530   54.7  0.1450 -118.5
 2.200  0.6042  129.3   2.352   42.9  0.1596   53.6  0.1505 -122.0
 2.300  0.6085  127.1   2.255   40.8  0.1664   52.5  0.1573 -125.0
 2.400  0.6136  124.9   2.162   38.5  0.1733   51.5  0.1644 -127.7
 2.500  0.6185  122.6   2.078   36.5  0.1794   50.2  0.1711 -130.9
 2.600  0.6243  120.4   1.996   34.3  0.1855   49.0  0.1783 -133.9
 2.700  0.6306  118.3   1.925   32.3  0.1914   47.8  0.1847 -136.4
 2.800  0.6378  116.3   1.857   30.2  0.1974   46.7  0.1915 -138.7
 2.900  0.6425  114.2   1.793   28.3  0.2034   45.5  0.1968 -141.4
 3.000  0.6480  112.1   1.732   26.2  0.2094   44.4  0.2025 -144.0
 3.100  0.6520  110.2   1.681   24.6  0.2150   43.2  0.2066 -146.4
 3.200  0.6566  108.3   1.632   22.8  0.2207   42.2  0.2111 -148.7
 3.300  0.6620  106.5   1.584   21.0  0.2264   41.1  0.2159 -151.0
 3.400  0.6680  104.7   1.538   19.0  0.2322   40.1  0.2210 -153.1
 3.500  0.6747  102.9   1.494   16.9  0.2381   39.2  0.2264 -155.1
 3.600  0.6785  101.3   1.456   15.3  0.2435   38.0  0.2302 -157.7
 3.700  0.6828   99.7   1.419   13.7  0.2490   36.8  0.2346 -160.2
 3.800  0.6876   98.2   1.383   11.9  0.2546   35.6  0.2393 -162.7
 3.900  0.6929   96.6   1.349   10.1  0.2603   34.5  0.2445 -165.0
 4.000  0.6987   95.1   1.316    8.2  0.2661   33.5  0.2500 -167.2
 4.100  0.7012   93.6   1.286    6.7  0.2713   32.3  0.2550 -169.9
 4.200  0.7042   92.1   1.256    5.1  0.2767   31.1  0.2606 -172.5
 4.300  0.7077   90.6   1.228    3.4  0.2822   29.9  0.2666 -174.9
 4.400  0.7116   89.1   1.200    1.7  0.2877   28.9  0.2731 -177.3
 4.500  0.7160   87.7   1.174   -0.1  0.2934   27.8  0.2801 -179.5
 4.600  0.7194   86.3   1.149   -1.4  0.2984   26.6  0.2875  178.3
 4.700  0.7233   85.0   1.125   -2.8  0.3034   25.4  0.2954  176.2
 4.800  0.7275   83.6   1.102   -4.2  0.3087   24.3  0.3036  174.2
 4.900  0.7322   82.3   1.079   -5.7  0.3140   23.2  0.3122  172.3
 5.000  0.7372   81.0   1.057   -7.2  0.3194   22.2  0.3211  170.5
 5.100  0.7377   79.7   1.039   -8.5  0.3240   21.0  0.3300  169.0
 5.200  0.7387   78.3   1.022   -9.8  0.3287   19.8  0.3392  167.6
 5.300  0.7401   77.0   1.005  -11.1  0.3335   18.7  0.3485  166.3
 5.400  0.7418   75.6   0.989  -12.5  0.3385   17.6  0.3580  165.0
 5.500  0.7440   74.3   0.973  -14.0  0.3436   16.5  0.3677  163.8
 5.600  0.7444   73.1   0.956  -15.1  0.3479   15.4  0.3735  162.7
 5.700  0.7451   71.9   0.939  -16.3  0.3523   14.3  0.3795  161.7
 5.800  0.7461   70.7   0.923  -17.5  0.3568   13.2  0.3856  160.6
 5.900  0.7475   69.5   0.907  -18.7  0.3614   12.1  0.3918  159.7
 6.000  0.7492   68.3   0.892  -20.0  0.3662   11.1  0.3981  158.7
!
!  f       NFmin   Gammaopt  rn/50
! GHz       dB    MAG  ANG    -
 0.450      1.24  0.35 -173   0.08
 0.900      1.30  0.39 -171   0.07
 1.900      1.92  0.58 -136   0.17
 2.400      2.25  0.62 -121   0.38
!
! (c) 2017  Infineon Technologies AG, Munich