! Infineon Technologies  Discrete & RF Semiconductors
! BFP193
! VCE =  5.0 V,  IC =  30 mA
! Common Emitter S-Parameters:                            Jan 2017
# GHz  S  MA  R  50
!  f         S11            S21            S12            S22
! GHz     MAG   ANG      MAG   ANG      MAG   ANG      MAG   ANG
 0.010  0.3698  -18.6  59.407  172.2  0.0024   81.0  0.9760   -7.2
 0.020  0.3863  -36.4  58.610  165.2  0.0049   82.7  0.9527  -14.7
 0.030  0.3767  -51.3  55.229  159.5  0.0071   74.8  0.8999  -20.3
 0.040  0.3926  -65.9  52.458  153.2  0.0094   70.6  0.8568  -26.6
 0.050  0.4314  -78.6  50.398  146.2  0.0117   68.1  0.8249  -33.4
 0.060  0.4277  -87.1  47.303  143.1  0.0130   65.5  0.7751  -36.5
 0.070  0.4334  -95.5  44.366  139.6  0.0143   63.4  0.7279  -40.0
 0.080  0.4482 -103.6  41.620  135.6  0.0156   61.6  0.6838  -44.0
 0.090  0.4712 -111.0  39.105  131.0  0.0170   60.1  0.6435  -48.5
 0.100  0.5013 -117.6  36.869  125.9  0.0183   58.8  0.6077  -53.6
 0.110  0.5010 -121.8  34.912  124.1  0.0191   57.8  0.5765  -55.4
 0.120  0.5034 -125.9  32.994  122.0  0.0198   57.0  0.5458  -57.4
 0.130  0.5083 -130.0  31.122  119.8  0.0206   56.2  0.5160  -59.6
 0.140  0.5158 -134.0  29.306  117.2  0.0214   55.4  0.4870  -62.1
 0.150  0.5258 -137.9  27.557  114.3  0.0222   54.7  0.4590  -64.9
 0.200  0.5451 -149.3  21.734  106.9  0.0249   55.9  0.3676  -71.9
 0.250  0.5538 -157.6  17.809  101.5  0.0287   56.6  0.3051  -76.7
 0.300  0.5556 -163.3  15.043   97.8  0.0315   57.3  0.2611  -80.5
 0.350  0.5583 -167.4  13.251   95.2  0.0349   59.4  0.2336  -83.0
 0.400  0.5638 -171.4  11.494   91.9  0.0383   61.1  0.2067  -86.1
 0.450  0.5641 -174.5  10.367   89.9  0.0419   61.8  0.1906  -88.2
 0.500  0.5660 -177.6   9.255   87.5  0.0455   62.4  0.1747  -90.6
 0.600  0.5711  177.5   7.768   83.7  0.0525   63.2  0.1535  -94.9
 0.700  0.5740  173.4   6.673   80.6  0.0595   64.6  0.1386  -98.5
 0.800  0.5763  169.5   5.859   77.3  0.0677   64.8  0.1305 -101.9
 0.900  0.5766  165.9   5.209   74.4  0.0748   64.2  0.1252 -105.7
 1.000  0.5821  162.6   4.710   71.6  0.0820   63.7  0.1200 -109.4
 1.100  0.5850  159.3   4.292   69.0  0.0896   63.7  0.1187 -112.4
 1.200  0.5893  156.3   3.940   66.2  0.0967   62.6  0.1181 -115.9
 1.300  0.5899  153.1   3.646   63.7  0.1042   61.6  0.1198 -119.3
 1.400  0.5948  150.3   3.400   61.2  0.1118   61.2  0.1213 -123.5
 1.500  0.5998  147.4   3.176   58.7  0.1195   60.3  0.1240 -126.6
 1.600  0.6039  144.5   2.987   56.2  0.1267   59.1  0.1282 -129.2
 1.700  0.6081  141.7   2.818   53.7  0.1338   58.3  0.1338 -132.6
 1.800  0.6141  138.9   2.675   51.2  0.1409   57.1  0.1391 -135.8
 1.900  0.6189  136.4   2.536   49.0  0.1483   56.1  0.1446 -138.5
 2.000  0.6215  133.7   2.410   46.5  0.1554   54.9  0.1518 -141.0
 2.100  0.6271  131.0   2.299   44.3  0.1620   53.7  0.1583 -143.8
 2.200  0.6341  128.3   2.191   41.9  0.1687   52.6  0.1652 -146.3
 2.300  0.6380  126.1   2.102   39.8  0.1759   51.4  0.1733 -148.1
 2.400  0.6428  124.0   2.015   37.6  0.1831   50.3  0.1816 -149.7
 2.500  0.6473  121.7   1.937   35.6  0.1893   49.0  0.1896 -152.0
 2.600  0.6528  119.5   1.861   33.4  0.1956   47.8  0.1978 -154.1
 2.700  0.6586  117.5   1.795   31.4  0.2019   46.6  0.2050 -155.9
 2.800  0.6652  115.5   1.731   29.3  0.2082   45.4  0.2123 -157.5
 2.900  0.6694  113.3   1.673   27.4  0.2140   44.1  0.2184 -159.7
 3.000  0.6746  111.2   1.617   25.3  0.2199   42.9  0.2248 -161.7
 3.100  0.6780  109.3   1.570   23.7  0.2255   41.7  0.2295 -163.7
 3.200  0.6820  107.5   1.524   21.9  0.2313   40.6  0.2345 -165.6
 3.300  0.6868  105.7   1.480   20.1  0.2371   39.5  0.2397 -167.5
 3.400  0.6923  103.9   1.437   18.2  0.2430   38.5  0.2451 -169.2
 3.500  0.6984  102.1   1.396   16.1  0.2490   37.5  0.2508 -170.9
 3.600  0.7017  100.5   1.361   14.5  0.2544   36.2  0.2555 -173.1
 3.700  0.7056   98.9   1.327   12.9  0.2599   35.0  0.2605 -175.2
 3.800  0.7100   97.4   1.293   11.2  0.2655   33.8  0.2658 -177.3
 3.900  0.7149   95.8   1.262    9.4  0.2713   32.7  0.2715 -179.2
 4.000  0.7203   94.3   1.231    7.5  0.2771   31.6  0.2775  178.9
 4.100  0.7223   92.8   1.203    6.0  0.2823   30.3  0.2833  176.5
 4.200  0.7248   91.3   1.176    4.5  0.2877   29.1  0.2895  174.3
 4.300  0.7277   89.8   1.150    2.9  0.2932   27.9  0.2961  172.1
 4.400  0.7312   88.4   1.125    1.2  0.2989   26.8  0.3032  170.1
 4.500  0.7351   86.9   1.101   -0.5  0.3046   25.7  0.3106  168.1
 4.600  0.7382   85.5   1.078   -1.8  0.3094   24.5  0.3183  166.3
 4.700  0.7417   84.2   1.056   -3.1  0.3142   23.4  0.3263  164.6
 4.800  0.7456   82.8   1.035   -4.5  0.3193   22.3  0.3346  162.9
 4.900  0.7499   81.5   1.014   -5.9  0.3244   21.2  0.3431  161.4
 5.000  0.7546   80.2   0.994   -7.4  0.3296   20.2  0.3519  159.9
 5.100  0.7548   78.9   0.978   -8.6  0.3341   19.0  0.3605  158.7
 5.200  0.7555   77.5   0.963   -9.9  0.3387   17.8  0.3692  157.5
 5.300  0.7565   76.2   0.948  -11.2  0.3435   16.6  0.3781  156.4
 5.400  0.7580   74.8   0.933  -12.5  0.3484   15.5  0.3871  155.4
 5.500  0.7599   73.5   0.919  -13.9  0.3535   14.4  0.3962  154.4
 5.600  0.7595   72.3   0.904  -15.0  0.3575   13.3  0.4014  153.5
 5.700  0.7595   71.1   0.889  -16.1  0.3617   12.2  0.4067  152.6
 5.800  0.7597   70.0   0.875  -17.2  0.3660   11.1  0.4121  151.7
 5.900  0.7603   68.8   0.861  -18.4  0.3704   10.0  0.4175  150.8
 6.000  0.7612   67.6   0.847  -19.6  0.3750    9.0  0.4231  150.0
!
!  f       NFmin   Gammaopt  rn/50
! GHz       dB    MAG  ANG    -
 0.450      1.22  0.33 -174   0.08
 0.900      1.27  0.38 -173   0.07
 1.900      1.89  0.57 -137   0.17
 2.400      2.22  0.62 -121   0.38
!
! (c) 2017  Infineon Technologies AG, Munich