! Infineon Technologies  Discrete & RF Semiconductors
! BFP193
! VCE =  7.0 V,  IC =  16 mA
! Common Emitter S-Parameters:                            Jan 2017
# GHz  S  MA  R  50
!  f         S11            S21            S12            S22
! GHz     MAG   ANG      MAG   ANG      MAG   ANG      MAG   ANG
 0.010  0.5815  -10.4  40.568  174.4  0.0027   86.4  0.9915   -4.8
 0.020  0.5884  -20.6  40.423  169.4  0.0061   85.7  0.9746   -9.8
 0.030  0.5685  -29.8  39.061  164.8  0.0086   78.0  0.9454  -13.9
 0.040  0.5639  -39.3  37.971  159.9  0.0112   73.8  0.9214  -18.3
 0.050  0.5751  -48.8  37.175  154.7  0.0138   71.2  0.9031  -22.9
 0.060  0.5570  -55.9  35.556  151.6  0.0156   67.8  0.8658  -25.7
 0.070  0.5478  -63.3  34.053  148.1  0.0175   65.1  0.8307  -28.8
 0.080  0.5482  -70.9  32.684  144.4  0.0194   62.9  0.7983  -32.1
 0.090  0.5580  -78.3  31.466  140.3  0.0214   61.1  0.7687  -35.7
 0.100  0.5768  -85.4  30.416  136.0  0.0233   59.6  0.7423  -39.5
 0.110  0.5665  -90.1  29.094  133.9  0.0244   57.6  0.7121  -41.2
 0.120  0.5601  -94.9  27.815  131.6  0.0254   55.8  0.6825  -43.1
 0.130  0.5578  -99.8  26.586  129.0  0.0265   54.1  0.6537  -45.1
 0.140  0.5595 -104.8  25.414  126.2  0.0277   52.6  0.6259  -47.3
 0.150  0.5654 -109.6  24.308  123.2  0.0288   51.2  0.5990  -49.7
 0.200  0.5695 -126.1  19.885  114.6  0.0313   49.7  0.4966  -56.1
 0.250  0.5688 -137.9  16.638  107.9  0.0357   48.4  0.4207  -60.0
 0.300  0.5666 -146.2  14.208  103.4  0.0379   48.5  0.3657  -62.8
 0.350  0.5653 -152.3  12.588  100.3  0.0404   49.5  0.3298  -64.2
 0.400  0.5704 -158.3  11.016   96.2  0.0429   50.3  0.2941  -66.0
 0.450  0.5687 -162.6   9.958   93.8  0.0456   51.3  0.2720  -67.1
 0.500  0.5703 -167.0   8.921   90.9  0.0483   52.2  0.2500  -68.3
 0.600  0.5730 -173.7   7.518   86.5  0.0538   53.5  0.2202  -69.9
 0.700  0.5747 -178.9   6.468   82.8  0.0588   55.3  0.1995  -71.2
 0.800  0.5770  176.1   5.690   79.2  0.0655   56.5  0.1866  -72.8
 0.900  0.5778  171.7   5.062   76.0  0.0717   56.8  0.1762  -75.1
 1.000  0.5820  167.9   4.584   73.0  0.0777   57.0  0.1678  -77.0
 1.100  0.5858  164.2   4.179   70.2  0.0841   57.7  0.1634  -79.2
 1.200  0.5880  160.5   3.838   67.2  0.0906   57.6  0.1590  -81.8
 1.300  0.5905  157.2   3.552   64.5  0.0967   57.3  0.1567  -84.8
 1.400  0.5941  154.0   3.313   61.8  0.1039   57.2  0.1549  -88.3
 1.500  0.6002  151.0   3.093   59.2  0.1103   56.5  0.1541  -91.6
 1.600  0.6038  147.8   2.911   56.5  0.1163   56.1  0.1558  -94.7
 1.700  0.6067  144.9   2.748   54.0  0.1228   55.7  0.1574  -98.6
 1.800  0.6141  141.9   2.607   51.4  0.1293   55.0  0.1595 -102.3
 1.900  0.6182  139.1   2.472   49.1  0.1356   54.3  0.1622 -105.9
 2.000  0.6212  136.3   2.349   46.5  0.1421   53.3  0.1669 -109.5
 2.100  0.6266  133.5   2.241   44.2  0.1484   52.5  0.1711 -113.1
 2.200  0.6334  130.8   2.137   41.6  0.1548   51.8  0.1759 -116.5
 2.300  0.6377  128.5   2.049   39.5  0.1616   50.9  0.1825 -119.6
 2.400  0.6431  126.2   1.964   37.2  0.1684   50.1  0.1896 -122.4
 2.500  0.6483  123.8   1.887   35.1  0.1745   49.0  0.1960 -125.6
 2.600  0.6546  121.4   1.812   32.8  0.1806   48.0  0.2029 -128.6
 2.700  0.6600  119.2   1.748   30.8  0.1867   47.0  0.2095 -131.2
 2.800  0.6664  117.1   1.687   28.6  0.1928   46.1  0.2164 -133.6
 2.900  0.6715  115.0   1.629   26.6  0.1986   45.0  0.2218 -136.3
 3.000  0.6776  112.9   1.574   24.5  0.2045   44.0  0.2276 -138.8
 3.100  0.6809  110.9   1.527   22.8  0.2103   43.0  0.2318 -141.3
 3.200  0.6851  109.0   1.481   21.0  0.2161   42.0  0.2364 -143.7
 3.300  0.6900  107.1   1.437   19.1  0.2220   41.0  0.2414 -146.1
 3.400  0.6956  105.2   1.395   17.1  0.2280   40.1  0.2468 -148.3
 3.500  0.7020  103.4   1.354   15.0  0.2340   39.3  0.2526 -150.4
 3.600  0.7057  101.7   1.319   13.4  0.2396   38.1  0.2567 -153.0
 3.700  0.7100  100.1   1.286   11.8  0.2454   37.0  0.2613 -155.6
 3.800  0.7149   98.5   1.253   10.0  0.2512   35.9  0.2664 -158.1
 3.900  0.7203   96.9   1.222    8.2  0.2571   34.9  0.2720 -160.4
 4.000  0.7263   95.3   1.192    6.3  0.2631   33.9  0.2780 -162.7
 4.100  0.7282   93.8   1.164    4.8  0.2687   32.7  0.2833 -165.5
 4.200  0.7307   92.2   1.137    3.3  0.2744   31.5  0.2892 -168.2
 4.300  0.7336   90.7   1.111    1.7  0.2802   30.4  0.2958 -170.7
 4.400  0.7371   89.2   1.085   -0.0  0.2862   29.3  0.3029 -173.2
 4.500  0.7411   87.7   1.061   -1.8  0.2922   28.3  0.3105 -175.5
 4.600  0.7444   86.3   1.038   -3.1  0.2974   27.1  0.3182 -177.9
 4.700  0.7482   84.9   1.016   -4.4  0.3027   26.0  0.3264  179.9
 4.800  0.7525   83.5   0.995   -5.8  0.3081   24.9  0.3351  177.7
 4.900  0.7571   82.1   0.974   -7.3  0.3136   23.9  0.3443  175.7
 5.000  0.7622   80.8   0.954   -8.8  0.3192   22.9  0.3538  173.8
 5.100  0.7625   79.4   0.938  -10.0  0.3242   21.7  0.3632  172.1
 5.200  0.7631   78.1   0.922  -11.2  0.3293   20.5  0.3728  170.5
 5.300  0.7643   76.7   0.907  -12.5  0.3346   19.4  0.3828  169.0
 5.400  0.7658   75.4   0.892  -13.8  0.3400   18.3  0.3930  167.6
 5.500  0.7678   74.0   0.878  -15.1  0.3455   17.2  0.4034  166.2
 5.600  0.7673   72.8   0.863  -16.1  0.3500   16.0  0.4097  164.9
 5.700  0.7671   71.6   0.848  -17.2  0.3546   14.9  0.4161  163.7
 5.800  0.7672   70.3   0.833  -18.3  0.3593   13.8  0.4228  162.5
 5.900  0.7677   69.1   0.819  -19.5  0.3642   12.7  0.4296  161.3
 6.000  0.7686   67.9   0.805  -20.7  0.3692   11.6  0.4366  160.2
!
!  f       NFmin   Gammaopt  rn/50
! GHz       dB    MAG  ANG    -
 0.450      0.97  0.24  173   0.07
 0.900      1.06  0.36  179   0.07
 1.900      1.74  0.56 -142   0.14
 2.400      2.05  0.62 -125   0.33
!
! (c) 2017  Infineon Technologies AG, Munich