! Infineon Technologies  Discrete & RF Semiconductors
! BFP193
! VCE =  2.0 V,  IC = 0.10 A
! Common Emitter S-Parameters:                            Jan 2017
# GHz  S  MA  R  50
!  f         S11            S21            S12            S22
! GHz     MAG   ANG      MAG   ANG      MAG   ANG      MAG   ANG
 0.010  0.2985 -143.5  63.315  162.1  0.0033   70.3  0.6290  -21.2
 0.020  0.4650 -143.6  56.695  147.1  0.0052   68.5  0.5645  -41.2
 0.030  0.5314 -149.5  48.496  141.0  0.0067   59.6  0.4812  -50.4
 0.040  0.6021 -154.1  41.069  132.5  0.0083   54.0  0.4151  -63.0
 0.050  0.6759 -157.7  34.909  120.7  0.0099   50.2  0.3755  -79.2
 0.060  0.6891 -160.3  31.709  118.7  0.0106   52.1  0.3446  -83.5
 0.070  0.7037 -162.8  28.555  116.3  0.0113   53.8  0.3160  -88.7
 0.080  0.7195 -165.2  25.464  113.3  0.0120   55.3  0.2904  -94.8
 0.090  0.7365 -167.4  22.460  109.5  0.0128   56.6  0.2688 -102.0
 0.100  0.7546 -169.6  19.586  104.6  0.0135   57.8  0.2521 -110.3
 0.110  0.7576 -170.7  18.325  103.6  0.0144   58.7  0.2421 -113.2
 0.120  0.7609 -171.8  17.070  102.4  0.0153   59.5  0.2327 -116.3
 0.130  0.7645 -172.9  15.823  101.1  0.0163   60.1  0.2241 -119.7
 0.140  0.7684 -174.0  14.586   99.5  0.0172   60.8  0.2164 -123.4
 0.150  0.7725 -175.1  13.362   97.7  0.0181   61.3  0.2096 -127.3
 0.200  0.7768 -178.5  10.113   93.2  0.0217   66.5  0.1925 -137.9
 0.250  0.7802  178.8   8.120   89.8  0.0259   66.8  0.1826 -144.6
 0.300  0.7775  176.4   6.777   87.4  0.0301   68.9  0.1779 -150.2
 0.350  0.7789  174.6   5.942   85.5  0.0348   69.8  0.1755 -153.4
 0.400  0.7810  172.8   5.116   82.9  0.0395   70.4  0.1736 -156.7
 0.450  0.7813  171.1   4.604   81.3  0.0439   70.8  0.1736 -158.9
 0.500  0.7823  169.4   4.097   79.2  0.0484   71.1  0.1739 -161.1
 0.600  0.7848  166.4   3.434   75.8  0.0574   71.4  0.1758 -164.2
 0.700  0.7844  163.6   2.952   72.8  0.0656   70.8  0.1769 -166.6
 0.800  0.7864  160.7   2.592   69.4  0.0757   70.5  0.1798 -168.0
 0.900  0.7859  157.8   2.307   66.5  0.0843   69.0  0.1839 -169.4
 1.000  0.7890  155.0   2.093   63.6  0.0931   68.2  0.1882 -171.0
 1.100  0.7917  152.3   1.912   60.8  0.1020   67.0  0.1921 -171.9
 1.200  0.7915  149.5   1.760   57.8  0.1104   65.8  0.1963 -172.9
 1.300  0.7934  146.9   1.635   55.1  0.1192   64.5  0.2020 -173.7
 1.400  0.7962  144.2   1.531   52.4  0.1285   63.6  0.2086 -174.9
 1.500  0.7989  141.6   1.434   49.7  0.1367   62.0  0.2152 -175.9
 1.600  0.8018  138.8   1.353   47.0  0.1457   60.7  0.2209 -176.4
 1.700  0.8035  136.2   1.284   44.4  0.1538   59.5  0.2292 -177.2
 1.800  0.8083  133.5   1.224   41.8  0.1622   57.9  0.2371 -178.2
 1.900  0.8092  131.0   1.163   39.6  0.1699   56.5  0.2442 -179.1
 2.000  0.8100  128.3   1.109   36.9  0.1775   55.1  0.2521 -179.8
 2.100  0.8118  125.7   1.061   34.7  0.1852   53.6  0.2604  179.3
 2.200  0.8153  123.1   1.015   32.2  0.1931   52.3  0.2688  178.4
 2.300  0.8167  120.9   0.979   30.2  0.2010   50.8  0.2766  177.8
 2.400  0.8194  118.7   0.944   28.0  0.2090   49.4  0.2844  177.2
 2.500  0.8203  116.5   0.911   26.0  0.2161   47.9  0.2932  176.2
 2.600  0.8225  114.3   0.879   23.9  0.2233   46.4  0.3021  175.2
 2.700  0.8246  112.2   0.851   22.2  0.2297   45.1  0.3089  174.4
 2.800  0.8278  110.2   0.823   20.3  0.2363   43.8  0.3158  173.6
 2.900  0.8292  108.1   0.799   18.6  0.2426   42.4  0.3231  172.3
 3.000  0.8317  106.1   0.776   16.8  0.2490   41.0  0.3306  171.0
 3.100  0.8313  104.3   0.757   15.4  0.2549   39.6  0.3359  169.6
 3.200  0.8317  102.4   0.739   13.9  0.2610   38.3  0.3413  168.3
 3.300  0.8330  100.6   0.721   12.3  0.2672   37.1  0.3469  167.0
 3.400  0.8351   98.7   0.704   10.7  0.2736   35.9  0.3527  165.8
 3.500  0.8381   96.9   0.687    9.0  0.2800   34.8  0.3587  164.6
 3.600  0.8381   95.3   0.673    7.8  0.2856   33.4  0.3645  163.0
 3.700  0.8387   93.6   0.660    6.6  0.2913   32.1  0.3706  161.4
 3.800  0.8400   92.0   0.647    5.3  0.2972   30.9  0.3770  159.9
 3.900  0.8420   90.4   0.634    3.9  0.3032   29.7  0.3836  158.4
 4.000  0.8447   88.8   0.622    2.5  0.3094   28.5  0.3905  157.0
 4.100  0.8430   87.3   0.612    1.5  0.3146   27.1  0.3973  155.2
 4.200  0.8418   85.8   0.603    0.4  0.3201   25.8  0.4045  153.5
 4.300  0.8412   84.4   0.593   -0.7  0.3257   24.5  0.4120  151.8
 4.400  0.8412   82.9   0.584   -1.8  0.3314   23.3  0.4199  150.2
 4.500  0.8417   81.4   0.575   -3.0  0.3373   22.1  0.4281  148.7
 4.600  0.8419   80.1   0.567   -3.8  0.3420   20.9  0.4356  147.3
 4.700  0.8426   78.8   0.560   -4.6  0.3469   19.6  0.4433  146.0
 4.800  0.8437   77.5   0.552   -5.5  0.3520   18.5  0.4512  144.7
 4.900  0.8452   76.2   0.545   -6.3  0.3572   17.3  0.4594  143.4
 5.000  0.8472   74.9   0.538   -7.2  0.3625   16.2  0.4678  142.2
 5.100  0.8453   73.6   0.534   -8.0  0.3668   14.9  0.4753  141.3
 5.200  0.8438   72.3   0.531   -8.8  0.3712   13.7  0.4829  140.4
 5.300  0.8427   70.9   0.527   -9.6  0.3758   12.4  0.4907  139.5
 5.400  0.8421   69.6   0.524  -10.5  0.3806   11.3  0.4985  138.6
 5.500  0.8420   68.3   0.521  -11.3  0.3855   10.1  0.5065  137.8
 5.600  0.8395   67.2   0.517  -11.9  0.3894    8.9  0.5101  137.0
 5.700  0.8372   66.0   0.514  -12.6  0.3934    7.8  0.5138  136.2
 5.800  0.8354   64.9   0.511  -13.3  0.3976    6.7  0.5176  135.4
 5.900  0.8338   63.7   0.507  -13.9  0.4020    5.6  0.5215  134.6
 6.000  0.8326   62.6   0.504  -14.6  0.4065    4.5  0.5255  133.8
!
!  f       NFmin   Gammaopt  rn/50
! GHz       dB    MAG  ANG    -
!
! noise parameter not available yet for this operation point!
!
! (c) 2017  Infineon Technologies AG, Munich