! Infineon Technologies  Discrete & RF Semiconductors
! BFP193
! VCE =  5.0 V,  IC =  48 mA
! Common Emitter S-Parameters:                            Jan 2017
# GHz  S  MA  R  50
!  f         S11            S21            S12            S22
! GHz     MAG   ANG      MAG   ANG      MAG   ANG      MAG   ANG
 0.010  0.2301  -31.3  73.044  170.6  0.0023   88.7  0.9582   -8.7
 0.020  0.2722  -57.0  71.153  162.2  0.0048   83.1  0.9204  -17.9
 0.030  0.2865  -76.1  65.837  156.0  0.0064   75.4  0.8547  -24.2
 0.040  0.3281  -91.8  61.408  148.9  0.0081   70.8  0.8010  -31.5
 0.050  0.3883 -103.4  58.069  140.8  0.0098   67.8  0.7618  -39.6
 0.060  0.3975 -111.1  53.978  137.9  0.0109   65.5  0.7086  -42.7
 0.070  0.4135 -118.4  50.050  134.5  0.0120   63.6  0.6577  -46.2
 0.080  0.4356 -125.0  46.327  130.5  0.0132   62.1  0.6098  -50.3
 0.090  0.4629 -130.9  42.864  125.9  0.0143   60.8  0.5656  -55.1
 0.100  0.4945 -136.1  39.727  120.5  0.0155   59.7  0.5260  -60.7
 0.110  0.4982 -139.3  37.458  118.9  0.0161   59.6  0.4970  -62.4
 0.120  0.5034 -142.5  35.223  117.1  0.0167   59.5  0.4686  -64.3
 0.130  0.5102 -145.7  33.029  115.0  0.0172   59.4  0.4407  -66.5
 0.140  0.5185 -148.7  30.884  112.6  0.0178   59.4  0.4135  -68.9
 0.150  0.5281 -151.6  28.800  109.9  0.0184   59.3  0.3872  -71.7
 0.200  0.5452 -159.7  22.362  103.4  0.0219   61.4  0.3060  -78.8
 0.250  0.5537 -166.3  18.194   98.6  0.0259   62.8  0.2534  -83.7
 0.300  0.5586 -170.5  15.289   95.3  0.0295   63.8  0.2172  -88.0
 0.350  0.5607 -173.7  13.451   93.0  0.0330   65.4  0.1949  -90.8
 0.400  0.5645 -176.8  11.641   90.0  0.0365   66.7  0.1731  -94.3
 0.450  0.5663 -179.5  10.490   88.2  0.0404   67.1  0.1603  -96.7
 0.500  0.5693  177.8   9.352   86.0  0.0444   67.4  0.1478  -99.6
 0.600  0.5708  173.6   7.839   82.5  0.0519   67.9  0.1319 -105.1
 0.700  0.5741  170.2   6.731   79.5  0.0592   68.3  0.1203 -109.3
 0.800  0.5785  166.7   5.906   76.4  0.0676   68.5  0.1153 -113.1
 0.900  0.5788  163.3   5.247   73.6  0.0756   67.4  0.1127 -117.2
 1.000  0.5836  160.3   4.747   70.9  0.0833   66.6  0.1097 -121.3
 1.100  0.5881  157.3   4.324   68.4  0.0911   65.9  0.1095 -124.2
 1.200  0.5892  154.3   3.968   65.8  0.0985   65.0  0.1108 -127.5
 1.300  0.5941  151.4   3.673   63.3  0.1062   63.9  0.1137 -130.7
 1.400  0.5953  148.7   3.424   60.8  0.1142   63.2  0.1165 -134.3
 1.500  0.6025  146.0   3.197   58.4  0.1220   61.9  0.1207 -137.3
 1.600  0.6065  143.2   3.009   55.9  0.1295   60.9  0.1251 -139.4
 1.700  0.6092  140.4   2.838   53.5  0.1369   59.7  0.1316 -142.3
 1.800  0.6163  137.7   2.694   51.0  0.1444   58.4  0.1379 -145.2
 1.900  0.6191  135.1   2.553   48.9  0.1514   57.0  0.1442 -147.5
 2.000  0.6238  132.6   2.425   46.4  0.1586   55.9  0.1514 -149.5
 2.100  0.6285  130.0   2.314   44.2  0.1656   54.6  0.1587 -151.8
 2.200  0.6345  127.5   2.207   41.8  0.1726   53.4  0.1663 -153.9
 2.300  0.6386  125.2   2.117   39.8  0.1796   52.1  0.1742 -155.4
 2.400  0.6436  123.0   2.029   37.6  0.1867   50.9  0.1823 -156.8
 2.500  0.6483  120.8   1.950   35.6  0.1932   49.5  0.1906 -158.7
 2.600  0.6539  118.7   1.874   33.4  0.1999   48.2  0.1990 -160.5
 2.700  0.6584  116.6   1.807   31.5  0.2060   46.9  0.2061 -162.0
 2.800  0.6638  114.6   1.743   29.4  0.2123   45.6  0.2133 -163.4
 2.900  0.6685  112.6   1.685   27.5  0.2183   44.3  0.2197 -165.4
 3.000  0.6740  110.6   1.629   25.5  0.2245   43.1  0.2263 -167.3
 3.100  0.6773  108.8   1.582   23.9  0.2301   41.8  0.2310 -169.2
 3.200  0.6814  106.9   1.536   22.1  0.2358   40.6  0.2359 -171.0
 3.300  0.6861  105.1   1.491   20.3  0.2417   39.5  0.2410 -172.7
 3.400  0.6915  103.3   1.448   18.4  0.2476   38.4  0.2464 -174.4
 3.500  0.6975  101.6   1.407   16.3  0.2536   37.3  0.2519 -176.0
 3.600  0.7008  100.0   1.372   14.7  0.2588   36.0  0.2566 -178.1
 3.700  0.7046   98.4   1.337   13.1  0.2642   34.8  0.2616  179.9
 3.800  0.7090   96.9   1.304   11.4  0.2697   33.6  0.2670  177.9
 3.900  0.7138   95.3   1.272    9.6  0.2753   32.4  0.2726  176.1
 4.000  0.7192   93.8   1.241    7.7  0.2810   31.3  0.2785  174.3
 4.100  0.7212   92.3   1.213    6.3  0.2862   30.0  0.2843  172.1
 4.200  0.7236   90.8   1.186    4.8  0.2915   28.8  0.2906  169.9
 4.300  0.7265   89.4   1.160    3.2  0.2969   27.6  0.2972  167.9
 4.400  0.7299   87.9   1.134    1.5  0.3024   26.5  0.3042  166.0
 4.500  0.7338   86.5   1.110   -0.2  0.3081   25.4  0.3115  164.1
 4.600  0.7369   85.2   1.088   -1.5  0.3128   24.2  0.3190  162.4
 4.700  0.7403   83.8   1.066   -2.8  0.3176   23.0  0.3268  160.8
 4.800  0.7442   82.5   1.045   -4.2  0.3225   21.9  0.3348  159.3
 4.900  0.7485   81.2   1.024   -5.6  0.3276   20.8  0.3430  157.8
 5.000  0.7531   79.9   1.004   -7.1  0.3328   19.7  0.3515  156.4
 5.100  0.7532   78.6   0.988   -8.3  0.3371   18.5  0.3597  155.3
 5.200  0.7538   77.2   0.973   -9.5  0.3416   17.3  0.3680  154.3
 5.300  0.7547   75.9   0.958  -10.8  0.3462   16.1  0.3764  153.3
 5.400  0.7561   74.5   0.943  -12.1  0.3509   15.0  0.3850  152.4
 5.500  0.7579   73.2   0.929  -13.5  0.3558   13.9  0.3936  151.5
 5.600  0.7574   72.1   0.914  -14.6  0.3597   12.8  0.3983  150.6
 5.700  0.7571   70.9   0.899  -15.7  0.3637   11.7  0.4031  149.8
 5.800  0.7572   69.8   0.885  -16.9  0.3679   10.6  0.4081  149.0
 5.900  0.7575   68.6   0.871  -18.1  0.3722    9.5  0.4130  148.2
 6.000  0.7582   67.5   0.858  -19.4  0.3766    8.5  0.4181  147.4
!
!  f       NFmin   Gammaopt  rn/50
! GHz       dB    MAG  ANG    -
 0.450      1.49  0.42 -171   0.08
 0.900      1.54  0.44 -164   0.08
 1.900      2.17  0.61 -132   0.22
 2.400      2.50  0.64 -119   0.47
!
! (c) 2017  Infineon Technologies AG, Munich