! Infineon Technologies  Discrete & RF Semiconductors
! BFP193
! VCE =  8.0 V,  IC =  32 mA
! Common Emitter S-Parameters:                            Jan 2017
# GHz  S  MA  R  50
!  f         S11            S21            S12            S22
! GHz     MAG   ANG      MAG   ANG      MAG   ANG      MAG   ANG
 0.010  0.4031  -16.4  60.322  172.2  0.0022   83.8  0.9749   -6.6
 0.020  0.4161  -32.7  59.512  165.5  0.0047   85.5  0.9529  -13.7
 0.030  0.4019  -46.4  56.222  160.0  0.0068   75.5  0.9038  -19.0
 0.040  0.4115  -60.3  53.517  153.8  0.0091   70.4  0.8632  -24.8
 0.050  0.4434  -72.8  51.490  147.1  0.0114   67.3  0.8324  -31.2
 0.060  0.4356  -81.1  48.421  144.0  0.0127   65.0  0.7846  -34.1
 0.070  0.4372  -89.5  45.514  140.5  0.0140   63.1  0.7390  -37.4
 0.080  0.4481  -97.7  42.803  136.5  0.0153   61.5  0.6962  -41.1
 0.090  0.4676 -105.4  40.327  132.0  0.0167   60.2  0.6568  -45.3
 0.100  0.4947 -112.3  38.132  126.9  0.0180   59.1  0.6212  -50.0
 0.110  0.4926 -116.6  36.142  125.0  0.0187   58.3  0.5901  -51.6
 0.120  0.4934 -121.0  34.195  123.0  0.0195   57.5  0.5595  -53.4
 0.130  0.4970 -125.3  32.298  120.6  0.0202   56.8  0.5294  -55.4
 0.140  0.5034 -129.5  30.460  118.0  0.0210   56.1  0.5001  -57.6
 0.150  0.5124 -133.6  28.694  115.1  0.0217   55.5  0.4717  -60.1
 0.200  0.5291 -146.1  22.686  107.7  0.0244   56.2  0.3790  -66.2
 0.250  0.5352 -155.0  18.635  102.1  0.0282   57.0  0.3154  -69.7
 0.300  0.5386 -160.9  15.740   98.4  0.0299   57.9  0.2705  -72.6
 0.350  0.5394 -165.4  13.875   95.8  0.0336   59.3  0.2426  -74.1
 0.400  0.5434 -169.8  12.048   92.4  0.0374   60.5  0.2149  -76.0
 0.450  0.5453 -173.0  10.868   90.4  0.0407   61.5  0.1981  -77.3
 0.500  0.5489 -176.2   9.704   88.0  0.0441   62.3  0.1815  -78.9
 0.600  0.5510  178.6   8.150   84.2  0.0510   63.2  0.1592  -81.8
 0.700  0.5537  174.4   7.001   81.0  0.0577   64.8  0.1440  -83.7
 0.800  0.5567  170.3   6.146   77.8  0.0654   64.9  0.1345  -86.2
 0.900  0.5570  166.6   5.462   74.9  0.0725   64.6  0.1277  -89.2
 1.000  0.5630  163.4   4.943   72.1  0.0795   64.4  0.1221  -92.2
 1.100  0.5670  159.9   4.505   69.5  0.0870   63.6  0.1196  -94.7
 1.200  0.5685  156.9   4.136   66.8  0.0940   63.3  0.1180  -97.9
 1.300  0.5716  153.7   3.825   64.3  0.1008   62.4  0.1179 -101.5
 1.400  0.5753  150.8   3.567   61.7  0.1086   61.7  0.1179 -105.8
 1.500  0.5809  148.0   3.329   59.3  0.1153   60.6  0.1195 -109.3
 1.600  0.5838  145.0   3.132   56.7  0.1223   59.7  0.1224 -112.4
 1.700  0.5876  142.2   2.955   54.4  0.1297   58.7  0.1267 -116.4
 1.800  0.5955  139.4   2.804   51.8  0.1368   57.8  0.1308 -120.3
 1.900  0.6001  136.9   2.658   49.7  0.1432   56.7  0.1352 -123.8
 2.000  0.6033  134.1   2.526   47.2  0.1503   55.6  0.1414 -127.0
 2.100  0.6086  131.5   2.410   45.0  0.1569   54.4  0.1473 -130.3
 2.200  0.6152  128.9   2.298   42.6  0.1636   53.3  0.1537 -133.4
 2.300  0.6193  126.6   2.204   40.5  0.1705   52.2  0.1611 -135.9
 2.400  0.6244  124.4   2.113   38.2  0.1775   51.2  0.1688 -138.2
 2.500  0.6293  122.1   2.030   36.2  0.1838   49.9  0.1762 -140.9
 2.600  0.6351  119.9   1.950   34.1  0.1902   48.6  0.1840 -143.4
 2.700  0.6411  117.8   1.881   32.1  0.1964   47.4  0.1909 -145.6
 2.800  0.6480  115.8   1.814   30.0  0.2027   46.3  0.1980 -147.6
 2.900  0.6527  113.7   1.752   28.1  0.2085   45.1  0.2039 -150.1
 3.000  0.6583  111.6   1.693   26.0  0.2144   43.9  0.2101 -152.5
 3.100  0.6620  109.7   1.643   24.4  0.2200   42.7  0.2145 -154.7
 3.200  0.6664  107.9   1.595   22.6  0.2257   41.6  0.2192 -156.9
 3.300  0.6715  106.1   1.548   20.8  0.2315   40.5  0.2241 -158.9
 3.400  0.6772  104.3   1.503   18.8  0.2374   39.5  0.2294 -160.8
 3.500  0.6836  102.5   1.460   16.7  0.2433   38.5  0.2349 -162.7
 3.600  0.6873  100.9   1.423   15.1  0.2486   37.3  0.2392 -165.1
 3.700  0.6914   99.3   1.387   13.5  0.2541   36.1  0.2438 -167.5
 3.800  0.6962   97.8   1.352   11.7  0.2596   34.9  0.2489 -169.7
 3.900  0.7014   96.2   1.319    9.9  0.2653   33.8  0.2543 -171.8
 4.000  0.7071   94.7   1.287    8.0  0.2710   32.8  0.2601 -173.9
 4.100  0.7093   93.2   1.258    6.5  0.2763   31.5  0.2655 -176.4
 4.200  0.7120   91.7   1.229    5.0  0.2816   30.3  0.2715 -178.9
 4.300  0.7152   90.2   1.201    3.4  0.2871   29.1  0.2779  178.8
 4.400  0.7188   88.8   1.175    1.7  0.2928   28.0  0.2847  176.6
 4.500  0.7229   87.3   1.149   -0.1  0.2985   26.9  0.2920  174.5
 4.600  0.7264   85.9   1.125   -1.4  0.3034   25.7  0.2995  172.5
 4.700  0.7304   84.6   1.102   -2.7  0.3084   24.5  0.3073  170.5
 4.800  0.7347   83.2   1.079   -4.1  0.3136   23.4  0.3155  168.7
 4.900  0.7395   81.9   1.057   -5.6  0.3188   22.3  0.3239  167.0
 5.000  0.7446   80.6   1.036   -7.1  0.3242   21.3  0.3327  165.3
 5.100  0.7449   79.3   1.019   -8.4  0.3287   20.1  0.3415  164.0
 5.200  0.7457   77.9   1.002   -9.7  0.3334   18.9  0.3504  162.7
 5.300  0.7468   76.6   0.986  -11.0  0.3381   17.8  0.3595  161.5
 5.400  0.7483   75.2   0.971  -12.4  0.3431   16.7  0.3688  160.4
 5.500  0.7503   73.9   0.956  -13.8  0.3481   15.6  0.3782  159.3
 5.600  0.7502   72.7   0.940  -14.9  0.3522   14.5  0.3838  158.3
 5.700  0.7505   71.5   0.924  -16.0  0.3564   13.4  0.3895  157.3
 5.800  0.7511   70.3   0.909  -17.2  0.3607   12.3  0.3953  156.3
 5.900  0.7520   69.1   0.894  -18.4  0.3652   11.2  0.4012  155.4
 6.000  0.7532   67.9   0.879  -19.6  0.3698   10.2  0.4072  154.5
!
!  f       NFmin   Gammaopt  rn/50
! GHz       dB    MAG  ANG    -
 0.450      1.24  0.35 -173   0.08
 0.900      1.30  0.39 -171   0.07
 1.900      1.92  0.58 -136   0.17
 2.400      2.25  0.62 -121   0.38
!
! (c) 2017  Infineon Technologies AG, Munich