! Infineon Technologies  Discrete & RF Semiconductors
! BFP193
! VCE =  9.0 V,  IC =  5.0 mA
! Common Emitter S-Parameters:                            Jan 2017
# GHz  S  MA  R  50
!  f         S11            S21            S12            S22
! GHz     MAG   ANG      MAG   ANG      MAG   ANG      MAG   ANG
 0.010  0.8458   -4.8  15.807  177.2  0.0031   88.1  1.0000   -2.0
 0.020  0.8580   -9.6  15.953  174.5  0.0066   88.2  0.9926   -4.2
 0.030  0.8429  -14.1  15.765  171.8  0.0098   83.3  0.9851   -6.2
 0.040  0.8330  -18.6  15.613  169.0  0.0130   80.8  0.9789   -8.2
 0.050  0.8285  -23.3  15.498  166.2  0.0163   79.3  0.9738  -10.2
 0.060  0.8166  -27.6  15.251  163.8  0.0192   75.8  0.9605  -11.9
 0.070  0.8094  -32.0  15.032  161.3  0.0221   73.3  0.9480  -13.7
 0.080  0.8069  -36.4  14.842  158.8  0.0251   71.3  0.9365  -15.5
 0.090  0.8093  -40.8  14.682  156.2  0.0281   69.7  0.9259  -17.3
 0.100  0.8165  -45.2  14.553  153.5  0.0311   68.5  0.9163  -19.2
 0.110  0.8020  -48.8  14.240  151.4  0.0332   66.0  0.9000  -20.6
 0.120  0.7908  -52.6  13.948  149.2  0.0353   63.9  0.8842  -22.0
 0.130  0.7832  -56.5  13.676  146.9  0.0375   61.9  0.8690  -23.5
 0.140  0.7791  -60.4  13.427  144.6  0.0397   60.2  0.8544  -25.1
 0.150  0.7787  -64.3  13.202  142.1  0.0419   58.7  0.8405  -26.7
 0.200  0.7526  -81.0  11.914  132.7  0.0500   51.9  0.7673  -32.2
 0.250  0.7265  -95.0  10.683  124.5  0.0561   46.6  0.6983  -36.2
 0.300  0.7059 -106.7   9.558  118.3  0.0599   42.5  0.6395  -39.1
 0.350  0.6838 -115.5   8.662  113.7  0.0628   39.8  0.5955  -40.7
 0.400  0.6787 -124.7   7.835  108.1  0.0659   37.3  0.5521  -42.6
 0.450  0.6661 -131.5   7.176  104.6  0.0673   36.0  0.5223  -43.6
 0.500  0.6631 -138.4   6.548  100.5  0.0688   34.7  0.4926  -44.8
 0.600  0.6551 -149.0   5.618   94.3  0.0717   32.9  0.4513  -46.2
 0.700  0.6478 -157.5   4.890   89.0  0.0731   32.7  0.4227  -47.2
 0.800  0.6455 -164.9   4.338   84.2  0.0754   33.6  0.4025  -48.6
 0.900  0.6424 -171.3   3.879   80.0  0.0776   33.6  0.3866  -50.0
 1.000  0.6439 -176.9   3.528   76.1  0.0789   34.2  0.3739  -51.5
 1.100  0.6459  178.0   3.227   72.5  0.0811   35.6  0.3658  -53.2
 1.200  0.6470  173.1   2.972   68.9  0.0833   36.3  0.3582  -55.1
 1.300  0.6470  168.8   2.755   65.6  0.0856   37.9  0.3528  -57.3
 1.400  0.6520  164.8   2.573   62.3  0.0883   39.3  0.3475  -59.7
 1.500  0.6562  161.0   2.407   59.3  0.0916   40.4  0.3437  -62.0
 1.600  0.6603  157.2   2.265   56.1  0.0946   41.4  0.3423  -64.5
 1.700  0.6635  153.4   2.141   53.2  0.0982   42.9  0.3396  -67.4
 1.800  0.6699  150.0   2.035   50.2  0.1020   43.8  0.3384  -70.3
 1.900  0.6756  146.6   1.929   47.6  0.1059   44.9  0.3381  -73.2
 2.000  0.6780  143.3   1.835   44.6  0.1103   45.5  0.3393  -76.0
 2.100  0.6827  140.0   1.750   42.0  0.1149   46.3  0.3400  -79.1
 2.200  0.6896  136.8   1.670   39.1  0.1195   47.0  0.3417  -82.2
 2.300  0.6936  134.1   1.600   36.7  0.1249   47.5  0.3456  -85.3
 2.400  0.6991  131.4   1.533   34.1  0.1304   48.0  0.3506  -88.4
 2.500  0.7037  128.7   1.471   31.8  0.1359   48.1  0.3539  -91.6
 2.600  0.7099  126.1   1.411   29.3  0.1415   48.1  0.3584  -94.8
 2.700  0.7156  123.6   1.359   27.1  0.1474   48.2  0.3634  -97.7
 2.800  0.7226  121.2   1.310   24.7  0.1533   48.2  0.3694 -100.6
 2.900  0.7271  118.7   1.264   22.6  0.1594   47.9  0.3728 -103.5
 3.000  0.7329  116.3   1.219   20.4  0.1655   47.6  0.3772 -106.4
 3.100  0.7358  114.1   1.181   18.7  0.1723   47.1  0.3802 -109.3
 3.200  0.7397  112.0   1.143   16.9  0.1792   46.7  0.3841 -112.2
 3.300  0.7447  109.9   1.107   15.0  0.1861   46.3  0.3889 -115.0
 3.400  0.7506  107.8   1.072   12.9  0.1929   45.9  0.3947 -117.7
 3.500  0.7576  105.7   1.039   10.7  0.1998   45.6  0.4013 -120.3
 3.600  0.7604  103.8   1.011    9.2  0.2068   44.6  0.4034 -123.3
 3.700  0.7640  102.0   0.984    7.6  0.2139   43.8  0.4066 -126.3
 3.800  0.7684  100.2   0.957    5.9  0.2211   42.9  0.4109 -129.2
 3.900  0.7735   98.4   0.932    4.2  0.2283   42.1  0.4162 -132.1
 4.000  0.7794   96.6   0.907    2.3  0.2355   41.4  0.4226 -134.9
 4.100  0.7801   94.9   0.884    0.9  0.2428   40.2  0.4252 -138.2
 4.200  0.7814   93.2   0.862   -0.5  0.2503   39.0  0.4291 -141.4
 4.300  0.7834   91.5   0.841   -2.0  0.2578   38.0  0.4343 -144.5
 4.400  0.7861   89.9   0.820   -3.6  0.2654   37.0  0.4408 -147.5
 4.500  0.7895   88.2   0.800   -5.3  0.2731   36.0  0.4485 -150.5
 4.600  0.7922   86.7   0.782   -6.3  0.2801   34.8  0.4538 -153.6
 4.700  0.7954   85.2   0.764   -7.4  0.2873   33.6  0.4604 -156.6
 4.800  0.7992   83.7   0.746   -8.6  0.2946   32.5  0.4682 -159.5
 4.900  0.8035   82.3   0.729   -9.8  0.3020   31.4  0.4772 -162.3
 5.000  0.8083   80.8   0.712  -11.0  0.3095   30.4  0.4873 -165.0
 5.100  0.8076   79.4   0.700  -11.9  0.3159   29.0  0.4954 -167.5
 5.200  0.8075   77.9   0.687  -12.8  0.3225   27.6  0.5045 -170.0
 5.300  0.8078   76.5   0.675  -13.8  0.3292   26.3  0.5144 -172.4
 5.400  0.8087   75.0   0.664  -14.8  0.3361   25.1  0.5252 -174.6
 5.500  0.8101   73.6   0.652  -15.8  0.3432   23.9  0.5368 -176.8
 5.600  0.8092   72.3   0.641  -16.5  0.3490   22.6  0.5426 -178.8
 5.700  0.8088   71.0   0.630  -17.2  0.3550   21.3  0.5490  179.3
 5.800  0.8087   69.7   0.619  -17.9  0.3611   20.1  0.5561  177.5
 5.900  0.8091   68.4   0.609  -18.6  0.3674   18.9  0.5637  175.7
 6.000  0.8099   67.1   0.598  -19.4  0.3739   17.7  0.5718  173.9
!
!  f       NFmin   Gammaopt  rn/50
! GHz       dB    MAG  ANG    -
 0.450      0.92  0.28  104   0.10
 0.900      1.03  0.39  150   0.07
 1.900      1.97  0.61 -151   0.13
 2.400      2.42  0.67 -131   0.35
!
! (c) 2017  Infineon Technologies AG, Munich