! Infineon Technologies  Discrete & RF Semiconductors
! BFP193
! VCE =  7.0 V,  IC =  48 mA
! Common Emitter S-Parameters:                            Jan 2017
# GHz  S  MA  R  50
!  f         S11            S21            S12            S22
! GHz     MAG   ANG      MAG   ANG      MAG   ANG      MAG   ANG
 0.010  0.2771  -25.2  72.237  170.8  0.0023   87.7  0.9603   -8.1
 0.020  0.3070  -48.3  70.542  162.8  0.0044   81.9  0.9238  -16.5
 0.030  0.3096  -66.1  65.576  156.8  0.0061   75.0  0.8633  -22.5
 0.040  0.3403  -82.2  61.445  149.9  0.0078   71.1  0.8137  -29.3
 0.050  0.3925  -94.8  58.327  142.1  0.0096   68.6  0.7769  -36.9
 0.060  0.3970 -103.0  54.341  139.1  0.0108   66.2  0.7248  -39.8
 0.070  0.4093 -110.8  50.524  135.7  0.0120   64.2  0.6748  -43.2
 0.080  0.4287 -118.0  46.917  131.7  0.0132   62.6  0.6275  -47.1
 0.090  0.4544 -124.5  43.572  127.1  0.0145   61.3  0.5836  -51.6
 0.100  0.4852 -130.3  40.553  121.8  0.0157   60.2  0.5439  -56.8
 0.110  0.4872 -133.8  38.272  120.1  0.0163   59.6  0.5147  -58.3
 0.120  0.4910 -137.3  36.028  118.2  0.0169   59.0  0.4859  -60.0
 0.130  0.4967 -140.7  33.828  116.1  0.0176   58.4  0.4576  -62.0
 0.140  0.5040 -144.1  31.681  113.7  0.0182   57.9  0.4299  -64.1
 0.150  0.5130 -147.3  29.600  110.9  0.0188   57.4  0.4029  -66.6
 0.200  0.5302 -156.8  23.070  104.2  0.0218   61.4  0.3190  -72.8
 0.250  0.5406 -163.7  18.802   99.3  0.0258   62.2  0.2641  -76.6
 0.300  0.5426 -168.3  15.812   96.0  0.0290   62.7  0.2262  -79.8
 0.350  0.5442 -171.8  13.914   93.6  0.0323   64.7  0.2026  -81.8
 0.400  0.5478 -175.2  12.047   90.5  0.0356   66.3  0.1794  -84.3
 0.450  0.5489 -178.0  10.859   88.7  0.0394   66.7  0.1658  -86.0
 0.500  0.5513  179.2   9.684   86.5  0.0433   67.1  0.1524  -88.0
 0.600  0.5571  174.8   8.122   82.9  0.0510   67.2  0.1337  -91.9
 0.700  0.5600  171.1   6.974   79.9  0.0577   68.0  0.1213  -94.7
 0.800  0.5633  167.5   6.120   76.8  0.0663   68.4  0.1144  -98.0
 0.900  0.5638  164.1   5.436   74.0  0.0738   67.3  0.1105 -101.6
 1.000  0.5692  161.0   4.918   71.4  0.0809   66.9  0.1061 -105.4
 1.100  0.5718  157.9   4.482   68.9  0.0887   65.9  0.1055 -108.3
 1.200  0.5741  154.9   4.113   66.2  0.0962   64.9  0.1056 -111.4
 1.300  0.5779  152.0   3.805   63.7  0.1032   64.2  0.1068 -115.4
 1.400  0.5818  149.2   3.548   61.2  0.1112   63.4  0.1090 -119.5
 1.500  0.5873  146.5   3.312   58.8  0.1186   62.1  0.1118 -123.1
 1.600  0.5905  143.6   3.114   56.3  0.1259   60.9  0.1160 -125.8
 1.700  0.5944  140.9   2.939   54.0  0.1333   59.9  0.1213 -129.4
 1.800  0.6011  138.1   2.788   51.5  0.1406   58.7  0.1266 -132.6
 1.900  0.6058  135.5   2.643   49.3  0.1473   57.6  0.1322 -135.8
 2.000  0.6078  133.0   2.510   46.9  0.1543   56.3  0.1396 -138.3
 2.100  0.6140  130.4   2.395   44.7  0.1613   55.0  0.1461 -141.3
 2.200  0.6215  127.8   2.284   42.3  0.1684   53.9  0.1530 -144.0
 2.300  0.6248  125.6   2.190   40.2  0.1754   52.6  0.1611 -145.9
 2.400  0.6291  123.4   2.100   38.0  0.1825   51.4  0.1693 -147.6
 2.500  0.6345  121.3   2.019   36.0  0.1889   50.1  0.1773 -150.1
 2.600  0.6408  119.2   1.940   33.9  0.1954   48.8  0.1855 -152.3
 2.700  0.6466  117.1   1.870   32.0  0.2014   47.5  0.1926 -154.0
 2.800  0.6533  115.0   1.803   29.9  0.2074   46.3  0.1999 -155.6
 2.900  0.6577  112.9   1.742   28.0  0.2135   45.0  0.2061 -157.9
 3.000  0.6630  110.9   1.684   25.9  0.2197   43.7  0.2126 -160.0
 3.100  0.6662  109.1   1.635   24.3  0.2253   42.5  0.2172 -162.0
 3.200  0.6701  107.3   1.587   22.5  0.2309   41.3  0.2220 -164.0
 3.300  0.6747  105.5   1.541   20.7  0.2367   40.2  0.2270 -165.8
 3.400  0.6799  103.7   1.496   18.8  0.2426   39.1  0.2323 -167.6
 3.500  0.6857  102.0   1.453   16.7  0.2485   38.1  0.2378 -169.3
 3.600  0.6894  100.4   1.416   15.1  0.2538   36.8  0.2422 -171.6
 3.700  0.6936   98.8   1.381   13.5  0.2592   35.6  0.2470 -173.8
 3.800  0.6983   97.3   1.347   11.8  0.2648   34.4  0.2522 -175.9
 3.900  0.7036   95.7   1.314   10.0  0.2704   33.3  0.2577 -178.0
 4.000  0.7093   94.2   1.282    8.1  0.2762   32.2  0.2635 -179.9
 4.100  0.7118   92.7   1.253    6.6  0.2813   30.9  0.2691  177.7
 4.200  0.7147   91.2   1.225    5.1  0.2866   29.7  0.2752  175.4
 4.300  0.7181   89.7   1.198    3.5  0.2920   28.5  0.2817  173.2
 4.400  0.7220   88.3   1.172    1.8  0.2976   27.3  0.2885  171.1
 4.500  0.7264   86.8   1.147    0.0  0.3032   26.2  0.2958  169.1
 4.600  0.7294   85.5   1.123   -1.3  0.3080   25.0  0.3033  167.3
 4.700  0.7328   84.1   1.100   -2.6  0.3128   23.9  0.3111  165.5
 4.800  0.7366   82.8   1.077   -4.0  0.3179   22.8  0.3192  163.9
 4.900  0.7408   81.5   1.055   -5.5  0.3230   21.7  0.3275  162.3
 5.000  0.7454   80.2   1.034   -7.0  0.3282   20.7  0.3361  160.8
 5.100  0.7459   78.9   1.017   -8.2  0.3326   19.5  0.3446  159.6
 5.200  0.7468   77.5   1.001   -9.5  0.3372   18.2  0.3532  158.4
 5.300  0.7481   76.2   0.985  -10.8  0.3419   17.1  0.3619  157.3
 5.400  0.7498   74.9   0.970  -12.1  0.3467   15.9  0.3708  156.3
 5.500  0.7519   73.6   0.955  -13.5  0.3517   14.8  0.3798  155.3
 5.600  0.7515   72.4   0.939  -14.6  0.3558   13.7  0.3849  154.4
 5.700  0.7513   71.2   0.924  -15.7  0.3600   12.6  0.3901  153.5
 5.800  0.7515   70.1   0.909  -16.9  0.3643   11.5  0.3954  152.7
 5.900  0.7521   68.9   0.895  -18.1  0.3688   10.4  0.4008  151.8
 6.000  0.7529   67.7   0.881  -19.4  0.3734    9.4  0.4063  151.0
!
!  f       NFmin   Gammaopt  rn/50
! GHz       dB    MAG  ANG    -
 0.450      1.49  0.42 -171   0.08
 0.900      1.54  0.44 -164   0.08
 1.900      2.17  0.61 -132   0.22
 2.400      2.50  0.64 -119   0.47
!
! (c) 2017  Infineon Technologies AG, Munich