! Infineon Technologies  Discrete & RF Semiconductors
! BFP193
! VCE =  7.0 V,  IC =  8.0 mA
! Common Emitter S-Parameters:                            Jan 2017
# GHz  S  MA  R  50
!  f         S11            S21            S12            S22
! GHz     MAG   ANG      MAG   ANG      MAG   ANG      MAG   ANG
 0.010  0.7498   -6.6  24.252  176.2  0.0029   91.6  1.0000   -3.0
 0.020  0.7597  -13.1  24.565  172.7  0.0064   85.8  0.9917   -6.2
 0.030  0.7417  -19.2  24.045  169.2  0.0093   80.4  0.9763   -9.0
 0.040  0.7323  -25.4  23.616  165.6  0.0123   77.5  0.9633  -11.9
 0.050  0.7319  -31.8  23.284  161.9  0.0153   75.8  0.9528  -14.9
 0.060  0.7150  -37.2  22.676  159.1  0.0179   72.1  0.9303  -17.1
 0.070  0.7047  -42.7  22.126  156.2  0.0206   69.3  0.9093  -19.5
 0.080  0.7012  -48.4  21.636  153.1  0.0234   67.2  0.8899  -22.0
 0.090  0.7046  -54.1  21.213  149.8  0.0261   65.5  0.8723  -24.5
 0.100  0.7149  -59.7  20.859  146.5  0.0289   64.2  0.8564  -27.2
 0.110  0.6991  -64.0  20.214  144.3  0.0305   62.0  0.8328  -28.8
 0.120  0.6873  -68.4  19.602  141.9  0.0321   60.0  0.8099  -30.5
 0.130  0.6797  -72.9  19.027  139.3  0.0338   58.3  0.7878  -32.4
 0.140  0.6766  -77.6  18.491  136.6  0.0355   56.7  0.7666  -34.3
 0.150  0.6778  -82.2  17.998  133.8  0.0372   55.2  0.7462  -36.3
 0.200  0.6621 -100.1  15.515  124.4  0.0434   48.8  0.6522  -42.5
 0.250  0.6432 -114.2  13.450  116.6  0.0474   44.9  0.5740  -46.6
 0.300  0.6312 -124.8  11.737  111.0  0.0502   42.6  0.5120  -49.4
 0.350  0.6204 -132.7  10.505  107.1  0.0524   41.3  0.4687  -50.9
 0.400  0.6216 -140.7   9.335  102.1  0.0547   40.2  0.4258  -52.7
 0.450  0.6145 -146.5   8.486   99.2  0.0567   40.1  0.3982  -53.5
 0.500  0.6139 -152.4   7.664   95.6  0.0587   40.0  0.3706  -54.5
 0.600  0.6119 -161.2   6.506   90.2  0.0625   40.3  0.3333  -55.8
 0.700  0.6113 -168.3   5.624   85.8  0.0650   41.3  0.3075  -56.7
 0.800  0.6128 -174.5   4.965   81.5  0.0689   43.4  0.2900  -57.9
 0.900  0.6091 -179.8   4.426   77.8  0.0732   44.4  0.2762  -59.3
 1.000  0.6131  175.5   4.013   74.4  0.0769   44.9  0.2648  -60.9
 1.100  0.6158  171.0   3.665   71.1  0.0813   46.1  0.2583  -62.6
 1.200  0.6182  166.8   3.370   67.9  0.0856   47.1  0.2524  -64.7
 1.300  0.6206  163.0   3.120   64.8  0.0902   47.7  0.2476  -67.0
 1.400  0.6241  159.5   2.913   61.8  0.0952   48.5  0.2437  -69.6
 1.500  0.6299  156.0   2.722   59.0  0.1002   48.7  0.2410  -72.4
 1.600  0.6330  152.4   2.561   56.1  0.1046   49.2  0.2405  -75.0
 1.700  0.6372  149.1   2.418   53.4  0.1103   49.6  0.2393  -78.4
 1.800  0.6436  145.8   2.297   50.6  0.1159   49.5  0.2388  -81.5
 1.900  0.6478  142.9   2.177   48.1  0.1210   49.7  0.2399  -84.8
 2.000  0.6524  139.9   2.069   45.3  0.1268   49.7  0.2422  -88.0
 2.100  0.6565  136.9   1.974   42.8  0.1323   49.4  0.2443  -91.4
 2.200  0.6625  133.9   1.884   40.1  0.1378   49.2  0.2473  -94.7
 2.300  0.6673  131.4   1.805   37.8  0.1439   48.9  0.2522  -98.0
 2.400  0.6733  128.9   1.730   35.3  0.1500   48.7  0.2579 -101.1
 2.500  0.6783  126.3   1.661   33.1  0.1558   48.1  0.2627 -104.5
 2.600  0.6847  123.8   1.595   30.7  0.1617   47.6  0.2684 -107.7
 2.700  0.6900  121.5   1.538   28.6  0.1676   47.1  0.2741 -110.6
 2.800  0.6964  119.2   1.483   26.3  0.1736   46.6  0.2805 -113.4
 2.900  0.7016  116.9   1.432   24.3  0.1795   45.9  0.2847 -116.3
 3.000  0.7078  114.7   1.383   22.1  0.1854   45.2  0.2896 -119.1
 3.100  0.7108  112.7   1.340   20.4  0.1916   44.4  0.2934 -121.9
 3.200  0.7148  110.6   1.299   18.6  0.1978   43.7  0.2980 -124.6
 3.300  0.7196  108.6   1.259   16.6  0.2040   43.0  0.3032 -127.3
 3.400  0.7253  106.6   1.221   14.6  0.2102   42.4  0.3090 -129.8
 3.500  0.7318  104.7   1.184   12.4  0.2165   41.8  0.3154 -132.3
 3.600  0.7351  102.9   1.153   10.8  0.2228   40.7  0.3187 -135.2
 3.700  0.7390  101.2   1.122    9.2  0.2292   39.7  0.3228 -138.1
 3.800  0.7437   99.5   1.093    7.4  0.2357   38.8  0.3277 -140.8
 3.900  0.7490   97.8   1.064    5.6  0.2422   37.9  0.3334 -143.5
 4.000  0.7549   96.1   1.037    3.6  0.2488   37.0  0.3397 -146.1
 4.100  0.7564   94.5   1.012    2.2  0.2552   35.9  0.3439 -149.2
 4.200  0.7586   92.8   0.988    0.7  0.2617   34.8  0.3490 -152.3
 4.300  0.7614   91.2   0.965   -0.9  0.2683   33.7  0.3552 -155.2
 4.400  0.7647   89.6   0.942   -2.5  0.2750   32.7  0.3622 -158.1
 4.500  0.7687   88.0   0.920   -4.2  0.2818   31.8  0.3701 -160.8
 4.600  0.7717   86.6   0.899   -5.4  0.2879   30.6  0.3772 -163.6
 4.700  0.7753   85.1   0.879   -6.7  0.2941   29.5  0.3853 -166.4
 4.800  0.7793   83.7   0.859   -8.0  0.3004   28.4  0.3941 -169.0
 4.900  0.7838   82.3   0.840   -9.4  0.3068   27.4  0.4037 -171.4
 5.000  0.7887   80.9   0.821  -10.8  0.3133   26.4  0.4141 -173.8
 5.100  0.7884   79.5   0.807  -11.9  0.3190   25.1  0.4234 -176.0
 5.200  0.7886   78.1   0.792  -13.0  0.3248   23.9  0.4334 -178.1
 5.300  0.7893   76.6   0.779  -14.1  0.3308   22.7  0.4439  179.9
 5.400  0.7905   75.2   0.765  -15.3  0.3369   21.5  0.4549  177.9
 5.500  0.7922   73.8   0.752  -16.5  0.3432   20.4  0.4664  176.1
 5.600  0.7917   72.6   0.739  -17.4  0.3485   19.2  0.4730  174.4
 5.700  0.7916   71.3   0.726  -18.2  0.3540   18.0  0.4800  172.8
 5.800  0.7919   70.1   0.714  -19.2  0.3596   16.8  0.4874  171.2
 5.900  0.7926   68.8   0.701  -20.1  0.3653   15.7  0.4951  169.7
 6.000  0.7936   67.6   0.689  -21.1  0.3712   14.6  0.5032  168.2
!
!  f       NFmin   Gammaopt  rn/50
! GHz       dB    MAG  ANG    -
 0.450      0.85  0.21  129   0.09
 0.900      0.97  0.36  162   0.07
 1.900      1.79  0.58 -148   0.12
 2.400      2.19  0.64 -129   0.31
!
! (c) 2017  Infineon Technologies AG, Munich