! Infineon Technologies  Discrete & RF Semiconductors
! BFP193
! VCE =  2.0 V,  IC =  90 mA
! Common Emitter S-Parameters:                            Jan 2017
# GHz  S  MA  R  50
!  f         S11            S21            S12            S22
! GHz     MAG   ANG      MAG   ANG      MAG   ANG      MAG   ANG
 0.010  0.2503 -137.0  68.104  163.6  0.0029   71.2  0.7039  -18.6
 0.020  0.4069 -137.7  61.716  149.5  0.0055   68.9  0.6378  -36.4
 0.030  0.4774 -144.9  53.320  143.2  0.0068   61.1  0.5490  -45.0
 0.040  0.5535 -150.1  45.810  134.6  0.0082   55.8  0.4771  -56.6
 0.050  0.6331 -154.1  39.692  123.1  0.0096   52.1  0.4306  -71.4
 0.060  0.6477 -157.0  36.120  121.0  0.0105   54.1  0.3935  -75.3
 0.070  0.6639 -159.8  32.606  118.5  0.0115   55.7  0.3586  -80.0
 0.080  0.6815 -162.4  29.170  115.4  0.0124   57.1  0.3265  -85.6
 0.090  0.7006 -164.9  25.846  111.4  0.0133   58.4  0.2984  -92.4
 0.100  0.7209 -167.3  22.680  106.3  0.0143   59.4  0.2752 -100.5
 0.110  0.7242 -168.6  21.232  105.2  0.0150   60.2  0.2620 -103.2
 0.120  0.7278 -169.9  19.793  104.0  0.0157   60.9  0.2494 -106.1
 0.130  0.7319 -171.2  18.364  102.6  0.0165   61.6  0.2375 -109.4
 0.140  0.7363 -172.4  16.948  100.9  0.0172   62.2  0.2265 -113.0
 0.150  0.7410 -173.7  15.549   99.0  0.0179   62.8  0.2165 -116.9
 0.200  0.7475 -177.3  11.766   94.3  0.0211   65.0  0.1905 -128.0
 0.250  0.7527  179.8   9.464   90.8  0.0260   67.4  0.1765 -135.6
 0.300  0.7499  177.6   7.900   88.3  0.0298   69.0  0.1681 -142.1
 0.350  0.7513  175.6   6.928   86.4  0.0342   70.0  0.1641 -145.8
 0.400  0.7537  173.6   5.967   83.8  0.0387   70.7  0.1609 -149.7
 0.450  0.7538  171.8   5.371   82.2  0.0432   70.9  0.1600 -152.4
 0.500  0.7546  170.0   4.780   80.1  0.0478   71.0  0.1595 -155.1
 0.600  0.7579  166.8   4.003   76.8  0.0567   70.5  0.1602 -158.9
 0.700  0.7573  164.1   3.437   73.8  0.0648   71.1  0.1597 -161.8
 0.800  0.7601  161.1   3.017   70.5  0.0745   70.1  0.1628 -163.5
 0.900  0.7587  158.3   2.684   67.7  0.0826   69.4  0.1667 -165.2
 1.000  0.7628  155.5   2.432   64.8  0.0914   68.3  0.1706 -167.3
 1.100  0.7647  152.8   2.222   62.1  0.1004   67.2  0.1739 -168.2
 1.200  0.7654  150.0   2.043   59.2  0.1088   65.9  0.1780 -169.4
 1.300  0.7678  147.4   1.896   56.6  0.1176   64.6  0.1839 -170.2
 1.400  0.7705  144.6   1.772   53.8  0.1261   63.5  0.1908 -171.6
 1.500  0.7749  142.0   1.658   51.2  0.1345   62.0  0.1965 -172.9
 1.600  0.7768  139.4   1.565   48.5  0.1430   60.8  0.2023 -173.4
 1.700  0.7795  136.6   1.482   46.0  0.1513   59.5  0.2111 -174.1
 1.800  0.7856  133.9   1.410   43.3  0.1597   58.1  0.2187 -175.4
 1.900  0.7874  131.5   1.340   41.1  0.1672   56.8  0.2256 -176.3
 2.000  0.7861  128.9   1.276   38.5  0.1751   55.4  0.2334 -176.8
 2.100  0.7885  126.3   1.221   36.3  0.1825   53.9  0.2418 -177.9
 2.200  0.7925  123.8   1.168   33.8  0.1901   52.5  0.2502 -178.9
 2.300  0.7942  121.5   1.124   31.7  0.1978   51.0  0.2579 -179.5
 2.400  0.7972  119.3   1.081   29.5  0.2056   49.7  0.2657  179.9
 2.500  0.7989  117.0   1.042   27.5  0.2126   48.2  0.2747  178.9
 2.600  0.8019  114.8   1.004   25.4  0.2197   46.8  0.2837  177.9
 2.700  0.8043  112.8   0.972   23.6  0.2262   45.4  0.2907  177.0
 2.800  0.8076  110.8   0.941   21.6  0.2328   44.1  0.2977  176.2
 2.900  0.8090  108.7   0.912   19.8  0.2392   42.7  0.3048  174.9
 3.000  0.8115  106.7   0.883   17.9  0.2457   41.4  0.3121  173.6
 3.100  0.8119  104.8   0.861   16.4  0.2516   40.1  0.3174  172.2
 3.200  0.8131  103.0   0.839   14.9  0.2576   38.8  0.3230  170.9
 3.300  0.8151  101.2   0.818   13.3  0.2638   37.6  0.3286  169.6
 3.400  0.8180   99.3   0.798   11.6  0.2700   36.4  0.3345  168.3
 3.500  0.8217   97.5   0.778    9.8  0.2764   35.3  0.3405  167.1
 3.600  0.8220   95.9   0.761    8.5  0.2819   33.9  0.3464  165.4
 3.700  0.8229   94.3   0.745    7.2  0.2876   32.6  0.3525  163.8
 3.800  0.8245   92.7   0.729    5.8  0.2934   31.4  0.3589  162.3
 3.900  0.8267   91.1   0.714    4.3  0.2993   30.2  0.3656  160.7
 4.000  0.8295   89.5   0.699    2.8  0.3054   29.0  0.3725  159.3
 4.100  0.8283   88.0   0.687    1.6  0.3107   27.7  0.3793  157.5
 4.200  0.8277   86.5   0.674    0.5  0.3161   26.3  0.3866  155.7
 4.300  0.8277   85.0   0.663   -0.8  0.3217   25.1  0.3941  154.1
 4.400  0.8282   83.5   0.651   -2.1  0.3274   23.9  0.4020  152.5
 4.500  0.8293   82.0   0.640   -3.4  0.3333   22.7  0.4102  150.9
 4.600  0.8301   80.7   0.630   -4.3  0.3380   21.5  0.4178  149.5
 4.700  0.8314   79.4   0.621   -5.2  0.3429   20.2  0.4257  148.1
 4.800  0.8331   78.1   0.612   -6.2  0.3480   19.1  0.4338  146.8
 4.900  0.8352   76.8   0.603   -7.2  0.3532   17.9  0.4421  145.5
 5.000  0.8377   75.5   0.594   -8.2  0.3585   16.8  0.4506  144.3
 5.100  0.8358   74.2   0.589   -9.1  0.3628   15.5  0.4584  143.4
 5.200  0.8343   72.9   0.583  -10.0  0.3673   14.3  0.4662  142.4
 5.300  0.8333   71.6   0.578  -10.9  0.3720   13.1  0.4742  141.6
 5.400  0.8327   70.3   0.573  -11.8  0.3768   11.9  0.4823  140.7
 5.500  0.8325   69.0   0.568  -12.7  0.3818   10.8  0.4905  139.9
 5.600  0.8304   67.8   0.563  -13.4  0.3857    9.6  0.4945  139.1
 5.700  0.8287   66.7   0.558  -14.1  0.3897    8.5  0.4985  138.3
 5.800  0.8273   65.5   0.553  -14.9  0.3939    7.4  0.5027  137.5
 5.900  0.8263   64.4   0.548  -15.6  0.3982    6.3  0.5069  136.7
 6.000  0.8256   63.2   0.543  -16.4  0.4027    5.2  0.5113  135.9
!
!  f       NFmin   Gammaopt  rn/50
! GHz       dB    MAG  ANG    -
!
! noise parameter not available yet for this operation point!
!
! (c) 2017  Infineon Technologies AG, Munich