! Infineon Technologies  Discrete & RF Semiconductors
! BFP193
! VCE =  12. V,  IC =  35 mA
! Common Emitter S-Parameters:                            Jan 2017
# GHz  S  MA  R  50
!  f         S11            S21            S12            S22
! GHz     MAG   ANG      MAG   ANG      MAG   ANG      MAG   ANG
 0.010  0.4366  -14.7  60.404  172.0  0.0022   73.8  0.9483   -6.2
 0.020  0.4489  -30.2  59.798  165.6  0.0048   81.9  0.9243  -12.9
 0.030  0.4304  -42.9  56.548  160.2  0.0068   72.2  0.8804  -18.0
 0.040  0.4342  -56.0  53.855  154.2  0.0090   67.0  0.8441  -23.5
 0.050  0.4598  -68.3  51.806  147.7  0.0112   63.9  0.8163  -29.5
 0.060  0.4488  -76.4  48.792  144.6  0.0125   62.5  0.7710  -32.3
 0.070  0.4471  -84.8  45.941  141.1  0.0137   61.3  0.7278  -35.5
 0.080  0.4549  -93.0  43.285  137.1  0.0150   60.4  0.6871  -39.0
 0.090  0.4717 -100.8  40.861  132.7  0.0163   59.6  0.6493  -43.0
 0.100  0.4966 -108.0  38.713  127.7  0.0176   58.9  0.6150  -47.4
 0.110  0.4929 -112.5  36.716  125.8  0.0183   57.8  0.5851  -48.9
 0.120  0.4923 -117.0  34.763  123.7  0.0191   56.8  0.5556  -50.5
 0.130  0.4947 -121.5  32.863  121.4  0.0198   55.9  0.5267  -52.4
 0.140  0.5001 -125.9  31.024  118.7  0.0206   55.1  0.4983  -54.4
 0.150  0.5084 -130.2  29.258  115.8  0.0213   54.3  0.4707  -56.7
 0.200  0.5207 -143.2  23.193  108.2  0.0237   55.2  0.3794  -62.0
 0.250  0.5244 -152.5  19.077  102.7  0.0273   55.8  0.3186  -64.9
 0.300  0.5274 -159.0  16.115   98.9  0.0301   57.9  0.2739  -67.0
 0.350  0.5270 -163.6  14.206   96.3  0.0332   59.3  0.2469  -68.0
 0.400  0.5301 -168.2  12.336   92.8  0.0363   60.5  0.2200  -69.3
 0.450  0.5316 -171.6  11.136   90.8  0.0398   61.4  0.2036  -70.0
 0.500  0.5349 -174.9   9.952   88.3  0.0433   62.1  0.1872  -70.9
 0.600  0.5381  179.6   8.358   84.5  0.0495   63.1  0.1650  -72.5
 0.700  0.5405  175.3   7.182   81.3  0.0569   64.4  0.1496  -73.7
 0.800  0.5431  171.2   6.308   78.0  0.0640   64.9  0.1411  -75.7
 0.900  0.5430  167.4   5.604   75.2  0.0708   64.2  0.1340  -78.0
 1.000  0.5503  163.9   5.072   72.4  0.0777   64.1  0.1271  -80.3
 1.100  0.5531  160.7   4.623   69.7  0.0851   63.7  0.1246  -82.8
 1.200  0.5570  157.3   4.245   67.0  0.0915   63.0  0.1222  -85.5
 1.300  0.5579  154.1   3.927   64.5  0.0989   62.4  0.1218  -89.1
 1.400  0.5627  151.3   3.660   62.0  0.1060   61.5  0.1207  -92.8
 1.500  0.5675  148.4   3.418   59.5  0.1132   60.9  0.1212  -96.8
 1.600  0.5714  145.4   3.214   57.0  0.1199   60.0  0.1235  -99.8
 1.700  0.5754  142.6   3.032   54.6  0.1269   59.0  0.1263 -104.4
 1.800  0.5834  139.7   2.878   52.1  0.1339   57.9  0.1294 -108.6
 1.900  0.5873  137.1   2.728   49.9  0.1401   56.9  0.1326 -112.2
 2.000  0.5909  134.5   2.591   47.5  0.1474   55.8  0.1387 -116.0
 2.100  0.5959  131.8   2.472   45.3  0.1537   54.7  0.1433 -119.7
 2.200  0.6021  129.2   2.358   42.8  0.1601   53.7  0.1484 -123.2
 2.300  0.6070  126.9   2.261   40.7  0.1670   52.6  0.1553 -126.1
 2.400  0.6129  124.7   2.167   38.5  0.1740   51.5  0.1626 -128.7
 2.500  0.6181  122.4   2.083   36.5  0.1801   50.2  0.1694 -131.9
 2.600  0.6242  120.2   2.001   34.3  0.1862   49.0  0.1767 -134.9
 2.700  0.6294  118.1   1.930   32.3  0.1923   47.9  0.1833 -137.3
 2.800  0.6354  116.1   1.861   30.2  0.1984   46.8  0.1903 -139.6
 2.900  0.6415  114.0   1.798   28.3  0.2042   45.6  0.1956 -142.3
 3.000  0.6484  112.0   1.738   26.2  0.2101   44.4  0.2013 -144.9
 3.100  0.6520  110.1   1.686   24.5  0.2157   43.2  0.2054 -147.3
 3.200  0.6563  108.3   1.636   22.8  0.2213   42.1  0.2098 -149.6
 3.300  0.6613  106.5   1.588   20.9  0.2271   41.1  0.2146 -151.9
 3.400  0.6669  104.7   1.542   18.9  0.2329   40.1  0.2196 -154.0
 3.500  0.6732  102.9   1.497   16.8  0.2388   39.1  0.2250 -156.0
 3.600  0.6770  101.3   1.459   15.2  0.2441   37.9  0.2289 -158.5
 3.700  0.6812   99.7   1.422   13.6  0.2496   36.7  0.2331 -161.0
 3.800  0.6860   98.2   1.386   11.8  0.2551   35.6  0.2379 -163.4
 3.900  0.6913   96.6   1.352   10.0  0.2608   34.5  0.2429 -165.6
 4.000  0.6971   95.1   1.319    8.1  0.2665   33.5  0.2484 -167.8
 4.100  0.6997   93.6   1.289    6.6  0.2718   32.2  0.2535 -170.5
 4.200  0.7028   92.0   1.259    5.0  0.2772   31.0  0.2592 -173.1
 4.300  0.7064   90.5   1.231    3.4  0.2827   29.8  0.2654 -175.6
 4.400  0.7104   89.0   1.203    1.7  0.2883   28.7  0.2720 -178.0
 4.500  0.7150   87.5   1.177   -0.1  0.2941   27.6  0.2791  179.8
 4.600  0.7187   86.1   1.152   -1.4  0.2990   26.4  0.2865  177.6
 4.700  0.7228   84.8   1.128   -2.8  0.3041   25.3  0.2943  175.5
 4.800  0.7273   83.5   1.104   -4.2  0.3092   24.2  0.3024  173.5
 4.900  0.7322   82.2   1.081   -5.7  0.3145   23.1  0.3109  171.7
 5.000  0.7374   80.9   1.059   -7.3  0.3199   22.1  0.3197  169.9
 5.100  0.7377   79.6   1.041   -8.6  0.3245   20.9  0.3286  168.5
 5.200  0.7384   78.2   1.024   -9.9  0.3293   19.7  0.3377  167.1
 5.300  0.7395   76.9   1.007  -11.2  0.3341   18.6  0.3470  165.8
 5.400  0.7410   75.6   0.991  -12.6  0.3392   17.5  0.3564  164.6
 5.500  0.7429   74.3   0.975  -14.1  0.3443   16.4  0.3660  163.4
 5.600  0.7432   73.1   0.958  -15.2  0.3483   15.3  0.3719  162.3
 5.700  0.7439   71.9   0.942  -16.3  0.3525   14.2  0.3779  161.3
 5.800  0.7449   70.7   0.926  -17.5  0.3568   13.1  0.3841  160.2
 5.900  0.7462   69.5   0.910  -18.7  0.3613   12.0  0.3903  159.3
 6.000  0.7478   68.3   0.895  -20.0  0.3658   11.0  0.3967  158.3
!
!  f       NFmin   Gammaopt  rn/50
! GHz       dB    MAG  ANG    -
 0.450      1.29  0.37 -172   0.08
 0.900      1.35  0.40 -169   0.08
 1.900      1.95  0.58 -135   0.18
 2.400      2.29  0.62 -120   0.40
!
! (c) 2017  Infineon Technologies AG, Munich