! Infineon Technologies  Discrete & RF Semiconductors
! BFP193
! VCE =  7.0 V,  IC =  5.0 mA
! Common Emitter S-Parameters:                            Jan 2017
# GHz  S  MA  R  50
!  f         S11            S21            S12            S22
! GHz     MAG   ANG      MAG   ANG      MAG   ANG      MAG   ANG
 0.010  0.8412   -5.0  15.896  177.2  0.0031   89.0  1.0000   -2.1
 0.020  0.8544   -9.8  16.062  174.5  0.0064   89.9  0.9978   -4.4
 0.030  0.8385  -14.4  15.862  171.7  0.0099   82.6  0.9884   -6.4
 0.040  0.8282  -19.2  15.700  168.8  0.0135   79.1  0.9802   -8.5
 0.050  0.8238  -24.0  15.579  165.9  0.0171   77.1  0.9733  -10.6
 0.060  0.8113  -28.3  15.320  163.5  0.0201   74.2  0.9593  -12.4
 0.070  0.8036  -32.8  15.089  160.9  0.0231   72.1  0.9464  -14.3
 0.080  0.8009  -37.3  14.888  158.4  0.0261   70.4  0.9344  -16.2
 0.090  0.8031  -41.8  14.718  155.7  0.0291   69.2  0.9235  -18.1
 0.100  0.8103  -46.3  14.581  153.0  0.0322   68.1  0.9137  -20.1
 0.110  0.7958  -50.0  14.260  150.9  0.0344   65.5  0.8965  -21.5
 0.120  0.7848  -53.8  13.959  148.6  0.0366   63.2  0.8798  -23.0
 0.130  0.7774  -57.7  13.681  146.3  0.0389   61.2  0.8637  -24.5
 0.140  0.7736  -61.7  13.425  143.9  0.0412   59.4  0.8483  -26.1
 0.150  0.7736  -65.7  13.195  141.4  0.0436   57.8  0.8335  -27.7
 0.200  0.7503  -82.6  11.862  132.0  0.0515   51.6  0.7580  -33.5
 0.250  0.7241  -96.8  10.602  123.8  0.0574   45.6  0.6878  -37.6
 0.300  0.7035 -108.4   9.470  117.6  0.0613   41.3  0.6272  -40.6
 0.350  0.6840 -117.2   8.573  113.1  0.0640   39.3  0.5826  -42.3
 0.400  0.6813 -126.3   7.742  107.5  0.0668   37.4  0.5386  -44.2
 0.450  0.6683 -133.0   7.085  104.0  0.0686   35.7  0.5088  -45.3
 0.500  0.6646 -139.8   6.459   99.9  0.0705   34.1  0.4793  -46.5
 0.600  0.6563 -150.3   5.537   93.7  0.0728   32.5  0.4376  -48.0
 0.700  0.6507 -158.5   4.814   88.5  0.0749   32.5  0.4084  -49.1
 0.800  0.6495 -165.9   4.270   83.7  0.0771   33.3  0.3888  -50.5
 0.900  0.6456 -172.1   3.820   79.5  0.0787   33.5  0.3726  -51.9
 1.000  0.6486 -177.7   3.471   75.6  0.0807   34.4  0.3600  -53.5
 1.100  0.6510  177.2   3.174   72.0  0.0830   35.2  0.3518  -55.3
 1.200  0.6513  172.6   2.923   68.4  0.0854   36.5  0.3448  -57.3
 1.300  0.6518  168.3   2.710   65.1  0.0877   37.6  0.3393  -59.5
 1.400  0.6556  164.2   2.532   61.8  0.0908   39.0  0.3343  -62.0
 1.500  0.6606  160.4   2.368   58.7  0.0935   40.2  0.3307  -64.4
 1.600  0.6644  156.7   2.229   55.6  0.0967   41.1  0.3297  -67.0
 1.700  0.6675  153.0   2.106   52.7  0.1006   42.5  0.3272  -70.0
 1.800  0.6731  149.6   2.001   49.7  0.1047   43.4  0.3260  -72.9
 1.900  0.6796  146.2   1.896   47.1  0.1082   44.1  0.3263  -75.9
 2.000  0.6821  142.9   1.804   44.1  0.1127   45.1  0.3278  -78.9
 2.100  0.6871  139.7   1.721   41.5  0.1173   45.8  0.3291  -82.1
 2.200  0.6941  136.6   1.641   38.6  0.1219   46.4  0.3314  -85.2
 2.300  0.6981  133.8   1.573   36.2  0.1275   46.9  0.3356  -88.3
 2.400  0.7037  131.1   1.507   33.6  0.1331   47.4  0.3407  -91.4
 2.500  0.7083  128.4   1.446   31.3  0.1387   47.4  0.3447  -94.7
 2.600  0.7144  125.8   1.388   28.8  0.1443   47.4  0.3499  -97.9
 2.700  0.7196  123.3   1.337   26.6  0.1501   47.3  0.3550 -100.8
 2.800  0.7261  120.9   1.289   24.3  0.1560   47.3  0.3611 -103.7
 2.900  0.7305  118.5   1.244   22.2  0.1623   47.0  0.3650 -106.6
 3.000  0.7362  116.2   1.200   19.9  0.1686   46.8  0.3699 -109.5
 3.100  0.7392  114.0   1.162   18.2  0.1754   46.3  0.3732 -112.4
 3.200  0.7432  111.8   1.125   16.4  0.1821   45.9  0.3775 -115.3
 3.300  0.7483  109.7   1.090   14.5  0.1889   45.4  0.3827 -118.1
 3.400  0.7545  107.6   1.056   12.4  0.1957   45.1  0.3888 -120.9
 3.500  0.7616  105.5   1.023   10.2  0.2025   44.7  0.3957 -123.5
 3.600  0.7641  103.6   0.995    8.7  0.2096   43.7  0.3982 -126.5
 3.700  0.7674  101.8   0.968    7.2  0.2167   42.9  0.4018 -129.5
 3.800  0.7715  100.0   0.942    5.5  0.2238   42.0  0.4065 -132.4
 3.900  0.7764   98.2   0.917    3.7  0.2311   41.2  0.4121 -135.2
 4.000  0.7820   96.4   0.892    1.9  0.2383   40.5  0.4188 -138.0
 4.100  0.7829   94.7   0.870    0.6  0.2457   39.3  0.4218 -141.3
 4.200  0.7844   93.0   0.849   -0.8  0.2531   38.2  0.4261 -144.5
 4.300  0.7867   91.3   0.828   -2.3  0.2607   37.1  0.4318 -147.6
 4.400  0.7897   89.6   0.808   -3.9  0.2683   36.1  0.4387 -150.7
 4.500  0.7933   87.9   0.788   -5.5  0.2760   35.2  0.4468 -153.6
 4.600  0.7956   86.4   0.770   -6.6  0.2829   33.9  0.4525 -156.6
 4.700  0.7985   85.0   0.752   -7.7  0.2900   32.8  0.4595 -159.6
 4.800  0.8019   83.5   0.735   -8.8  0.2972   31.6  0.4676 -162.4
 4.900  0.8057   82.1   0.718  -10.0  0.3045   30.5  0.4769 -165.2
 5.000  0.8101   80.7   0.701  -11.3  0.3119   29.5  0.4872 -167.8
 5.100  0.8096   79.2   0.689  -12.2  0.3183   28.1  0.4955 -170.3
 5.200  0.8097   77.8   0.678  -13.0  0.3248   26.7  0.5048 -172.6
 5.300  0.8103   76.3   0.666  -14.0  0.3315   25.4  0.5148 -174.9
 5.400  0.8114   74.9   0.655  -14.9  0.3384   24.2  0.5256 -177.1
 5.500  0.8130   73.4   0.644  -15.9  0.3454   23.0  0.5372 -179.2
 5.600  0.8117   72.1   0.634  -16.6  0.3512   21.7  0.5430  178.9
 5.700  0.8107   70.8   0.623  -17.3  0.3571   20.4  0.5495  177.0
 5.800  0.8102   69.6   0.613  -18.0  0.3633   19.2  0.5565  175.1
 5.900  0.8100   68.3   0.603  -18.7  0.3696   18.0  0.5641  173.3
 6.000  0.8103   67.0   0.593  -19.5  0.3760   16.8  0.5722  171.6
!
!  f       NFmin   Gammaopt  rn/50
! GHz       dB    MAG  ANG    -
 0.450      0.92  0.28  104   0.10
 0.900      1.03  0.39  150   0.07
 1.900      1.97  0.61 -151   0.13
 2.400      2.42  0.67 -131   0.35
!
! (c) 2017  Infineon Technologies AG, Munich