! Infineon Technologies  Discrete & RF Semiconductors
! BFP193
! VCE =  4.0 V,  IC =  35 mA
! Common Emitter S-Parameters:                            Jan 2017
# GHz  S  MA  R  50
!  f         S11            S21            S12            S22
! GHz     MAG   ANG      MAG   ANG      MAG   ANG      MAG   ANG
 0.010  0.3012  -23.8  64.213  171.5  0.0022   87.0  0.9699   -8.1
 0.020  0.3267  -45.3  63.248  163.8  0.0048   86.4  0.9425  -16.6
 0.030  0.3275  -62.5  59.026  157.9  0.0070   76.4  0.8819  -22.7
 0.040  0.3562  -78.2  55.525  151.1  0.0093   71.3  0.8325  -29.6
 0.050  0.4070  -90.8  52.890  143.6  0.0116   68.2  0.7966  -37.2
 0.060  0.4107  -99.2  49.404  140.6  0.0128   65.7  0.7445  -40.4
 0.070  0.4228 -107.2  46.076  137.1  0.0140   63.7  0.6951  -44.1
 0.080  0.4427 -114.7  42.945  133.1  0.0153   62.0  0.6490  -48.3
 0.090  0.4695 -121.4  40.055  128.5  0.0165   60.5  0.6069  -53.1
 0.100  0.5019 -127.3  37.463  123.2  0.0178   59.3  0.5697  -58.6
 0.110  0.5041 -131.0  35.392  121.5  0.0185   58.6  0.5389  -60.5
 0.120  0.5083 -134.7  33.357  119.5  0.0193   58.0  0.5088  -62.5
 0.130  0.5146 -138.3  31.366  117.3  0.0200   57.4  0.4794  -64.9
 0.140  0.5229 -141.7  29.427  114.8  0.0208   56.9  0.4509  -67.5
 0.150  0.5330 -145.1  27.551  112.0  0.0215   56.4  0.4235  -70.5
 0.200  0.5520 -155.1  21.563  105.0  0.0239   58.4  0.3377  -78.2
 0.250  0.5615 -162.2  17.595   99.9  0.0281   58.4  0.2802  -83.6
 0.300  0.5650 -167.3  14.818   96.4  0.0311   59.9  0.2406  -88.3
 0.350  0.5668 -171.0  13.047   94.0  0.0346   61.6  0.2157  -91.4
 0.400  0.5709 -174.6  11.306   90.8  0.0381   63.0  0.1916  -95.3
 0.450  0.5732 -177.4  10.189   88.9  0.0417   63.9  0.1775  -98.1
 0.500  0.5769  179.9   9.086   86.6  0.0453   64.7  0.1638 -101.3
 0.600  0.5797  175.3   7.622   83.0  0.0537   65.2  0.1457 -107.0
 0.700  0.5835  171.5   6.545   79.9  0.0606   65.8  0.1332 -111.2
 0.800  0.5864  167.9   5.745   76.7  0.0690   65.6  0.1272 -115.6
 0.900  0.5866  164.4   5.106   73.9  0.0765   65.5  0.1235 -119.7
 1.000  0.5927  161.4   4.617   71.1  0.0837   65.0  0.1206 -123.9
 1.100  0.5939  158.2   4.208   68.6  0.0921   64.1  0.1199 -126.7
 1.200  0.5976  155.1   3.864   65.8  0.0988   63.3  0.1204 -130.2
 1.300  0.6002  152.1   3.575   63.3  0.1068   62.6  0.1234 -133.2
 1.400  0.6043  149.4   3.335   60.8  0.1150   61.7  0.1264 -136.6
 1.500  0.6102  146.6   3.113   58.3  0.1229   60.8  0.1300 -139.6
 1.600  0.6139  143.6   2.929   55.8  0.1302   59.5  0.1351 -141.6
 1.700  0.6172  140.9   2.764   53.4  0.1375   58.5  0.1408 -144.5
 1.800  0.6234  138.1   2.623   50.9  0.1450   57.4  0.1473 -147.0
 1.900  0.6275  135.6   2.486   48.7  0.1517   56.3  0.1534 -149.3
 2.000  0.6303  133.0   2.361   46.2  0.1591   55.0  0.1609 -151.1
 2.100  0.6353  130.4   2.254   44.0  0.1661   53.7  0.1679 -153.4
 2.200  0.6417  127.8   2.150   41.6  0.1731   52.6  0.1752 -155.5
 2.300  0.6460  125.6   2.062   39.5  0.1803   51.3  0.1833 -156.9
 2.400  0.6512  123.4   1.977   37.3  0.1875   50.1  0.1916 -158.2
 2.500  0.6555  121.2   1.901   35.3  0.1939   48.7  0.1999 -160.1
 2.600  0.6608  119.0   1.828   33.1  0.2004   47.4  0.2084 -161.8
 2.700  0.6660  116.9   1.762   31.2  0.2067   46.2  0.2153 -163.3
 2.800  0.6720  114.9   1.699   29.1  0.2130   45.0  0.2223 -164.7
 2.900  0.6764  112.8   1.642   27.2  0.2189   43.7  0.2289 -166.7
 3.000  0.6817  110.8   1.588   25.1  0.2249   42.5  0.2357 -168.6
 3.100  0.6848  108.9   1.542   23.5  0.2306   41.2  0.2404 -170.4
 3.200  0.6887  107.1   1.497   21.7  0.2365   40.0  0.2453 -172.2
 3.300  0.6932  105.3   1.454   19.9  0.2424   38.9  0.2504 -173.8
 3.400  0.6985  103.5   1.412   18.0  0.2484   37.8  0.2558 -175.5
 3.500  0.7044  101.7   1.372   15.9  0.2545   36.8  0.2613 -177.0
 3.600  0.7075  100.1   1.338   14.4  0.2598   35.5  0.2661 -179.1
 3.700  0.7112   98.5   1.305   12.8  0.2652   34.3  0.2712  178.9
 3.800  0.7154   97.0   1.273   11.1  0.2707   33.1  0.2766  177.0
 3.900  0.7202   95.4   1.242    9.3  0.2764   32.0  0.2823  175.2
 4.000  0.7254   93.9   1.212    7.4  0.2821   30.9  0.2883  173.4
 4.100  0.7273   92.4   1.184    5.9  0.2872   29.6  0.2942  171.2
 4.200  0.7297   90.9   1.158    4.4  0.2924   28.4  0.3006  169.1
 4.300  0.7326   89.4   1.132    2.8  0.2977   27.2  0.3073  167.1
 4.400  0.7360   88.0   1.107    1.1  0.3032   26.0  0.3144  165.1
 4.500  0.7399   86.5   1.083   -0.6  0.3088   24.9  0.3218  163.3
 4.600  0.7428   85.1   1.061   -1.8  0.3136   23.7  0.3293  161.6
 4.700  0.7460   83.8   1.040   -3.1  0.3185   22.6  0.3371  160.0
 4.800  0.7497   82.4   1.019   -4.5  0.3235   21.4  0.3451  158.5
 4.900  0.7538   81.1   0.999   -5.9  0.3286   20.4  0.3533  157.0
 5.000  0.7583   79.8   0.980   -7.3  0.3339   19.3  0.3618  155.6
 5.100  0.7583   78.5   0.965   -8.5  0.3382   18.1  0.3700  154.5
 5.200  0.7587   77.2   0.950   -9.8  0.3427   16.9  0.3783  153.5
 5.300  0.7595   75.9   0.935  -11.1  0.3473   15.7  0.3868  152.5
 5.400  0.7607   74.6   0.921  -12.4  0.3521   14.6  0.3953  151.6
 5.500  0.7623   73.3   0.908  -13.8  0.3570   13.5  0.4040  150.7
 5.600  0.7619   72.1   0.894  -14.9  0.3610   12.3  0.4088  149.8
 5.700  0.7618   70.9   0.880  -16.0  0.3652   11.2  0.4137  149.0
 5.800  0.7621   69.7   0.866  -17.1  0.3696   10.1  0.4187  148.2
 5.900  0.7627   68.5   0.853  -18.3  0.3740    9.0  0.4238  147.4
 6.000  0.7636   67.3   0.840  -19.5  0.3786    8.0  0.4289  146.6
!
!  f       NFmin   Gammaopt  rn/50
! GHz       dB    MAG  ANG    -
 0.450      1.29  0.37 -172   0.08
 0.900      1.35  0.40 -169   0.08
 1.900      1.95  0.58 -135   0.18
 2.400      2.29  0.62 -120   0.40
!
! (c) 2017  Infineon Technologies AG, Munich