! Infineon Technologies  Discrete & RF Semiconductors
! BFP193
! VCE =  8.0 V,  IC =  65 mA
! Common Emitter S-Parameters:                            Jan 2017
# GHz  S  MA  R  50
!  f         S11            S21            S12            S22
! GHz     MAG   ANG      MAG   ANG      MAG   ANG      MAG   ANG
 0.010  0.2373  -31.1  76.948  170.1  0.0020   82.3  0.9409   -8.2
 0.020  0.2769  -57.8  74.726  161.4  0.0041   83.9  0.9030  -17.4
 0.030  0.2905  -77.1  68.843  155.2  0.0059   71.9  0.8370  -23.4
 0.040  0.3324  -93.0  63.913  147.9  0.0079   65.6  0.7816  -30.3
 0.050  0.3936 -104.7  60.169  139.6  0.0099   61.9  0.7392  -38.1
 0.060  0.4015 -112.2  55.801  136.7  0.0107   61.6  0.6877  -40.8
 0.070  0.4161 -119.3  51.596  133.4  0.0116   61.4  0.6380  -43.8
 0.080  0.4366 -125.9  47.599  129.5  0.0124   61.2  0.5904  -47.4
 0.090  0.4622 -131.8  43.864  124.8  0.0133   61.0  0.5455  -51.6
 0.100  0.4922 -137.0  40.467  119.4  0.0141   60.8  0.5040  -56.5
 0.110  0.4953 -140.2  38.133  117.8  0.0148   60.4  0.4763  -57.8
 0.120  0.5000 -143.3  35.832  116.0  0.0155   60.1  0.4489  -59.2
 0.130  0.5061 -146.3  33.571  114.0  0.0162   59.8  0.4218  -60.8
 0.140  0.5136 -149.3  31.358  111.7  0.0169   59.6  0.3951  -62.7
 0.150  0.5224 -152.2  29.205  109.0  0.0176   59.3  0.3688  -64.8
 0.200  0.5411 -160.7  22.631  102.6  0.0203   63.5  0.2920  -69.5
 0.250  0.5487 -166.9  18.394   98.0  0.0241   63.8  0.2429  -71.9
 0.300  0.5510 -171.2  15.434   94.8  0.0270   65.7  0.2079  -74.0
 0.350  0.5531 -174.3  13.577   92.6  0.0308   67.0  0.1874  -75.1
 0.400  0.5569 -177.4  11.747   89.6  0.0347   68.1  0.1669  -76.4
 0.450  0.5584  180.0  10.583   87.9  0.0384   68.5  0.1552  -77.5
 0.500  0.5610  177.4   9.431   85.7  0.0421   68.8  0.1435  -78.8
 0.600  0.5654  173.3   7.906   82.3  0.0497   69.1  0.1272  -81.2
 0.700  0.5675  169.9   6.789   79.3  0.0568   69.7  0.1165  -82.9
 0.800  0.5701  166.4   5.955   76.2  0.0650   69.5  0.1116  -85.6
 0.900  0.5710  163.3   5.289   73.5  0.0724   68.8  0.1075  -89.1
 1.000  0.5760  160.1   4.787   70.8  0.0797   67.8  0.1033  -92.5
 1.100  0.5782  157.1   4.359   68.3  0.0875   67.2  0.1033  -95.2
 1.200  0.5820  154.1   4.001   65.6  0.0943   66.0  0.1025  -98.6
 1.300  0.5847  151.3   3.701   63.2  0.1018   65.3  0.1043 -102.5
 1.400  0.5901  148.6   3.451   60.7  0.1095   64.3  0.1056 -107.1
 1.500  0.5944  145.9   3.223   58.3  0.1168   63.2  0.1078 -110.8
 1.600  0.5982  143.0   3.032   55.8  0.1240   62.0  0.1124 -114.1
 1.700  0.6032  140.3   2.860   53.4  0.1314   60.9  0.1177 -118.6
 1.800  0.6083  137.7   2.714   50.9  0.1388   59.7  0.1226 -122.3
 1.900  0.6125  135.2   2.572   48.8  0.1458   58.5  0.1274 -125.7
 2.000  0.6157  132.6   2.443   46.3  0.1527   57.2  0.1349 -128.8
 2.100  0.6214  130.0   2.331   44.1  0.1594   55.9  0.1412 -132.3
 2.200  0.6283  127.5   2.223   41.7  0.1662   54.8  0.1480 -135.4
 2.300  0.6320  125.3   2.133   39.6  0.1733   53.5  0.1560 -137.7
 2.400  0.6367  123.1   2.045   37.4  0.1805   52.3  0.1643 -139.8
 2.500  0.6412  120.9   1.965   35.4  0.1867   50.9  0.1722 -142.6
 2.600  0.6466  118.7   1.887   33.3  0.1930   49.6  0.1804 -145.2
 2.700  0.6522  116.7   1.820   31.3  0.1993   48.4  0.1875 -147.3
 2.800  0.6585  114.7   1.756   29.2  0.2057   47.2  0.1948 -149.2
 2.900  0.6630  112.6   1.697   27.3  0.2114   45.9  0.2010 -151.7
 3.000  0.6683  110.6   1.639   25.3  0.2173   44.7  0.2076 -154.0
 3.100  0.6717  108.8   1.591   23.7  0.2230   43.4  0.2122 -156.2
 3.200  0.6759  106.9   1.545   21.9  0.2288   42.2  0.2170 -158.3
 3.300  0.6807  105.1   1.500   20.1  0.2347   41.1  0.2222 -160.3
 3.400  0.6862  103.3   1.456   18.1  0.2407   40.0  0.2276 -162.2
 3.500  0.6923  101.6   1.415   16.0  0.2468   39.0  0.2332 -164.0
 3.600  0.6957  100.0   1.379   14.5  0.2522   37.7  0.2376 -166.4
 3.700  0.6997   98.4   1.344   12.9  0.2577   36.4  0.2425 -168.7
 3.800  0.7042   96.9   1.311   11.2  0.2633   35.2  0.2477 -170.9
 3.900  0.7092   95.3   1.278    9.4  0.2690   34.1  0.2533 -173.1
 4.000  0.7147   93.8   1.247    7.5  0.2748   33.0  0.2592 -175.1
 4.100  0.7167   92.3   1.219    6.0  0.2800   31.7  0.2647 -177.6
 4.200  0.7193   90.8   1.192    4.5  0.2854   30.5  0.2707  180.0
 4.300  0.7222   89.4   1.166    2.9  0.2909   29.3  0.2772  177.7
 4.400  0.7257   87.9   1.140    1.2  0.2965   28.1  0.2841  175.5
 4.500  0.7296   86.5   1.116   -0.5  0.3022   27.0  0.2914  173.4
 4.600  0.7328   85.1   1.093   -1.8  0.3070   25.8  0.2989  171.4
 4.700  0.7365   83.8   1.071   -3.1  0.3120   24.7  0.3068  169.5
 4.800  0.7405   82.4   1.049   -4.5  0.3171   23.5  0.3150  167.7
 4.900  0.7450   81.1   1.027   -6.0  0.3223   22.4  0.3235  166.0
 5.000  0.7498   79.8   1.007   -7.5  0.3276   21.4  0.3322  164.4
 5.100  0.7501   78.5   0.990   -8.7  0.3320   20.2  0.3409  163.1
 5.200  0.7509   77.2   0.974  -10.0  0.3366   19.0  0.3498  161.9
 5.300  0.7520   75.9   0.958  -11.3  0.3413   17.8  0.3589  160.7
 5.400  0.7535   74.6   0.943  -12.7  0.3462   16.7  0.3681  159.6
 5.500  0.7554   73.3   0.928  -14.1  0.3512   15.6  0.3774  158.5
 5.600  0.7551   72.1   0.913  -15.2  0.3553   14.4  0.3829  157.5
 5.700  0.7551   70.9   0.898  -16.3  0.3595   13.3  0.3884  156.6
 5.800  0.7554   69.8   0.884  -17.4  0.3638   12.2  0.3941  155.7
 5.900  0.7560   68.6   0.870  -18.6  0.3683   11.1  0.3998  154.8
 6.000  0.7570   67.4   0.856  -19.8  0.3729   10.1  0.4057  153.9
!
!  f       NFmin   Gammaopt  rn/50
! GHz       dB    MAG  ANG    -
!
! noise parameter not available yet for this operation point!
!
! (c) 2017  Infineon Technologies AG, Munich