! Infineon Technologies  Discrete & RF Semiconductors
! BFP193
! VCE =  10. V,  IC =  35 mA
! Common Emitter S-Parameters:                            Jan 2017
# GHz  S  MA  R  50
!  f         S11            S21            S12            S22
! GHz     MAG   ANG      MAG   ANG      MAG   ANG      MAG   ANG
 0.010  0.4107  -16.0  61.918  172.0  0.0023   76.2  0.9669   -6.5
 0.020  0.4251  -32.1  60.955  165.3  0.0049   83.5  0.9402  -13.5
 0.030  0.4087  -45.6  57.575  159.8  0.0068   74.4  0.8930  -18.7
 0.040  0.4160  -59.4  54.787  153.7  0.0088   69.3  0.8540  -24.5
 0.050  0.4458  -72.0  52.686  147.0  0.0108   66.1  0.8243  -30.7
 0.060  0.4371  -80.3  49.535  143.9  0.0121   63.9  0.7769  -33.6
 0.070  0.4379  -88.8  46.551  140.4  0.0134   62.2  0.7317  -36.8
 0.080  0.4481  -97.0  43.766  136.4  0.0147   60.7  0.6890  -40.4
 0.090  0.4670 -104.8  41.221  131.9  0.0161   59.5  0.6496  -44.5
 0.100  0.4938 -111.8  38.964  126.8  0.0174   58.5  0.6138  -49.1
 0.110  0.4908 -116.1  36.924  124.9  0.0181   57.8  0.5834  -50.6
 0.120  0.4906 -120.4  34.927  122.9  0.0189   57.1  0.5535  -52.3
 0.130  0.4932 -124.7  32.981  120.5  0.0196   56.5  0.5241  -54.2
 0.140  0.4986 -129.0  31.096  117.9  0.0204   55.9  0.4954  -56.3
 0.150  0.5066 -133.1  29.284  115.0  0.0211   55.4  0.4674  -58.7
 0.200  0.5217 -145.7  23.148  107.6  0.0242   55.5  0.3756  -64.4
 0.250  0.5274 -154.5  19.003  102.1  0.0273   56.5  0.3137  -67.5
 0.300  0.5287 -160.6  16.049   98.4  0.0301   58.0  0.2698  -69.9
 0.350  0.5304 -165.1  14.146   95.8  0.0331   60.1  0.2422  -71.1
 0.400  0.5353 -169.5  12.281   92.4  0.0362   61.8  0.2147  -72.6
 0.450  0.5358 -172.8  11.078   90.4  0.0396   62.7  0.1985  -73.7
 0.500  0.5381 -176.1   9.891   88.0  0.0431   63.4  0.1823  -74.9
 0.600  0.5433  178.8   8.306   84.3  0.0505   63.9  0.1601  -76.7
 0.700  0.5452  174.4   7.134   81.1  0.0568   64.9  0.1454  -78.5
 0.800  0.5485  170.4   6.266   77.9  0.0645   65.7  0.1362  -80.6
 0.900  0.5493  166.8   5.570   75.0  0.0717   64.9  0.1296  -83.3
 1.000  0.5532  163.5   5.041   72.2  0.0784   64.8  0.1229  -85.9
 1.100  0.5578  160.1   4.593   69.6  0.0861   63.9  0.1205  -88.5
 1.200  0.5611  156.9   4.217   66.9  0.0927   63.2  0.1185  -91.6
 1.300  0.5627  153.7   3.900   64.4  0.1000   62.7  0.1182  -95.1
 1.400  0.5672  150.8   3.637   61.9  0.1070   61.9  0.1175  -99.1
 1.500  0.5728  148.1   3.394   59.5  0.1143   61.1  0.1195 -102.8
 1.600  0.5770  145.1   3.193   56.9  0.1213   60.1  0.1214 -106.1
 1.700  0.5802  142.3   3.013   54.5  0.1284   59.0  0.1252 -110.6
 1.800  0.5870  139.5   2.858   52.1  0.1354   58.0  0.1287 -114.6
 1.900  0.5916  136.8   2.709   49.9  0.1419   57.0  0.1329 -117.9
 2.000  0.5958  134.2   2.574   47.4  0.1490   55.9  0.1388 -121.5
 2.100  0.6011  131.5   2.456   45.2  0.1555   54.8  0.1439 -125.1
 2.200  0.6077  128.9   2.341   42.8  0.1620   53.7  0.1496 -128.5
 2.300  0.6119  126.7   2.245   40.7  0.1689   52.5  0.1568 -131.1
 2.400  0.6171  124.5   2.152   38.5  0.1759   51.4  0.1643 -133.5
 2.500  0.6221  122.2   2.069   36.5  0.1821   50.2  0.1715 -136.5
 2.600  0.6280  120.0   1.988   34.3  0.1884   49.0  0.1792 -139.3
 2.700  0.6336  117.9   1.917   32.3  0.1945   47.8  0.1859 -141.6
 2.800  0.6400  115.9   1.848   30.2  0.2007   46.7  0.1928 -143.7
 2.900  0.6456  113.8   1.785   28.3  0.2065   45.5  0.1985 -146.3
 3.000  0.6520  111.7   1.725   26.3  0.2123   44.3  0.2046 -148.7
 3.100  0.6555  109.9   1.674   24.6  0.2179   43.1  0.2088 -151.0
 3.200  0.6597  108.0   1.625   22.9  0.2235   42.0  0.2134 -153.3
 3.300  0.6646  106.2   1.578   21.0  0.2293   40.9  0.2182 -155.4
 3.400  0.6701  104.4   1.532   19.0  0.2351   39.9  0.2234 -157.5
 3.500  0.6763  102.7   1.488   16.9  0.2410   38.9  0.2288 -159.4
 3.600  0.6801  101.1   1.450   15.3  0.2464   37.6  0.2328 -161.9
 3.700  0.6845   99.5   1.413   13.7  0.2520   36.4  0.2373 -164.3
 3.800  0.6894   97.9   1.378   11.9  0.2576   35.3  0.2422 -166.6
 3.900  0.6949   96.3   1.344   10.1  0.2634   34.2  0.2474 -168.9
 4.000  0.7008   94.8   1.311    8.2  0.2692   33.1  0.2530 -171.0
 4.100  0.7032   93.3   1.281    6.7  0.2744   31.8  0.2582 -173.6
 4.200  0.7061   91.8   1.252    5.1  0.2797   30.6  0.2640 -176.1
 4.300  0.7095   90.4   1.224    3.5  0.2851   29.5  0.2703 -178.5
 4.400  0.7133   88.9   1.197    1.8  0.2907   28.4  0.2770  179.2
 4.500  0.7176   87.5   1.171    0.0  0.2963   27.3  0.2841  177.0
 4.600  0.7208   86.1   1.146   -1.3  0.3012   26.1  0.2916  174.9
 4.700  0.7245   84.7   1.122   -2.6  0.3063   25.0  0.2995  172.9
 4.800  0.7286   83.4   1.098   -4.0  0.3114   23.9  0.3077  171.0
 4.900  0.7330   82.0   1.075   -5.5  0.3167   22.8  0.3163  169.2
 5.000  0.7379   80.7   1.053   -7.0  0.3221   21.8  0.3251  167.5
 5.100  0.7388   79.4   1.035   -8.3  0.3266   20.6  0.3338  166.1
 5.200  0.7401   78.0   1.019   -9.6  0.3312   19.4  0.3427  164.8
 5.300  0.7418   76.7   1.002  -10.9  0.3360   18.2  0.3518  163.5
 5.400  0.7438   75.4   0.986  -12.4  0.3410   17.1  0.3610  162.3
 5.500  0.7463   74.1   0.971  -13.8  0.3460   16.0  0.3704  161.2
 5.600  0.7464   72.9   0.955  -14.9  0.3502   14.9  0.3761  160.2
 5.700  0.7468   71.7   0.939  -16.0  0.3545   13.8  0.3820  159.1
 5.800  0.7476   70.6   0.923  -17.2  0.3589   12.7  0.3880  158.2
 5.900  0.7486   69.4   0.908  -18.4  0.3634   11.6  0.3941  157.2
 6.000  0.7500   68.2   0.893  -19.6  0.3681   10.6  0.4003  156.3
!
!  f       NFmin   Gammaopt  rn/50
! GHz       dB    MAG  ANG    -
 0.450      1.29  0.37 -172   0.08
 0.900      1.35  0.40 -169   0.08
 1.900      1.95  0.58 -135   0.18
 2.400      2.29  0.62 -120   0.40
!
! (c) 2017  Infineon Technologies AG, Munich