! Infineon Technologies  Discrete & RF Semiconductors
! BFP193
! VCE =  1.0 V,  IC =  10 mA
! Common Emitter S-Parameters:                            Jan 2017
# GHz  S  MA  R  50
!  f         S11            S21            S12            S22
! GHz     MAG   ANG      MAG   ANG      MAG   ANG      MAG   ANG
 0.010  0.6640  -10.6  29.344  174.8  0.0044   86.5  0.9914   -5.6
 0.020  0.6739  -20.8  29.570  169.6  0.0098   83.0  0.9729  -11.4
 0.030  0.6497  -30.0  28.517  165.0  0.0141   75.8  0.9420  -16.4
 0.040  0.6432  -39.6  27.664  160.0  0.0185   72.0  0.9186  -21.6
 0.050  0.6550  -49.2  27.029  154.8  0.0230   69.7  0.9033  -27.1
 0.060  0.6350  -56.4  25.860  151.6  0.0259   65.6  0.8631  -30.6
 0.070  0.6254  -63.9  24.781  148.1  0.0289   62.3  0.8263  -34.4
 0.080  0.6268  -71.5  23.803  144.2  0.0319   59.7  0.7935  -38.5
 0.090  0.6392  -78.9  22.939  140.1  0.0350   57.5  0.7653  -43.0
 0.100  0.6618  -86.0  22.203  135.7  0.0382   55.7  0.7420  -47.8
 0.110  0.6503  -90.7  21.232  133.6  0.0396   53.6  0.7102  -50.2
 0.120  0.6434  -95.6  20.293  131.2  0.0410   51.7  0.6798  -52.8
 0.130  0.6412 -100.6  19.392  128.7  0.0425   49.9  0.6508  -55.6
 0.140  0.6438 -105.5  18.533  125.9  0.0440   48.2  0.6237  -58.7
 0.150  0.6512 -110.4  17.722  122.8  0.0456   46.6  0.5985  -62.1
 0.200  0.6575 -126.7  14.506  113.9  0.0499   42.2  0.4968  -72.3
 0.250  0.6557 -138.6  12.127  107.1  0.0544   39.7  0.4219  -80.0
 0.300  0.6537 -147.0  10.375  102.4  0.0566   38.8  0.3669  -86.3
 0.350  0.6514 -153.0   9.181   99.1  0.0590   39.0  0.3306  -90.6
 0.400  0.6563 -159.0   8.026   94.8  0.0615   39.1  0.2966  -95.9
 0.450  0.6553 -163.4   7.257   92.3  0.0641   39.5  0.2752  -99.5
 0.500  0.6581 -167.8   6.505   89.3  0.0667   39.9  0.2550 -103.6
 0.600  0.6585 -174.3   5.479   84.7  0.0719   41.8  0.2278 -110.2
 0.700  0.6610 -179.6   4.715   80.8  0.0763   43.4  0.2098 -115.7
 0.800  0.6639  175.5   4.147   76.8  0.0825   45.0  0.1997 -120.5
 0.900  0.6612  171.1   3.690   73.4  0.0887   45.6  0.1938 -124.7
 1.000  0.6664  167.3   3.345   70.2  0.0939   46.5  0.1890 -128.9
 1.100  0.6696  163.6   3.053   67.2  0.1008   47.2  0.1879 -132.3
 1.200  0.6708  159.9   2.806   64.0  0.1069   47.3  0.1874 -135.6
 1.300  0.6729  156.6   2.597   61.1  0.1131   47.6  0.1897 -138.6
 1.400  0.6761  153.4   2.428   58.2  0.1203   47.7  0.1928 -141.7
 1.500  0.6815  150.4   2.269   55.4  0.1265   47.6  0.1969 -144.4
 1.600  0.6843  147.2   2.138   52.6  0.1335   47.4  0.2016 -146.6
 1.700  0.6871  144.2   2.021   49.9  0.1401   47.1  0.2079 -149.2
 1.800  0.6959  141.1   1.920   47.2  0.1468   46.6  0.2144 -151.5
 1.900  0.6979  138.3   1.822   44.7  0.1534   46.2  0.2213 -153.6
 2.000  0.7009  135.5   1.734   42.0  0.1602   45.5  0.2286 -155.4
 2.100  0.7052  132.7   1.656   39.6  0.1667   44.8  0.2362 -157.5
 2.200  0.7111  130.0   1.581   36.9  0.1732   44.2  0.2440 -159.4
 2.300  0.7138  127.6   1.517   34.7  0.1803   43.5  0.2527 -160.8
 2.400  0.7177  125.2   1.456   32.3  0.1874   42.9  0.2615 -162.2
 2.500  0.7218  122.8   1.401   30.2  0.1938   41.9  0.2702 -163.9
 2.600  0.7272  120.5   1.348   27.9  0.2003   41.0  0.2792 -165.5
 2.700  0.7317  118.3   1.301   25.9  0.2064   40.0  0.2869 -167.0
 2.800  0.7372  116.1   1.256   23.7  0.2126   39.1  0.2948 -168.5
 2.900  0.7408  113.9   1.214   21.8  0.2188   38.2  0.3017 -170.2
 3.000  0.7454  111.7   1.174   19.7  0.2251   37.3  0.3088 -171.9
 3.100  0.7476  109.7   1.141   18.0  0.2310   36.3  0.3144 -173.7
 3.200  0.7506  107.8   1.108   16.3  0.2370   35.4  0.3204 -175.4
 3.300  0.7545  105.9   1.077   14.4  0.2430   34.5  0.3266 -177.0
 3.400  0.7592  104.0   1.047   12.5  0.2491   33.6  0.3330 -178.6
 3.500  0.7648  102.1   1.018   10.4  0.2552   32.8  0.3397  179.9
 3.600  0.7668  100.4   0.993    8.9  0.2610   31.7  0.3456  177.9
 3.700  0.7695   98.7   0.969    7.4  0.2669   30.6  0.3519  176.0
 3.800  0.7728   97.0   0.946    5.7  0.2729   29.5  0.3586  174.1
 3.900  0.7768   95.3   0.924    4.0  0.2789   28.6  0.3656  172.3
 4.000  0.7815   93.7   0.902    2.2  0.2851   27.6  0.3730  170.6
 4.100  0.7822   92.1   0.882    0.9  0.2906   26.4  0.3798  168.5
 4.200  0.7834   90.6   0.863   -0.5  0.2963   25.2  0.3872  166.5
 4.300  0.7853   89.0   0.845   -1.9  0.3021   24.1  0.3949  164.5
 4.400  0.7877   87.4   0.826   -3.4  0.3080   23.0  0.4032  162.7
 4.500  0.7907   85.9   0.809   -5.0  0.3140   22.0  0.4118  160.9
 4.600  0.7924   84.5   0.793   -6.1  0.3192   20.9  0.4201  159.2
 4.700  0.7945   83.2   0.778   -7.2  0.3245   19.8  0.4287  157.5
 4.800  0.7971   81.8   0.763   -8.3  0.3299   18.8  0.4377  156.0
 4.900  0.8001   80.4   0.748   -9.5  0.3354   17.8  0.4470  154.5
 5.000  0.8036   79.1   0.734  -10.8  0.3410   16.8  0.4566  153.0
 5.100  0.8030   77.7   0.724  -11.8  0.3458   15.6  0.4652  151.8
 5.200  0.8028   76.4   0.714  -12.8  0.3507   14.4  0.4739  150.6
 5.300  0.8031   75.0   0.704  -13.9  0.3557   13.2  0.4829  149.5
 5.400  0.8038   73.7   0.695  -15.0  0.3610   12.1  0.4921  148.4
 5.500  0.8050   72.3   0.686  -16.1  0.3663   11.0  0.5014  147.3
 5.600  0.8038   71.1   0.677  -16.9  0.3706    9.9  0.5061  146.3
 5.700  0.8030   69.9   0.668  -17.8  0.3750    8.8  0.5109  145.3
 5.800  0.8026   68.7   0.659  -18.7  0.3795    7.7  0.5159  144.3
 5.900  0.8025   67.5   0.650  -19.6  0.3842    6.7  0.5210  143.3
 6.000  0.8027   66.3   0.642  -20.5  0.3890    5.7  0.5263  142.4
!
!  f       NFmin   Gammaopt  rn/50
! GHz       dB    MAG  ANG    -
 0.450      0.87  0.21  156   0.07
 0.900      1.00  0.35  173   0.06
 1.900      1.75  0.57 -146   0.13
 2.400      2.13  0.63 -128   0.31
!
! (c) 2017  Infineon Technologies AG, Munich