! Infineon Technologies  Discrete & RF Semiconductors
! BFP193
! VCE =  3.0 V,  IC =  25 mA
! Common Emitter S-Parameters:                            Jan 2017
# GHz  S  MA  R  50
!  f         S11            S21            S12            S22
! GHz     MAG   ANG      MAG   ANG      MAG   ANG      MAG   ANG
 0.010  0.3942  -18.3  54.221  172.5  0.0027   87.1  0.9789   -7.4
 0.020  0.4098  -35.7  53.636  165.5  0.0057   81.7  0.9547  -15.0
 0.030  0.3989  -50.3  50.614  159.9  0.0081   73.8  0.9027  -20.8
 0.040  0.4143  -64.7  48.141  153.6  0.0106   69.5  0.8612  -27.3
 0.050  0.4531  -77.3  46.305  146.7  0.0131   66.9  0.8316  -34.3
 0.060  0.4488  -85.8  43.513  143.6  0.0146   64.3  0.7816  -37.6
 0.070  0.4544  -94.2  40.870  140.0  0.0162   62.3  0.7345  -41.3
 0.080  0.4695 -102.3  38.405  136.0  0.0177   60.5  0.6910  -45.6
 0.090  0.4932 -109.7  36.155  131.4  0.0193   59.1  0.6517  -50.4
 0.100  0.5245 -116.4  34.163  126.3  0.0209   57.9  0.6175  -55.7
 0.110  0.5240 -120.6  32.355  124.5  0.0217   56.6  0.5855  -57.7
 0.120  0.5263 -124.8  30.584  122.4  0.0226   55.4  0.5543  -59.9
 0.130  0.5314 -128.9  28.858  120.1  0.0235   54.3  0.5240  -62.3
 0.140  0.5392 -132.9  27.184  117.5  0.0243   53.3  0.4948  -65.1
 0.150  0.5495 -136.8  25.572  114.6  0.0252   52.3  0.4669  -68.2
 0.200  0.5686 -148.6  20.197  107.1  0.0275   53.2  0.3751  -76.7
 0.250  0.5769 -157.0  16.558  101.6  0.0311   53.1  0.3125  -82.5
 0.300  0.5800 -162.7  13.984   97.8  0.0345   55.3  0.2682  -87.5
 0.350  0.5823 -167.0  12.325   95.2  0.0377   56.5  0.2409  -90.8
 0.400  0.5879 -171.3  10.700   91.8  0.0410   57.5  0.2145  -94.9
 0.450  0.5891 -174.4   9.649   89.8  0.0444   58.4  0.1981  -97.9
 0.500  0.5920 -177.5   8.613   87.3  0.0478   59.1  0.1823 -101.4
 0.600  0.5942  177.6   7.228   83.5  0.0554   60.8  0.1622 -107.0
 0.700  0.5980  173.5   6.213   80.2  0.0618   62.0  0.1482 -111.7
 0.800  0.6007  169.5   5.454   76.9  0.0701   62.5  0.1409 -115.9
 0.900  0.6018  166.0   4.847   74.0  0.0776   62.0  0.1366 -120.2
 1.000  0.6056  162.6   4.386   71.1  0.0850   62.2  0.1328 -124.3
 1.100  0.6088  159.3   3.999   68.4  0.0928   61.8  0.1322 -127.4
 1.200  0.6124  156.1   3.672   65.6  0.1000   61.0  0.1322 -130.5
 1.300  0.6150  153.2   3.396   63.1  0.1075   60.0  0.1345 -133.6
 1.400  0.6178  150.3   3.168   60.5  0.1152   59.7  0.1374 -137.1
 1.500  0.6235  147.4   2.958   58.0  0.1227   58.7  0.1411 -139.9
 1.600  0.6265  144.5   2.785   55.3  0.1298   57.8  0.1457 -142.1
 1.700  0.6308  141.7   2.629   52.9  0.1377   56.7  0.1521 -144.9
 1.800  0.6367  138.9   2.495   50.4  0.1454   55.8  0.1580 -147.5
 1.900  0.6419  136.3   2.365   48.2  0.1520   54.6  0.1641 -149.6
 2.000  0.6437  133.6   2.248   45.6  0.1596   53.5  0.1715 -151.6
 2.100  0.6489  130.9   2.145   43.4  0.1663   52.4  0.1787 -153.8
 2.200  0.6554  128.3   2.046   40.9  0.1730   51.3  0.1861 -155.8
 2.300  0.6591  126.0   1.963   38.8  0.1801   50.1  0.1941 -157.3
 2.400  0.6638  123.8   1.883   36.5  0.1873   48.9  0.2023 -158.6
 2.500  0.6682  121.6   1.810   34.5  0.1938   47.7  0.2104 -160.5
 2.600  0.6735  119.4   1.740   32.3  0.2004   46.5  0.2187 -162.2
 2.700  0.6786  117.3   1.678   30.3  0.2066   45.3  0.2258 -163.7
 2.800  0.6847  115.2   1.619   28.2  0.2129   44.1  0.2331 -165.1
 2.900  0.6888  113.1   1.565   26.3  0.2190   42.9  0.2396 -167.0
 3.000  0.6939  111.0   1.513   24.3  0.2251   41.7  0.2463 -168.8
 3.100  0.6970  109.1   1.469   22.7  0.2308   40.5  0.2511 -170.6
 3.200  0.7008  107.3   1.426   20.9  0.2366   39.3  0.2561 -172.4
 3.300  0.7053  105.5   1.384   19.1  0.2425   38.2  0.2614 -174.0
 3.400  0.7105  103.7   1.344   17.1  0.2485   37.2  0.2668 -175.7
 3.500  0.7164  101.9   1.306   15.0  0.2545   36.2  0.2725 -177.2
 3.600  0.7193  100.3   1.274   13.5  0.2599   34.9  0.2774 -179.3
 3.700  0.7228   98.6   1.242   11.8  0.2654   33.7  0.2827  178.7
 3.800  0.7269   97.0   1.212   10.2  0.2710   32.6  0.2883  176.8
 3.900  0.7315   95.5   1.183    8.4  0.2767   31.5  0.2943  175.0
 4.000  0.7367   93.9   1.155    6.5  0.2825   30.4  0.3005  173.2
 4.100  0.7383   92.4   1.129    5.1  0.2878   29.1  0.3066  171.0
 4.200  0.7404   90.9   1.104    3.6  0.2932   27.9  0.3131  169.0
 4.300  0.7430   89.4   1.079    2.0  0.2987   26.7  0.3200  167.0
 4.400  0.7461   87.9   1.056    0.3  0.3043   25.6  0.3273  165.1
 4.500  0.7497   86.4   1.033   -1.4  0.3101   24.5  0.3349  163.3
 4.600  0.7524   85.1   1.012   -2.6  0.3148   23.3  0.3427  161.6
 4.700  0.7556   83.7   0.992   -3.9  0.3197   22.2  0.3507  160.0
 4.800  0.7592   82.4   0.972   -5.3  0.3246   21.1  0.3590  158.5
 4.900  0.7631   81.1   0.953   -6.7  0.3297   20.0  0.3676  157.0
 5.000  0.7675   79.8   0.934   -8.1  0.3349   19.0  0.3764  155.6
 5.100  0.7673   78.5   0.920   -9.3  0.3393   17.8  0.3848  154.5
 5.200  0.7676   77.1   0.906  -10.5  0.3439   16.6  0.3933  153.4
 5.300  0.7683   75.8   0.892  -11.8  0.3486   15.4  0.4019  152.4
 5.400  0.7694   74.4   0.879  -13.1  0.3535   14.3  0.4107  151.4
 5.500  0.7709   73.1   0.866  -14.4  0.3585   13.2  0.4196  150.5
 5.600  0.7704   71.9   0.853  -15.4  0.3626   12.1  0.4244  149.6
 5.700  0.7702   70.7   0.840  -16.5  0.3667   11.0  0.4294  148.7
 5.800  0.7704   69.5   0.827  -17.5  0.3711    9.9  0.4344  147.9
 5.900  0.7709   68.3   0.814  -18.7  0.3755    8.8  0.4396  147.0
 6.000  0.7717   67.1   0.802  -19.8  0.3801    7.8  0.4448  146.2
!
!  f       NFmin   Gammaopt  rn/50
! GHz       dB    MAG  ANG    -
 0.450      1.12  0.30 -176   0.36
 0.900      1.19  0.37 -175   0.07
 1.900      1.81  0.57 -138   0.16
 2.400      2.15  0.62 -122   0.35
!
! (c) 2017  Infineon Technologies AG, Munich