! Infineon Technologies  Discrete & RF Semiconductors
! BFP193
! VCE =  9.0 V,  IC =  25 mA
! Common Emitter S-Parameters:                            Jan 2017
# GHz  S  MA  R  50
!  f         S11            S21            S12            S22
! GHz     MAG   ANG      MAG   ANG      MAG   ANG      MAG   ANG
 0.010  0.4817  -13.2  52.787  173.0  0.0023   82.1  0.9805   -5.8
 0.020  0.4913  -26.1  52.288  167.1  0.0049   83.8  0.9623  -11.9
 0.030  0.4717  -37.6  49.877  162.0  0.0072   76.4  0.9218  -16.7
 0.040  0.4723  -49.6  47.908  156.3  0.0096   72.6  0.8882  -21.9
 0.050  0.4930  -61.1  46.435  150.3  0.0120   70.3  0.8625  -27.4
 0.060  0.4791  -69.0  43.968  147.1  0.0134   66.9  0.8186  -30.3
 0.070  0.4747  -77.2  41.649  143.6  0.0149   64.1  0.7770  -33.5
 0.080  0.4801  -85.3  39.505  139.7  0.0164   61.9  0.7381  -37.0
 0.090  0.4948  -93.1  37.566  135.4  0.0180   60.0  0.7022  -40.9
 0.100  0.5182 -100.4  35.865  130.6  0.0195   58.4  0.6700  -45.2
 0.110  0.5123 -105.1  34.111  128.6  0.0203   57.3  0.6390  -46.8
 0.120  0.5099 -109.8  32.402  126.4  0.0212   56.3  0.6085  -48.6
 0.130  0.5109 -114.5  30.745  124.0  0.0221   55.4  0.5787  -50.6
 0.140  0.5155 -119.2  29.150  121.3  0.0229   54.5  0.5497  -52.8
 0.150  0.5234 -123.8  27.627  118.3  0.0238   53.7  0.5215  -55.2
 0.200  0.5350 -138.1  22.105  110.3  0.0263   53.6  0.4237  -61.2
 0.250  0.5378 -148.0  18.277  104.4  0.0300   52.7  0.3559  -64.5
 0.300  0.5388 -155.1  15.494  100.3  0.0322   55.3  0.3067  -67.2
 0.350  0.5396 -160.2  13.684   97.5  0.0352   56.4  0.2758  -68.5
 0.400  0.5446 -165.3  11.916   93.9  0.0382   57.3  0.2450  -70.2
 0.450  0.5453 -169.0  10.757   91.8  0.0412   58.3  0.2266  -71.2
 0.500  0.5482 -172.6   9.616   89.2  0.0443   59.2  0.2082  -72.4
 0.600  0.5506 -178.5   8.083   85.2  0.0513   60.2  0.1821  -74.2
 0.700  0.5533  177.0   6.948   81.8  0.0568   61.7  0.1651  -75.5
 0.800  0.5556  172.7   6.105   78.4  0.0643   62.4  0.1546  -77.6
 0.900  0.5568  168.7   5.429   75.5  0.0714   62.3  0.1464  -79.9
 1.000  0.5608  165.2   4.911   72.6  0.0783   62.1  0.1387  -82.3
 1.100  0.5657  161.6   4.477   69.9  0.0849   62.0  0.1356  -84.9
 1.200  0.5679  158.2   4.111   67.1  0.0919   61.6  0.1330  -87.5
 1.300  0.5711  155.1   3.803   64.6  0.0985   61.3  0.1314  -90.8
 1.400  0.5738  152.0   3.545   62.0  0.1058   60.5  0.1303  -94.6
 1.500  0.5806  149.2   3.310   59.5  0.1127   59.8  0.1306  -98.2
 1.600  0.5844  146.1   3.114   56.9  0.1197   58.9  0.1332 -101.3
 1.700  0.5880  143.3   2.939   54.5  0.1262   58.0  0.1357 -105.6
 1.800  0.5938  140.4   2.789   52.0  0.1334   57.1  0.1385 -109.7
 1.900  0.5994  137.8   2.643   49.8  0.1396   56.1  0.1421 -113.2
 2.000  0.6038  135.1   2.511   47.3  0.1466   55.2  0.1474 -116.7
 2.100  0.6085  132.3   2.396   45.1  0.1530   54.1  0.1523 -120.4
 2.200  0.6146  129.6   2.285   42.6  0.1594   53.1  0.1577 -123.8
 2.300  0.6191  127.3   2.191   40.5  0.1663   52.0  0.1646 -126.7
 2.400  0.6246  125.1   2.100   38.2  0.1733   51.0  0.1719 -129.3
 2.500  0.6294  122.8   2.018   36.2  0.1794   49.8  0.1788 -132.4
 2.600  0.6352  120.6   1.938   34.0  0.1855   48.6  0.1861 -135.2
 2.700  0.6412  118.5   1.869   32.0  0.1914   47.5  0.1926 -137.6
 2.800  0.6480  116.5   1.803   29.9  0.1974   46.5  0.1994 -139.9
 2.900  0.6529  114.3   1.742   28.0  0.2034   45.3  0.2049 -142.5
 3.000  0.6587  112.2   1.684   25.9  0.2095   44.2  0.2108 -145.0
 3.100  0.6624  110.3   1.634   24.2  0.2152   43.0  0.2150 -147.4
 3.200  0.6668  108.4   1.585   22.5  0.2210   42.0  0.2196 -149.7
 3.300  0.6719  106.6   1.538   20.6  0.2268   40.9  0.2245 -151.9
 3.400  0.6777  104.8   1.493   18.6  0.2327   39.9  0.2298 -154.0
 3.500  0.6841  103.0   1.450   16.5  0.2387   39.0  0.2353 -156.0
 3.600  0.6877  101.4   1.413   14.9  0.2441   37.8  0.2393 -158.6
 3.700  0.6919   99.7   1.377   13.3  0.2495   36.6  0.2437 -161.1
 3.800  0.6966   98.1   1.343   11.5  0.2551   35.5  0.2486 -163.5
 3.900  0.7019   96.6   1.310    9.7  0.2608   34.4  0.2539 -165.8
 4.000  0.7077   95.0   1.278    7.8  0.2665   33.4  0.2596 -168.0
 4.100  0.7102   93.5   1.248    6.3  0.2719   32.2  0.2649 -170.7
 4.200  0.7131   92.0   1.219    4.7  0.2774   31.0  0.2707 -173.2
 4.300  0.7166   90.5   1.192    3.1  0.2831   29.8  0.2770 -175.7
 4.400  0.7206   89.0   1.165    1.4  0.2888   28.8  0.2838 -178.0
 4.500  0.7250   87.5   1.139   -0.4  0.2947   27.7  0.2911  179.8
 4.600  0.7282   86.2   1.115   -1.7  0.2997   26.5  0.2986  177.6
 4.700  0.7317   84.8   1.091   -3.1  0.3048   25.4  0.3066  175.5
 4.800  0.7357   83.5   1.069   -4.5  0.3100   24.3  0.3149  173.5
 4.900  0.7400   82.2   1.046   -6.0  0.3153   23.2  0.3237  171.6
 5.000  0.7447   80.9   1.025   -7.5  0.3207   22.2  0.3327  169.8
 5.100  0.7454   79.5   1.008   -8.7  0.3254   21.0  0.3417  168.3
 5.200  0.7466   78.2   0.991  -10.0  0.3302   19.8  0.3510  166.9
 5.300  0.7481   76.8   0.975  -11.3  0.3351   18.7  0.3604  165.6
 5.400  0.7501   75.4   0.960  -12.7  0.3402   17.6  0.3701  164.3
 5.500  0.7525   74.1   0.945  -14.1  0.3454   16.5  0.3799  163.1
 5.600  0.7527   72.9   0.929  -15.2  0.3496   15.3  0.3858  162.0
 5.700  0.7531   71.7   0.913  -16.3  0.3539   14.2  0.3919  160.9
 5.800  0.7539   70.6   0.898  -17.4  0.3584   13.1  0.3981  159.9
 5.900  0.7551   69.4   0.883  -18.6  0.3630   12.0  0.4044  158.9
 6.000  0.7565   68.2   0.868  -19.8  0.3677   11.0  0.4109  157.9
!
!  f       NFmin   Gammaopt  rn/50
! GHz       dB    MAG  ANG    -
 0.450      1.12  0.30 -176   0.36
 0.900      1.19  0.37 -175   0.07
 1.900      1.81  0.57 -138   0.16
 2.400      2.15  0.62 -122   0.35
!
! (c) 2017  Infineon Technologies AG, Munich