! Infineon Technologies  Discrete & RF Semiconductors
! BFP193
! VCE =  7.0 V,  IC =  80 mA
! Common Emitter S-Parameters:                            Jan 2017
# GHz  S  MA  R  50
!  f         S11            S21            S12            S22
! GHz     MAG   ANG      MAG   ANG      MAG   ANG      MAG   ANG
 0.010  0.1736  -48.8  78.617  169.1  0.0020   77.4  0.9100   -9.0
 0.020  0.2471  -78.1  75.631  159.4  0.0038   87.8  0.8726  -19.0
 0.030  0.2835  -97.1  68.829  153.0  0.0054   73.8  0.7980  -25.0
 0.040  0.3428 -110.6  63.064  145.3  0.0071   66.3  0.7340  -32.2
 0.050  0.4154 -119.8  58.642  136.3  0.0089   61.8  0.6836  -40.6
 0.060  0.4291 -126.2  54.123  133.6  0.0098   61.3  0.6332  -43.0
 0.070  0.4478 -132.2  49.750  130.3  0.0108   60.9  0.5841  -45.8
 0.080  0.4710 -137.6  45.566  126.5  0.0117   60.6  0.5367  -49.2
 0.090  0.4979 -142.5  41.626  121.9  0.0127   60.3  0.4915  -53.2
 0.100  0.5281 -146.8  38.008  116.4  0.0136   60.1  0.4491  -57.9
 0.110  0.5323 -149.4  35.740  114.9  0.0142   60.2  0.4242  -59.0
 0.120  0.5375 -151.9  33.498  113.3  0.0147   60.3  0.3995  -60.2
 0.130  0.5437 -154.4  31.288  111.4  0.0153   60.4  0.3750  -61.5
 0.140  0.5510 -156.8  29.118  109.2  0.0158   60.5  0.3508  -63.0
 0.150  0.5592 -159.2  26.996  106.7  0.0164   60.6  0.3268  -64.8
 0.200  0.5740 -166.0  20.763  100.8  0.0195   64.7  0.2592  -68.4
 0.250  0.5839 -171.2  16.835   96.5  0.0236   65.1  0.2170  -69.8
 0.300  0.5844 -174.7  14.108   93.6  0.0264   67.5  0.1872  -71.3
 0.350  0.5862 -177.5  12.398   91.5  0.0300   68.6  0.1707  -72.0
 0.400  0.5893  179.8  10.711   88.7  0.0337   69.5  0.1542  -72.9
 0.450  0.5908  177.4   9.649   87.0  0.0376   70.2  0.1446  -73.7
 0.500  0.5932  175.1   8.598   84.9  0.0416   70.7  0.1350  -74.7
 0.600  0.5967  171.2   7.208   81.6  0.0493   70.8  0.1225  -77.3
 0.700  0.5981  168.1   6.189   78.7  0.0565   71.0  0.1137  -79.0
 0.800  0.6018  164.8   5.432   75.7  0.0644   71.1  0.1103  -81.8
 0.900  0.6020  161.7   4.827   73.0  0.0720   69.8  0.1077  -85.6
 1.000  0.6063  158.6   4.370   70.4  0.0792   69.0  0.1048  -89.2
 1.100  0.6096  155.8   3.985   67.9  0.0868   68.3  0.1058  -92.7
 1.200  0.6121  152.9   3.658   65.2  0.0943   67.2  0.1065  -96.3
 1.300  0.6154  150.0   3.386   62.8  0.1017   66.3  0.1087 -100.9
 1.400  0.6193  147.3   3.160   60.3  0.1097   65.2  0.1106 -105.5
 1.500  0.6226  144.7   2.951   57.9  0.1169   64.2  0.1132 -109.4
 1.600  0.6272  141.9   2.778   55.4  0.1242   62.9  0.1184 -112.7
 1.700  0.6306  139.2   2.623   53.0  0.1322   61.7  0.1240 -117.4
 1.800  0.6359  136.5   2.490   50.5  0.1394   60.5  0.1290 -121.4
 1.900  0.6398  134.0   2.360   48.4  0.1465   59.4  0.1345 -124.9
 2.000  0.6431  131.5   2.244   45.9  0.1535   58.0  0.1421 -128.2
 2.100  0.6475  128.9   2.142   43.7  0.1605   56.7  0.1488 -131.8
 2.200  0.6532  126.4   2.044   41.3  0.1675   55.6  0.1560 -135.0
 2.300  0.6570  124.2   1.961   39.2  0.1746   54.3  0.1642 -137.4
 2.400  0.6618  122.1   1.881   37.0  0.1817   53.1  0.1726 -139.6
 2.500  0.6664  119.9   1.809   35.0  0.1881   51.7  0.1807 -142.5
 2.600  0.6720  117.7   1.739   32.8  0.1946   50.3  0.1892 -145.1
 2.700  0.6766  115.7   1.678   30.9  0.2010   49.0  0.1966 -147.1
 2.800  0.6821  113.7   1.619   28.8  0.2075   47.8  0.2042 -149.0
 2.900  0.6858  111.7   1.565   26.9  0.2133   46.5  0.2106 -151.6
 3.000  0.6904  109.7   1.513   24.9  0.2193   45.2  0.2174 -154.0
 3.100  0.6932  107.9   1.469   23.3  0.2251   43.9  0.2221 -156.2
 3.200  0.6966  106.0   1.427   21.5  0.2310   42.7  0.2271 -158.3
 3.300  0.7008  104.2   1.386   19.7  0.2370   41.6  0.2323 -160.3
 3.400  0.7057  102.5   1.347   17.8  0.2430   40.5  0.2379 -162.3
 3.500  0.7112  100.7   1.309   15.7  0.2492   39.5  0.2437 -164.1
 3.600  0.7141   99.1   1.277   14.2  0.2547   38.2  0.2484 -166.5
 3.700  0.7176   97.5   1.245   12.6  0.2602   36.9  0.2535 -168.8
 3.800  0.7215   96.0   1.215   10.9  0.2659   35.7  0.2590 -171.0
 3.900  0.7261   94.4   1.186    9.1  0.2718   34.5  0.2649 -173.2
 4.000  0.7311   92.9   1.158    7.3  0.2777   33.4  0.2711 -175.2
 4.100  0.7326   91.4   1.132    5.8  0.2829   32.1  0.2768 -177.7
 4.200  0.7347   90.0   1.107    4.3  0.2883   30.8  0.2830  179.8
 4.300  0.7372   88.5   1.083    2.7  0.2939   29.5  0.2896  177.5
 4.400  0.7401   87.0   1.059    1.0  0.2995   28.3  0.2968  175.3
 4.500  0.7436   85.6   1.037   -0.7  0.3053   27.2  0.3043  173.2
 4.600  0.7468   84.3   1.017   -1.9  0.3102   26.0  0.3118  171.2
 4.700  0.7503   83.0   0.997   -3.2  0.3152   24.9  0.3197  169.2
 4.800  0.7543   81.7   0.977   -4.6  0.3204   23.7  0.3279  167.4
 4.900  0.7586   80.4   0.958   -6.0  0.3256   22.6  0.3365  165.7
 5.000  0.7633   79.1   0.940   -7.4  0.3310   21.6  0.3453  164.0
 5.100  0.7630   77.8   0.925   -8.6  0.3355   20.3  0.3541  162.7
 5.200  0.7632   76.4   0.911   -9.9  0.3402   19.1  0.3630  161.5
 5.300  0.7638   75.1   0.897  -11.2  0.3450   17.9  0.3721  160.3
 5.400  0.7648   73.7   0.884  -12.5  0.3500   16.7  0.3813  159.2
 5.500  0.7662   72.4   0.871  -13.9  0.3551   15.6  0.3907  158.1
 5.600  0.7657   71.2   0.857  -14.9  0.3592   14.4  0.3962  157.1
 5.700  0.7655   70.1   0.844  -16.0  0.3635   13.3  0.4018  156.1
 5.800  0.7657   68.9   0.831  -17.1  0.3680   12.2  0.4075  155.1
 5.900  0.7661   67.8   0.818  -18.2  0.3725   11.1  0.4134  154.2
 6.000  0.7669   66.6   0.806  -19.4  0.3772   10.1  0.4193  153.3
!
!  f       NFmin   Gammaopt  rn/50
! GHz       dB    MAG  ANG    -
!
! noise parameter not available yet for this operation point!
!
! (c) 2017  Infineon Technologies AG, Munich