! Infineon Technologies  Discrete & RF Semiconductors
! BFP193
! VCE =  5.0 V,  IC =  20 mA
! Common Emitter S-Parameters:                            Jan 2017
# GHz  S  MA  R  50
!  f         S11            S21            S12            S22
! GHz     MAG   ANG      MAG   ANG      MAG   ANG      MAG   ANG
 0.010  0.4970  -13.1  47.263  173.6  0.0027   84.5  0.9868   -5.8
 0.020  0.5075  -26.2  47.005  167.7  0.0058   91.7  0.9621  -11.9
 0.030  0.4886  -37.4  44.951  162.6  0.0084   79.1  0.9251  -16.8
 0.040  0.4894  -49.1  43.288  157.0  0.0112   72.6  0.8953  -22.0
 0.050  0.5099  -60.2  42.061  151.1  0.0141   68.8  0.8735  -27.6
 0.060  0.4959  -68.1  39.895  147.9  0.0156   65.8  0.8296  -30.6
 0.070  0.4917  -76.3  37.865  144.4  0.0172   63.3  0.7882  -34.0
 0.080  0.4977  -84.5  35.996  140.5  0.0188   61.2  0.7499  -37.7
 0.090  0.5134  -92.3  34.312  136.1  0.0205   59.5  0.7150  -41.8
 0.100  0.5380  -99.5  32.844  131.4  0.0221   58.0  0.6842  -46.3
 0.110  0.5328 -104.1  31.261  129.4  0.0230   56.7  0.6527  -48.1
 0.120  0.5311 -108.8  29.720  127.2  0.0238   55.6  0.6218  -50.1
 0.130  0.5330 -113.5  28.228  124.7  0.0247   54.5  0.5918  -52.2
 0.140  0.5384 -118.1  26.794  122.0  0.0256   53.4  0.5627  -54.6
 0.150  0.5472 -122.6  25.426  119.0  0.0265   52.5  0.5347  -57.3
 0.200  0.5592 -137.1  20.427  110.9  0.0294   50.6  0.4343  -64.4
 0.250  0.5651 -147.5  16.917  104.8  0.0329   51.2  0.3641  -68.8
 0.300  0.5654 -154.5  14.363  100.6  0.0353   51.5  0.3137  -72.2
 0.350  0.5652 -159.7  12.686   97.7  0.0382   52.7  0.2810  -74.2
 0.400  0.5696 -164.8  11.051   94.0  0.0411   53.7  0.2487  -76.7
 0.450  0.5710 -168.5   9.978   91.9  0.0441   54.9  0.2288  -78.3
 0.500  0.5747 -172.2   8.922   89.2  0.0471   55.9  0.2092  -80.2
 0.600  0.5768 -178.2   7.503   85.1  0.0540   57.5  0.1833  -83.4
 0.700  0.5784  177.1   6.450   81.6  0.0598   59.0  0.1645  -85.7
 0.800  0.5836  172.9   5.669   78.1  0.0673   59.8  0.1539  -88.6
 0.900  0.5815  168.8   5.040   75.0  0.0741   59.7  0.1459  -91.7
 1.000  0.5869  165.2   4.563   72.1  0.0806   60.1  0.1387  -94.8
 1.100  0.5916  161.7   4.158   69.4  0.0877   60.0  0.1357  -97.3
 1.200  0.5922  158.3   3.820   66.5  0.0943   59.5  0.1333 -100.6
 1.300  0.5961  155.2   3.534   63.9  0.1012   59.0  0.1330 -104.1
 1.400  0.6007  152.2   3.296   61.3  0.1090   58.8  0.1331 -107.7
 1.500  0.6060  149.3   3.076   58.8  0.1156   58.0  0.1345 -111.5
 1.600  0.6098  146.2   2.896   56.1  0.1226   57.2  0.1375 -114.4
 1.700  0.6125  143.1   2.732   53.6  0.1293   56.5  0.1416 -118.2
 1.800  0.6205  140.4   2.593   51.1  0.1365   55.5  0.1451 -121.9
 1.900  0.6241  137.7   2.459   48.8  0.1429   54.8  0.1503 -125.1
 2.000  0.6266  135.0   2.337   46.2  0.1498   53.7  0.1563 -128.2
 2.100  0.6324  132.3   2.230   44.0  0.1564   52.7  0.1621 -131.3
 2.200  0.6397  129.6   2.126   41.5  0.1631   51.7  0.1684 -134.2
 2.300  0.6436  127.3   2.038   39.4  0.1701   50.7  0.1761 -136.7
 2.400  0.6486  125.0   1.954   37.1  0.1771   49.8  0.1841 -138.9
 2.500  0.6533  122.7   1.878   35.0  0.1833   48.6  0.1917 -141.6
 2.600  0.6590  120.5   1.805   32.8  0.1896   47.5  0.1996 -144.1
 2.700  0.6648  118.3   1.741   30.8  0.1955   46.4  0.2067 -146.2
 2.800  0.6716  116.2   1.679   28.7  0.2015   45.3  0.2141 -148.1
 2.900  0.6757  114.1   1.623   26.7  0.2076   44.2  0.2198 -150.5
 3.000  0.6807  112.1   1.569   24.6  0.2138   43.1  0.2259 -152.8
 3.100  0.6841  110.2   1.523   22.9  0.2195   42.0  0.2307 -155.0
 3.200  0.6882  108.3   1.478   21.2  0.2253   40.9  0.2358 -157.1
 3.300  0.6931  106.4   1.434   19.3  0.2311   39.9  0.2412 -159.1
 3.400  0.6987  104.5   1.392   17.3  0.2370   38.9  0.2469 -161.0
 3.500  0.7050  102.7   1.352   15.2  0.2430   38.0  0.2529 -162.8
 3.600  0.7083  101.1   1.318   13.7  0.2485   36.8  0.2575 -165.2
 3.700  0.7121   99.4   1.284   12.0  0.2541   35.6  0.2625 -167.5
 3.800  0.7165   97.8   1.252   10.3  0.2597   34.4  0.2679 -169.7
 3.900  0.7214   96.3   1.221    8.5  0.2655   33.3  0.2736 -171.9
 4.000  0.7269   94.7   1.191    6.6  0.2714   32.3  0.2798 -173.9
 4.100  0.7289   93.2   1.164    5.1  0.2769   31.1  0.2856 -176.4
 4.200  0.7314   91.6   1.138    3.6  0.2825   29.9  0.2919 -178.8
 4.300  0.7344   90.1   1.112    2.0  0.2882   28.7  0.2987  178.9
 4.400  0.7380   88.6   1.088    0.3  0.2940   27.7  0.3060  176.7
 4.500  0.7420   87.1   1.064   -1.5  0.2999   26.6  0.3137  174.6
 4.600  0.7450   85.7   1.042   -2.7  0.3049   25.4  0.3215  172.5
 4.700  0.7484   84.4   1.020   -4.0  0.3100   24.3  0.3297  170.6
 4.800  0.7523   83.0   0.999   -5.4  0.3153   23.3  0.3383  168.7
 4.900  0.7565   81.7   0.978   -6.8  0.3206   22.2  0.3472  167.0
 5.000  0.7612   80.4   0.958   -8.3  0.3261   21.2  0.3564  165.3
 5.100  0.7614   79.1   0.942   -9.5  0.3308   20.0  0.3655  163.9
 5.200  0.7620   77.7   0.927  -10.8  0.3356   18.8  0.3748  162.6
 5.300  0.7630   76.4   0.912  -12.1  0.3405   17.6  0.3843  161.3
 5.400  0.7644   75.0   0.898  -13.4  0.3456   16.5  0.3940  160.1
 5.500  0.7663   73.7   0.884  -14.8  0.3508   15.4  0.4038  159.0
 5.600  0.7660   72.5   0.869  -15.8  0.3551   14.2  0.4095  157.9
 5.700  0.7661   71.3   0.855  -16.9  0.3595   13.1  0.4153  156.9
 5.800  0.7665   70.0   0.841  -17.9  0.3640   12.0  0.4212  155.9
 5.900  0.7672   68.8   0.827  -19.0  0.3687   10.9  0.4272  154.9
 6.000  0.7683   67.6   0.814  -20.2  0.3735    9.9  0.4334  154.0
!
!  f       NFmin   Gammaopt  rn/50
! GHz       dB    MAG  ANG    -
 0.450      1.05  0.27  180   0.07
 0.900      1.13  0.36 -178   0.07
 1.900      1.76  0.56 -140   0.15
 2.400      2.10  0.62 -124   0.34
!
! (c) 2017  Infineon Technologies AG, Munich