! Infineon Technologies  Discrete & RF Semiconductors
! BFP193
! VCE =  7.0 V,  IC =  10 mA
! Common Emitter S-Parameters:                            Jan 2017
# GHz  S  MA  R  50
!  f         S11            S21            S12            S22
! GHz     MAG   ANG      MAG   ANG      MAG   ANG      MAG   ANG
 0.010  0.7008   -7.6  28.929  175.7  0.0030   84.2  0.9981   -3.5
 0.020  0.7120  -15.1  29.011  171.7  0.0064   82.0  0.9847   -7.2
 0.030  0.6919  -21.9  28.349  167.9  0.0092   76.4  0.9665  -10.4
 0.040  0.6822  -29.1  27.818  163.9  0.0120   73.4  0.9514  -13.8
 0.050  0.6833  -36.3  27.426  159.8  0.0149   71.6  0.9397  -17.2
 0.060  0.6649  -42.2  26.570  156.8  0.0173   68.7  0.9124  -19.7
 0.070  0.6539  -48.5  25.790  153.7  0.0197   66.5  0.8868  -22.3
 0.080  0.6509  -54.8  25.093  150.3  0.0221   64.8  0.8633  -25.0
 0.090  0.6559  -61.1  24.487  146.8  0.0245   63.4  0.8418  -27.9
 0.100  0.6687  -67.3  23.978  143.1  0.0270   62.3  0.8226  -31.0
 0.110  0.6540  -71.7  23.133  140.9  0.0285   60.1  0.7965  -32.7
 0.120  0.6435  -76.3  22.325  138.5  0.0300   58.1  0.7711  -34.5
 0.130  0.6371  -81.0  21.559  136.0  0.0316   56.4  0.7466  -36.4
 0.140  0.6352  -85.8  20.838  133.2  0.0332   54.8  0.7229  -38.4
 0.150  0.6377  -90.6  20.168  130.3  0.0348   53.3  0.7002  -40.6
 0.200  0.6270 -108.5  17.073  121.0  0.0388   48.9  0.6008  -46.9
 0.250  0.6160 -122.0  14.603  113.5  0.0434   45.4  0.5214  -50.9
 0.300  0.6073 -132.1  12.639  108.3  0.0451   43.8  0.4604  -53.8
 0.350  0.5984 -139.5  11.268  104.6  0.0474   43.2  0.4194  -55.2
 0.400  0.5995 -146.9   9.956   99.9  0.0497   42.7  0.3786  -56.8
 0.450  0.5958 -152.2   9.031   97.2  0.0519   43.2  0.3525  -57.7
 0.500  0.5973 -157.6   8.131   93.9  0.0541   43.6  0.3264  -58.7
 0.600  0.5965 -165.7   6.883   88.9  0.0587   44.5  0.2909  -59.9
 0.700  0.5960 -172.1   5.939   84.7  0.0622   46.5  0.2671  -60.9
 0.800  0.5974 -177.8   5.234   80.7  0.0678   47.8  0.2513  -62.1
 0.900  0.5973  177.2   4.661   77.1  0.0722   48.5  0.2385  -63.7
 1.000  0.6006  172.7   4.224   73.9  0.0768   49.7  0.2276  -65.4
 1.100  0.6039  168.6   3.856   70.8  0.0823   50.6  0.2220  -67.1
 1.200  0.6062  164.5   3.545   67.6  0.0871   51.0  0.2164  -69.3
 1.300  0.6090  160.8   3.280   64.7  0.0924   51.5  0.2124  -71.8
 1.400  0.6133  157.4   3.061   61.9  0.0982   51.9  0.2089  -74.6
 1.500  0.6176  154.2   2.860   59.1  0.1035   51.9  0.2070  -77.5
 1.600  0.6222  150.8   2.691   56.2  0.1092   51.9  0.2068  -80.3
 1.700  0.6258  147.5   2.541   53.6  0.1152   52.0  0.2068  -83.8
 1.800  0.6332  144.4   2.412   50.9  0.1206   51.8  0.2071  -87.3
 1.900  0.6370  141.5   2.287   48.5  0.1262   51.4  0.2082  -90.6
 2.000  0.6400  138.6   2.174   45.7  0.1324   51.1  0.2112  -93.9
 2.100  0.6453  135.6   2.074   43.3  0.1381   50.7  0.2137  -97.4
 2.200  0.6524  132.7   1.977   40.7  0.1438   50.3  0.2170 -100.9
 2.300  0.6563  130.3   1.896   38.4  0.1502   49.7  0.2226 -104.1
 2.400  0.6613  127.9   1.818   36.0  0.1566   49.2  0.2288 -107.2
 2.500  0.6669  125.4   1.746   33.8  0.1627   48.4  0.2340 -110.6
 2.600  0.6737  123.0   1.676   31.5  0.1688   47.7  0.2401 -113.9
 2.700  0.6789  120.7   1.617   29.4  0.1746   47.0  0.2461 -116.7
 2.800  0.6851  118.5   1.560   27.1  0.1804   46.4  0.2526 -119.4
 2.900  0.6897  116.2   1.506   25.1  0.1865   45.5  0.2572 -122.3
 3.000  0.6953  114.0   1.454   23.0  0.1926   44.7  0.2625 -125.0
 3.100  0.6988  112.0   1.410   21.3  0.1986   43.8  0.2665 -127.7
 3.200  0.7031  110.0   1.367   19.5  0.2046   43.0  0.2710 -130.4
 3.300  0.7082  108.1   1.326   17.5  0.2107   42.2  0.2762 -133.0
 3.400  0.7142  106.2   1.286   15.5  0.2168   41.4  0.2818 -135.4
 3.500  0.7209  104.3   1.248   13.3  0.2230   40.7  0.2880 -137.8
 3.600  0.7242  102.6   1.215   11.7  0.2289   39.6  0.2916 -140.6
 3.700  0.7281  100.8   1.184   10.1  0.2350   38.6  0.2958 -143.4
 3.800  0.7327   99.1   1.153    8.3  0.2410   37.7  0.3008 -146.1
 3.900  0.7379   97.5   1.123    6.4  0.2472   36.8  0.3063 -148.7
 4.000  0.7437   95.8   1.095    4.5  0.2534   35.9  0.3125 -151.2
 4.100  0.7456   94.2   1.069    3.0  0.2596   34.7  0.3172 -154.3
 4.200  0.7481   92.6   1.044    1.5  0.2659   33.5  0.3228 -157.2
 4.300  0.7512   91.0   1.019   -0.1  0.2722   32.4  0.3292 -160.1
 4.400  0.7548   89.5   0.996   -1.7  0.2787   31.4  0.3364 -162.8
 4.500  0.7590   87.9   0.973   -3.5  0.2853   30.4  0.3443 -165.4
 4.600  0.7618   86.5   0.952   -4.7  0.2910   29.3  0.3517 -168.1
 4.700  0.7651   85.1   0.931   -6.0  0.2968   28.2  0.3599 -170.6
 4.800  0.7689   83.7   0.910   -7.4  0.3028   27.1  0.3687 -173.1
 4.900  0.7731   82.3   0.890   -8.8  0.3088   26.1  0.3781 -175.4
 5.000  0.7778   80.9   0.871  -10.3  0.3149   25.1  0.3882 -177.6
 5.100  0.7780   79.5   0.856  -11.4  0.3203   23.8  0.3977 -179.6
 5.200  0.7787   78.1   0.841  -12.5  0.3259   22.6  0.4076  178.4
 5.300  0.7798   76.7   0.826  -13.7  0.3316   21.4  0.4181  176.5
 5.400  0.7814   75.3   0.812  -14.9  0.3374   20.3  0.4289  174.8
 5.500  0.7835   73.9   0.798  -16.2  0.3434   19.2  0.4401  173.1
 5.600  0.7831   72.7   0.784  -17.1  0.3484   18.0  0.4469  171.6
 5.700  0.7830   71.5   0.770  -18.1  0.3535   16.9  0.4539  170.1
 5.800  0.7833   70.2   0.756  -19.2  0.3588   15.7  0.4613  168.6
 5.900  0.7839   69.0   0.743  -20.2  0.3642   14.7  0.4690  167.2
 6.000  0.7849   67.8   0.730  -21.3  0.3697   13.6  0.4769  165.9
!
!  f       NFmin   Gammaopt  rn/50
! GHz       dB    MAG  ANG    -
 0.450      0.87  0.21  156   0.07
 0.900      1.00  0.35  173   0.06
 1.900      1.75  0.57 -146   0.13
 2.400      2.13  0.63 -128   0.31
!
! (c) 2017  Infineon Technologies AG, Munich