! Infineon Technologies  Discrete & RF Semiconductors
! BFP193
! VCE =  2.0 V,  IC =  40 mA
! Common Emitter S-Parameters:                            Jan 2017
# GHz  S  MA  R  50
!  f         S11            S21            S12            S22
! GHz     MAG   ANG      MAG   ANG      MAG   ANG      MAG   ANG
 0.010  0.2142  -38.4  67.710  170.2  0.0026   83.8  0.9533  -10.3
 0.020  0.2697  -67.3  66.174  161.2  0.0054   77.5  0.9113  -20.7
 0.030  0.2973  -86.5  60.745  154.9  0.0075   70.1  0.8385  -27.8
 0.040  0.3511 -101.1  56.179  147.5  0.0098   66.1  0.7809  -36.1
 0.050  0.4212 -111.3  52.702  139.0  0.0120   63.5  0.7420  -45.5
 0.060  0.4343 -118.4  48.843  136.1  0.0131   62.1  0.6870  -49.1
 0.070  0.4536 -125.1  45.129  132.8  0.0141   60.8  0.6352  -53.3
 0.080  0.4785 -131.1  41.596  128.8  0.0152   59.8  0.5873  -58.2
 0.090  0.5081 -136.5  38.296  124.2  0.0163   58.9  0.5445  -63.9
 0.100  0.5417 -141.2  35.294  118.7  0.0174   58.1  0.5080  -70.5
 0.110  0.5458 -144.1  33.240  117.1  0.0182   57.4  0.4797  -72.7
 0.120  0.5512 -147.0  31.214  115.4  0.0189   56.8  0.4523  -75.3
 0.130  0.5580 -149.7  29.222  113.4  0.0197   56.3  0.4258  -78.1
 0.140  0.5661 -152.5  27.271  111.1  0.0204   55.8  0.4005  -81.3
 0.150  0.5754 -155.1  25.371  108.4  0.0212   55.3  0.3766  -84.9
 0.200  0.5937 -163.0  19.627  102.0  0.0240   59.0  0.3034  -95.2
 0.250  0.6043 -168.7  15.936   97.4  0.0284   59.8  0.2575 -102.8
 0.300  0.6077 -172.7  13.380   94.2  0.0318   61.2  0.2273 -109.8
 0.350  0.6099 -175.6  11.763   92.0  0.0359   63.0  0.2088 -114.5
 0.400  0.6137 -178.5  10.170   89.0  0.0400   64.5  0.1919 -120.0
 0.450  0.6147  179.0   9.162   87.2  0.0439   65.3  0.1826 -124.0
 0.500  0.6169  176.5   8.166   85.0  0.0479   65.9  0.1743 -128.3
 0.600  0.6207  172.5   6.843   81.5  0.0565   65.8  0.1643 -135.1
 0.700  0.6245  169.2   5.874   78.5  0.0643   67.1  0.1571 -140.5
 0.800  0.6285  165.7   5.153   75.3  0.0728   66.8  0.1554 -144.7
 0.900  0.6248  162.6   4.580   72.5  0.0816   65.9  0.1555 -148.2
 1.000  0.6318  159.6   4.143   69.8  0.0892   65.3  0.1559 -151.8
 1.100  0.6359  156.5   3.777   67.2  0.0977   64.5  0.1576 -154.2
 1.200  0.6372  153.6   3.468   64.4  0.1058   63.3  0.1595 -156.6
 1.300  0.6403  150.7   3.209   62.0  0.1141   62.5  0.1633 -158.8
 1.400  0.6431  148.0   2.994   59.4  0.1223   61.4  0.1683 -161.0
 1.500  0.6471  145.2   2.795   57.0  0.1304   60.2  0.1732 -162.9
 1.600  0.6514  142.4   2.632   54.4  0.1384   59.1  0.1784 -164.4
 1.700  0.6547  139.7   2.486   52.0  0.1464   58.0  0.1854 -165.7
 1.800  0.6608  137.1   2.360   49.4  0.1543   56.5  0.1922 -167.5
 1.900  0.6633  134.4   2.236   47.3  0.1612   55.2  0.1985 -168.9
 2.000  0.6670  132.0   2.126   44.7  0.1694   53.9  0.2061 -170.1
 2.100  0.6711  129.4   2.029   42.5  0.1764   52.6  0.2134 -171.5
 2.200  0.6766  126.8   1.936   40.1  0.1835   51.4  0.2208 -172.8
 2.300  0.6804  124.6   1.858   38.0  0.1909   50.0  0.2282 -173.6
 2.400  0.6853  122.4   1.783   35.8  0.1984   48.8  0.2357 -174.4
 2.500  0.6894  120.1   1.714   33.8  0.2051   47.4  0.2439 -175.7
 2.600  0.6945  117.9   1.648   31.6  0.2119   46.0  0.2522 -176.9
 2.700  0.6991  115.9   1.591   29.7  0.2182   44.7  0.2589 -178.0
 2.800  0.7045  113.9   1.535   27.6  0.2246   43.4  0.2657 -179.0
 2.900  0.7081  111.8   1.485   25.7  0.2307   42.1  0.2721  179.4
 3.000  0.7127  109.8   1.436   23.7  0.2370   40.9  0.2787  177.9
 3.100  0.7153  107.9   1.395   22.1  0.2426   39.6  0.2833  176.3
 3.200  0.7186  106.1   1.355   20.4  0.2484   38.4  0.2880  174.8
 3.300  0.7227  104.3   1.317   18.6  0.2543   37.2  0.2930  173.4
 3.400  0.7275  102.5   1.280   16.6  0.2602   36.1  0.2981  172.0
 3.500  0.7330  100.7   1.244   14.6  0.2663   35.0  0.3034  170.6
 3.600  0.7351   99.1   1.214   13.1  0.2716   33.7  0.3083  168.8
 3.700  0.7378   97.5   1.184   11.5  0.2770   32.4  0.3135  167.1
 3.800  0.7411   95.9   1.156    9.9  0.2826   31.1  0.3189  165.4
 3.900  0.7449   94.3   1.128    8.1  0.2883   29.9  0.3246  163.8
 4.000  0.7493   92.8   1.102    6.3  0.2941   28.8  0.3306  162.2
 4.100  0.7505   91.3   1.078    4.9  0.2992   27.5  0.3366  160.3
 4.200  0.7522   89.8   1.055    3.4  0.3045   26.3  0.3429  158.6
 4.300  0.7545   88.3   1.032    1.9  0.3098   25.1  0.3496  156.8
 4.400  0.7572   86.9   1.010    0.3  0.3154   23.9  0.3566  155.2
 4.500  0.7604   85.4   0.989   -1.4  0.3210   22.8  0.3638  153.6
 4.600  0.7629   84.1   0.970   -2.6  0.3255   21.6  0.3711  152.2
 4.700  0.7659   82.8   0.952   -3.9  0.3302   20.4  0.3785  150.8
 4.800  0.7692   81.5   0.934   -5.2  0.3350   19.3  0.3862  149.5
 4.900  0.7730   80.2   0.916   -6.5  0.3399   18.2  0.3941  148.2
 5.000  0.7771   78.9   0.899   -7.9  0.3450   17.1  0.4022  147.0
 5.100  0.7766   77.6   0.886   -9.1  0.3492   15.9  0.4097  146.1
 5.200  0.7764   76.3   0.873  -10.3  0.3536   14.7  0.4173  145.2
 5.300  0.7767   75.0   0.861  -11.5  0.3581   13.5  0.4250  144.4
 5.400  0.7773   73.7   0.849  -12.8  0.3628   12.4  0.4327  143.6
 5.500  0.7784   72.4   0.837  -14.1  0.3676   11.3  0.4406  142.8
 5.600  0.7776   71.2   0.825  -15.1  0.3713   10.2  0.4445  142.0
 5.700  0.7772   70.0   0.813  -16.2  0.3752    9.1  0.4485  141.3
 5.800  0.7771   68.9   0.801  -17.3  0.3792    8.0  0.4525  140.5
 5.900  0.7773   67.7   0.789  -18.4  0.3833    6.9  0.4566  139.8
 6.000  0.7778   66.5   0.778  -19.6  0.3876    5.9  0.4608  139.1
!
!  f       NFmin   Gammaopt  rn/50
! GHz       dB    MAG  ANG    -
 0.450      1.38  0.38 -172   0.08
 0.900      1.43  0.41 -167   0.08
 1.900      2.05  0.59 -135   0.20
 2.400      2.37  0.63 -120   0.42
!
! (c) 2017  Infineon Technologies AG, Munich