! Infineon Technologies  Discrete & RF Semiconductors
! BFP193
! VCE =  2.0 V,  IC =  70 mA
! Common Emitter S-Parameters:                            Jan 2017
# GHz  S  MA  R  50
!  f         S11            S21            S12            S22
! GHz     MAG   ANG      MAG   ANG      MAG   ANG      MAG   ANG
 0.010  0.1596 -111.8  75.344  166.7  0.0025   88.0  0.8548  -14.2
 0.020  0.2964 -120.5  70.806  154.8  0.0051   69.3  0.7942  -28.2
 0.030  0.3646 -130.9  62.769  148.3  0.0068   64.3  0.7030  -36.1
 0.040  0.4409 -137.9  55.775  140.0  0.0085   61.3  0.6288  -46.0
 0.050  0.5219 -142.8  50.259  129.6  0.0102   59.3  0.5782  -58.2
 0.060  0.5391 -146.8  46.007  127.2  0.0110   58.9  0.5291  -61.7
 0.070  0.5587 -150.6  41.853  124.3  0.0119   58.6  0.4823  -65.8
 0.080  0.5805 -154.0  37.829  120.8  0.0127   58.3  0.4386  -70.8
 0.090  0.6043 -157.2  33.982  116.4  0.0136   58.1  0.3989  -76.9
 0.100  0.6299 -160.2  30.380  111.0  0.0144   57.9  0.3647  -84.2
 0.110  0.6343 -162.0  28.495  109.7  0.0152   58.9  0.3444  -86.5
 0.120  0.6393 -163.7  26.626  108.3  0.0159   59.7  0.3247  -89.1
 0.130  0.6449 -165.4  24.777  106.7  0.0167   60.5  0.3057  -91.9
 0.140  0.6510 -167.1  22.951  104.7  0.0174   61.2  0.2876  -95.2
 0.150  0.6577 -168.7  21.155  102.5  0.0182   61.9  0.2706  -98.9
 0.200  0.6708 -173.3  16.126   97.2  0.0218   64.0  0.2233 -109.7
 0.250  0.6771 -177.1  12.994   93.3  0.0264   65.4  0.1951 -117.6
 0.300  0.6775 -179.7  10.879   90.6  0.0300   67.0  0.1776 -124.5
 0.350  0.6789  178.1   9.544   88.6  0.0343   68.5  0.1679 -129.1
 0.400  0.6814  175.9   8.225   86.0  0.0386   69.7  0.1595 -134.2
 0.450  0.6820  173.9   7.404   84.4  0.0427   69.8  0.1551 -137.6
 0.500  0.6834  171.9   6.591   82.3  0.0469   69.8  0.1512 -141.2
 0.600  0.6868  168.6   5.521   78.9  0.0555   69.9  0.1487 -147.0
 0.700  0.6900  165.7   4.739   76.0  0.0642   70.5  0.1459 -151.0
 0.800  0.6913  162.6   4.155   72.9  0.0733   69.5  0.1472 -153.8
 0.900  0.6904  159.7   3.694   70.1  0.0814   68.6  0.1497 -156.7
 1.000  0.6952  156.9   3.343   67.3  0.0900   67.9  0.1526 -159.5
 1.100  0.6984  154.1   3.049   64.7  0.0983   66.7  0.1550 -160.9
 1.200  0.6993  151.2   2.800   61.9  0.1071   65.6  0.1582 -162.6
 1.300  0.7024  148.6   2.592   59.3  0.1149   64.6  0.1638 -164.0
 1.400  0.7051  146.0   2.422   56.7  0.1235   63.5  0.1695 -165.8
 1.500  0.7100  143.4   2.262   54.2  0.1320   62.1  0.1753 -167.3
 1.600  0.7127  140.5   2.131   51.6  0.1399   60.7  0.1807 -168.1
 1.700  0.7160  138.0   2.014   49.1  0.1480   59.4  0.1886 -169.2
 1.800  0.7214  135.3   1.913   46.5  0.1556   58.0  0.1961 -170.7
 1.900  0.7231  132.8   1.814   44.3  0.1638   56.7  0.2031 -171.7
 2.000  0.7251  130.3   1.725   41.7  0.1714   55.3  0.2108 -172.5
 2.100  0.7288  127.7   1.648   39.5  0.1786   53.9  0.2186 -173.7
 2.200  0.7341  125.1   1.574   37.0  0.1859   52.6  0.2265 -174.9
 2.300  0.7365  122.9   1.511   34.9  0.1935   51.2  0.2344 -175.6
 2.400  0.7400  120.8   1.451   32.7  0.2013   49.9  0.2423 -176.3
 2.500  0.7431  118.6   1.396   30.7  0.2079   48.4  0.2508 -177.4
 2.600  0.7472  116.4   1.343   28.5  0.2147   47.0  0.2594 -178.5
 2.700  0.7514  114.3   1.297   26.6  0.2212   45.6  0.2665 -179.4
 2.800  0.7566  112.3   1.253   24.5  0.2279   44.3  0.2736  179.7
 2.900  0.7589  110.2   1.212   22.7  0.2340   42.9  0.2803  178.2
 3.000  0.7621  108.2   1.173   20.7  0.2403   41.6  0.2871  176.8
 3.100  0.7636  106.4   1.141   19.1  0.2461   40.3  0.2922  175.3
 3.200  0.7660  104.5   1.109   17.4  0.2521   39.1  0.2975  173.9
 3.300  0.7691  102.7   1.079   15.7  0.2581   37.9  0.3030  172.6
 3.400  0.7730  100.9   1.049   13.8  0.2643   36.8  0.3086  171.3
 3.500  0.7776   99.1   1.021   11.8  0.2705   35.7  0.3144  170.0
 3.600  0.7789   97.5   0.997   10.4  0.2759   34.3  0.3199  168.3
 3.700  0.7808   95.9   0.974    8.9  0.2814   33.0  0.3256  166.6
 3.800  0.7834   94.3   0.951    7.3  0.2870   31.8  0.3316  165.0
 3.900  0.7865   92.8   0.929    5.6  0.2928   30.6  0.3379  163.4
 4.000  0.7902   91.2   0.908    3.9  0.2987   29.4  0.3444  161.9
 4.100  0.7904   89.7   0.890    2.6  0.3039   28.1  0.3509  160.1
 4.200  0.7912   88.2   0.872    1.2  0.3093   26.8  0.3578  158.3
 4.300  0.7925   86.7   0.854   -0.2  0.3148   25.5  0.3649  156.6
 4.400  0.7943   85.3   0.837   -1.7  0.3204   24.4  0.3724  155.0
 4.500  0.7967   83.8   0.821   -3.3  0.3262   23.2  0.3802  153.4
 4.600  0.7985   82.5   0.806   -4.4  0.3310   22.0  0.3878  152.0
 4.700  0.8007   81.2   0.791   -5.5  0.3359   20.8  0.3955  150.6
 4.800  0.8034   79.9   0.776   -6.6  0.3409   19.7  0.4036  149.2
 4.900  0.8064   78.6   0.762   -7.9  0.3461   18.6  0.4118  147.9
 5.000  0.8099   77.3   0.748   -9.1  0.3514   17.5  0.4202  146.7
 5.100  0.8088   76.0   0.738  -10.1  0.3557   16.2  0.4280  145.8
 5.200  0.8082   74.7   0.729  -11.2  0.3601   15.0  0.4359  144.9
 5.300  0.8080   73.3   0.720  -12.3  0.3647   13.8  0.4440  144.0
 5.400  0.8082   72.0   0.711  -13.4  0.3694   12.6  0.4521  143.2
 5.500  0.8088   70.7   0.703  -14.6  0.3743   11.5  0.4603  142.4
 5.600  0.8071   69.5   0.694  -15.5  0.3783   10.4  0.4644  141.6
 5.700  0.8057   68.3   0.685  -16.4  0.3824    9.2  0.4686  140.8
 5.800  0.8047   67.2   0.676  -17.3  0.3866    8.1  0.4728  140.1
 5.900  0.8040   66.0   0.667  -18.3  0.3910    7.1  0.4772  139.3
 6.000  0.8037   64.8   0.659  -19.3  0.3955    6.0  0.4816  138.6
!
!  f       NFmin   Gammaopt  rn/50
! GHz       dB    MAG  ANG    -
!
! noise parameter not available yet for this operation point!
!
! (c) 2017  Infineon Technologies AG, Munich