! Infineon Technologies  Discrete & RF Semiconductors
! BFP193
! VCE =  9.0 V,  IC =  45 mA
! Common Emitter S-Parameters:                            Jan 2017
# GHz  S  MA  R  50
!  f         S11            S21            S12            S22
! GHz     MAG   ANG      MAG   ANG      MAG   ANG      MAG   ANG
 0.010  0.3342  -20.5  69.354  171.2  0.0022   81.5  0.9609   -7.4
 0.020  0.3561  -40.7  68.346  163.6  0.0044   85.0  0.9285  -15.2
 0.030  0.3486  -56.5  63.793  157.8  0.0064   75.4  0.8735  -20.9
 0.040  0.3677  -71.8  59.988  151.2  0.0085   70.4  0.8281  -27.2
 0.050  0.4096  -84.8  57.082  143.8  0.0106   67.4  0.7939  -34.2
 0.060  0.4079  -93.2  53.336  140.8  0.0116   65.3  0.7435  -37.0
 0.070  0.4150 -101.4  49.760  137.3  0.0126   63.5  0.6953  -40.3
 0.080  0.4302 -109.2  46.394  133.3  0.0136   62.0  0.6496  -44.0
 0.090  0.4528 -116.4  43.286  128.8  0.0146   60.6  0.6070  -48.2
 0.100  0.4818 -122.8  40.496  123.5  0.0156   59.5  0.5682  -53.1
 0.110  0.4821 -126.7  38.278  121.8  0.0163   59.0  0.5385  -54.6
 0.120  0.4846 -130.6  36.099  119.8  0.0170   58.6  0.5092  -56.3
 0.130  0.4894 -134.5  33.967  117.6  0.0177   58.1  0.4804  -58.1
 0.140  0.4963 -138.3  31.892  115.1  0.0184   57.8  0.4522  -60.2
 0.150  0.5053 -141.9  29.885  112.3  0.0191   57.4  0.4246  -62.6
 0.200  0.5225 -152.5  23.397  105.4  0.0220   59.3  0.3380  -68.0
 0.250  0.5307 -160.2  19.115  100.3  0.0256   59.8  0.2812  -71.3
 0.300  0.5311 -165.4  16.094   96.8  0.0289   61.5  0.2404  -73.8
 0.350  0.5338 -169.2  14.173   94.4  0.0322   63.1  0.2160  -75.2
 0.400  0.5389 -173.0  12.285   91.2  0.0355   64.4  0.1918  -76.9
 0.450  0.5400 -176.1  11.073   89.3  0.0392   65.3  0.1773  -78.1
 0.500  0.5426 -179.2   9.876   87.0  0.0429   66.0  0.1628  -79.5
 0.600  0.5464  176.2   8.288   83.4  0.0507   66.2  0.1430  -82.1
 0.700  0.5488  172.6   7.115   80.4  0.0571   67.8  0.1291  -84.1
 0.800  0.5529  168.5   6.247   77.2  0.0649   67.2  0.1218  -86.6
 0.900  0.5528  165.2   5.551   74.4  0.0720   66.9  0.1167  -89.7
 1.000  0.5577  161.9   5.021   71.7  0.0791   66.0  0.1113  -93.0
 1.100  0.5624  158.8   4.575   69.2  0.0873   65.6  0.1098  -95.5
 1.200  0.5639  155.6   4.201   66.5  0.0939   64.6  0.1080  -98.9
 1.300  0.5674  152.6   3.885   64.0  0.1011   64.0  0.1092 -102.5
 1.400  0.5699  149.9   3.621   61.5  0.1089   62.9  0.1096 -106.7
 1.500  0.5758  147.1   3.381   59.1  0.1162   61.9  0.1113 -110.5
 1.600  0.5792  144.2   3.181   56.6  0.1235   61.0  0.1154 -113.8
 1.700  0.5834  141.4   3.000   54.3  0.1304   59.7  0.1195 -118.0
 1.800  0.5912  138.7   2.846   51.8  0.1376   58.5  0.1238 -121.7
 1.900  0.5948  136.1   2.698   49.6  0.1442   57.6  0.1286 -125.0
 2.000  0.5983  133.5   2.563   47.2  0.1516   56.3  0.1354 -128.3
 2.100  0.6044  130.9   2.446   45.0  0.1581   55.1  0.1414 -131.7
 2.200  0.6117  128.3   2.332   42.6  0.1647   54.0  0.1478 -134.8
 2.300  0.6154  126.1   2.236   40.5  0.1717   52.8  0.1553 -137.2
 2.400  0.6201  123.9   2.144   38.3  0.1788   51.7  0.1630 -139.3
 2.500  0.6250  121.7   2.060   36.3  0.1850   50.3  0.1707 -142.1
 2.600  0.6309  119.5   1.979   34.1  0.1913   49.0  0.1787 -144.7
 2.700  0.6371  117.4   1.908   32.2  0.1973   47.8  0.1857 -146.8
 2.800  0.6441  115.4   1.840   30.1  0.2034   46.7  0.1929 -148.7
 2.900  0.6489  113.3   1.778   28.2  0.2096   45.4  0.1986 -151.2
 3.000  0.6546  111.3   1.719   26.2  0.2159   44.2  0.2046 -153.5
 3.100  0.6583  109.4   1.668   24.6  0.2215   43.0  0.2090 -155.7
 3.200  0.6627  107.6   1.619   22.8  0.2271   41.8  0.2136 -157.9
 3.300  0.6678  105.8   1.572   21.0  0.2329   40.7  0.2186 -159.9
 3.400  0.6735  104.0   1.526   19.0  0.2387   39.7  0.2238 -161.8
 3.500  0.6799  102.3   1.482   16.9  0.2446   38.7  0.2293 -163.7
 3.600  0.6834  100.7   1.445   15.3  0.2499   37.4  0.2336 -166.1
 3.700  0.6875   99.1   1.408   13.7  0.2553   36.2  0.2383 -168.4
 3.800  0.6921   97.6   1.373   11.9  0.2608   35.0  0.2433 -170.6
 3.900  0.6972   96.0   1.339   10.1  0.2665   33.9  0.2487 -172.7
 4.000  0.7028   94.5   1.307    8.2  0.2722   32.8  0.2544 -174.7
 4.100  0.7052   93.0   1.277    6.7  0.2774   31.5  0.2598 -177.2
 4.200  0.7081   91.5   1.248    5.1  0.2827   30.3  0.2657 -179.7
 4.300  0.7115   90.0   1.220    3.5  0.2881   29.1  0.2721  178.0
 4.400  0.7154   88.6   1.193    1.8  0.2936   28.0  0.2788  175.8
 4.500  0.7197   87.1   1.167    0.0  0.2993   26.9  0.2860  173.7
 4.600  0.7231   85.8   1.142   -1.3  0.3041   25.7  0.2935  171.7
 4.700  0.7269   84.4   1.119   -2.7  0.3091   24.6  0.3013  169.8
 4.800  0.7311   83.1   1.095   -4.1  0.3141   23.4  0.3094  168.0
 4.900  0.7357   81.8   1.073   -5.6  0.3193   22.3  0.3178  166.3
 5.000  0.7406   80.5   1.051   -7.1  0.3246   21.3  0.3265  164.7
 5.100  0.7408   79.2   1.034   -8.3  0.3291   20.1  0.3352  163.4
 5.200  0.7414   77.9   1.017   -9.6  0.3337   18.9  0.3441  162.2
 5.300  0.7424   76.5   1.001  -10.9  0.3385   17.7  0.3531  161.0
 5.400  0.7437   75.2   0.985  -12.3  0.3434   16.6  0.3623  159.9
 5.500  0.7455   73.9   0.970  -13.7  0.3484   15.5  0.3716  158.8
 5.600  0.7456   72.7   0.954  -14.8  0.3524   14.4  0.3770  157.8
 5.700  0.7459   71.5   0.938  -15.9  0.3566   13.3  0.3826  156.9
 5.800  0.7466   70.4   0.922  -17.1  0.3609   12.2  0.3882  156.0
 5.900  0.7477   69.2   0.907  -18.3  0.3653   11.1  0.3940  155.1
 6.000  0.7490   68.0   0.892  -19.6  0.3698   10.1  0.3998  154.2
!
!  f       NFmin   Gammaopt  rn/50
! GHz       dB    MAG  ANG    -
 0.450      1.45  0.40 -171   0.08
 0.900      1.49  0.43 -165   0.08
 1.900      2.13  0.59 -134   0.21
 2.400      2.45  0.63 -119   0.45
!
! (c) 2017  Infineon Technologies AG, Munich