! Infineon Technologies  Discrete & RF Semiconductors
! BFP193
! VCE =  3.0 V,  IC =  80 mA
! Common Emitter S-Parameters:                            Jan 2017
# GHz  S  MA  R  50
!  f         S11            S21            S12            S22
! GHz     MAG   ANG      MAG   ANG      MAG   ANG      MAG   ANG
 0.010  0.1459 -112.0  79.284  167.4  0.0024   82.6  0.8706  -12.5
 0.020  0.2713 -118.8  75.085  155.9  0.0039   83.2  0.8153  -25.3
 0.030  0.3370 -129.4  66.945  149.4  0.0055   71.0  0.7277  -32.5
 0.040  0.4105 -136.5  59.901  141.2  0.0072   64.5  0.6548  -41.6
 0.050  0.4882 -141.3  54.381  131.1  0.0090   60.5  0.6018  -52.5
 0.060  0.5061 -145.5  49.872  128.6  0.0099   61.0  0.5520  -55.5
 0.070  0.5266 -149.3  45.477  125.6  0.0109   61.4  0.5041  -59.2
 0.080  0.5492 -152.9  41.232  122.0  0.0118   61.7  0.4586  -63.5
 0.090  0.5737 -156.1  37.189  117.6  0.0128   62.0  0.4164  -68.8
 0.100  0.6000 -159.1  33.420  112.1  0.0137   62.2  0.3784  -75.2
 0.110  0.6042 -160.9  31.356  110.8  0.0143   62.3  0.3561  -77.0
 0.120  0.6090 -162.6  29.309  109.3  0.0150   62.3  0.3343  -79.0
 0.130  0.6143 -164.4  27.285  107.6  0.0156   62.4  0.3129  -81.4
 0.140  0.6202 -166.0  25.289  105.7  0.0163   62.4  0.2922  -84.0
 0.150  0.6266 -167.7  23.327  103.4  0.0169   62.5  0.2721  -87.1
 0.200  0.6395 -172.6  17.813   98.0  0.0204   67.0  0.2167  -95.7
 0.250  0.6482 -176.5  14.370   94.1  0.0247   67.6  0.1832 -101.8
 0.300  0.6480 -179.2  12.021   91.3  0.0283   69.4  0.1606 -107.7
 0.350  0.6495  178.5  10.555   89.3  0.0324   70.5  0.1479 -111.6
 0.400  0.6521  176.2   9.107   86.6  0.0366   71.3  0.1360 -116.2
 0.450  0.6531  174.3   8.197   85.0  0.0407   71.2  0.1296 -119.5
 0.500  0.6549  172.4   7.296   82.9  0.0448   71.2  0.1237 -123.1
 0.600  0.6593  169.0   6.111   79.6  0.0531   71.1  0.1177 -129.4
 0.700  0.6617  166.2   5.245   76.7  0.0608   71.1  0.1127 -133.7
 0.800  0.6633  163.0   4.601   73.6  0.0700   70.9  0.1132 -137.2
 0.900  0.6634  160.0   4.087   70.8  0.0780   69.7  0.1146 -140.6
 1.000  0.6672  157.4   3.698   68.1  0.0855   68.8  0.1158 -144.1
 1.100  0.6702  154.4   3.371   65.6  0.0946   67.8  0.1184 -145.9
 1.200  0.6736  151.6   3.095   62.8  0.1021   66.6  0.1218 -148.2
 1.300  0.6746  149.0   2.865   60.3  0.1104   65.5  0.1269 -150.0
 1.400  0.6780  146.3   2.673   57.7  0.1189   64.5  0.1327 -152.5
 1.500  0.6831  143.7   2.496   55.2  0.1265   63.1  0.1380 -154.3
 1.600  0.6869  140.9   2.351   52.6  0.1344   61.6  0.1442 -155.5
 1.700  0.6886  138.3   2.220   50.2  0.1425   60.4  0.1523 -157.4
 1.800  0.6956  135.7   2.108   47.6  0.1501   59.1  0.1598 -159.2
 1.900  0.6976  133.1   1.998   45.4  0.1575   57.6  0.1668 -160.6
 2.000  0.7006  130.7   1.899   42.9  0.1650   56.5  0.1751 -161.9
 2.100  0.7045  128.1   1.813   40.7  0.1723   55.1  0.1832 -163.5
 2.200  0.7099  125.5   1.731   38.2  0.1796   53.9  0.1915 -164.9
 2.300  0.7126  123.3   1.661   36.1  0.1869   52.4  0.1997 -165.8
 2.400  0.7164  121.2   1.594   33.9  0.1943   51.1  0.2079 -166.7
 2.500  0.7202  119.0   1.532   31.8  0.2010   49.7  0.2172 -168.2
 2.600  0.7250  116.8   1.473   29.6  0.2079   48.3  0.2266 -169.5
 2.700  0.7289  114.8   1.422   27.7  0.2141   47.0  0.2339 -170.6
 2.800  0.7337  112.8   1.373   25.7  0.2205   45.7  0.2413 -171.7
 2.900  0.7371  110.7   1.328   23.8  0.2268   44.4  0.2482 -173.4
 3.000  0.7414  108.7   1.284   21.8  0.2333   43.1  0.2554 -175.1
 3.100  0.7434  106.9   1.248   20.2  0.2390   41.8  0.2607 -176.7
 3.200  0.7462  105.1   1.213   18.5  0.2449   40.5  0.2661 -178.2
 3.300  0.7497  103.2   1.178   16.7  0.2509   39.3  0.2717 -179.7
 3.400  0.7540  101.5   1.146   14.8  0.2569   38.2  0.2775  178.9
 3.500  0.7590   99.7   1.114   12.8  0.2631   37.1  0.2835  177.5
 3.600  0.7609   98.1   1.087   11.3  0.2686   35.8  0.2890  175.6
 3.700  0.7635   96.5   1.061    9.8  0.2742   34.5  0.2948  173.8
 3.800  0.7666   94.9   1.035    8.2  0.2800   33.3  0.3009  172.0
 3.900  0.7703   93.4   1.011    6.5  0.2859   32.1  0.3073  170.3
 4.000  0.7746   91.8   0.987    4.7  0.2919   31.0  0.3139  168.7
 4.100  0.7752   90.3   0.966    3.3  0.2970   29.7  0.3204  166.7
 4.200  0.7763   88.8   0.945    1.9  0.3023   28.4  0.3274  164.7
 4.300  0.7780   87.3   0.925    0.5  0.3077   27.1  0.3347  162.8
 4.400  0.7802   85.8   0.906   -1.1  0.3133   26.0  0.3423  161.0
 4.500  0.7829   84.3   0.887   -2.7  0.3190   24.8  0.3503  159.3
 4.600  0.7847   83.0   0.870   -3.9  0.3239   23.6  0.3580  157.7
 4.700  0.7870   81.7   0.854   -5.1  0.3289   22.4  0.3661  156.2
 4.800  0.7896   80.4   0.838   -6.3  0.3340   21.2  0.3743  154.7
 4.900  0.7927   79.1   0.822   -7.6  0.3393   20.1  0.3828  153.3
 5.000  0.7961   77.8   0.807   -9.0  0.3447   19.0  0.3915  152.0
 5.100  0.7956   76.5   0.796  -10.1  0.3491   17.8  0.3998  151.0
 5.200  0.7955   75.2   0.785  -11.2  0.3536   16.5  0.4082  150.0
 5.300  0.7959   73.8   0.774  -12.3  0.3582   15.4  0.4167  149.1
 5.400  0.7966   72.5   0.764  -13.5  0.3630   14.2  0.4254  148.2
 5.500  0.7978   71.2   0.754  -14.7  0.3680   13.1  0.4341  147.3
 5.600  0.7967   70.0   0.743  -15.6  0.3719   11.9  0.4388  146.4
 5.700  0.7959   68.8   0.733  -16.6  0.3760   10.7  0.4435  145.6
 5.800  0.7955   67.7   0.723  -17.6  0.3803    9.6  0.4483  144.8
 5.900  0.7954   66.5   0.713  -18.6  0.3847    8.5  0.4533  144.0
 6.000  0.7957   65.3   0.703  -19.7  0.3892    7.4  0.4583  143.2
!
!  f       NFmin   Gammaopt  rn/50
! GHz       dB    MAG  ANG    -
!
! noise parameter not available yet for this operation point!
!
! (c) 2017  Infineon Technologies AG, Munich