! Infineon Technologies  Discrete & RF Semiconductors
! BFP193
! VCE =  5.0 V,  IC = 0.10 A
! Common Emitter S-Parameters:                            Jan 2017
# GHz  S  MA  R  50
!  f         S11            S21            S12            S22
! GHz     MAG   ANG      MAG   ANG      MAG   ANG      MAG   ANG
 0.010  0.1452 -104.4  78.770  167.3  0.0022   80.5  0.8429  -11.3
 0.020  0.2732 -115.5  74.387  155.7  0.0043   75.4  0.7932  -23.4
 0.030  0.3373 -127.1  66.255  149.2  0.0058   69.3  0.7094  -29.8
 0.040  0.4108 -134.8  59.214  141.0  0.0073   65.7  0.6367  -37.8
 0.050  0.4893 -140.1  53.693  130.8  0.0089   63.4  0.5794  -47.6
 0.060  0.5069 -144.4  49.216  128.3  0.0097   62.9  0.5326  -50.0
 0.070  0.5271 -148.5  44.848  125.4  0.0105   62.5  0.4868  -52.8
 0.080  0.5498 -152.2  40.624  121.8  0.0114   62.1  0.4425  -56.1
 0.090  0.5746 -155.6  36.594  117.4  0.0122   61.8  0.4000  -60.2
 0.100  0.6013 -158.7  32.831  112.0  0.0130   61.5  0.3601  -65.3
 0.110  0.6054 -160.5  30.801  110.7  0.0136   62.0  0.3391  -66.4
 0.120  0.6102 -162.4  28.789  109.2  0.0142   62.4  0.3183  -67.6
 0.130  0.6155 -164.1  26.799  107.6  0.0149   62.9  0.2976  -69.0
 0.140  0.6214 -165.9  24.836  105.6  0.0155   63.2  0.2771  -70.6
 0.150  0.6279 -167.6  22.907  103.3  0.0161   63.6  0.2569  -72.4
 0.200  0.6395 -172.4  17.485   98.0  0.0191   66.9  0.2024  -76.6
 0.250  0.6475 -176.3  14.111   94.1  0.0228   67.3  0.1691  -78.8
 0.300  0.6465 -179.3  11.795   91.4  0.0266   69.2  0.1460  -81.1
 0.350  0.6484  178.4  10.359   89.4  0.0302   70.5  0.1332  -82.6
 0.400  0.6514  176.2   8.940   86.8  0.0338   71.6  0.1206  -84.4
 0.450  0.6525  174.3   8.050   85.2  0.0378   71.5  0.1138  -86.0
 0.500  0.6543  172.4   7.168   83.2  0.0419   71.4  0.1070  -87.7
 0.600  0.6576  168.8   6.009   80.0  0.0503   71.9  0.0980  -91.6
 0.700  0.6585  166.0   5.159   77.1  0.0574   72.7  0.0928  -94.3
 0.800  0.6624  163.0   4.527   74.1  0.0658   71.9  0.0922  -97.9
 0.900  0.6623  159.8   4.024   71.4  0.0735   70.8  0.0925 -102.1
 1.000  0.6657  157.1   3.645   68.7  0.0812   70.0  0.0922 -106.5
 1.100  0.6684  154.2   3.324   66.1  0.0892   69.1  0.0946 -109.5
 1.200  0.6694  151.4   3.053   63.4  0.0970   67.6  0.0975 -112.8
 1.300  0.6746  148.6   2.828   60.9  0.1044   67.0  0.1023 -117.0
 1.400  0.6758  146.0   2.640   58.3  0.1125   65.9  0.1061 -121.0
 1.500  0.6816  143.4   2.466   55.9  0.1201   64.4  0.1110 -124.7
 1.600  0.6837  140.7   2.324   53.3  0.1280   63.2  0.1175 -127.2
 1.700  0.6865  137.9   2.196   50.8  0.1350   61.9  0.1248 -131.0
 1.800  0.6921  135.4   2.085   48.3  0.1424   60.7  0.1318 -134.3
 1.900  0.6963  132.8   1.979   46.1  0.1500   59.6  0.1384 -137.0
 2.000  0.6968  130.3   1.882   43.6  0.1575   58.0  0.1474 -139.5
 2.100  0.7007  127.7   1.797   41.4  0.1645   56.7  0.1554 -142.3
 2.200  0.7060  125.2   1.715   38.9  0.1716   55.6  0.1637 -144.9
 2.300  0.7091  123.0   1.646   36.8  0.1788   54.2  0.1727 -146.7
 2.400  0.7132  120.9   1.579   34.6  0.1860   53.0  0.1818 -148.3
 2.500  0.7169  118.7   1.519   32.6  0.1925   51.6  0.1908 -150.8
 2.600  0.7216  116.6   1.462   30.4  0.1991   50.2  0.2001 -153.0
 2.700  0.7251  114.5   1.412   28.5  0.2057   48.9  0.2082 -154.6
 2.800  0.7295  112.5   1.363   26.4  0.2123   47.7  0.2164 -156.1
 2.900  0.7330  110.4   1.319   24.5  0.2185   46.4  0.2235 -158.4
 3.000  0.7375  108.4   1.276   22.5  0.2248   45.1  0.2310 -160.5
 3.100  0.7395  106.6   1.240   20.9  0.2306   43.8  0.2364 -162.5
 3.200  0.7422  104.8   1.205   19.2  0.2366   42.6  0.2421 -164.4
 3.300  0.7457  102.9   1.171   17.4  0.2427   41.4  0.2480 -166.2
 3.400  0.7500  101.2   1.138   15.5  0.2488   40.3  0.2541 -168.0
 3.500  0.7549   99.4   1.107   13.5  0.2551   39.2  0.2605 -169.6
 3.600  0.7569   97.8   1.081   12.0  0.2606   37.9  0.2660 -171.8
 3.700  0.7595   96.2   1.055   10.5  0.2663   36.6  0.2719 -174.0
 3.800  0.7627   94.7   1.030    8.8  0.2721   35.4  0.2782 -176.1
 3.900  0.7664   93.1   1.006    7.1  0.2780   34.3  0.2848 -178.0
 4.000  0.7707   91.6   0.983    5.3  0.2840   33.2  0.2917 -179.9
 4.100  0.7711   90.1   0.962    3.9  0.2894   31.8  0.2981  177.7
 4.200  0.7721   88.6   0.941    2.5  0.2950   30.5  0.3050  175.4
 4.300  0.7736   87.1   0.921    1.1  0.3007   29.3  0.3123  173.3
 4.400  0.7756   85.7   0.901   -0.5  0.3066   28.1  0.3201  171.2
 4.500  0.7781   84.2   0.882   -2.1  0.3126   26.9  0.3283  169.2
 4.600  0.7801   82.9   0.865   -3.3  0.3176   25.6  0.3362  167.3
 4.700  0.7826   81.6   0.849   -4.5  0.3227   24.4  0.3445  165.5
 4.800  0.7855   80.3   0.833   -5.7  0.3280   23.2  0.3531  163.7
 4.900  0.7887   79.0   0.817   -7.0  0.3334   22.1  0.3621  162.1
 5.000  0.7924   77.7   0.802   -8.4  0.3389   21.0  0.3713  160.5
 5.100  0.7919   76.4   0.791   -9.5  0.3435   19.7  0.3802  159.2
 5.200  0.7917   75.0   0.779  -10.6  0.3483   18.5  0.3894  158.0
 5.300  0.7921   73.7   0.769  -11.8  0.3532   17.3  0.3987  156.9
 5.400  0.7928   72.3   0.758  -13.0  0.3583   16.1  0.4081  155.8
 5.500  0.7940   71.0   0.748  -14.2  0.3635   15.0  0.4177  154.7
 5.600  0.7932   69.8   0.737  -15.1  0.3676   13.8  0.4232  153.7
 5.700  0.7927   68.7   0.726  -16.1  0.3719   12.7  0.4288  152.7
 5.800  0.7925   67.5   0.716  -17.1  0.3763   11.6  0.4346  151.8
 5.900  0.7927   66.4   0.705  -18.1  0.3808   10.5  0.4404  150.9
 6.000  0.7932   65.2   0.695  -19.1  0.3855    9.4  0.4464  150.0
!
!  f       NFmin   Gammaopt  rn/50
! GHz       dB    MAG  ANG    -
!
! noise parameter not available yet for this operation point!
!
! (c) 2017  Infineon Technologies AG, Munich