! Infineon Technologies  Discrete & RF Semiconductors
! BFP193
! VCE =  7.0 V,  IC =  50 mA
! Common Emitter S-Parameters:                            Jan 2017
# GHz  S  MA  R  50
!  f         S11            S21            S12            S22
! GHz     MAG   ANG      MAG   ANG      MAG   ANG      MAG   ANG
 0.010  0.2684  -26.1  73.307  170.7  0.0020   83.7  0.9581   -8.1
 0.020  0.2966  -50.2  71.546  162.6  0.0044   87.8  0.9272  -16.8
 0.030  0.3029  -68.4  66.398  156.5  0.0062   75.9  0.8637  -22.8
 0.040  0.3371  -84.4  62.108  149.6  0.0081   69.5  0.8109  -29.6
 0.050  0.3920  -96.7  58.864  141.7  0.0101   65.6  0.7713  -37.3
 0.060  0.3971 -104.7  54.789  138.7  0.0111   64.3  0.7192  -40.2
 0.070  0.4096 -112.4  50.884  135.3  0.0121   63.3  0.6693  -43.6
 0.080  0.4290 -119.5  47.191  131.3  0.0131   62.3  0.6221  -47.5
 0.090  0.4543 -125.8  43.765  126.7  0.0141   61.6  0.5782  -52.0
 0.100  0.4846 -131.5  40.672  121.3  0.0151   60.9  0.5384  -57.2
 0.110  0.4870 -135.0  38.380  119.7  0.0159   60.5  0.5090  -58.7
 0.120  0.4912 -138.5  36.124  117.8  0.0167   60.1  0.4800  -60.5
 0.130  0.4971 -141.9  33.911  115.7  0.0174   59.8  0.4515  -62.4
 0.140  0.5048 -145.2  31.749  113.3  0.0182   59.5  0.4235  -64.6
 0.150  0.5141 -148.4  29.650  110.6  0.0190   59.2  0.3963  -67.1
 0.200  0.5308 -157.6  23.076  103.9  0.0214   60.0  0.3140  -73.1
 0.250  0.5407 -164.3  18.789   99.0  0.0251   62.4  0.2610  -76.9
 0.300  0.5428 -168.8  15.808   95.8  0.0284   63.5  0.2227  -80.2
 0.350  0.5447 -172.3  13.908   93.5  0.0321   64.7  0.1996  -82.0
 0.400  0.5486 -175.8  12.038   90.4  0.0358   65.7  0.1768  -84.3
 0.450  0.5508 -178.5  10.848   88.6  0.0398   66.7  0.1632  -86.2
 0.500  0.5542  178.9   9.671   86.4  0.0438   67.5  0.1499  -88.4
 0.600  0.5578  174.7   8.111   82.9  0.0507   68.3  0.1319  -92.1
 0.700  0.5594  170.8   6.966   79.9  0.0579   68.9  0.1195  -95.0
 0.800  0.5635  167.3   6.112   76.7  0.0664   68.8  0.1133  -98.3
 0.900  0.5645  164.0   5.430   74.0  0.0737   67.6  0.1089 -102.0
 1.000  0.5692  160.8   4.913   71.3  0.0812   66.7  0.1047 -105.7
 1.100  0.5734  157.8   4.475   68.8  0.0892   66.2  0.1045 -108.7
 1.200  0.5751  154.7   4.109   66.1  0.0961   65.3  0.1039 -112.2
 1.300  0.5773  151.9   3.801   63.7  0.1036   64.1  0.1061 -115.5
 1.400  0.5823  149.1   3.544   61.2  0.1115   63.4  0.1081 -119.8
 1.500  0.5877  146.4   3.307   58.8  0.1188   62.0  0.1107 -123.2
 1.600  0.5921  143.5   3.111   56.3  0.1263   61.1  0.1150 -125.7
 1.700  0.5947  140.8   2.935   53.9  0.1337   59.9  0.1209 -129.7
 1.800  0.6020  138.1   2.785   51.5  0.1410   58.8  0.1264 -133.2
 1.900  0.6066  135.5   2.640   49.3  0.1476   57.6  0.1323 -135.9
 2.000  0.6096  133.0   2.507   46.8  0.1547   56.3  0.1393 -138.7
 2.100  0.6151  130.4   2.393   44.6  0.1616   55.1  0.1459 -141.6
 2.200  0.6218  127.8   2.282   42.2  0.1686   54.0  0.1528 -144.2
 2.300  0.6253  125.6   2.188   40.2  0.1757   52.6  0.1608 -146.1
 2.400  0.6298  123.4   2.097   38.0  0.1829   51.4  0.1690 -147.9
 2.500  0.6352  121.2   2.016   36.0  0.1891   50.1  0.1769 -150.3
 2.600  0.6414  119.1   1.937   33.8  0.1953   48.8  0.1851 -152.4
 2.700  0.6466  117.0   1.868   31.9  0.2015   47.5  0.1924 -154.2
 2.800  0.6527  115.0   1.801   29.9  0.2077   46.3  0.1998 -155.8
 2.900  0.6572  112.9   1.741   28.0  0.2137   45.1  0.2059 -158.1
 3.000  0.6626  110.8   1.684   25.9  0.2198   43.9  0.2123 -160.2
 3.100  0.6661  109.0   1.634   24.3  0.2254   42.6  0.2168 -162.3
 3.200  0.6703  107.2   1.586   22.5  0.2311   41.4  0.2216 -164.2
 3.300  0.6751  105.4   1.540   20.7  0.2369   40.2  0.2267 -166.1
 3.400  0.6806  103.6   1.495   18.7  0.2428   39.1  0.2320 -167.9
 3.500  0.6867  101.9   1.452   16.6  0.2488   38.1  0.2375 -169.6
 3.600  0.6902  100.3   1.415   15.0  0.2541   36.8  0.2420 -171.9
 3.700  0.6941   98.8   1.380   13.4  0.2595   35.6  0.2468 -174.1
 3.800  0.6986   97.2   1.346   11.7  0.2650   34.4  0.2520 -176.2
 3.900  0.7036   95.7   1.313    9.9  0.2707   33.3  0.2576 -178.2
 4.000  0.7091   94.2   1.281    8.0  0.2764   32.2  0.2634  179.9
 4.100  0.7112   92.7   1.252    6.5  0.2815   30.9  0.2690  177.5
 4.200  0.7138   91.2   1.224    5.0  0.2868   29.7  0.2751  175.2
 4.300  0.7169   89.7   1.197    3.4  0.2922   28.5  0.2816  173.1
 4.400  0.7205   88.3   1.170    1.7  0.2978   27.3  0.2885  171.0
 4.500  0.7245   86.8   1.145    0.0  0.3034   26.2  0.2957  169.0
 4.600  0.7278   85.4   1.121   -1.3  0.3083   25.0  0.3031  167.1
 4.700  0.7315   84.1   1.098   -2.6  0.3132   23.9  0.3109  165.4
 4.800  0.7355   82.7   1.076   -4.0  0.3183   22.7  0.3189  163.7
 4.900  0.7400   81.4   1.054   -5.5  0.3236   21.6  0.3272  162.1
 5.000  0.7449   80.1   1.033   -7.0  0.3289   20.6  0.3357  160.6
 5.100  0.7453   78.8   1.016   -8.2  0.3332   19.4  0.3442  159.4
 5.200  0.7462   77.5   1.000   -9.5  0.3376   18.2  0.3528  158.3
 5.300  0.7474   76.2   0.985  -10.8  0.3421   17.0  0.3616  157.3
 5.400  0.7490   74.9   0.970  -12.2  0.3468   15.9  0.3705  156.3
 5.500  0.7510   73.6   0.955  -13.6  0.3516   14.8  0.3795  155.3
 5.600  0.7510   72.4   0.939  -14.7  0.3557   13.6  0.3847  154.4
 5.700  0.7514   71.2   0.923  -15.8  0.3599   12.5  0.3901  153.5
 5.800  0.7520   70.1   0.908  -17.0  0.3642   11.4  0.3955  152.6
 5.900  0.7530   68.9   0.893  -18.2  0.3687   10.3  0.4010  151.8
 6.000  0.7543   67.7   0.879  -19.4  0.3733    9.3  0.4066  151.0
!
!  f       NFmin   Gammaopt  rn/50
! GHz       dB    MAG  ANG    -
 0.450      1.52  0.43 -170   0.08
 0.900      1.57  0.45 -164   0.09
 1.900      2.20  0.61 -132   0.23
 2.400      2.55  0.64 -119   0.48
!
! (c) 2017  Infineon Technologies AG, Munich