! Infineon Technologies  Discrete & RF Semiconductors
! BFP193
! VCE =  9.0 V,  IC =  40 mA
! Common Emitter S-Parameters:                            Jan 2017
# GHz  S  MA  R  50
!  f         S11            S21            S12            S22
! GHz     MAG   ANG      MAG   ANG      MAG   ANG      MAG   ANG
 0.010  0.3622  -18.7  66.269  171.5  0.0021   82.2  0.9657   -7.1
 0.020  0.3795  -37.1  65.431  164.3  0.0045   86.2  0.9362  -14.6
 0.030  0.3685  -52.1  61.336  158.6  0.0064   76.2  0.8838  -20.1
 0.040  0.3835  -67.0  57.924  152.2  0.0084   70.8  0.8405  -26.2
 0.050  0.4215  -80.0  55.322  145.1  0.0104   67.5  0.8078  -32.9
 0.060  0.4175  -88.3  51.810  142.0  0.0116   65.2  0.7583  -35.8
 0.070  0.4224  -96.7  48.468  138.5  0.0129   63.4  0.7110  -39.1
 0.080  0.4359 -104.6  45.331  134.6  0.0142   61.8  0.6663  -42.8
 0.090  0.4572 -112.0  42.447  130.0  0.0154   60.6  0.6249  -47.1
 0.100  0.4854 -118.6  39.870  124.8  0.0167   59.5  0.5874  -51.9
 0.110  0.4848 -122.7  37.721  123.0  0.0174   58.9  0.5572  -53.4
 0.120  0.4867 -126.8  35.613  121.0  0.0181   58.3  0.5274  -55.1
 0.130  0.4910 -130.8  33.554  118.7  0.0188   57.8  0.4981  -57.0
 0.140  0.4977 -134.8  31.554  116.2  0.0195   57.3  0.4694  -59.1
 0.150  0.5067 -138.6  29.625  113.3  0.0202   56.9  0.4414  -61.5
 0.200  0.5236 -150.1  23.275  106.2  0.0229   57.7  0.3527  -67.2
 0.250  0.5298 -158.1  19.053  100.9  0.0260   58.6  0.2937  -70.4
 0.300  0.5322 -163.7  16.067   97.4  0.0296   60.5  0.2517  -73.0
 0.350  0.5331 -167.8  14.146   94.9  0.0329   62.2  0.2258  -74.4
 0.400  0.5366 -171.8  12.259   91.7  0.0362   63.5  0.2001  -76.2
 0.450  0.5381 -174.9  11.058   89.8  0.0398   64.2  0.1848  -77.4
 0.500  0.5412 -178.0   9.872   87.4  0.0434   64.8  0.1696  -78.8
 0.600  0.5452  177.2   8.285   83.8  0.0507   65.6  0.1489  -81.3
 0.700  0.5471  173.3   7.115   80.7  0.0574   66.7  0.1346  -83.3
 0.800  0.5516  169.3   6.247   77.4  0.0650   66.6  0.1266  -85.8
 0.900  0.5528  165.7   5.551   74.7  0.0719   66.1  0.1209  -88.7
 1.000  0.5561  162.6   5.024   71.9  0.0794   65.5  0.1152  -91.8
 1.100  0.5609  159.2   4.577   69.4  0.0865   64.9  0.1131  -94.4
 1.200  0.5647  156.1   4.200   66.6  0.0940   64.4  0.1116  -97.6
 1.300  0.5668  152.9   3.885   64.2  0.1009   63.3  0.1120 -101.3
 1.400  0.5708  150.1   3.623   61.7  0.1089   62.5  0.1123 -105.7
 1.500  0.5759  147.4   3.382   59.2  0.1158   61.5  0.1140 -109.2
 1.600  0.5798  144.5   3.182   56.7  0.1227   60.6  0.1175 -112.3
 1.700  0.5831  141.8   3.002   54.3  0.1299   59.6  0.1216 -116.6
 1.800  0.5907  139.0   2.847   51.9  0.1370   58.4  0.1255 -120.4
 1.900  0.5950  136.5   2.699   49.7  0.1438   57.4  0.1305 -123.9
 2.000  0.5989  133.8   2.565   47.3  0.1510   56.0  0.1366 -127.1
 2.100  0.6039  131.1   2.447   45.1  0.1577   54.9  0.1426 -130.6
 2.200  0.6102  128.5   2.333   42.7  0.1644   53.9  0.1490 -133.8
 2.300  0.6146  126.3   2.236   40.6  0.1712   52.7  0.1565 -136.2
 2.400  0.6200  124.1   2.143   38.4  0.1780   51.5  0.1643 -138.3
 2.500  0.6248  121.9   2.060   36.4  0.1844   50.2  0.1717 -141.2
 2.600  0.6306  119.7   1.980   34.2  0.1909   48.9  0.1794 -143.8
 2.700  0.6364  117.6   1.909   32.3  0.1969   47.7  0.1863 -145.9
 2.800  0.6430  115.5   1.841   30.2  0.2030   46.6  0.1935 -147.9
 2.900  0.6478  113.4   1.779   28.3  0.2091   45.3  0.1993 -150.4
 3.000  0.6534  111.4   1.719   26.2  0.2152   44.1  0.2055 -152.7
 3.100  0.6571  109.5   1.669   24.6  0.2207   42.9  0.2099 -154.9
 3.200  0.6615  107.7   1.620   22.8  0.2264   41.8  0.2146 -157.0
 3.300  0.6665  105.9   1.572   21.0  0.2321   40.7  0.2196 -159.0
 3.400  0.6722  104.1   1.527   19.0  0.2378   39.7  0.2248 -161.0
 3.500  0.6786  102.3   1.483   16.9  0.2437   38.7  0.2303 -162.8
 3.600  0.6825  100.7   1.445   15.3  0.2490   37.4  0.2345 -165.2
 3.700  0.6869   99.2   1.409   13.7  0.2545   36.2  0.2392 -167.6
 3.800  0.6918   97.7   1.374   11.9  0.2601   35.1  0.2442 -169.9
 3.900  0.6972   96.2   1.340   10.1  0.2657   34.0  0.2497 -172.0
 4.000  0.7031   94.7   1.307    8.2  0.2715   32.9  0.2554 -174.1
 4.100  0.7051   93.2   1.277    6.7  0.2766   31.6  0.2607 -176.7
 4.200  0.7075   91.7   1.248    5.2  0.2819   30.4  0.2665 -179.1
 4.300  0.7104   90.2   1.221    3.6  0.2873   29.2  0.2727  178.6
 4.400  0.7138   88.8   1.194    1.9  0.2929   28.0  0.2794  176.3
 4.500  0.7177   87.3   1.168    0.1  0.2985   26.9  0.2865  174.2
 4.600  0.7213   85.9   1.143   -1.2  0.3033   25.7  0.2940  172.2
 4.700  0.7253   84.6   1.119   -2.6  0.3083   24.6  0.3018  170.3
 4.800  0.7296   83.2   1.096   -4.0  0.3133   23.5  0.3099  168.5
 4.900  0.7344   81.9   1.073   -5.5  0.3185   22.4  0.3183  166.7
 5.000  0.7396   80.6   1.051   -7.0  0.3238   21.4  0.3270  165.1
 5.100  0.7401   79.3   1.034   -8.3  0.3283   20.2  0.3358  163.8
 5.200  0.7411   77.9   1.017   -9.6  0.3330   19.0  0.3448  162.6
 5.300  0.7424   76.6   1.001  -10.9  0.3379   17.8  0.3539  161.4
 5.400  0.7441   75.3   0.985  -12.3  0.3428   16.7  0.3632  160.3
 5.500  0.7462   74.0   0.970  -13.7  0.3479   15.6  0.3726  159.2
 5.600  0.7461   72.8   0.954  -14.8  0.3520   14.5  0.3780  158.2
 5.700  0.7463   71.6   0.938  -15.9  0.3562   13.4  0.3836  157.2
 5.800  0.7469   70.4   0.922  -17.1  0.3605   12.3  0.3892  156.3
 5.900  0.7478   69.2   0.907  -18.3  0.3649   11.2  0.3950  155.4
 6.000  0.7490   68.0   0.892  -19.6  0.3695   10.2  0.4008  154.5
!
!  f       NFmin   Gammaopt  rn/50
! GHz       dB    MAG  ANG    -
 0.450      1.38  0.38 -172   0.08
 0.900      1.43  0.41 -167   0.08
 1.900      2.05  0.59 -135   0.20
 2.400      2.37  0.63 -120   0.42
!
! (c) 2017  Infineon Technologies AG, Munich