! Infineon Technologies  Discrete & RF Semiconductors
! BFP193
! VCE =  7.0 V,  IC =  25 mA
! Common Emitter S-Parameters:                            Jan 2017
# GHz  S  MA  R  50
!  f         S11            S21            S12            S22
! GHz     MAG   ANG      MAG   ANG      MAG   ANG      MAG   ANG
 0.010  0.4553  -14.2  53.390  173.0  0.0022   82.7  0.9825   -6.1
 0.020  0.4675  -28.3  52.908  166.8  0.0050   82.1  0.9627  -12.6
 0.030  0.4494  -40.5  50.359  161.5  0.0074   74.5  0.9197  -17.6
 0.040  0.4527  -53.1  48.281  155.7  0.0099   70.6  0.8843  -23.0
 0.050  0.4769  -64.9  46.735  149.5  0.0124   68.3  0.8574  -28.8
 0.060  0.4656  -73.1  44.169  146.3  0.0138   65.7  0.8117  -31.8
 0.070  0.4640  -81.4  41.752  142.8  0.0153   63.5  0.7685  -35.1
 0.080  0.4723  -89.7  39.513  138.9  0.0168   61.7  0.7281  -38.8
 0.090  0.4901  -97.5  37.484  134.5  0.0183   60.3  0.6910  -42.9
 0.100  0.5162 -104.7  35.700  129.6  0.0198   59.0  0.6579  -47.4
 0.110  0.5117 -109.2  33.918  127.7  0.0206   57.8  0.6266  -49.1
 0.120  0.5104 -113.8  32.179  125.5  0.0214   56.6  0.5959  -50.9
 0.130  0.5123 -118.3  30.491  123.1  0.0222   55.6  0.5659  -53.0
 0.140  0.5175 -122.8  28.863  120.4  0.0231   54.6  0.5367  -55.3
 0.150  0.5257 -127.2  27.306  117.4  0.0239   53.7  0.5084  -57.8
 0.200  0.5394 -140.7  21.785  109.5  0.0262   53.2  0.4115  -64.1
 0.250  0.5439 -150.5  17.973  103.7  0.0299   53.0  0.3443  -68.0
 0.300  0.5488 -157.1  15.221   99.7  0.0326   54.4  0.2958  -71.0
 0.350  0.5484 -162.0  13.436   97.0  0.0356   55.8  0.2654  -72.7
 0.400  0.5519 -166.8  11.691   93.4  0.0387   57.0  0.2352  -74.8
 0.450  0.5524 -170.4  10.550   91.3  0.0419   58.3  0.2165  -76.1
 0.500  0.5550 -173.9   9.426   88.8  0.0452   59.4  0.1980  -77.7
 0.600  0.5605 -179.5   7.922   84.8  0.0519   61.0  0.1736  -80.3
 0.700  0.5612  176.0   6.808   81.5  0.0579   61.8  0.1567  -82.2
 0.800  0.5659  171.8   5.979   78.1  0.0656   62.4  0.1466  -84.7
 0.900  0.5659  167.9   5.316   75.2  0.0722   62.6  0.1387  -87.6
 1.000  0.5704  164.4   4.811   72.3  0.0792   62.6  0.1314  -90.5
 1.100  0.5724  161.0   4.383   69.6  0.0864   62.1  0.1291  -93.0
 1.200  0.5780  157.7   4.025   66.8  0.0934   61.4  0.1266  -96.0
 1.300  0.5797  154.6   3.723   64.3  0.1002   60.8  0.1263  -99.6
 1.400  0.5829  151.6   3.473   61.7  0.1080   60.5  0.1261 -103.6
 1.500  0.5882  148.7   3.243   59.2  0.1148   59.6  0.1271 -107.2
 1.600  0.5929  145.8   3.052   56.6  0.1219   58.8  0.1299 -110.3
 1.700  0.5969  142.8   2.878   54.2  0.1284   58.0  0.1334 -114.2
 1.800  0.6040  140.0   2.732   51.7  0.1356   56.8  0.1374 -118.0
 1.900  0.6082  137.3   2.589   49.5  0.1423   55.9  0.1413 -121.6
 2.000  0.6117  134.7   2.460   46.9  0.1492   54.8  0.1476 -124.6
 2.100  0.6168  132.0   2.348   44.7  0.1558   53.8  0.1531 -128.0
 2.200  0.6233  129.3   2.239   42.3  0.1624   52.8  0.1591 -131.2
 2.300  0.6270  127.1   2.147   40.2  0.1693   51.7  0.1666 -133.8
 2.400  0.6316  124.9   2.058   37.9  0.1763   50.7  0.1745 -136.1
 2.500  0.6370  122.6   1.978   35.8  0.1824   49.4  0.1818 -139.0
 2.600  0.6434  120.4   1.900   33.6  0.1886   48.2  0.1895 -141.6
 2.700  0.6487  118.3   1.832   31.7  0.1948   47.1  0.1963 -143.8
 2.800  0.6549  116.2   1.767   29.6  0.2011   46.1  0.2034 -145.8
 2.900  0.6601  114.0   1.707   27.6  0.2070   44.9  0.2093 -148.3
 3.000  0.6663  111.9   1.650   25.5  0.2130   43.8  0.2155 -150.7
 3.100  0.6699  110.0   1.602   23.9  0.2187   42.6  0.2199 -152.9
 3.200  0.6741  108.2   1.554   22.1  0.2244   41.5  0.2246 -155.1
 3.300  0.6791  106.4   1.509   20.3  0.2303   40.5  0.2297 -157.2
 3.400  0.6847  104.6   1.465   18.3  0.2362   39.5  0.2350 -159.1
 3.500  0.6910  102.8   1.423   16.2  0.2422   38.5  0.2406 -161.0
 3.600  0.6946  101.2   1.387   14.6  0.2476   37.3  0.2449 -163.5
 3.700  0.6988   99.5   1.352   13.0  0.2531   36.1  0.2495 -165.8
 3.800  0.7036   97.9   1.318   11.2  0.2587   34.9  0.2547 -168.1
 3.900  0.7089   96.4   1.285    9.4  0.2644   33.8  0.2601 -170.3
 4.000  0.7147   94.8   1.254    7.5  0.2702   32.8  0.2660 -172.4
 4.100  0.7168   93.3   1.225    6.0  0.2756   31.5  0.2715 -175.0
 4.200  0.7193   91.8   1.197    4.5  0.2810   30.3  0.2776 -177.4
 4.300  0.7224   90.3   1.170    2.9  0.2867   29.2  0.2842 -179.7
 4.400  0.7259   88.9   1.144    1.2  0.2924   28.1  0.2912  178.0
 4.500  0.7299   87.4   1.119   -0.6  0.2982   27.0  0.2986  175.9
 4.600  0.7331   86.0   1.096   -1.9  0.3031   25.8  0.3062  173.8
 4.700  0.7366   84.6   1.073   -3.2  0.3081   24.7  0.3142  171.8
 4.800  0.7407   83.3   1.050   -4.6  0.3133   23.6  0.3226  169.9
 4.900  0.7451   81.9   1.029   -6.1  0.3185   22.5  0.3313  168.1
 5.000  0.7499   80.6   1.008   -7.6  0.3239   21.5  0.3403  166.4
 5.100  0.7504   79.3   0.991   -8.8  0.3285   20.3  0.3493  165.0
 5.200  0.7514   77.9   0.975  -10.1  0.3332   19.1  0.3585  163.7
 5.300  0.7527   76.6   0.959  -11.4  0.3381   17.9  0.3678  162.5
 5.400  0.7545   75.2   0.944  -12.8  0.3432   16.8  0.3773  161.3
 5.500  0.7567   73.9   0.929  -14.2  0.3483   15.7  0.3870  160.2
 5.600  0.7565   72.7   0.913  -15.3  0.3525   14.6  0.3927  159.1
 5.700  0.7567   71.5   0.898  -16.4  0.3569   13.5  0.3986  158.1
 5.800  0.7571   70.3   0.883  -17.5  0.3614   12.4  0.4046  157.1
 5.900  0.7580   69.1   0.868  -18.7  0.3660   11.3  0.4108  156.1
 6.000  0.7591   67.9   0.854  -19.9  0.3707   10.3  0.4170  155.2
!
!  f       NFmin   Gammaopt  rn/50
! GHz       dB    MAG  ANG    -
 0.450      1.12  0.30 -176   0.36
 0.900      1.19  0.37 -175   0.07
 1.900      1.81  0.57 -138   0.16
 2.400      2.15  0.62 -122   0.35
!
! (c) 2017  Infineon Technologies AG, Munich