! Infineon Technologies  Discrete & RF Semiconductors
! BFP193
! VCE =  7.0 V,  IC =  72 mA
! Common Emitter S-Parameters:                            Jan 2017
# GHz  S  MA  R  50
!  f         S11            S21            S12            S22
! GHz     MAG   ANG      MAG   ANG      MAG   ANG      MAG   ANG
 0.010  0.1912  -40.6  79.873  169.6  0.0018   82.1  0.9329   -8.8
 0.020  0.2483  -69.8  77.673  160.3  0.0039   74.6  0.8975  -18.7
 0.030  0.2766  -89.2  70.983  154.0  0.0056   69.5  0.8245  -24.8
 0.040  0.3295 -103.8  65.317  146.5  0.0073   66.8  0.7628  -32.1
 0.050  0.3974 -113.8  60.961  137.8  0.0090   65.1  0.7151  -40.4
 0.060  0.4088 -120.7  56.381  135.0  0.0099   63.8  0.6629  -43.1
 0.070  0.4259 -127.2  51.960  131.7  0.0109   62.8  0.6123  -46.1
 0.080  0.4479 -133.1  47.742  127.8  0.0118   61.9  0.5638  -49.8
 0.090  0.4742 -138.4  43.786  123.2  0.0128   61.1  0.5181  -54.1
 0.100  0.5041 -143.1  40.169  117.7  0.0137   60.5  0.4758  -59.2
 0.110  0.5081 -145.9  37.811  116.2  0.0144   60.9  0.4492  -60.5
 0.120  0.5133 -148.7  35.483  114.5  0.0152   61.2  0.4229  -62.0
 0.130  0.5196 -151.4  33.191  112.5  0.0159   61.5  0.3968  -63.6
 0.140  0.5271 -154.0  30.943  110.3  0.0167   61.8  0.3712  -65.5
 0.150  0.5357 -156.6  28.750  107.7  0.0174   62.1  0.3460  -67.7
 0.200  0.5518 -163.7  22.192  101.6  0.0200   64.3  0.2729  -72.5
 0.250  0.5602 -169.4  17.996   97.1  0.0240   64.3  0.2269  -75.2
 0.300  0.5614 -173.2  15.096   94.1  0.0272   66.3  0.1938  -77.7
 0.350  0.5648 -176.1  13.273   91.9  0.0308   67.4  0.1748  -79.0
 0.400  0.5696 -179.0  11.475   89.1  0.0345   68.3  0.1560  -80.6
 0.450  0.5704  178.6  10.336   87.4  0.0384   69.4  0.1446  -82.1
 0.500  0.5723  176.2   9.209   85.2  0.0424   70.3  0.1334  -83.8
 0.600  0.5762  172.4   7.720   81.8  0.0501   70.2  0.1185  -86.7
 0.700  0.5786  168.9   6.623   78.9  0.0575   70.2  0.1093  -89.2
 0.800  0.5828  165.7   5.811   75.8  0.0655   70.5  0.1050  -92.0
 0.900  0.5820  162.4   5.163   73.1  0.0727   69.0  0.1019  -95.7
 1.000  0.5867  159.4   4.670   70.5  0.0802   68.5  0.0985  -99.7
 1.100  0.5919  156.4   4.256   68.0  0.0879   67.7  0.0987 -102.5
 1.200  0.5927  153.5   3.904   65.3  0.0956   66.3  0.0992 -106.1
 1.300  0.5967  150.7   3.613   62.8  0.1030   65.7  0.1019 -109.7
 1.400  0.6000  148.1   3.368   60.3  0.1108   64.5  0.1038 -114.2
 1.500  0.6050  145.4   3.144   58.0  0.1185   63.5  0.1066 -118.0
 1.600  0.6097  142.6   2.958   55.4  0.1256   62.3  0.1117 -120.8
 1.700  0.6124  139.8   2.791   53.1  0.1329   61.1  0.1174 -124.8
 1.800  0.6198  137.2   2.648   50.6  0.1407   59.9  0.1229 -128.7
 1.900  0.6231  134.7   2.509   48.5  0.1475   58.6  0.1288 -131.7
 2.000  0.6255  132.2   2.386   46.0  0.1542   57.3  0.1361 -134.3
 2.100  0.6310  129.6   2.276   43.8  0.1613   56.0  0.1429 -137.6
 2.200  0.6377  127.1   2.169   41.4  0.1685   54.8  0.1502 -140.5
 2.300  0.6415  124.9   2.081   39.3  0.1754   53.4  0.1584 -142.6
 2.400  0.6463  122.8   1.996   37.1  0.1824   52.2  0.1668 -144.4
 2.500  0.6509  120.5   1.918   35.1  0.1889   50.9  0.1750 -147.1
 2.600  0.6565  118.3   1.843   32.9  0.1954   49.6  0.1835 -149.5
 2.700  0.6614  116.3   1.777   31.0  0.2017   48.3  0.1909 -151.3
 2.800  0.6671  114.3   1.714   29.0  0.2080   47.1  0.1984 -153.0
 2.900  0.6715  112.3   1.657   27.1  0.2137   45.8  0.2045 -155.4
 3.000  0.6768  110.3   1.602   25.0  0.2196   44.6  0.2110 -157.6
 3.100  0.6801  108.5   1.555   23.4  0.2253   43.3  0.2158 -159.7
 3.200  0.6840  106.6   1.510   21.6  0.2311   42.1  0.2208 -161.7
 3.300  0.6887  104.8   1.466   19.8  0.2370   40.9  0.2261 -163.6
 3.400  0.6940  103.0   1.424   17.9  0.2429   39.8  0.2316 -165.4
 3.500  0.7000  101.3   1.383   15.8  0.2490   38.8  0.2374 -167.1
 3.600  0.7033   99.7   1.348   14.3  0.2544   37.5  0.2420 -169.4
 3.700  0.7071   98.1   1.315   12.7  0.2599   36.2  0.2469 -171.7
 3.800  0.7115   96.6   1.282   11.0  0.2655   35.0  0.2523 -173.8
 3.900  0.7164   95.0   1.251    9.2  0.2713   33.9  0.2579 -175.8
 4.000  0.7218   93.5   1.221    7.3  0.2771   32.8  0.2639 -177.8
 4.100  0.7236   92.0   1.193    5.8  0.2823   31.5  0.2696  179.7
 4.200  0.7259   90.5   1.167    4.3  0.2876   30.3  0.2758  177.4
 4.300  0.7287   89.1   1.141    2.7  0.2931   29.1  0.2825  175.2
 4.400  0.7320   87.6   1.116    1.0  0.2987   27.9  0.2896  173.0
 4.500  0.7357   86.2   1.092   -0.7  0.3044   26.8  0.2970  171.0
 4.600  0.7387   84.8   1.069   -1.9  0.3092   25.6  0.3046  169.1
 4.700  0.7421   83.5   1.047   -3.3  0.3141   24.4  0.3124  167.2
 4.800  0.7459   82.1   1.026   -4.6  0.3191   23.3  0.3206  165.5
 4.900  0.7502   80.8   1.005   -6.0  0.3243   22.2  0.3291  163.9
 5.000  0.7548   79.5   0.985   -7.5  0.3296   21.1  0.3378  162.3
 5.100  0.7549   78.2   0.969   -8.7  0.3341   19.9  0.3465  161.1
 5.200  0.7554   76.9   0.954  -10.0  0.3388   18.6  0.3553  159.9
 5.300  0.7563   75.6   0.940  -11.3  0.3436   17.5  0.3642  158.8
 5.400  0.7576   74.3   0.926  -12.6  0.3485   16.3  0.3733  157.7
 5.500  0.7593   73.0   0.912  -14.0  0.3536   15.2  0.3825  156.7
 5.600  0.7589   71.8   0.897  -15.1  0.3576   14.0  0.3878  155.7
 5.700  0.7589   70.6   0.883  -16.2  0.3618   12.9  0.3932  154.8
 5.800  0.7591   69.5   0.868  -17.3  0.3661   11.8  0.3988  153.9
 5.900  0.7597   68.3   0.854  -18.5  0.3705   10.7  0.4044  153.1
 6.000  0.7606   67.1   0.841  -19.7  0.3751    9.7  0.4101  152.2
!
!  f       NFmin   Gammaopt  rn/50
! GHz       dB    MAG  ANG    -
!
! noise parameter not available yet for this operation point!
!
! (c) 2017  Infineon Technologies AG, Munich