! Infineon Technologies  Discrete & RF Semiconductors
! BFP193
! VCE =  11. V,  IC =  50 mA
! Common Emitter S-Parameters:                            Jan 2017
# GHz  S  MA  R  50
!  f         S11            S21            S12            S22
! GHz     MAG   ANG      MAG   ANG      MAG   ANG      MAG   ANG
 0.010  0.3656  -19.1  61.409  171.2  0.0022   77.0  0.9240   -6.2
 0.020  0.3829  -38.1  60.361  164.0  0.0046   79.1  0.8990  -13.4
 0.030  0.3724  -53.4  56.449  158.3  0.0065   70.1  0.8494  -18.4
 0.040  0.3887  -68.4  53.174  151.8  0.0085   65.2  0.8069  -23.9
 0.050  0.4287  -81.4  50.662  144.6  0.0105   62.2  0.7727  -30.0
 0.060  0.4252  -89.7  47.387  141.6  0.0117   60.8  0.7282  -32.4
 0.070  0.4308  -98.0  44.260  138.2  0.0129   59.6  0.6851  -35.1
 0.080  0.4451 -106.0  41.315  134.3  0.0141   58.6  0.6437  -38.2
 0.090  0.4673 -113.3  38.592  129.8  0.0154   57.8  0.6045  -41.7
 0.100  0.4963 -119.8  36.144  124.6  0.0166   57.1  0.5679  -45.7
 0.110  0.4966 -123.8  34.203  122.9  0.0172   56.6  0.5409  -46.8
 0.120  0.4993 -127.8  32.297  120.9  0.0178   56.2  0.5141  -48.0
 0.130  0.5044 -131.7  30.434  118.7  0.0185   55.8  0.4876  -49.4
 0.140  0.5118 -135.5  28.622  116.2  0.0191   55.4  0.4614  -50.9
 0.150  0.5214 -139.2  26.870  113.4  0.0197   55.0  0.4356  -52.6
 0.200  0.5382 -150.5  21.127  106.4  0.0219   57.3  0.3561  -55.8
 0.250  0.5473 -158.5  17.341  101.1  0.0254   57.1  0.3039  -57.1
 0.300  0.5498 -164.2  14.610   97.6  0.0286   59.5  0.2669  -57.8
 0.350  0.5518 -168.2  12.880   95.1  0.0316   60.7  0.2450  -58.0
 0.400  0.5565 -172.1  11.181   91.9  0.0346   61.7  0.2231  -58.3
 0.450  0.5572 -175.3  10.089   90.0  0.0380   63.1  0.2099  -58.7
 0.500  0.5595 -178.4   9.011   87.7  0.0414   64.3  0.1968  -59.2
 0.600  0.5649  176.7   7.572   84.0  0.0486   65.4  0.1798  -60.1
 0.700  0.5657  172.6   6.521   80.9  0.0547   65.8  0.1683  -61.1
 0.800  0.5678  168.9   5.730   77.7  0.0625   66.7  0.1615  -63.3
 0.900  0.5684  165.3   5.100   74.8  0.0691   66.3  0.1556  -65.6
 1.000  0.5733  162.1   4.623   72.0  0.0761   66.0  0.1501  -68.3
 1.100  0.5759  158.9   4.218   69.4  0.0831   65.6  0.1474  -70.8
 1.200  0.5784  155.5   3.884   66.6  0.0903   64.9  0.1449  -73.9
 1.300  0.5823  152.7   3.588   64.1  0.0972   64.0  0.1442  -77.4
 1.400  0.5841  149.8   3.359   61.5  0.1046   63.4  0.1419  -81.4
 1.500  0.5911  147.1   3.135   59.0  0.1116   62.3  0.1421  -85.1
 1.600  0.5939  144.2   2.951   56.4  0.1187   61.5  0.1445  -88.7
 1.700  0.5980  141.4   2.785   53.9  0.1259   60.7  0.1461  -93.2
 1.800  0.6033  138.7   2.645   51.4  0.1326   59.2  0.1482  -97.6
 1.900  0.6084  136.0   2.510   49.2  0.1394   58.4  0.1503 -101.5
 2.000  0.6116  133.4   2.388   46.6  0.1464   57.1  0.1558 -105.4
 2.100  0.6163  130.8   2.279   44.4  0.1528   56.1  0.1597 -109.6
 2.200  0.6222  128.3   2.174   41.9  0.1592   55.1  0.1644 -113.5
 2.300  0.6269  126.0   2.086   39.8  0.1662   53.8  0.1708 -116.7
 2.400  0.6325  123.8   2.002   37.5  0.1733   52.7  0.1776 -119.7
 2.500  0.6373  121.6   1.924   35.4  0.1795   51.4  0.1837 -123.2
 2.600  0.6429  119.5   1.849   33.1  0.1857   50.2  0.1904 -126.5
 2.700  0.6487  117.4   1.784   31.1  0.1917   49.0  0.1966 -129.2
 2.800  0.6553  115.3   1.722   29.0  0.1977   47.9  0.2033 -131.7
 2.900  0.6596  113.2   1.665   27.0  0.2035   46.7  0.2082 -134.7
 3.000  0.6648  111.1   1.610   24.9  0.2094   45.6  0.2137 -137.5
 3.100  0.6685  109.3   1.563   23.2  0.2151   44.4  0.2177 -140.0
 3.200  0.6728  107.5   1.517   21.5  0.2210   43.3  0.2222 -142.5
 3.300  0.6778  105.7   1.473   19.6  0.2269   42.2  0.2270 -144.8
 3.400  0.6835  103.9   1.430   17.6  0.2328   41.2  0.2323 -147.1
 3.500  0.6898  102.2   1.389   15.5  0.2389   40.2  0.2378 -149.2
 3.600  0.6934  100.6   1.353   13.9  0.2444   39.0  0.2415 -151.9
 3.700  0.6975   99.0   1.319   12.2  0.2501   37.8  0.2458 -154.5
 3.800  0.7022   97.5   1.286   10.4  0.2558   36.6  0.2505 -157.0
 3.900  0.7073   95.9   1.254    8.6  0.2617   35.5  0.2557 -159.4
 4.000  0.7130   94.4   1.223    6.6  0.2676   34.5  0.2613 -161.7
 4.100  0.7154   92.9   1.195    5.1  0.2729   33.2  0.2661 -164.5
 4.200  0.7183   91.4   1.168    3.5  0.2784   32.0  0.2716 -167.2
 4.300  0.7216   89.9   1.141    1.8  0.2839   30.8  0.2777 -169.8
 4.400  0.7255   88.5   1.116    0.1  0.2896   29.7  0.2843 -172.3
 4.500  0.7298   87.0   1.092   -1.7  0.2954   28.6  0.2914 -174.7
 4.600  0.7329   85.6   1.069   -3.0  0.3004   27.4  0.2988 -177.1
 4.700  0.7364   84.2   1.047   -4.4  0.3056   26.2  0.3068 -179.3
 4.800  0.7404   82.9   1.025   -5.8  0.3108   25.1  0.3151  178.5
 4.900  0.7447   81.5   1.003   -7.3  0.3162   24.0  0.3239  176.5
 5.000  0.7495   80.2   0.983   -8.8  0.3217   23.0  0.3331  174.6
 5.100  0.7502   78.9   0.966  -10.0  0.3264   21.8  0.3423  173.0
 5.200  0.7512   77.5   0.949  -11.3  0.3312   20.6  0.3518  171.4
 5.300  0.7527   76.2   0.933  -12.6  0.3362   19.4  0.3615  170.0
 5.400  0.7546   74.8   0.917  -14.0  0.3413   18.3  0.3714  168.6
 5.500  0.7569   73.5   0.902  -15.4  0.3465   17.2  0.3815  167.3
 5.600  0.7570   72.3   0.886  -16.5  0.3508   16.0  0.3878  166.1
 5.700  0.7573   71.2   0.871  -17.6  0.3553   14.9  0.3943  164.9
 5.800  0.7580   70.0   0.856  -18.7  0.3598   13.8  0.4009  163.8
 5.900  0.7590   68.9   0.841  -19.9  0.3646   12.7  0.4077  162.7
 6.000  0.7603   67.7   0.827  -21.1  0.3694   11.7  0.4146  161.6
!
!  f       NFmin   Gammaopt  rn/50
! GHz       dB    MAG  ANG    -
 0.450      1.52  0.43 -170   0.08
 0.900      1.57  0.45 -164   0.09
 1.900      2.20  0.61 -132   0.23
 2.400      2.55  0.64 -119   0.48
!
! (c) 2017  Infineon Technologies AG, Munich