! Infineon Technologies  Discrete & RF Semiconductors
! BFP193
! VCE =  11. V,  IC =  25 mA
! Common Emitter S-Parameters:                            Jan 2017
# GHz  S  MA  R  50
!  f         S11            S21            S12            S22
! GHz     MAG   ANG      MAG   ANG      MAG   ANG      MAG   ANG
 0.010  0.5039  -12.3  52.015  173.1  0.0023   77.2  0.9718   -5.5
 0.020  0.5134  -24.9  51.520  167.3  0.0048   78.9  0.9520  -11.4
 0.030  0.4925  -35.8  49.254  162.3  0.0072   72.6  0.9146  -16.0
 0.040  0.4905  -47.2  47.404  156.8  0.0096   69.5  0.8837  -21.0
 0.050  0.5076  -58.2  46.021  150.9  0.0121   67.6  0.8599  -26.3
 0.060  0.4922  -65.9  43.649  147.8  0.0135   65.1  0.8177  -29.1
 0.070  0.4863  -74.0  41.424  144.3  0.0150   63.1  0.7777  -32.3
 0.080  0.4900  -82.1  39.370  140.4  0.0164   61.4  0.7402  -35.7
 0.090  0.5034  -89.9  37.515  136.1  0.0179   60.0  0.7057  -39.5
 0.100  0.5255  -97.2  35.891  131.4  0.0194   58.8  0.6747  -43.7
 0.110  0.5181 -101.9  34.152  129.4  0.0204   57.5  0.6441  -45.3
 0.120  0.5142 -106.6  32.459  127.2  0.0213   56.3  0.6140  -47.0
 0.130  0.5139 -111.4  30.819  124.7  0.0223   55.2  0.5846  -48.9
 0.140  0.5172 -116.2  29.242  122.0  0.0233   54.2  0.5558  -51.0
 0.150  0.5241 -120.9  27.738  119.0  0.0243   53.3  0.5279  -53.3
 0.200  0.5327 -135.5  22.280  111.0  0.0268   53.4  0.4310  -59.2
 0.250  0.5339 -146.0  18.438  104.9  0.0298   52.2  0.3630  -62.3
 0.300  0.5347 -153.2  15.645  100.8  0.0323   53.9  0.3136  -64.6
 0.350  0.5337 -158.5  13.822   98.0  0.0353   55.3  0.2825  -65.7
 0.400  0.5373 -163.8  12.043   94.3  0.0384   56.4  0.2515  -67.1
 0.450  0.5378 -167.7  10.873   92.2  0.0412   57.6  0.2330  -67.9
 0.500  0.5408 -171.6   9.722   89.5  0.0441   58.6  0.2145  -68.9
 0.600  0.5452 -177.6   8.179   85.5  0.0506   59.6  0.1889  -70.5
 0.700  0.5463  177.9   7.030   82.1  0.0570   61.5  0.1716  -71.4
 0.800  0.5497  173.4   6.180   78.7  0.0642   62.4  0.1608  -73.0
 0.900  0.5495  169.3   5.492   75.7  0.0702   61.8  0.1525  -75.1
 1.000  0.5557  165.8   4.970   72.9  0.0769   62.0  0.1449  -77.6
 1.100  0.5589  162.0   4.531   70.2  0.0839   61.7  0.1411  -79.5
 1.200  0.5613  158.8   4.160   67.3  0.0905   61.2  0.1380  -82.2
 1.300  0.5648  155.5   3.849   64.8  0.0975   60.9  0.1362  -85.4
 1.400  0.5672  152.5   3.589   62.2  0.1045   60.2  0.1348  -89.0
 1.500  0.5749  149.6   3.352   59.7  0.1109   59.7  0.1348  -92.5
 1.600  0.5779  146.4   3.152   57.1  0.1179   58.9  0.1366  -95.6
 1.700  0.5814  143.6   2.974   54.7  0.1250   58.2  0.1383 -100.0
 1.800  0.5888  140.6   2.823   52.2  0.1316   57.0  0.1405 -104.0
 1.900  0.5930  138.0   2.675   50.0  0.1378   56.3  0.1436 -107.6
 2.000  0.5961  135.3   2.541   47.5  0.1448   55.1  0.1487 -111.3
 2.100  0.6017  132.6   2.424   45.3  0.1511   54.1  0.1527 -115.1
 2.200  0.6086  129.9   2.311   42.8  0.1575   53.2  0.1574 -118.7
 2.300  0.6132  127.6   2.217   40.7  0.1643   52.2  0.1641 -121.7
 2.400  0.6187  125.3   2.126   38.4  0.1712   51.2  0.1712 -124.5
 2.500  0.6239  123.0   2.043   36.4  0.1773   49.9  0.1777 -127.8
 2.600  0.6300  120.8   1.962   34.2  0.1834   48.7  0.1847 -130.9
 2.700  0.6359  118.7   1.892   32.2  0.1895   47.7  0.1910 -133.4
 2.800  0.6427  116.6   1.825   30.1  0.1956   46.7  0.1977 -135.7
 2.900  0.6480  114.5   1.763   28.1  0.2014   45.6  0.2027 -138.5
 3.000  0.6542  112.4   1.704   26.0  0.2072   44.5  0.2082 -141.2
 3.100  0.6579  110.5   1.653   24.3  0.2128   43.4  0.2123 -143.7
 3.200  0.6623  108.6   1.604   22.6  0.2185   42.3  0.2168 -146.0
 3.300  0.6674  106.8   1.557   20.7  0.2242   41.3  0.2216 -148.3
 3.400  0.6732  105.0   1.511   18.7  0.2300   40.3  0.2267 -150.4
 3.500  0.6796  103.2   1.467   16.6  0.2359   39.4  0.2322 -152.5
 3.600  0.6836  101.6   1.430   15.0  0.2414   38.2  0.2360 -155.1
 3.700  0.6881  100.0   1.393   13.4  0.2471   37.0  0.2402 -157.7
 3.800  0.6931   98.4   1.358   11.6  0.2528   35.9  0.2450 -160.2
 3.900  0.6986   96.8   1.324    9.8  0.2587   34.8  0.2501 -162.5
 4.000  0.7047   95.3   1.292    7.9  0.2646   33.8  0.2557 -164.8
 4.100  0.7069   93.8   1.262    6.4  0.2699   32.6  0.2607 -167.5
 4.200  0.7096   92.2   1.233    4.8  0.2753   31.4  0.2662 -170.2
 4.300  0.7127   90.7   1.205    3.2  0.2808   30.2  0.2723 -172.7
 4.400  0.7164   89.2   1.178    1.5  0.2864   29.2  0.2789 -175.1
 4.500  0.7206   87.7   1.152   -0.3  0.2921   28.1  0.2859 -177.4
 4.600  0.7241   86.3   1.128   -1.6  0.2971   26.9  0.2934 -179.7
 4.700  0.7281   85.0   1.104   -3.0  0.3022   25.8  0.3013  178.1
 4.800  0.7324   83.6   1.081   -4.4  0.3074   24.7  0.3096  176.0
 4.900  0.7372   82.3   1.059   -5.9  0.3128   23.6  0.3183  174.1
 5.000  0.7423   81.0   1.037   -7.4  0.3182   22.6  0.3274  172.2
 5.100  0.7429   79.7   1.019   -8.7  0.3229   21.4  0.3365  170.6
 5.200  0.7439   78.3   1.002  -10.0  0.3278   20.2  0.3459  169.2
 5.300  0.7453   77.0   0.986  -11.3  0.3328   19.1  0.3555  167.8
 5.400  0.7471   75.6   0.969  -12.7  0.3379   18.0  0.3652  166.5
 5.500  0.7493   74.3   0.954  -14.2  0.3432   16.9  0.3752  165.2
 5.600  0.7494   73.1   0.938  -15.3  0.3475   15.7  0.3812  164.0
 5.700  0.7498   71.9   0.922  -16.4  0.3520   14.6  0.3873  162.9
 5.800  0.7506   70.7   0.906  -17.6  0.3566   13.5  0.3936  161.9
 5.900  0.7517   69.5   0.891  -18.8  0.3613   12.4  0.4000  160.8
 6.000  0.7531   68.3   0.876  -20.0  0.3662   11.4  0.4065  159.8
!
!  f       NFmin   Gammaopt  rn/50
! GHz       dB    MAG  ANG    -
 0.450      1.12  0.30 -176   0.36
 0.900      1.19  0.37 -175   0.07
 1.900      1.81  0.57 -138   0.16
 2.400      2.15  0.62 -122   0.35
!
! (c) 2017  Infineon Technologies AG, Munich