! Infineon Technologies  Discrete & RF Semiconductors
! BFP193
! VCE =  4.0 V,  IC =  50 mA
! Common Emitter S-Parameters:                            Jan 2017
# GHz  S  MA  R  50
!  f         S11            S21            S12            S22
! GHz     MAG   ANG      MAG   ANG      MAG   ANG      MAG   ANG
 0.010  0.1941  -38.5  74.149  170.3  0.0022   73.8  0.9519   -9.3
 0.020  0.2464  -66.7  72.084  161.4  0.0043   76.4  0.9155  -19.1
 0.030  0.2736  -86.2  66.378  155.1  0.0063   70.8  0.8450  -25.6
 0.040  0.3254 -100.8  61.607  147.8  0.0083   67.9  0.7873  -33.3
 0.050  0.3921 -110.9  58.001  139.4  0.0104   66.1  0.7456  -41.9
 0.060  0.4046 -118.1  53.786  136.5  0.0113   64.3  0.6917  -45.1
 0.070  0.4230 -124.7  49.729  133.2  0.0123   62.8  0.6402  -48.8
 0.080  0.4465 -130.7  45.871  129.3  0.0133   61.5  0.5918  -53.1
 0.090  0.4745 -136.1  42.267  124.6  0.0142   60.4  0.5474  -58.1
 0.100  0.5061 -140.8  38.987  119.2  0.0152   59.4  0.5079  -64.0
 0.110  0.5103 -143.7  36.734  117.6  0.0160   59.1  0.4794  -65.8
 0.120  0.5158 -146.6  34.511  115.9  0.0167   58.9  0.4514  -67.8
 0.130  0.5226 -149.4  32.326  113.8  0.0175   58.7  0.4240  -70.1
 0.140  0.5306 -152.1  30.187  111.5  0.0182   58.5  0.3974  -72.7
 0.150  0.5397 -154.7  28.104  108.9  0.0190   58.3  0.3718  -75.7
 0.200  0.5577 -162.6  21.776  102.5  0.0219   60.5  0.2943  -83.7
 0.250  0.5698 -168.5  17.685   97.9  0.0257   63.0  0.2452  -89.2
 0.300  0.5702 -172.3  14.849   94.7  0.0293   64.5  0.2105  -94.2
 0.350  0.5721 -175.3  13.060   92.5  0.0333   66.1  0.1896  -97.6
 0.400  0.5756 -178.3  11.297   89.5  0.0374   67.3  0.1696 -101.9
 0.450  0.5782  179.2  10.178   87.8  0.0411   67.6  0.1581 -104.9
 0.500  0.5820  176.7   9.071   85.6  0.0449   67.9  0.1472 -108.4
 0.600  0.5851  172.7   7.604   82.1  0.0528   68.3  0.1332 -114.4
 0.700  0.5886  169.3   6.526   79.1  0.0604   69.0  0.1232 -119.3
 0.800  0.5914  166.0   5.726   76.0  0.0691   69.0  0.1191 -123.3
 0.900  0.5923  162.8   5.088   73.2  0.0770   67.7  0.1170 -127.5
 1.000  0.5966  159.8   4.603   70.6  0.0847   67.0  0.1157 -131.7
 1.100  0.5991  156.7   4.193   68.1  0.0926   66.2  0.1166 -134.5
 1.200  0.6034  153.9   3.850   65.4  0.1005   65.2  0.1179 -137.5
 1.300  0.6062  150.9   3.561   62.9  0.1084   64.0  0.1213 -140.2
 1.400  0.6099  148.3   3.321   60.4  0.1167   63.1  0.1252 -143.3
 1.500  0.6136  145.5   3.100   58.0  0.1237   61.8  0.1297 -146.0
 1.600  0.6178  142.6   2.917   55.5  0.1316   60.7  0.1349 -147.8
 1.700  0.6224  139.9   2.753   53.1  0.1393   59.5  0.1415 -150.1
 1.800  0.6276  137.4   2.610   50.6  0.1470   58.2  0.1482 -152.5
 1.900  0.6320  134.9   2.477   48.5  0.1541   56.9  0.1542 -154.6
 2.000  0.6349  132.3   2.352   46.0  0.1614   55.6  0.1622 -156.1
 2.100  0.6404  129.7   2.245   43.8  0.1684   54.4  0.1695 -158.1
 2.200  0.6473  127.1   2.141   41.4  0.1754   53.2  0.1770 -159.9
 2.300  0.6501  125.0   2.053   39.3  0.1827   51.8  0.1850 -161.1
 2.400  0.6538  122.9   1.968   37.1  0.1901   50.6  0.1931 -162.2
 2.500  0.6588  120.6   1.892   35.1  0.1964   49.2  0.2014 -164.0
 2.600  0.6648  118.4   1.819   33.0  0.2029   47.8  0.2099 -165.6
 2.700  0.6697  116.4   1.754   31.1  0.2091   46.5  0.2171 -166.9
 2.800  0.6755  114.4   1.692   29.0  0.2154   45.3  0.2244 -168.2
 2.900  0.6795  112.3   1.636   27.1  0.2215   44.0  0.2308 -170.1
 3.000  0.6843  110.3   1.582   25.0  0.2277   42.7  0.2374 -171.8
 3.100  0.6873  108.5   1.536   23.4  0.2333   41.4  0.2421 -173.6
 3.200  0.6910  106.6   1.492   21.7  0.2391   40.2  0.2471 -175.2
 3.300  0.6954  104.8   1.448   19.9  0.2449   39.0  0.2522 -176.9
 3.400  0.7005  103.1   1.407   17.9  0.2509   37.9  0.2576 -178.4
 3.500  0.7062  101.3   1.367   15.9  0.2569   36.8  0.2631 -179.9
 3.600  0.7094   99.7   1.333   14.4  0.2622   35.5  0.2679  178.1
 3.700  0.7131   98.2   1.300   12.8  0.2676   34.3  0.2730  176.2
 3.800  0.7174   96.6   1.268   11.1  0.2732   33.1  0.2784  174.3
 3.900  0.7221   95.1   1.237    9.3  0.2788   31.9  0.2841  172.5
 4.000  0.7274   93.6   1.208    7.4  0.2846   30.8  0.2900  170.8
 4.100  0.7290   92.1   1.181    6.0  0.2897   29.5  0.2959  168.7
 4.200  0.7312   90.6   1.155    4.4  0.2950   28.2  0.3022  166.7
 4.300  0.7338   89.1   1.129    2.9  0.3004   27.0  0.3089  164.7
 4.400  0.7370   87.6   1.105    1.2  0.3059   25.8  0.3159  162.9
 4.500  0.7406   86.1   1.081   -0.5  0.3116   24.7  0.3232  161.1
 4.600  0.7437   84.8   1.059   -1.8  0.3162   23.5  0.3306  159.5
 4.700  0.7472   83.4   1.038   -3.1  0.3210   22.4  0.3383  157.9
 4.800  0.7510   82.1   1.017   -4.4  0.3259   21.2  0.3462  156.4
 4.900  0.7553   80.8   0.997   -5.8  0.3310   20.2  0.3543  155.0
 5.000  0.7600   79.5   0.978   -7.3  0.3361   19.1  0.3627  153.6
 5.100  0.7600   78.2   0.963   -8.5  0.3403   17.9  0.3708  152.6
 5.200  0.7603   76.9   0.948   -9.7  0.3447   16.7  0.3790  151.6
 5.300  0.7611   75.5   0.933  -11.0  0.3492   15.5  0.3872  150.7
 5.400  0.7622   74.2   0.919  -12.3  0.3538   14.4  0.3956  149.8
 5.500  0.7638   72.9   0.906  -13.7  0.3586   13.3  0.4041  149.0
 5.600  0.7633   71.8   0.892  -14.8  0.3626   12.1  0.4086  148.2
 5.700  0.7632   70.6   0.878  -15.9  0.3667   11.0  0.4132  147.3
 5.800  0.7633   69.5   0.865  -17.0  0.3709    9.9  0.4178  146.5
 5.900  0.7638   68.3   0.852  -18.2  0.3753    8.8  0.4226  145.8
 6.000  0.7645   67.2   0.839  -19.4  0.3798    7.8  0.4274  145.0
!
!  f       NFmin   Gammaopt  rn/50
! GHz       dB    MAG  ANG    -
 0.450      1.52  0.43 -170   0.08
 0.900      1.57  0.45 -164   0.09
 1.900      2.20  0.61 -132   0.23
 2.400      2.55  0.64 -119   0.48
!
! (c) 2017  Infineon Technologies AG, Munich