! Infineon Technologies  Discrete & RF Semiconductors
! BFP193
! VCE =  3.0 V,  IC =  60 mA
! Common Emitter S-Parameters:                            Jan 2017
# GHz  S  MA  R  50
!  f         S11            S21            S12            S22
! GHz     MAG   ANG      MAG   ANG      MAG   ANG      MAG   ANG
 0.010  0.1356  -67.6  77.751  169.2  0.0023   85.6  0.9314  -10.8
 0.020  0.2268  -93.8  74.941  159.3  0.0046   78.2  0.8865  -21.9
 0.030  0.2789 -109.7  68.077  152.8  0.0062   70.3  0.8064  -29.0
 0.040  0.3453 -120.1  62.261  145.1  0.0078   65.7  0.7411  -37.5
 0.050  0.4193 -127.0  57.809  135.9  0.0095   62.7  0.6949  -47.3
 0.060  0.4369 -132.6  53.332  133.2  0.0105   62.6  0.6411  -50.5
 0.070  0.4584 -137.8  48.999  129.9  0.0115   62.5  0.5897  -54.3
 0.080  0.4832 -142.4  44.850  126.1  0.0125   62.4  0.5414  -58.8
 0.090  0.5108 -146.6  40.943  121.5  0.0135   62.4  0.4970  -64.2
 0.100  0.5409 -150.3  37.352  116.0  0.0145   62.3  0.4578  -70.5
 0.110  0.5455 -152.7  35.122  114.6  0.0153   62.0  0.4313  -72.4
 0.120  0.5510 -155.0  32.917  112.9  0.0161   61.7  0.4054  -74.6
 0.130  0.5573 -157.2  30.742  111.0  0.0170   61.5  0.3802  -77.1
 0.140  0.5646 -159.4  28.606  108.9  0.0178   61.3  0.3558  -80.0
 0.150  0.5726 -161.6  26.516  106.4  0.0186   61.1  0.3324  -83.2
 0.200  0.5902 -167.8  20.393  100.5  0.0213   64.3  0.2647  -92.0
 0.250  0.5986 -172.7  16.513   96.1  0.0254   65.1  0.2230  -98.5
 0.300  0.6017 -175.8  13.838   93.2  0.0295   67.7  0.1935 -104.5
 0.350  0.6029 -178.5  12.162   91.0  0.0334   68.7  0.1766 -108.6
 0.400  0.6053  178.9  10.508   88.2  0.0374   69.5  0.1608 -113.6
 0.450  0.6070  176.7   9.462   86.5  0.0414   69.6  0.1520 -117.2
 0.500  0.6095  174.5   8.427   84.4  0.0454   69.7  0.1438 -121.2
 0.600  0.6134  170.9   7.060   81.0  0.0542   69.5  0.1339 -127.8
 0.700  0.6145  167.7   6.060   78.1  0.0615   69.8  0.1271 -132.5
 0.800  0.6198  164.6   5.317   75.1  0.0704   69.8  0.1255 -136.7
 0.900  0.6193  161.4   4.722   72.3  0.0787   68.5  0.1254 -140.4
 1.000  0.6233  158.6   4.272   69.6  0.0869   67.9  0.1262 -144.1
 1.100  0.6277  155.6   3.892   67.1  0.0949   66.8  0.1277 -146.6
 1.200  0.6305  152.9   3.572   64.4  0.1028   65.7  0.1297 -149.1
 1.300  0.6322  149.9   3.306   61.9  0.1109   64.6  0.1344 -151.3
 1.400  0.6366  147.2   3.085   59.4  0.1191   63.5  0.1389 -153.8
 1.500  0.6420  144.7   2.879   57.0  0.1268   62.3  0.1442 -155.9
 1.600  0.6449  142.1   2.710   54.4  0.1350   61.0  0.1491 -157.1
 1.700  0.6467  139.2   2.559   52.0  0.1423   59.7  0.1566 -159.0
 1.800  0.6547  136.7   2.428   49.5  0.1503   58.4  0.1633 -160.9
 1.900  0.6590  134.1   2.302   47.4  0.1575   57.1  0.1702 -162.3
 2.000  0.6605  131.5   2.187   44.8  0.1654   55.7  0.1779 -163.6
 2.100  0.6653  129.0   2.088   42.6  0.1726   54.3  0.1857 -165.2
 2.200  0.6713  126.5   1.992   40.2  0.1798   53.0  0.1936 -166.7
 2.300  0.6746  124.3   1.911   38.1  0.1871   51.6  0.2013 -167.7
 2.400  0.6788  122.1   1.832   35.9  0.1945   50.4  0.2091 -168.6
 2.500  0.6828  119.9   1.761   33.9  0.2010   49.0  0.2175 -170.1
 2.600  0.6878  117.7   1.693   31.8  0.2077   47.6  0.2260 -171.4
 2.700  0.6928  115.7   1.633   29.9  0.2139   46.2  0.2330 -172.5
 2.800  0.6986  113.7   1.575   27.8  0.2202   44.9  0.2400 -173.6
 2.900  0.7019  111.6   1.524   25.9  0.2263   43.6  0.2467 -175.3
 3.000  0.7060  109.6   1.474   23.9  0.2325   42.3  0.2537 -176.9
 3.100  0.7089  107.8   1.432   22.3  0.2382   41.0  0.2585 -178.5
 3.200  0.7125  105.9   1.390   20.6  0.2439   39.8  0.2634  179.9
 3.300  0.7168  104.1   1.350   18.8  0.2498   38.6  0.2686  178.4
 3.400  0.7218  102.4   1.312   16.8  0.2558   37.5  0.2739  177.0
 3.500  0.7275  100.6   1.275   14.8  0.2619   36.4  0.2794  175.6
 3.600  0.7300   99.0   1.243   13.3  0.2672   35.1  0.2844  173.7
 3.700  0.7330   97.4   1.213   11.7  0.2727   33.8  0.2897  171.9
 3.800  0.7365   95.9   1.183   10.0  0.2783   32.6  0.2953  170.1
 3.900  0.7407   94.3   1.154    8.2  0.2840   31.4  0.3011  168.4
 4.000  0.7453   92.8   1.127    6.4  0.2898   30.3  0.3072  166.8
 4.100  0.7467   91.3   1.102    5.0  0.2949   29.0  0.3133  164.8
 4.200  0.7487   89.9   1.079    3.5  0.3001   27.7  0.3198  162.9
 4.300  0.7511   88.4   1.056    1.9  0.3055   26.5  0.3266  161.0
 4.400  0.7540   86.9   1.033    0.3  0.3111   25.3  0.3338  159.3
 4.500  0.7574   85.5   1.012   -1.4  0.3167   24.2  0.3412  157.6
 4.600  0.7597   84.2   0.992   -2.6  0.3214   23.0  0.3486  156.1
 4.700  0.7625   82.8   0.973   -3.8  0.3261   21.8  0.3562  154.6
 4.800  0.7656   81.5   0.953   -5.1  0.3311   20.7  0.3641  153.2
 4.900  0.7692   80.2   0.935   -6.5  0.3361   19.6  0.3721  151.9
 5.000  0.7731   78.9   0.917   -7.9  0.3413   18.5  0.3804  150.6
 5.100  0.7729   77.6   0.903   -9.1  0.3456   17.3  0.3882  149.6
 5.200  0.7732   76.3   0.890  -10.3  0.3500   16.0  0.3962  148.7
 5.300  0.7738   74.9   0.877  -11.6  0.3545   14.9  0.4042  147.9
 5.400  0.7749   73.6   0.865  -12.9  0.3592   13.7  0.4123  147.0
 5.500  0.7764   72.3   0.853  -14.2  0.3641   12.6  0.4205  146.2
 5.600  0.7756   71.1   0.840  -15.2  0.3680   11.5  0.4248  145.4
 5.700  0.7752   70.0   0.827  -16.3  0.3720   10.4  0.4292  144.6
 5.800  0.7751   68.8   0.814  -17.4  0.3762    9.3  0.4337  143.9
 5.900  0.7753   67.7   0.802  -18.5  0.3805    8.2  0.4383  143.1
 6.000  0.7758   66.5   0.790  -19.7  0.3849    7.2  0.4429  142.4
!
!  f       NFmin   Gammaopt  rn/50
! GHz       dB    MAG  ANG    -
 0.450      1.67  0.48 -170   0.10
 0.900      1.73  0.49 -163   0.10
 1.900      2.41  0.62 -131   0.27
 2.400      2.75  0.65 -118   0.56
!
! (c) 2017  Infineon Technologies AG, Munich