! Infineon Technologies  Discrete & RF Semiconductors
! BFP193
! VCE =  5.0 V,  IC =  85 mA
! Common Emitter S-Parameters:                            Jan 2017
# GHz  S  MA  R  50
!  f         S11            S21            S12            S22
! GHz     MAG   ANG      MAG   ANG      MAG   ANG      MAG   ANG
 0.010  0.1299  -80.8  82.266  168.4  0.0023   79.1  0.8991  -10.4
 0.020  0.2375 -101.4  78.663  157.9  0.0041   79.6  0.8501  -21.7
 0.030  0.2924 -116.0  70.921  151.4  0.0055   71.5  0.7700  -28.3
 0.040  0.3600 -125.6  64.304  143.4  0.0070   66.7  0.7023  -36.3
 0.050  0.4344 -132.0  59.189  133.9  0.0085   63.6  0.6511  -45.8
 0.060  0.4512 -137.2  54.448  131.3  0.0094   63.0  0.6001  -48.4
 0.070  0.4714 -141.9  49.842  128.2  0.0103   62.4  0.5505  -51.6
 0.080  0.4946 -146.2  45.414  124.4  0.0111   62.0  0.5029  -55.3
 0.090  0.5204 -150.2  41.220  119.9  0.0120   61.6  0.4579  -59.8
 0.100  0.5483 -153.7  37.339  114.4  0.0129   61.3  0.4163  -65.2
 0.110  0.5529 -155.8  35.080  113.0  0.0136   61.9  0.3921  -66.6
 0.120  0.5583 -157.9  32.844  111.4  0.0143   62.4  0.3681  -68.1
 0.130  0.5644 -160.0  30.637  109.6  0.0151   62.8  0.3444  -69.9
 0.140  0.5711 -162.0  28.465  107.5  0.0158   63.2  0.3211  -71.9
 0.150  0.5786 -163.9  26.337  105.1  0.0165   63.6  0.2982  -74.2
 0.200  0.5948 -169.8  20.192   99.5  0.0191   65.8  0.2345  -79.9
 0.250  0.6013 -174.1  16.318   95.3  0.0236   67.9  0.1948  -83.5
 0.300  0.6024 -177.2  13.670   92.5  0.0275   68.9  0.1668  -86.7
 0.350  0.6041 -179.7  12.006   90.4  0.0312   70.0  0.1508  -88.8
 0.400  0.6070  177.9  10.363   87.7  0.0350   70.8  0.1351  -91.5
 0.450  0.6097  175.8   9.331   86.1  0.0390   71.0  0.1259  -93.6
 0.500  0.6132  173.8   8.309   84.0  0.0430   71.2  0.1169  -96.1
 0.600  0.6156  170.2   6.961   80.7  0.0507   71.6  0.1058 -100.6
 0.700  0.6177  167.1   5.975   77.8  0.0583   71.7  0.0985 -104.1
 0.800  0.6194  164.0   5.238   74.7  0.0670   71.3  0.0961 -107.6
 0.900  0.6203  160.9   4.655   72.0  0.0740   70.2  0.0960 -111.5
 1.000  0.6258  158.1   4.211   69.4  0.0817   69.3  0.0948 -116.0
 1.100  0.6297  155.3   3.838   66.8  0.0902   68.0  0.0965 -118.3
 1.200  0.6323  152.4   3.523   64.2  0.0979   67.0  0.0984 -121.6
 1.300  0.6323  149.5   3.260   61.7  0.1054   66.0  0.1024 -124.9
 1.400  0.6370  147.0   3.041   59.1  0.1139   65.1  0.1063 -128.9
 1.500  0.6417  144.4   2.838   56.7  0.1212   63.8  0.1109 -132.0
 1.600  0.6453  141.7   2.672   54.2  0.1289   62.5  0.1166 -134.2
 1.700  0.6494  138.9   2.521   51.8  0.1363   61.4  0.1237 -137.3
 1.800  0.6558  136.3   2.393   49.3  0.1438   60.1  0.1304 -140.5
 1.900  0.6594  133.8   2.268   47.1  0.1512   58.5  0.1369 -143.0
 2.000  0.6616  131.3   2.155   44.6  0.1582   57.4  0.1457 -144.9
 2.100  0.6660  128.7   2.057   42.4  0.1652   56.0  0.1532 -147.5
 2.200  0.6717  126.2   1.962   40.0  0.1722   54.8  0.1610 -149.9
 2.300  0.6752  124.0   1.882   37.9  0.1794   53.4  0.1694 -151.4
 2.400  0.6796  121.9   1.804   35.7  0.1866   52.2  0.1779 -152.8
 2.500  0.6845  119.7   1.735   33.7  0.1931   50.8  0.1868 -154.9
 2.600  0.6903  117.6   1.668   31.5  0.1998   49.5  0.1959 -156.9
 2.700  0.6947  115.5   1.610   29.6  0.2060   48.2  0.2034 -158.4
 2.800  0.6999  113.5   1.553   27.5  0.2124   46.9  0.2111 -159.8
 2.900  0.7036  111.4   1.502   25.6  0.2184   45.6  0.2180 -162.0
 3.000  0.7083  109.4   1.452   23.6  0.2246   44.3  0.2251 -164.0
 3.100  0.7109  107.6   1.410   22.0  0.2304   43.0  0.2301 -165.9
 3.200  0.7142  105.7   1.369   20.3  0.2362   41.8  0.2354 -167.7
 3.300  0.7183  103.9   1.330   18.5  0.2422   40.6  0.2409 -169.5
 3.400  0.7231  102.2   1.292   16.5  0.2483   39.5  0.2466 -171.1
 3.500  0.7285  100.4   1.255   14.5  0.2544   38.5  0.2525 -172.7
 3.600  0.7311   98.8   1.224   13.0  0.2598   37.2  0.2577 -174.9
 3.700  0.7343   97.2   1.194   11.4  0.2654   35.9  0.2632 -177.0
 3.800  0.7380   95.7   1.165    9.7  0.2710   34.7  0.2690 -179.0
 3.900  0.7422   94.1   1.137    7.9  0.2768   33.5  0.2752  179.1
 4.000  0.7470   92.6   1.110    6.1  0.2827   32.4  0.2816  177.3
 4.100  0.7482   91.1   1.085    4.7  0.2880   31.1  0.2877  175.0
 4.200  0.7500   89.6   1.062    3.2  0.2934   29.8  0.2941  172.8
 4.300  0.7522   88.1   1.039    1.6  0.2990   28.6  0.3011  170.7
 4.400  0.7550   86.7   1.016   -0.0  0.3047   27.4  0.3083  168.7
 4.500  0.7582   85.2   0.995   -1.7  0.3105   26.3  0.3160  166.8
 4.600  0.7608   83.9   0.975   -2.9  0.3153   25.1  0.3238  165.0
 4.700  0.7637   82.6   0.956   -4.1  0.3203   23.9  0.3319  163.3
 4.800  0.7671   81.3   0.937   -5.4  0.3254   22.7  0.3403  161.7
 4.900  0.7709   80.0   0.918   -6.8  0.3306   21.6  0.3489  160.2
 5.000  0.7750   78.7   0.900   -8.2  0.3360   20.5  0.3578  158.7
 5.100  0.7747   77.4   0.886   -9.4  0.3404   19.3  0.3665  157.5
 5.200  0.7748   76.1   0.873  -10.6  0.3449   18.0  0.3753  156.4
 5.300  0.7753   74.7   0.860  -11.9  0.3495   16.9  0.3842  155.4
 5.400  0.7763   73.4   0.847  -13.2  0.3544   15.7  0.3933  154.4
 5.500  0.7776   72.1   0.835  -14.5  0.3593   14.6  0.4025  153.4
 5.600  0.7769   70.9   0.822  -15.5  0.3635   13.4  0.4077  152.5
 5.700  0.7766   69.7   0.809  -16.5  0.3678   12.3  0.4129  151.6
 5.800  0.7766   68.6   0.797  -17.6  0.3722   11.2  0.4183  150.7
 5.900  0.7769   67.4   0.785  -18.7  0.3768   10.1  0.4237  149.8
 6.000  0.7775   66.2   0.773  -19.8  0.3815    9.0  0.4293  149.0
!
!  f       NFmin   Gammaopt  rn/50
! GHz       dB    MAG  ANG    -
!
! noise parameter not available yet for this operation point!
!
! (c) 2017  Infineon Technologies AG, Munich