! Infineon Technologies  Discrete & RF Semiconductors
! BFP193
! VCE =  3.0 V,  IC =  72 mA
! Common Emitter S-Parameters:                            Jan 2017
# GHz  S  MA  R  50
!  f         S11            S21            S12            S22
! GHz     MAG   ANG      MAG   ANG      MAG   ANG      MAG   ANG
 0.010  0.1303  -96.2  79.730  168.2  0.0021   82.4  0.9018  -11.7
 0.020  0.2453 -110.3  76.058  157.4  0.0041   80.7  0.8502  -23.8
 0.030  0.3074 -122.7  68.370  150.9  0.0056   69.3  0.7655  -31.0
 0.040  0.3788 -130.6  61.783  142.8  0.0073   62.9  0.6956  -39.8
 0.050  0.4552 -136.0  56.684  133.1  0.0090   58.9  0.6454  -50.2
 0.060  0.4728 -140.7  52.102  130.5  0.0100   59.8  0.5932  -53.3
 0.070  0.4934 -145.0  47.648  127.4  0.0110   60.6  0.5431  -57.1
 0.080  0.5165 -149.0  43.361  123.7  0.0119   61.2  0.4958  -61.5
 0.090  0.5419 -152.6  39.295  119.2  0.0129   61.7  0.4521  -66.9
 0.100  0.5693 -155.9  35.526  113.7  0.0139   62.2  0.4131  -73.3
 0.110  0.5742 -157.9  33.365  112.3  0.0146   61.9  0.3891  -75.1
 0.120  0.5798 -159.9  31.226  110.8  0.0153   61.7  0.3655  -77.2
 0.130  0.5861 -161.8  29.112  109.0  0.0161   61.5  0.3424  -79.6
 0.140  0.5930 -163.7  27.031  107.0  0.0168   61.3  0.3201  -82.3
 0.150  0.6005 -165.5  24.990  104.6  0.0175   61.1  0.2985  -85.4
 0.200  0.6142 -170.7  19.136   99.0  0.0209   66.2  0.2378  -94.2
 0.250  0.6223 -175.0  15.461   94.9  0.0249   65.9  0.1998 -100.4
 0.300  0.6236 -177.9  12.946   92.1  0.0282   68.5  0.1745 -106.5
 0.350  0.6261  179.6  11.371   90.0  0.0326   69.7  0.1601 -110.5
 0.400  0.6297  177.2   9.816   87.3  0.0370   70.6  0.1466 -115.3
 0.450  0.6306  175.2   8.837   85.7  0.0410   70.6  0.1392 -118.7
 0.500  0.6323  173.2   7.867   83.6  0.0449   70.6  0.1324 -122.4
 0.600  0.6354  169.7   6.591   80.2  0.0536   70.4  0.1239 -128.7
 0.700  0.6400  166.8   5.657   77.4  0.0612   71.3  0.1190 -133.5
 0.800  0.6413  163.6   4.961   74.3  0.0702   70.1  0.1179 -137.0
 0.900  0.6426  160.5   4.409   71.5  0.0783   69.0  0.1195 -140.5
 1.000  0.6450  157.9   3.988   68.8  0.0863   68.3  0.1201 -144.4
 1.100  0.6494  155.0   3.633   66.3  0.0950   67.6  0.1223 -146.3
 1.200  0.6514  152.2   3.335   63.5  0.1028   66.4  0.1251 -148.7
 1.300  0.6537  149.4   3.086   61.0  0.1108   65.2  0.1298 -150.8
 1.400  0.6572  146.8   2.882   58.5  0.1189   63.9  0.1347 -153.2
 1.500  0.6630  144.2   2.689   56.0  0.1267   62.7  0.1403 -155.3
 1.600  0.6650  141.3   2.532   53.5  0.1347   61.6  0.1455 -156.4
 1.700  0.6686  138.7   2.390   51.0  0.1430   60.1  0.1539 -158.2
 1.800  0.6748  136.1   2.268   48.5  0.1504   58.9  0.1607 -160.0
 1.900  0.6783  133.5   2.150   46.3  0.1575   57.6  0.1675 -161.6
 2.000  0.6808  131.0   2.044   43.8  0.1654   56.1  0.1754 -162.8
 2.100  0.6853  128.5   1.951   41.6  0.1726   54.7  0.1835 -164.4
 2.200  0.6912  126.0   1.861   39.1  0.1798   53.5  0.1917 -165.9
 2.300  0.6938  123.8   1.786   37.0  0.1872   52.1  0.1998 -166.8
 2.400  0.6974  121.6   1.713   34.8  0.1946   50.9  0.2079 -167.6
 2.500  0.7016  119.4   1.647   32.8  0.2011   49.4  0.2164 -169.1
 2.600  0.7067  117.3   1.584   30.6  0.2077   48.0  0.2250 -170.5
 2.700  0.7107  115.3   1.528   28.7  0.2140   46.7  0.2323 -171.6
 2.800  0.7156  113.3   1.474   26.7  0.2205   45.4  0.2397 -172.6
 2.900  0.7198  111.2   1.426   24.8  0.2267   44.0  0.2466 -174.3
 3.000  0.7249  109.1   1.380   22.8  0.2331   42.7  0.2537 -175.9
 3.100  0.7271  107.3   1.340   21.2  0.2388   41.4  0.2587 -177.5
 3.200  0.7301  105.4   1.302   19.5  0.2445   40.2  0.2639 -179.1
 3.300  0.7338  103.6   1.264   17.7  0.2504   39.0  0.2693  179.4
 3.400  0.7383  101.9   1.229   15.7  0.2564   37.9  0.2749  178.0
 3.500  0.7434  100.1   1.194   13.7  0.2625   36.8  0.2806  176.6
 3.600  0.7456   98.5   1.165   12.2  0.2679   35.5  0.2858  174.7
 3.700  0.7484   96.9   1.137   10.6  0.2734   34.2  0.2914  172.9
 3.800  0.7518   95.4   1.110    9.0  0.2790   32.9  0.2972  171.1
 3.900  0.7557   93.8   1.084    7.2  0.2848   31.7  0.3033  169.4
 4.000  0.7602   92.3   1.059    5.4  0.2907   30.6  0.3097  167.8
 4.100  0.7614   90.8   1.036    4.0  0.2958   29.3  0.3160  165.8
 4.200  0.7631   89.3   1.013    2.6  0.3011   28.0  0.3227  163.8
 4.300  0.7653   87.8   0.991    1.0  0.3065   26.8  0.3297  162.0
 4.400  0.7680   86.4   0.970   -0.5  0.3120   25.6  0.3371  160.2
 4.500  0.7712   84.9   0.950   -2.2  0.3177   24.5  0.3448  158.5
 4.600  0.7735   83.6   0.931   -3.4  0.3225   23.3  0.3524  157.0
 4.700  0.7762   82.2   0.913   -4.6  0.3274   22.1  0.3602  155.5
 4.800  0.7793   80.9   0.895   -5.9  0.3325   20.9  0.3683  154.1
 4.900  0.7828   79.6   0.878   -7.2  0.3377   19.8  0.3766  152.7
 5.000  0.7867   78.3   0.861   -8.6  0.3430   18.7  0.3851  151.4
 5.100  0.7860   77.0   0.849   -9.8  0.3473   17.5  0.3932  150.4
 5.200  0.7858   75.7   0.837  -10.9  0.3517   16.3  0.4014  149.4
 5.300  0.7860   74.4   0.825  -12.2  0.3563   15.1  0.4097  148.5
 5.400  0.7865   73.1   0.814  -13.4  0.3610   14.0  0.4181  147.6
 5.500  0.7875   71.8   0.803  -14.7  0.3659   12.9  0.4266  146.8
 5.600  0.7865   70.6   0.791  -15.7  0.3699   11.8  0.4311  146.0
 5.700  0.7858   69.4   0.779  -16.7  0.3740   10.6  0.4358  145.2
 5.800  0.7854   68.3   0.768  -17.7  0.3783    9.5  0.4405  144.4
 5.900  0.7854   67.1   0.757  -18.7  0.3827    8.5  0.4452  143.6
 6.000  0.7857   65.9   0.746  -19.8  0.3872    7.4  0.4501  142.9
!
!  f       NFmin   Gammaopt  rn/50
! GHz       dB    MAG  ANG    -
!
! noise parameter not available yet for this operation point!
!
! (c) 2017  Infineon Technologies AG, Munich