! Infineon Technologies  Discrete & RF Semiconductors
! BFP193
! VCE =  5.0 V,  IC =  95 mA
! Common Emitter S-Parameters:                            Jan 2017
# GHz  S  MA  R  50
!  f         S11            S21            S12            S22
! GHz     MAG   ANG      MAG   ANG      MAG   ANG      MAG   ANG
 0.010  0.1376  -96.8  80.352  167.6  0.0022   83.7  0.8653  -11.0
 0.020  0.2597 -110.7  76.201  156.5  0.0042   80.4  0.8122  -22.7
 0.030  0.3209 -123.4  68.162  149.9  0.0055   71.5  0.7301  -29.2
 0.040  0.3926 -131.8  61.243  141.8  0.0069   66.1  0.6597  -37.2
 0.050  0.4701 -137.5  55.859  131.8  0.0084   62.6  0.6051  -46.9
 0.060  0.4870 -142.1  51.255  129.3  0.0093   62.0  0.5566  -49.4
 0.070  0.5068 -146.3  46.769  126.3  0.0102   61.5  0.5093  -52.3
 0.080  0.5292 -150.3  42.438  122.7  0.0110   61.1  0.4636  -55.8
 0.090  0.5538 -153.8  38.315  118.2  0.0119   60.7  0.4201  -60.1
 0.100  0.5804 -157.1  34.473  112.8  0.0128   60.4  0.3794  -65.3
 0.110  0.5851 -159.0  32.359  111.5  0.0135   61.0  0.3573  -66.4
 0.120  0.5904 -160.9  30.266  110.0  0.0142   61.6  0.3354  -67.7
 0.130  0.5964 -162.8  28.196  108.2  0.0150   62.0  0.3137  -69.2
 0.140  0.6030 -164.6  26.156  106.2  0.0157   62.5  0.2922  -70.9
 0.150  0.6102 -166.4  24.153  103.9  0.0164   62.9  0.2710  -72.9
 0.200  0.6245 -171.6  18.470   98.5  0.0189   67.5  0.2135  -77.7
 0.250  0.6312 -175.6  14.913   94.5  0.0231   66.9  0.1780  -80.4
 0.300  0.6326 -178.5  12.468   91.8  0.0267   69.1  0.1524  -83.1
 0.350  0.6338  179.1  10.951   89.8  0.0306   70.1  0.1387  -84.7
 0.400  0.6360  176.8   9.452   87.1  0.0345   70.9  0.1252  -86.7
 0.450  0.6373  174.7   8.512   85.5  0.0384   71.7  0.1176  -88.5
 0.500  0.6395  172.7   7.581   83.5  0.0423   72.4  0.1101  -90.5
 0.600  0.6428  169.3   6.352   80.2  0.0503   71.8  0.1004  -94.3
 0.700  0.6444  166.4   5.455   77.4  0.0576   72.5  0.0942  -97.2
 0.800  0.6471  163.3   4.785   74.3  0.0661   71.5  0.0932 -100.8
 0.900  0.6464  160.2   4.250   71.6  0.0737   70.3  0.0932 -105.3
 1.000  0.6509  157.4   3.846   68.9  0.0815   69.6  0.0928 -109.1
 1.100  0.6539  154.7   3.508   66.4  0.0897   68.9  0.0949 -112.3
 1.200  0.6559  151.7   3.222   63.6  0.0970   67.8  0.0971 -115.3
 1.300  0.6580  149.0   2.982   61.2  0.1046   66.6  0.1019 -119.3
 1.400  0.6612  146.4   2.783   58.6  0.1126   65.5  0.1059 -123.4
 1.500  0.6675  143.8   2.601   56.2  0.1202   64.3  0.1105 -126.7
 1.600  0.6715  141.0   2.450   53.6  0.1279   63.1  0.1168 -129.3
 1.700  0.6736  138.4   2.313   51.2  0.1354   61.9  0.1237 -132.9
 1.800  0.6796  135.7   2.195   48.6  0.1429   60.4  0.1309 -136.3
 1.900  0.6823  133.2   2.082   46.5  0.1501   59.3  0.1372 -138.7
 2.000  0.6854  130.7   1.979   43.9  0.1576   58.0  0.1464 -141.0
 2.100  0.6889  128.1   1.889   41.7  0.1645   56.6  0.1541 -143.8
 2.200  0.6938  125.6   1.803   39.3  0.1714   55.4  0.1621 -146.3
 2.300  0.6971  123.4   1.731   37.2  0.1788   54.0  0.1710 -148.1
 2.400  0.7014  121.3   1.661   35.0  0.1863   52.8  0.1800 -149.7
 2.500  0.7052  119.1   1.597   33.0  0.1926   51.3  0.1890 -152.0
 2.600  0.7100  116.9   1.535   30.8  0.1991   49.9  0.1982 -154.1
 2.700  0.7144  114.9   1.482   28.9  0.2057   48.7  0.2060 -155.7
 2.800  0.7196  112.9   1.431   26.8  0.2123   47.5  0.2140 -157.2
 2.900  0.7229  110.8   1.384   24.9  0.2184   46.1  0.2210 -159.5
 3.000  0.7271  108.8   1.338   22.9  0.2247   44.8  0.2284 -161.6
 3.100  0.7293  107.0   1.300   21.3  0.2304   43.5  0.2337 -163.5
 3.200  0.7323  105.1   1.263   19.6  0.2363   42.3  0.2393 -165.4
 3.300  0.7360  103.3   1.227   17.8  0.2422   41.1  0.2451 -167.1
 3.400  0.7405  101.6   1.193   15.8  0.2483   40.0  0.2511 -168.8
 3.500  0.7456   99.8   1.160   13.8  0.2544   39.0  0.2573 -170.4
 3.600  0.7478   98.2   1.132   12.3  0.2600   37.7  0.2627 -172.6
 3.700  0.7505   96.6   1.104   10.8  0.2657   36.4  0.2685 -174.8
 3.800  0.7538   95.0   1.077    9.1  0.2715   35.2  0.2746 -176.8
 3.900  0.7577   93.4   1.052    7.4  0.2774   34.0  0.2810 -178.7
 4.000  0.7622   91.9   1.027    5.6  0.2835   32.9  0.2878  179.4
 4.100  0.7632   90.4   1.005    4.2  0.2888   31.6  0.2940  177.0
 4.200  0.7647   89.0   0.983    2.8  0.2943   30.3  0.3007  174.7
 4.300  0.7667   87.5   0.963    1.2  0.2999   29.0  0.3079  172.6
 4.400  0.7692   86.0   0.942   -0.3  0.3057   27.8  0.3155  170.5
 4.500  0.7722   84.6   0.923   -2.0  0.3116   26.7  0.3235  168.5
 4.600  0.7742   83.3   0.905   -3.2  0.3166   25.5  0.3314  166.6
 4.700  0.7767   81.9   0.887   -4.4  0.3217   24.3  0.3397  164.8
 4.800  0.7795   80.6   0.870   -5.7  0.3270   23.1  0.3482  163.1
 4.900  0.7828   79.3   0.853   -7.1  0.3324   22.0  0.3571  161.5
 5.000  0.7865   78.0   0.837   -8.5  0.3379   20.9  0.3662  160.0
 5.100  0.7860   76.7   0.825   -9.6  0.3424   19.7  0.3751  158.8
 5.200  0.7860   75.4   0.813  -10.8  0.3471   18.4  0.3842  157.6
 5.300  0.7864   74.1   0.801  -12.0  0.3519   17.3  0.3934  156.5
 5.400  0.7871   72.8   0.790  -13.2  0.3568   16.1  0.4027  155.4
 5.500  0.7883   71.5   0.779  -14.5  0.3619   15.0  0.4122  154.4
 5.600  0.7874   70.3   0.767  -15.5  0.3660   13.8  0.4176  153.4
 5.700  0.7868   69.1   0.756  -16.4  0.3702   12.7  0.4231  152.5
 5.800  0.7865   68.0   0.745  -17.5  0.3746   11.6  0.4287  151.6
 5.900  0.7866   66.8   0.734  -18.5  0.3791   10.5  0.4344  150.7
 6.000  0.7870   65.6   0.723  -19.6  0.3837    9.4  0.4402  149.8
!
!  f       NFmin   Gammaopt  rn/50
! GHz       dB    MAG  ANG    -
!
! noise parameter not available yet for this operation point!
!
! (c) 2017  Infineon Technologies AG, Munich