! Infineon Technologies  Discrete & RF Semiconductors
! BFP193
! VCE =  3.0 V,  IC =  95 mA
! Common Emitter S-Parameters:                            Jan 2017
# GHz  S  MA  R  50
!  f         S11            S21            S12            S22
! GHz     MAG   ANG      MAG   ANG      MAG   ANG      MAG   ANG
 0.010  0.1979 -130.3  74.587  165.6  0.0025   78.4  0.7846  -14.4
 0.020  0.3425 -132.0  69.584  152.7  0.0046   77.8  0.7216  -28.9
 0.030  0.4105 -139.7  60.974  146.3  0.0059   67.4  0.6335  -36.3
 0.040  0.4839 -145.2  53.375  137.9  0.0074   61.0  0.5591  -45.8
 0.050  0.5605 -149.2  47.278  127.0  0.0089   56.7  0.5045  -57.8
 0.060  0.5778 -152.6  43.174  124.7  0.0098   57.2  0.4609  -60.7
 0.070  0.5970 -155.8  39.153  122.0  0.0106   57.6  0.4188  -64.2
 0.080  0.6179 -158.7  35.243  118.6  0.0115   57.9  0.3787  -68.5
 0.090  0.6403 -161.5  31.485  114.4  0.0123   58.2  0.3411  -73.8
 0.100  0.6642 -164.1  27.941  109.1  0.0132   58.5  0.3071  -80.3
 0.110  0.6675 -165.6  26.178  107.9  0.0139   59.7  0.2891  -82.2
 0.120  0.6713 -167.0  24.427  106.6  0.0145   60.8  0.2714  -84.3
 0.130  0.6755 -168.5  22.691  105.0  0.0152   61.8  0.2542  -86.6
 0.140  0.6802 -169.9  20.975  103.2  0.0159   62.7  0.2374  -89.4
 0.150  0.6852 -171.3  19.284  101.1  0.0166   63.5  0.2213  -92.5
 0.200  0.6949 -175.5  14.656   96.1  0.0199   67.6  0.1788 -101.2
 0.250  0.7014 -178.7  11.812   92.4  0.0245   68.0  0.1531 -107.6
 0.300  0.7006  178.7   9.870   89.8  0.0281   69.4  0.1357 -113.5
 0.350  0.7022  176.6   8.657   87.9  0.0320   70.1  0.1270 -117.2
 0.400  0.7046  174.6   7.457   85.3  0.0360   70.7  0.1189 -121.5
 0.450  0.7050  172.7   6.714   83.7  0.0401   71.5  0.1150 -124.8
 0.500  0.7061  170.9   5.978   81.6  0.0443   72.2  0.1116 -128.4
 0.600  0.7096  167.7   5.003   78.3  0.0531   71.8  0.1079 -133.7
 0.700  0.7098  164.9   4.293   75.4  0.0613   71.7  0.1058 -137.3
 0.800  0.7130  161.9   3.767   72.2  0.0699   71.4  0.1072 -140.0
 0.900  0.7118  159.1   3.350   69.4  0.0781   70.0  0.1111 -143.2
 1.000  0.7154  156.3   3.031   66.7  0.0863   69.3  0.1137 -145.9
 1.100  0.7205  153.4   2.767   64.0  0.0944   68.2  0.1171 -147.5
 1.200  0.7210  150.7   2.542   61.2  0.1026   67.0  0.1213 -149.5
 1.300  0.7220  148.0   2.355   58.6  0.1105   65.8  0.1278 -151.0
 1.400  0.7254  145.3   2.200   56.0  0.1192   64.9  0.1342 -153.3
 1.500  0.7299  142.7   2.056   53.4  0.1270   63.5  0.1403 -155.0
 1.600  0.7323  139.9   1.937   50.8  0.1350   62.1  0.1466 -155.9
 1.700  0.7347  137.3   1.832   48.3  0.1429   60.9  0.1557 -157.6
 1.800  0.7409  134.7   1.740   45.7  0.1512   59.5  0.1634 -159.3
 1.900  0.7427  132.2   1.651   43.5  0.1583   58.2  0.1710 -160.7
 2.000  0.7466  129.6   1.572   40.9  0.1658   56.8  0.1800 -161.8
 2.100  0.7492  127.1   1.501   38.7  0.1731   55.4  0.1887 -163.4
 2.200  0.7532  124.6   1.433   36.2  0.1805   54.1  0.1976 -164.8
 2.300  0.7553  122.3   1.376   34.1  0.1881   52.7  0.2064 -165.7
 2.400  0.7586  120.1   1.322   31.8  0.1958   51.5  0.2152 -166.5
 2.500  0.7611  117.9   1.273   29.8  0.2025   50.1  0.2246 -168.0
 2.600  0.7647  115.8   1.225   27.7  0.2093   48.7  0.2342 -169.4
 2.700  0.7679  113.7   1.183   25.8  0.2158   47.4  0.2419 -170.5
 2.800  0.7720  111.7   1.143   23.7  0.2224   46.1  0.2497 -171.5
 2.900  0.7742  109.6   1.106   21.9  0.2286   44.7  0.2573 -173.2
 3.000  0.7775  107.5   1.071   19.9  0.2349   43.4  0.2651 -174.8
 3.100  0.7788  105.7   1.042   18.4  0.2408   42.1  0.2708 -176.4
 3.200  0.7809  103.9   1.014   16.7  0.2468   40.8  0.2767 -178.0
 3.300  0.7838  102.1   0.986   15.0  0.2529   39.6  0.2828 -179.4
 3.400  0.7875  100.3   0.960   13.2  0.2592   38.5  0.2891  179.2
 3.500  0.7919   98.5   0.934   11.3  0.2655   37.4  0.2956  177.8
 3.600  0.7928   96.9   0.912    9.9  0.2711   36.1  0.3016  175.9
 3.700  0.7944   95.3   0.891    8.4  0.2769   34.8  0.3079  174.0
 3.800  0.7965   93.7   0.871    6.8  0.2828   33.5  0.3145  172.2
 3.900  0.7993   92.1   0.851    5.2  0.2888   32.3  0.3214  170.5
 4.000  0.8027   90.5   0.832    3.5  0.2949   31.2  0.3286  168.9
 4.100  0.8026   89.0   0.815    2.3  0.3003   29.8  0.3355  166.9
 4.200  0.8030   87.5   0.799    1.0  0.3058   28.5  0.3427  164.9
 4.300  0.8040   86.0   0.783   -0.4  0.3116   27.3  0.3504  163.0
 4.400  0.8055   84.6   0.768   -1.8  0.3174   26.1  0.3584  161.2
 4.500  0.8076   83.1   0.753   -3.2  0.3234   24.9  0.3668  159.5
 4.600  0.8090   81.8   0.740   -4.2  0.3283   23.7  0.3748  157.9
 4.700  0.8109   80.5   0.727   -5.3  0.3333   22.5  0.3830  156.3
 4.800  0.8131   79.2   0.714   -6.4  0.3384   21.3  0.3916  154.8
 4.900  0.8158   77.9   0.701   -7.6  0.3437   20.2  0.4004  153.4
 5.000  0.8189   76.6   0.689   -8.8  0.3491   19.1  0.4094  152.0
 5.100  0.8175   75.3   0.681   -9.8  0.3535   17.8  0.4179  150.9
 5.200  0.8165   73.9   0.672  -10.8  0.3582   16.6  0.4266  149.9
 5.300  0.8159   72.6   0.664  -11.8  0.3630   15.3  0.4355  148.9
 5.400  0.8158   71.2   0.657  -12.8  0.3679   14.2  0.4444  147.9
 5.500  0.8162   69.9   0.649  -13.9  0.3730   13.0  0.4535  147.0
 5.600  0.8145   68.8   0.641  -14.7  0.3770   11.8  0.4582  146.1
 5.700  0.8132   67.6   0.633  -15.6  0.3812   10.7  0.4631  145.2
 5.800  0.8121   66.5   0.626  -16.4  0.3856    9.6  0.4681  144.3
 5.900  0.8114   65.3   0.618  -17.3  0.3901    8.5  0.4731  143.4
 6.000  0.8110   64.2   0.611  -18.2  0.3947    7.4  0.4783  142.6
!
!  f       NFmin   Gammaopt  rn/50
! GHz       dB    MAG  ANG    -
!
! noise parameter not available yet for this operation point!
!
! (c) 2017  Infineon Technologies AG, Munich