! Infineon Technologies  Discrete & RF Semiconductors
! BFP193
! VCE =  8.0 V,  IC =  25 mA
! Common Emitter S-Parameters:                            Jan 2017
# GHz  S  MA  R  50
!  f         S11            S21            S12            S22
! GHz     MAG   ANG      MAG   ANG      MAG   ANG      MAG   ANG
 0.010  0.4682  -13.6  53.088  173.0  0.0022   88.8  0.9820   -5.9
 0.020  0.4771  -27.5  52.816  166.9  0.0053   87.7  0.9626  -12.2
 0.030  0.4593  -39.2  50.276  161.7  0.0075   77.0  0.9211  -17.1
 0.040  0.4618  -51.3  48.189  156.0  0.0098   71.2  0.8868  -22.3
 0.050  0.4841  -62.8  46.616  149.9  0.0122   67.7  0.8606  -28.0
 0.060  0.4715  -70.8  44.099  146.7  0.0137   65.3  0.8160  -30.9
 0.070  0.4685  -79.1  41.731  143.2  0.0153   63.4  0.7738  -34.2
 0.080  0.4753  -87.3  39.540  139.3  0.0168   61.9  0.7344  -37.8
 0.090  0.4915  -95.2  37.556  134.9  0.0184   60.6  0.6982  -41.8
 0.100  0.5163 -102.4  35.814  130.1  0.0200   59.5  0.6658  -46.2
 0.110  0.5112 -107.0  34.043  128.1  0.0207   58.3  0.6344  -47.9
 0.120  0.5094 -111.6  32.316  126.0  0.0214   57.2  0.6036  -49.7
 0.130  0.5109 -116.2  30.640  123.6  0.0221   56.2  0.5735  -51.7
 0.140  0.5157 -120.8  29.025  120.9  0.0228   55.2  0.5442  -53.9
 0.150  0.5238 -125.3  27.480  117.9  0.0235   54.3  0.5158  -56.4
 0.200  0.5372 -139.3  21.977  110.0  0.0264   52.6  0.4180  -62.6
 0.250  0.5421 -149.3  18.144  104.1  0.0301   53.3  0.3505  -66.1
 0.300  0.5436 -156.1  15.378  100.1  0.0323   54.2  0.3019  -68.9
 0.350  0.5439 -161.1  13.575   97.3  0.0354   55.7  0.2710  -70.4
 0.400  0.5483 -166.0  11.813   93.7  0.0386   57.0  0.2403  -72.2
 0.450  0.5482 -169.7  10.663   91.6  0.0416   58.1  0.2218  -73.3
 0.500  0.5504 -173.3   9.531   89.0  0.0447   59.1  0.2033  -74.6
 0.600  0.5539 -178.9   8.009   85.0  0.0514   60.3  0.1780  -76.9
 0.700  0.5571  176.5   6.884   81.7  0.0575   61.5  0.1609  -78.5
 0.800  0.5606  172.3   6.049   78.3  0.0650   62.7  0.1509  -80.7
 0.900  0.5606  168.4   5.378   75.3  0.0717   62.4  0.1427  -83.3
 1.000  0.5658  164.8   4.868   72.5  0.0788   62.4  0.1355  -86.0
 1.100  0.5703  161.3   4.436   69.8  0.0856   62.2  0.1321  -88.5
 1.200  0.5720  157.9   4.072   67.0  0.0930   61.4  0.1295  -91.3
 1.300  0.5734  154.9   3.766   64.4  0.0992   60.9  0.1286  -94.7
 1.400  0.5788  151.9   3.514   61.8  0.1069   60.5  0.1280  -98.6
 1.500  0.5837  148.9   3.281   59.4  0.1134   59.6  0.1288 -102.2
 1.600  0.5882  146.0   3.085   56.8  0.1205   58.7  0.1308 -105.6
 1.700  0.5913  143.1   2.913   54.4  0.1277   58.0  0.1345 -109.5
 1.800  0.5983  140.2   2.763   51.8  0.1348   57.1  0.1376 -113.5
 1.900  0.6032  137.4   2.619   49.7  0.1405   56.2  0.1413 -117.1
 2.000  0.6058  134.9   2.488   47.1  0.1480   55.0  0.1469 -120.4
 2.100  0.6114  132.2   2.374   44.9  0.1544   54.0  0.1522 -123.9
 2.200  0.6183  129.5   2.264   42.4  0.1609   53.1  0.1580 -127.2
 2.300  0.6226  127.2   2.171   40.3  0.1677   52.0  0.1652 -129.9
 2.400  0.6279  124.9   2.081   38.1  0.1746   50.9  0.1728 -132.3
 2.500  0.6335  122.7   2.001   36.0  0.1808   49.7  0.1799 -135.3
 2.600  0.6400  120.5   1.923   33.8  0.1870   48.5  0.1874 -138.1
 2.700  0.6451  118.3   1.853   31.8  0.1931   47.4  0.1941 -140.4
 2.800  0.6512  116.2   1.786   29.7  0.1993   46.3  0.2011 -142.6
 2.900  0.6559  114.1   1.726   27.8  0.2051   45.1  0.2067 -145.2
 3.000  0.6615  112.1   1.669   25.7  0.2110   43.9  0.2126 -147.6
 3.100  0.6652  110.2   1.619   24.0  0.2167   42.8  0.2169 -150.0
 3.200  0.6695  108.3   1.571   22.3  0.2225   41.7  0.2216 -152.2
 3.300  0.6746  106.5   1.525   20.4  0.2283   40.7  0.2266 -154.4
 3.400  0.6804  104.7   1.480   18.4  0.2342   39.7  0.2319 -156.4
 3.500  0.6868  102.9   1.437   16.3  0.2402   38.8  0.2375 -158.4
 3.600  0.6904  101.3   1.400   14.7  0.2456   37.6  0.2417 -160.9
 3.700  0.6946   99.6   1.365   13.1  0.2511   36.4  0.2463 -163.3
 3.800  0.6993   98.0   1.331   11.3  0.2567   35.2  0.2513 -165.6
 3.900  0.7045   96.5   1.298    9.5  0.2624   34.1  0.2567 -167.9
 4.000  0.7103   94.9   1.266    7.6  0.2682   33.1  0.2625 -170.0
 4.100  0.7128   93.4   1.237    6.1  0.2735   31.8  0.2679 -172.6
 4.200  0.7158   91.9   1.209    4.6  0.2790   30.6  0.2738 -175.1
 4.300  0.7192   90.4   1.182    3.0  0.2846   29.5  0.2803 -177.5
 4.400  0.7232   88.9   1.155    1.3  0.2903   28.4  0.2872 -179.8
 4.500  0.7276   87.5   1.130   -0.5  0.2961   27.3  0.2945  178.0
 4.600  0.7308   86.1   1.106   -1.8  0.3011   26.1  0.3021  175.9
 4.700  0.7344   84.7   1.083   -3.2  0.3061   25.0  0.3100  173.8
 4.800  0.7384   83.4   1.060   -4.6  0.3113   24.0  0.3184  171.9
 4.900  0.7429   82.0   1.038   -6.1  0.3166   22.9  0.3271  170.0
 5.000  0.7477   80.7   1.017   -7.6  0.3220   21.9  0.3361  168.3
 5.100  0.7481   79.4   1.000   -8.8  0.3267   20.7  0.3451  166.8
 5.200  0.7489   78.0   0.984  -10.1  0.3315   19.5  0.3543  165.5
 5.300  0.7502   76.7   0.968  -11.4  0.3364   18.3  0.3637  164.1
 5.400  0.7518   75.3   0.953  -12.7  0.3415   17.2  0.3733  162.9
 5.500  0.7539   74.0   0.938  -14.1  0.3467   16.1  0.3831  161.7
 5.600  0.7538   72.8   0.922  -15.2  0.3510   15.0  0.3890  160.6
 5.700  0.7541   71.6   0.907  -16.3  0.3555   13.9  0.3949  159.6
 5.800  0.7546   70.5   0.892  -17.4  0.3601   12.8  0.4010  158.6
 5.900  0.7555   69.3   0.877  -18.6  0.3648   11.7  0.4073  157.6
 6.000  0.7567   68.1   0.863  -19.8  0.3696   10.7  0.4136  156.7
!
!  f       NFmin   Gammaopt  rn/50
! GHz       dB    MAG  ANG    -
 0.450      1.12  0.30 -176   0.36
 0.900      1.19  0.37 -175   0.07
 1.900      1.81  0.57 -138   0.16
 2.400      2.15  0.62 -122   0.35
!
! (c) 2017  Infineon Technologies AG, Munich