! Infineon Technologies  Discrete & RF Semiconductors
! BFP193
! VCE =  5.0 V,  IC =  55 mA
! Common Emitter S-Parameters:                            Jan 2017
# GHz  S  MA  R  50
!  f         S11            S21            S12            S22
! GHz     MAG   ANG      MAG   ANG      MAG   ANG      MAG   ANG
 0.010  0.1950  -38.1  76.464  170.2  0.0021   90.3  0.9509   -9.1
 0.020  0.2460  -66.8  74.499  161.2  0.0044   77.5  0.9111  -18.7
 0.030  0.2721  -86.0  68.505  155.0  0.0062   70.9  0.8414  -25.2
 0.040  0.3223 -100.6  63.462  147.7  0.0080   67.2  0.7842  -32.7
 0.050  0.3874 -110.8  59.612  139.3  0.0098   64.9  0.7424  -41.2
 0.060  0.3994 -117.9  55.265  136.4  0.0108   63.9  0.6888  -44.2
 0.070  0.4171 -124.5  51.080  133.1  0.0118   63.1  0.6375  -47.7
 0.080  0.4399 -130.5  47.100  129.2  0.0129   62.5  0.5890  -51.8
 0.090  0.4670 -135.9  43.380  124.5  0.0139   61.9  0.5440  -56.7
 0.100  0.4977 -140.6  39.994  119.1  0.0149   61.4  0.5036  -62.3
 0.110  0.5020 -143.5  37.681  117.5  0.0156   61.0  0.4753  -64.0
 0.120  0.5075 -146.4  35.400  115.8  0.0163   60.7  0.4475  -65.9
 0.130  0.5143 -149.2  33.158  113.7  0.0170   60.4  0.4202  -68.0
 0.140  0.5223 -152.0  30.962  111.4  0.0177   60.1  0.3936  -70.4
 0.150  0.5315 -154.6  28.824  108.8  0.0184   59.8  0.3678  -73.2
 0.200  0.5488 -162.4  22.320  102.5  0.0213   63.6  0.2906  -80.2
 0.250  0.5590 -168.3  18.131   97.8  0.0253   64.4  0.2408  -85.0
 0.300  0.5611 -172.2  15.221   94.7  0.0290   66.3  0.2062  -89.4
 0.350  0.5629 -175.2  13.384   92.5  0.0328   67.1  0.1853  -92.2
 0.400  0.5663 -178.2  11.575   89.5  0.0366   67.7  0.1649  -95.7
 0.450  0.5686  179.3  10.428   87.8  0.0402   68.1  0.1531  -98.3
 0.500  0.5720  176.9   9.293   85.6  0.0438   68.5  0.1417 -101.3
 0.600  0.5754  172.7   7.790   82.2  0.0518   69.1  0.1259 -106.7
 0.700  0.5792  169.5   6.689   79.2  0.0594   69.8  0.1161 -110.8
 0.800  0.5814  166.0   5.866   76.1  0.0680   69.0  0.1115 -114.7
 0.900  0.5825  163.0   5.210   73.4  0.0756   68.2  0.1095 -119.0
 1.000  0.5859  159.8   4.715   70.7  0.0834   67.6  0.1069 -123.3
 1.100  0.5914  156.7   4.297   68.2  0.0914   66.6  0.1079 -126.0
 1.200  0.5934  153.9   3.943   65.5  0.0989   65.5  0.1087 -129.1
 1.300  0.5964  151.0   3.647   63.1  0.1063   64.6  0.1117 -132.2
 1.400  0.5990  148.3   3.401   60.6  0.1142   63.6  0.1150 -135.8
 1.500  0.6053  145.7   3.175   58.2  0.1222   62.4  0.1190 -138.6
 1.600  0.6098  142.8   2.986   55.7  0.1298   61.0  0.1243 -140.6
 1.700  0.6133  140.1   2.819   53.3  0.1373   59.9  0.1306 -143.7
 1.800  0.6191  137.4   2.674   50.9  0.1444   58.6  0.1373 -146.2
 1.900  0.6226  134.9   2.536   48.7  0.1521   57.6  0.1435 -148.6
 2.000  0.6258  132.4   2.408   46.2  0.1591   56.1  0.1506 -150.4
 2.100  0.6307  129.8   2.297   44.1  0.1661   54.8  0.1580 -152.7
 2.200  0.6368  127.2   2.190   41.7  0.1732   53.6  0.1656 -154.8
 2.300  0.6406  125.0   2.101   39.6  0.1804   52.3  0.1736 -156.2
 2.400  0.6454  122.9   2.014   37.4  0.1876   51.1  0.1817 -157.4
 2.500  0.6506  120.7   1.936   35.4  0.1939   49.7  0.1901 -159.3
 2.600  0.6567  118.6   1.861   33.3  0.2004   48.3  0.1986 -161.1
 2.700  0.6619  116.5   1.795   31.4  0.2066   47.0  0.2057 -162.6
 2.800  0.6679  114.5   1.731   29.3  0.2129   45.8  0.2130 -164.0
 2.900  0.6722  112.4   1.673   27.4  0.2191   44.5  0.2194 -166.0
 3.000  0.6774  110.4   1.617   25.4  0.2254   43.3  0.2261 -167.9
 3.100  0.6806  108.6   1.570   23.8  0.2309   42.0  0.2308 -169.7
 3.200  0.6844  106.7   1.524   22.0  0.2366   40.8  0.2357 -171.5
 3.300  0.6890  104.9   1.480   20.2  0.2424   39.6  0.2409 -173.2
 3.400  0.6942  103.1   1.438   18.3  0.2482   38.5  0.2462 -174.8
 3.500  0.7001  101.4   1.397   16.2  0.2542   37.4  0.2517 -176.3
 3.600  0.7034   99.8   1.362   14.6  0.2595   36.1  0.2565 -178.4
 3.700  0.7072   98.3   1.328   13.0  0.2649   34.9  0.2616  179.5
 3.800  0.7115   96.7   1.296   11.3  0.2704   33.7  0.2670  177.6
 3.900  0.7164   95.2   1.264    9.5  0.2761   32.5  0.2728  175.7
 4.000  0.7217   93.7   1.234    7.6  0.2818   31.4  0.2788  173.9
 4.100  0.7235   92.2   1.206    6.2  0.2869   30.1  0.2846  171.7
 4.200  0.7257   90.7   1.179    4.7  0.2921   28.8  0.2908  169.6
 4.300  0.7285   89.2   1.153    3.1  0.2975   27.6  0.2974  167.6
 4.400  0.7317   87.8   1.128    1.4  0.3030   26.4  0.3043  165.6
 4.500  0.7354   86.3   1.104   -0.3  0.3086   25.3  0.3116  163.8
 4.600  0.7384   85.0   1.081   -1.6  0.3133   24.1  0.3191  162.1
 4.700  0.7418   83.6   1.059   -2.9  0.3182   23.0  0.3268  160.5
 4.800  0.7456   82.3   1.038   -4.3  0.3232   21.8  0.3348  159.0
 4.900  0.7497   81.0   1.017   -5.7  0.3283   20.8  0.3431  157.5
 5.000  0.7543   79.7   0.997   -7.2  0.3335   19.7  0.3515  156.1
 5.100  0.7545   78.4   0.981   -8.4  0.3378   18.5  0.3597  155.0
 5.200  0.7551   77.1   0.966   -9.6  0.3423   17.3  0.3680  154.0
 5.300  0.7561   75.7   0.951  -10.9  0.3469   16.1  0.3764  153.0
 5.400  0.7575   74.4   0.937  -12.2  0.3517   15.0  0.3849  152.1
 5.500  0.7593   73.1   0.923  -13.6  0.3566   13.9  0.3935  151.2
 5.600  0.7588   71.9   0.908  -14.7  0.3605   12.7  0.3983  150.3
 5.700  0.7586   70.8   0.894  -15.8  0.3646   11.6  0.4032  149.5
 5.800  0.7587   69.6   0.880  -16.9  0.3689   10.5  0.4081  148.7
 5.900  0.7592   68.5   0.866  -18.1  0.3732    9.4  0.4132  147.9
 6.000  0.7599   67.3   0.853  -19.3  0.3777    8.4  0.4183  147.1
!
!  f       NFmin   Gammaopt  rn/50
! GHz       dB    MAG  ANG    -
 0.450      1.60  0.45 -170   0.09
 0.900      1.65  0.47 -163   0.09
 1.900      2.29  0.62 -131   0.25
 2.400      2.64  0.64 -118   0.51
!
! (c) 2017  Infineon Technologies AG, Munich