! Infineon Technologies  Discrete & RF Semiconductors
! BFP193
! VCE =  1.0 V,  IC =  50 mA
! Common Emitter S-Parameters:                            Jan 2017
# GHz  S  MA  R  50
!  f         S11            S21            S12            S22
! GHz     MAG   ANG      MAG   ANG      MAG   ANG      MAG   ANG
 0.010  0.1923  -86.3  66.398  165.5  0.0038   76.6  0.8288  -17.6
 0.020  0.3436 -108.8  61.581  152.8  0.0071   68.4  0.7697  -34.5
 0.030  0.4056 -122.8  54.124  146.4  0.0091   61.4  0.6729  -43.8
 0.040  0.4851 -132.7  47.559  138.0  0.0111   57.0  0.5994  -55.9
 0.050  0.5748 -139.7  42.305  127.3  0.0132   53.9  0.5585  -70.4
 0.060  0.5901 -144.1  38.660  125.0  0.0141   53.4  0.5126  -74.9
 0.070  0.6088 -148.3  35.090  122.2  0.0151   52.9  0.4705  -80.3
 0.080  0.6306 -152.3  31.621  118.8  0.0160   52.5  0.4334  -86.7
 0.090  0.6551 -155.9  28.290  114.6  0.0170   52.1  0.4026  -94.2
 0.100  0.6821 -159.3  25.153  109.3  0.0179   51.8  0.3797 -102.7
 0.110  0.6856 -161.1  23.574  108.1  0.0187   52.4  0.3633 -105.8
 0.120  0.6898 -162.9  22.007  106.7  0.0196   53.0  0.3480 -109.1
 0.130  0.6947 -164.7  20.454  105.2  0.0204   53.5  0.3340 -112.7
 0.140  0.7002 -166.4  18.918  103.3  0.0213   54.0  0.3214 -116.7
 0.150  0.7063 -168.1  17.406  101.2  0.0221   54.4  0.3105 -120.9
 0.200  0.7177 -173.1  13.242   96.1  0.0251   57.9  0.2796 -132.9
 0.250  0.7239 -176.9  10.664   92.3  0.0300   60.5  0.2628 -141.0
 0.300  0.7230 -179.6   8.917   89.6  0.0338   62.0  0.2531 -147.5
 0.350  0.7241  178.0   7.822   87.6  0.0384   63.9  0.2481 -151.5
 0.400  0.7265  175.7   6.740   85.0  0.0431   65.4  0.2444 -155.7
 0.450  0.7274  173.7   6.067   83.3  0.0478   65.9  0.2427 -158.5
 0.500  0.7291  171.8   5.401   81.2  0.0526   66.3  0.2416 -161.3
 0.600  0.7320  168.5   4.522   77.8  0.0615   66.3  0.2419 -165.5
 0.700  0.7322  165.5   3.884   74.9  0.0700   67.1  0.2413 -168.9
 0.800  0.7341  162.3   3.409   71.7  0.0799   66.6  0.2432 -171.1
 0.900  0.7344  159.3   3.033   68.8  0.0888   65.6  0.2459 -173.2
 1.000  0.7382  156.6   2.747   66.0  0.0979   64.9  0.2488 -175.4
 1.100  0.7405  153.7   2.507   63.3  0.1073   63.8  0.2515 -176.8
 1.200  0.7408  150.8   2.306   60.5  0.1155   62.6  0.2541 -178.3
 1.300  0.7435  148.2   2.139   57.9  0.1248   61.7  0.2589 -179.5
 1.400  0.7453  145.4   2.001   55.2  0.1339   60.3  0.2648  178.9
 1.500  0.7503  142.9   1.869   52.6  0.1426   59.2  0.2696  177.8
 1.600  0.7523  140.1   1.766   50.0  0.1513   57.9  0.2738  176.9
 1.700  0.7542  137.4   1.670   47.5  0.1601   56.4  0.2810  175.9
 1.800  0.7606  134.7   1.589   44.8  0.1681   55.0  0.2877  174.7
 1.900  0.7621  132.1   1.511   42.5  0.1761   53.7  0.2937  173.8
 2.000  0.7633  129.6   1.438   40.0  0.1842   52.4  0.3000  173.1
 2.100  0.7662  127.0   1.375   37.8  0.1918   50.9  0.3067  172.0
 2.200  0.7706  124.4   1.315   35.3  0.1996   49.6  0.3135  171.0
 2.300  0.7720  122.1   1.266   33.2  0.2074   48.1  0.3199  170.3
 2.400  0.7745  119.9   1.218   31.0  0.2154   46.7  0.3263  169.7
 2.500  0.7768  117.7   1.174   29.0  0.2222   45.2  0.3336  168.7
 2.600  0.7802  115.6   1.132   26.8  0.2292   43.8  0.3410  167.8
 2.700  0.7829  113.5   1.094   25.0  0.2356   42.4  0.3465  166.9
 2.800  0.7867  111.4   1.058   23.0  0.2422   41.0  0.3520  166.1
 2.900  0.7886  109.4   1.026   21.2  0.2485   39.7  0.3579  164.9
 3.000  0.7914  107.5   0.995   19.2  0.2550   38.4  0.3640  163.7
 3.100  0.7921  105.6   0.970   17.7  0.2606   37.0  0.3680  162.4
 3.200  0.7936  103.8   0.945   16.1  0.2664   35.8  0.3721  161.1
 3.300  0.7960  101.9   0.921   14.4  0.2723   34.5  0.3765  159.8
 3.400  0.7991  100.1   0.898   12.6  0.2784   33.3  0.3810  158.6
 3.500  0.8031   98.3   0.876   10.7  0.2845   32.2  0.3857  157.4
 3.600  0.8037   96.7   0.857    9.3  0.2898   30.9  0.3904  155.9
 3.700  0.8049   95.1   0.839    7.9  0.2952   29.6  0.3954  154.5
 3.800  0.8068   93.5   0.821    6.4  0.3008   28.3  0.4007  153.1
 3.900  0.8093   91.9   0.804    4.8  0.3065   27.1  0.4061  151.7
 4.000  0.8124   90.3   0.787    3.2  0.3123   26.0  0.4118  150.4
 4.100  0.8119   88.8   0.772    2.0  0.3173   24.7  0.4177  148.8
 4.200  0.8120   87.3   0.758    0.7  0.3225   23.4  0.4240  147.3
 4.300  0.8126   85.8   0.744   -0.6  0.3279   22.2  0.4305  145.8
 4.400  0.8138   84.3   0.730   -2.0  0.3334   21.0  0.4373  144.4
 4.500  0.8155   82.8   0.717   -3.4  0.3390   19.8  0.4444  143.0
 4.600  0.8163   81.5   0.706   -4.4  0.3434   18.6  0.4509  141.8
 4.700  0.8176   80.3   0.695   -5.5  0.3479   17.4  0.4577  140.6
 4.800  0.8192   79.0   0.684   -6.5  0.3526   16.3  0.4646  139.4
 4.900  0.8212   77.7   0.673   -7.7  0.3574   15.2  0.4717  138.3
 5.000  0.8236   76.5   0.663   -8.8  0.3624   14.1  0.4790  137.2
 5.100  0.8221   75.2   0.656   -9.8  0.3665   12.9  0.4855  136.4
 5.200  0.8210   73.9   0.650  -10.7  0.3708   11.7  0.4920  135.6
 5.300  0.8203   72.5   0.643  -11.7  0.3752   10.5  0.4987  134.9
 5.400  0.8201   71.2   0.637  -12.8  0.3798    9.3  0.5054  134.1
 5.500  0.8203   69.9   0.631  -13.8  0.3845    8.2  0.5122  133.4
 5.600  0.8187   68.8   0.624  -14.7  0.3881    7.1  0.5150  132.7
 5.700  0.8174   67.6   0.618  -15.6  0.3918    6.0  0.5179  132.0
 5.800  0.8164   66.5   0.611  -16.5  0.3957    4.9  0.5208  131.3
 5.900  0.8157   65.3   0.605  -17.4  0.3997    3.8  0.5239  130.6
 6.000  0.8154   64.2   0.599  -18.4  0.4038    2.8  0.5270  129.9
!
!  f       NFmin   Gammaopt  rn/50
! GHz       dB    MAG  ANG    -
 0.450      1.52  0.43 -170   0.08
 0.900      1.57  0.45 -164   0.09
 1.900      2.20  0.61 -132   0.23
 2.400      2.55  0.64 -119   0.48
!
! (c) 2017  Infineon Technologies AG, Munich