! Infineon Technologies  Discrete & RF Semiconductors
! BFP193
! VCE =  1.0 V,  IC = 0.11 A
! Common Emitter S-Parameters:                            Jan 2017
# GHz  S  MA  R  50
!  f         S11            S21            S12            S22
! GHz     MAG   ANG      MAG   ANG      MAG   ANG      MAG   ANG
 0.010  0.4980 -154.2  42.338  153.4  0.0053   56.6  0.3391  -58.5
 0.020  0.6755 -156.7  33.648  134.9  0.0082   53.1  0.3717  -96.5
 0.030  0.7232 -161.1  27.832  129.9  0.0095   49.3  0.3571 -111.9
 0.040  0.7748 -165.0  22.339  122.3  0.0109   46.4  0.3692 -127.4
 0.050  0.8294 -168.4  17.478  110.2  0.0123   44.2  0.4057 -141.0
 0.060  0.8359 -170.0  15.789  108.7  0.0132   46.7  0.4040 -144.9
 0.070  0.8431 -171.5  14.113  106.9  0.0141   48.9  0.4042 -148.9
 0.080  0.8508 -173.0  12.455  104.6  0.0150   50.9  0.4063 -152.8
 0.090  0.8591 -174.5  10.823  101.6  0.0159   52.6  0.4103 -156.7
 0.100  0.8680 -175.9   9.231   97.6  0.0169   54.1  0.4162 -160.5
 0.110  0.8690 -176.6   8.624   96.8  0.0177   55.6  0.4158 -161.9
 0.120  0.8702 -177.3   8.019   95.9  0.0185   56.9  0.4156 -163.3
 0.130  0.8715 -178.1   7.416   94.9  0.0193   58.1  0.4157 -164.7
 0.140  0.8729 -178.8   6.816   93.7  0.0201   59.3  0.4160 -166.1
 0.150  0.8745 -179.5   6.220   92.2  0.0209   60.3  0.4166 -167.5
 0.200  0.8768  178.0   4.678   88.1  0.0261   64.8  0.4184 -171.4
 0.250  0.8748  175.8   3.746   85.0  0.0319   65.5  0.4177 -173.8
 0.300  0.8732  174.0   3.130   82.4  0.0364   67.7  0.4182 -175.9
 0.350  0.8727  172.4   2.745   80.3  0.0420   68.9  0.4190 -177.1
 0.400  0.8730  170.7   2.365   77.6  0.0477   69.8  0.4199 -178.3
 0.450  0.8723  169.1   2.131   75.7  0.0528   69.9  0.4207 -179.3
 0.500  0.8723  167.5   1.900   73.4  0.0580   69.9  0.4216  179.7
 0.600  0.8750  164.6   1.599   69.5  0.0694   69.2  0.4259  178.0
 0.700  0.8743  162.0   1.382   66.0  0.0793   69.5  0.4258  176.4
 0.800  0.8741  159.1   1.219   62.1  0.0914   68.5  0.4300  175.2
 0.900  0.8721  156.3   1.094   58.8  0.1012   67.1  0.4337  174.0
 1.000  0.8748  153.6   0.997   55.5  0.1125   65.9  0.4381  172.6
 1.100  0.8771  151.0   0.921   52.4  0.1227   64.7  0.4418  171.5
 1.200  0.8748  148.1   0.854   49.2  0.1326   63.1  0.4454  170.2
 1.300  0.8781  145.5   0.799   46.4  0.1433   61.7  0.4507  169.2
 1.400  0.8797  142.8   0.755   43.5  0.1540   60.3  0.4574  167.9
 1.500  0.8810  140.1   0.713   40.9  0.1638   58.7  0.4633  166.7
 1.600  0.8841  137.3   0.678   38.1  0.1738   57.1  0.4680  165.8
 1.700  0.8830  134.6   0.649   35.7  0.1837   55.5  0.4754  164.8
 1.800  0.8882  131.8   0.624   33.2  0.1932   54.0  0.4826  163.5
 1.900  0.8877  129.3   0.599   31.3  0.2027   52.3  0.4882  162.4
 2.000  0.8860  126.7   0.575   29.0  0.2117   50.6  0.4942  161.4
 2.100  0.8860  124.0   0.556   27.2  0.2201   49.0  0.5010  160.2
 2.200  0.8878  121.4   0.538   25.2  0.2286   47.5  0.5080  159.0
 2.300  0.8867  119.2   0.524   23.6  0.2372   45.8  0.5133  158.0
 2.400  0.8869  116.9   0.510   22.0  0.2460   44.2  0.5188  157.1
 2.500  0.8870  114.6   0.497   20.6  0.2535   42.4  0.5253  156.0
 2.600  0.8884  112.4   0.484   19.2  0.2612   40.8  0.5320  154.9
 2.700  0.8881  110.3   0.475   18.0  0.2680   39.3  0.5358  153.8
 2.800  0.8889  108.2   0.466   16.8  0.2749   37.8  0.5398  152.7
 2.900  0.8879  106.2   0.457   15.7  0.2816   36.3  0.5450  151.3
 3.000  0.8880  104.2   0.449   14.6  0.2884   34.8  0.5506  150.0
 3.100  0.8857  102.3   0.444   13.7  0.2940   33.3  0.5526  148.6
 3.200  0.8844  100.4   0.439   12.8  0.2998   31.9  0.5550  147.3
 3.300  0.8840   98.6   0.435   11.9  0.3058   30.5  0.5576  145.9
 3.400  0.8846   96.7   0.430   11.0  0.3120   29.2  0.5606  144.6
 3.500  0.8861   94.8   0.426   10.0  0.3183   27.9  0.5638  143.3
 3.600  0.8839   93.2   0.424    9.3  0.3234   26.5  0.5668  141.8
 3.700  0.8825   91.6   0.421    8.5  0.3286   25.1  0.5702  140.4
 3.800  0.8817   90.0   0.419    7.7  0.3341   23.7  0.5740  139.0
 3.900  0.8816   88.4   0.417    7.0  0.3397   22.5  0.5781  137.6
 4.000  0.8822   86.8   0.415    6.2  0.3455   21.2  0.5825  136.2
 4.100  0.8789   85.3   0.414    5.4  0.3500   19.8  0.5864  134.7
 4.200  0.8761   83.9   0.414    4.6  0.3547   18.5  0.5908  133.3
 4.300  0.8739   82.4   0.413    3.9  0.3596   17.1  0.5955  131.8
 4.400  0.8723   80.9   0.412    3.1  0.3647   15.8  0.6006  130.4
 4.500  0.8713   79.4   0.412    2.3  0.3700   14.6  0.6060  129.0
 4.600  0.8702   78.1   0.412    1.6  0.3740   13.4  0.6097  127.8
 4.700  0.8695   76.9   0.412    1.0  0.3781   12.2  0.6137  126.7
 4.800  0.8692   75.6   0.412    0.3  0.3824   11.0  0.6180  125.5
 4.900  0.8693   74.4   0.413   -0.3  0.3868    9.8  0.6225  124.4
 5.000  0.8699   73.1   0.413   -1.0  0.3914    8.7  0.6272  123.3
 5.100  0.8669   71.9   0.416   -1.8  0.3948    7.5  0.6305  122.5
 5.200  0.8644   70.6   0.419   -2.6  0.3984    6.2  0.6340  121.7
 5.300  0.8622   69.3   0.422   -3.3  0.4022    5.0  0.6376  120.9
 5.400  0.8605   68.1   0.425   -4.1  0.4061    3.9  0.6413  120.1
 5.500  0.8592   66.8   0.428   -4.8  0.4102    2.7  0.6451  119.3
 5.600  0.8560   65.7   0.429   -5.5  0.4133    1.6  0.6445  118.5
 5.700  0.8531   64.6   0.431   -6.3  0.4165    0.4  0.6441  117.8
 5.800  0.8506   63.5   0.432   -7.0  0.4199   -0.7  0.6437  117.0
 5.900  0.8484   62.3   0.433   -7.7  0.4235   -1.7  0.6435  116.3
 6.000  0.8465   61.2   0.435   -8.4  0.4272   -2.8  0.6434  115.5
!
!  f       NFmin   Gammaopt  rn/50
! GHz       dB    MAG  ANG    -
!
! noise parameter not available yet for this operation point!
!
! (c) 2017  Infineon Technologies AG, Munich