! Infineon Technologies  Discrete & RF Semiconductors
! BFP193
! VCE =  6.0 V,  IC =  48 mA
! Common Emitter S-Parameters:                            Jan 2017
# GHz  S  MA  R  50
!  f         S11            S21            S12            S22
! GHz     MAG   ANG      MAG   ANG      MAG   ANG      MAG   ANG
 0.010  0.2541  -28.0  72.711  170.7  0.0023   84.4  0.9593   -8.3
 0.020  0.2882  -52.0  70.924  162.5  0.0042   80.8  0.9268  -17.2
 0.030  0.2966  -70.6  65.800  156.4  0.0061   73.0  0.8626  -23.3
 0.040  0.3330  -86.7  61.534  149.4  0.0080   68.9  0.8095  -30.3
 0.050  0.3897  -98.8  58.315  141.5  0.0100   66.4  0.7701  -38.1
 0.060  0.3962 -106.8  54.272  138.5  0.0111   64.8  0.7175  -41.1
 0.070  0.4101 -114.4  50.397  135.1  0.0122   63.4  0.6672  -44.5
 0.080  0.4307 -121.3  46.732  131.1  0.0133   62.3  0.6197  -48.5
 0.090  0.4570 -127.6  43.331  126.5  0.0144   61.3  0.5757  -53.1
 0.100  0.4881 -133.1  40.260  121.1  0.0155   60.5  0.5360  -58.5
 0.110  0.4907 -136.5  37.975  119.5  0.0162   60.3  0.5066  -60.1
 0.120  0.4951 -139.8  35.725  117.6  0.0169   60.2  0.4777  -62.0
 0.130  0.5010 -143.1  33.517  115.5  0.0176   60.0  0.4494  -64.0
 0.140  0.5086 -146.2  31.360  113.1  0.0183   59.9  0.4217  -66.3
 0.150  0.5176 -149.3  29.265  110.4  0.0190   59.8  0.3948  -69.0
 0.200  0.5372 -158.3  22.782  103.8  0.0218   62.2  0.3127  -75.5
 0.250  0.5455 -164.9  18.541   98.9  0.0256   62.4  0.2589  -79.8
 0.300  0.5477 -169.4  15.594   95.7  0.0285   64.2  0.2210  -83.6
 0.350  0.5504 -172.8  13.719   93.4  0.0324   65.4  0.1982  -85.9
 0.400  0.5551 -176.2  11.874   90.3  0.0364   66.3  0.1758  -88.8
 0.450  0.5564 -178.9  10.699   88.5  0.0402   66.7  0.1623  -90.9
 0.500  0.5589  178.5   9.538   86.2  0.0441   67.0  0.1491  -93.4
 0.600  0.5645  174.2   8.003   82.7  0.0517   68.1  0.1324  -97.9
 0.700  0.5657  170.6   6.869   79.8  0.0588   68.1  0.1197 -101.5
 0.800  0.5689  167.2   6.031   76.6  0.0670   68.1  0.1142 -105.0
 0.900  0.5689  163.8   5.355   73.9  0.0743   67.5  0.1104 -108.6
 1.000  0.5753  160.8   4.843   71.2  0.0823   66.8  0.1066 -113.2
 1.100  0.5798  157.5   4.414   68.7  0.0899   66.0  0.1063 -115.8
 1.200  0.5820  154.6   4.050   65.9  0.0975   65.1  0.1063 -119.2
 1.300  0.5845  151.6   3.748   63.5  0.1047   64.3  0.1091 -122.6
 1.400  0.5885  148.9   3.494   61.0  0.1131   63.2  0.1114 -126.6
 1.500  0.5930  146.3   3.262   58.6  0.1201   61.9  0.1147 -130.1
 1.600  0.5970  143.3   3.069   56.1  0.1280   60.7  0.1189 -132.3
 1.700  0.6012  140.7   2.895   53.8  0.1350   59.6  0.1257 -135.6
 1.800  0.6086  137.9   2.747   51.3  0.1423   58.4  0.1313 -138.8
 1.900  0.6117  135.3   2.605   49.2  0.1495   57.5  0.1369 -141.4
 2.000  0.6151  132.9   2.473   46.7  0.1563   56.0  0.1443 -143.7
 2.100  0.6203  130.2   2.360   44.5  0.1632   54.9  0.1514 -146.3
 2.200  0.6268  127.6   2.251   42.1  0.1702   53.8  0.1587 -148.7
 2.300  0.6310  125.4   2.158   40.0  0.1773   52.4  0.1665 -150.4
 2.400  0.6361  123.2   2.069   37.8  0.1844   51.1  0.1745 -152.0
 2.500  0.6411  121.0   1.989   35.8  0.1908   49.8  0.1828 -154.2
 2.600  0.6470  118.9   1.911   33.7  0.1973   48.5  0.1914 -156.3
 2.700  0.6521  116.8   1.843   31.8  0.2036   47.2  0.1984 -157.9
 2.800  0.6581  114.8   1.778   29.7  0.2100   46.0  0.2055 -159.4
 2.900  0.6626  112.7   1.719   27.8  0.2157   44.7  0.2117 -161.5
 3.000  0.6680  110.7   1.662   25.8  0.2216   43.4  0.2182 -163.5
 3.100  0.6713  108.9   1.613   24.2  0.2273   42.2  0.2228 -165.5
 3.200  0.6753  107.1   1.566   22.4  0.2330   41.0  0.2277 -167.3
 3.300  0.6799  105.3   1.520   20.6  0.2389   39.9  0.2328 -169.1
 3.400  0.6852  103.5   1.475   18.7  0.2449   38.8  0.2381 -170.9
 3.500  0.6911  101.8   1.433   16.6  0.2509   37.8  0.2436 -172.5
 3.600  0.6947  100.2   1.397   15.0  0.2562   36.5  0.2483 -174.7
 3.700  0.6989   98.6   1.362   13.4  0.2616   35.2  0.2533 -176.8
 3.800  0.7035   97.1   1.328   11.7  0.2672   34.1  0.2587 -178.9
 3.900  0.7087   95.5   1.295    9.9  0.2728   32.9  0.2643  179.2
 4.000  0.7144   94.0   1.264    8.0  0.2786   31.8  0.2703  177.3
 4.100  0.7163   92.5   1.236    6.5  0.2837   30.5  0.2760  175.0
 4.200  0.7187   91.0   1.208    5.0  0.2890   29.3  0.2822  172.8
 4.300  0.7216   89.5   1.181    3.4  0.2944   28.1  0.2887  170.7
 4.400  0.7250   88.1   1.156    1.7  0.3000   26.9  0.2956  168.7
 4.500  0.7288   86.6   1.131    0.0  0.3056   25.8  0.3029  166.8
 4.600  0.7320   85.3   1.108   -1.3  0.3104   24.6  0.3104  165.0
 4.700  0.7356   84.0   1.085   -2.6  0.3152   23.5  0.3181  163.3
 4.800  0.7395   82.7   1.064   -4.0  0.3202   22.3  0.3261  161.7
 4.900  0.7439   81.4   1.042   -5.5  0.3254   21.3  0.3344  160.2
 5.000  0.7486   80.1   1.022   -7.0  0.3306   20.2  0.3429  158.7
 5.100  0.7489   78.8   1.005   -8.2  0.3349   19.0  0.3512  157.6
 5.200  0.7496   77.4   0.989   -9.5  0.3394   17.8  0.3596  156.5
 5.300  0.7507   76.1   0.974  -10.8  0.3440   16.6  0.3682  155.4
 5.400  0.7522   74.7   0.959  -12.1  0.3487   15.5  0.3768  154.4
 5.500  0.7541   73.4   0.944  -13.5  0.3536   14.4  0.3856  153.5
 5.600  0.7539   72.2   0.929  -14.6  0.3576   13.3  0.3907  152.6
 5.700  0.7541   71.0   0.914  -15.7  0.3617   12.2  0.3958  151.8
 5.800  0.7545   69.8   0.899  -16.9  0.3659   11.1  0.4011  150.9
 5.900  0.7554   68.6   0.885  -18.1  0.3703   10.0  0.4064  150.1
 6.000  0.7565   67.4   0.871  -19.4  0.3748    9.0  0.4118  149.3
!
!  f       NFmin   Gammaopt  rn/50
! GHz       dB    MAG  ANG    -
 0.450      1.49  0.42 -171   0.08
 0.900      1.54  0.44 -164   0.08
 1.900      2.17  0.61 -132   0.22
 2.400      2.50  0.64 -119   0.47
!
! (c) 2017  Infineon Technologies AG, Munich