! Infineon Technologies  Discrete & RF Semiconductors
! BFP193
! VCE =  1.0 V,  IC =  35 mA
! Common Emitter S-Parameters:                            Jan 2017
# GHz  S  MA  R  50
!  f         S11            S21            S12            S22
! GHz     MAG   ANG      MAG   ANG      MAG   ANG      MAG   ANG
 0.010  0.2462  -41.6  62.535  169.2  0.0037   81.5  0.9304  -12.6
 0.020  0.3144  -71.1  60.294  159.1  0.0067   76.4  0.8889  -25.1
 0.030  0.3435  -90.6  54.761  152.7  0.0092   67.1  0.8051  -33.3
 0.040  0.4045 -105.6  50.062  144.9  0.0117   61.8  0.7413  -43.1
 0.050  0.4855 -116.2  46.452  135.8  0.0144   58.4  0.7029  -54.4
 0.060  0.4976 -122.9  42.864  133.0  0.0156   56.8  0.6479  -58.6
 0.070  0.5162 -129.2  39.392  129.8  0.0168   55.4  0.5970  -63.5
 0.080  0.5406 -135.0  36.071  125.9  0.0180   54.2  0.5513  -69.4
 0.090  0.5701 -140.3  32.946  121.3  0.0193   53.2  0.5123  -76.1
 0.100  0.6038 -145.0  30.078  115.8  0.0205   52.3  0.4816  -83.9
 0.110  0.6075 -147.7  28.286  114.4  0.0213   52.3  0.4565  -86.7
 0.120  0.6126 -150.4  26.515  112.7  0.0221   52.3  0.4326  -89.9
 0.130  0.6190 -153.0  24.768  110.8  0.0228   52.3  0.4102  -93.4
 0.140  0.6266 -155.5  23.052  108.7  0.0236   52.3  0.3895  -97.3
 0.150  0.6354 -158.0  21.373  106.2  0.0244   52.3  0.3708 -101.6
 0.200  0.6531 -165.2  16.448  100.1  0.0277   55.0  0.3151 -114.1
 0.250  0.6608 -170.7  13.301   95.7  0.0318   56.2  0.2814 -123.3
 0.300  0.6620 -174.4  11.173   92.7  0.0353   57.9  0.2610 -131.0
 0.350  0.6640 -177.3   9.812   90.5  0.0396   59.9  0.2494 -136.1
 0.400  0.6676  179.9   8.470   87.6  0.0439   61.5  0.2399 -141.6
 0.450  0.6684  177.5   7.628   85.8  0.0480   62.3  0.2348 -145.3
 0.500  0.6704  175.2   6.796   83.6  0.0521   63.0  0.2307 -149.2
 0.600  0.6739  171.3   5.693   80.1  0.0615   63.2  0.2262 -155.0
 0.700  0.6765  168.1   4.887   77.1  0.0691   64.5  0.2231 -159.4
 0.800  0.6791  164.9   4.286   73.8  0.0790   64.4  0.2235 -162.8
 0.900  0.6785  161.6   3.811   71.0  0.0875   63.5  0.2249 -165.6
 1.000  0.6835  158.7   3.450   68.2  0.0961   63.2  0.2276 -168.4
 1.100  0.6858  155.7   3.146   65.6  0.1051   62.4  0.2295 -170.3
 1.200  0.6880  152.7   2.891   62.8  0.1139   61.4  0.2318 -172.3
 1.300  0.6891  149.8   2.679   60.2  0.1225   60.4  0.2365 -173.9
 1.400  0.6938  147.1   2.502   57.6  0.1308   59.4  0.2414 -175.6
 1.500  0.6979  144.4   2.336   55.0  0.1394   58.0  0.2460 -177.1
 1.600  0.6994  141.6   2.202   52.4  0.1476   57.0  0.2506 -178.2
 1.700  0.7023  138.9   2.081   50.0  0.1562   55.7  0.2576 -179.4
 1.800  0.7099  136.2   1.978   47.4  0.1642   54.4  0.2640  179.4
 1.900  0.7118  133.6   1.877   45.2  0.1723   53.1  0.2702  178.1
 2.000  0.7122  131.1   1.784   42.6  0.1798   51.7  0.2770  177.3
 2.100  0.7168  128.5   1.705   40.4  0.1873   50.4  0.2839  176.1
 2.200  0.7229  125.9   1.628   37.9  0.1948   49.2  0.2909  175.0
 2.300  0.7255  123.7   1.564   35.8  0.2025   47.8  0.2974  174.2
 2.400  0.7291  121.5   1.503   33.5  0.2104   46.5  0.3040  173.5
 2.500  0.7319  119.3   1.447   31.5  0.2172   45.0  0.3114  172.4
 2.600  0.7358  117.1   1.393   29.4  0.2241   43.6  0.3190  171.4
 2.700  0.7396  115.0   1.346   27.5  0.2304   42.3  0.3248  170.5
 2.800  0.7443  112.9   1.300   25.4  0.2369   41.0  0.3307  169.6
 2.900  0.7470  110.8   1.259   23.6  0.2431   39.6  0.3365  168.3
 3.000  0.7506  108.8   1.219   21.6  0.2495   38.3  0.3424  167.0
 3.100  0.7522  107.0   1.186   20.0  0.2551   37.0  0.3464  165.6
 3.200  0.7547  105.1   1.153   18.3  0.2609   35.8  0.3507  164.3
 3.300  0.7579  103.3   1.122   16.5  0.2668   34.6  0.3551  162.9
 3.400  0.7618  101.5   1.092   14.6  0.2728   33.5  0.3597  161.7
 3.500  0.7665   99.7   1.063   12.6  0.2789   32.4  0.3645  160.4
 3.600  0.7681   98.1   1.038   11.1  0.2841   31.1  0.3692  158.8
 3.700  0.7704   96.5   1.015    9.6  0.2895   29.8  0.3741  157.3
 3.800  0.7732   94.9   0.992    8.0  0.2951   28.6  0.3793  155.8
 3.900  0.7766   93.4   0.969    6.3  0.3007   27.4  0.3848  154.3
 4.000  0.7806   91.8   0.948    4.6  0.3065   26.3  0.3905  152.9
 4.100  0.7807   90.3   0.929    3.3  0.3114   25.0  0.3963  151.3
 4.200  0.7814   88.8   0.910    1.9  0.3164   23.7  0.4023  149.7
 4.300  0.7826   87.3   0.892    0.4  0.3217   22.5  0.4087  148.1
 4.400  0.7843   85.9   0.874   -1.1  0.3270   21.3  0.4154  146.6
 4.500  0.7865   84.4   0.857   -2.7  0.3325   20.1  0.4223  145.2
 4.600  0.7882   83.1   0.842   -3.8  0.3370   18.9  0.4290  143.9
 4.700  0.7904   81.7   0.827   -5.0  0.3416   17.8  0.4358  142.7
 4.800  0.7930   80.4   0.812   -6.2  0.3464   16.6  0.4429  141.5
 4.900  0.7960   79.1   0.798   -7.4  0.3513   15.6  0.4501  140.4
 5.000  0.7994   77.8   0.784   -8.7  0.3563   14.5  0.4575  139.3
 5.100  0.7986   76.5   0.774   -9.8  0.3604   13.3  0.4640  138.5
 5.200  0.7981   75.2   0.765  -10.9  0.3646   12.1  0.4706  137.7
 5.300  0.7981   74.0   0.755  -12.0  0.3691   10.9  0.4773  136.9
 5.400  0.7984   72.7   0.747  -13.2  0.3736    9.8  0.4840  136.1
 5.500  0.7992   71.4   0.738  -14.4  0.3783    8.7  0.4909  135.4
 5.600  0.7981   70.2   0.729  -15.3  0.3819    7.6  0.4939  134.7
 5.700  0.7973   69.0   0.719  -16.2  0.3857    6.5  0.4969  134.0
 5.800  0.7968   67.9   0.710  -17.2  0.3895    5.5  0.5000  133.3
 5.900  0.7967   66.7   0.702  -18.2  0.3936    4.4  0.5032  132.7
 6.000  0.7969   65.5   0.693  -19.2  0.3977    3.4  0.5065  132.0
!
!  f       NFmin   Gammaopt  rn/50
! GHz       dB    MAG  ANG    -
 0.450      1.29  0.37 -172   0.08
 0.900      1.35  0.40 -169   0.08
 1.900      1.95  0.58 -135   0.18
 2.400      2.29  0.62 -120   0.40
!
! (c) 2017  Infineon Technologies AG, Munich