! Infineon Technologies  Discrete & RF Semiconductors
! BFP193
! VCE =  1.0 V,  IC =  60 mA
! Common Emitter S-Parameters:                            Jan 2017
# GHz  S  MA  R  50
!  f         S11            S21            S12            S22
! GHz     MAG   ANG      MAG   ANG      MAG   ANG      MAG   ANG
 0.010  0.2315 -112.1  63.792  162.7  0.0040   77.2  0.7189  -22.8
 0.020  0.4144 -125.0  57.133  148.1  0.0076   67.2  0.6494  -43.7
 0.030  0.4827 -135.9  49.137  141.9  0.0095   60.7  0.5570  -54.3
 0.040  0.5639 -143.9  41.929  133.5  0.0114   56.4  0.4905  -68.4
 0.050  0.6533 -149.8  35.985  121.9  0.0134   53.3  0.4612  -85.5
 0.060  0.6665 -153.2  32.715  119.9  0.0142   53.0  0.4268  -90.6
 0.070  0.6820 -156.6  29.495  117.4  0.0150   52.7  0.3964  -96.5
 0.080  0.6997 -159.7  26.343  114.3  0.0158   52.4  0.3709 -103.4
 0.090  0.7194 -162.7  23.287  110.4  0.0166   52.1  0.3514 -111.1
 0.100  0.7409 -165.5  20.371  105.4  0.0174   51.9  0.3389 -119.5
 0.110  0.7435 -166.9  19.064  104.4  0.0182   52.6  0.3289 -122.6
 0.120  0.7466 -168.3  17.763  103.2  0.0190   53.3  0.3198 -125.8
 0.130  0.7501 -169.6  16.472  101.8  0.0197   54.0  0.3119 -129.3
 0.140  0.7541 -171.0  15.191  100.2  0.0205   54.6  0.3051 -132.9
 0.150  0.7584 -172.3  13.925   98.3  0.0213   55.1  0.2996 -136.6
 0.200  0.7670 -176.4  10.551   93.7  0.0248   59.6  0.2843 -146.7
 0.250  0.7717 -179.6   8.468   90.3  0.0302   61.8  0.2756 -153.3
 0.300  0.7697  177.9   7.071   87.8  0.0338   63.6  0.2719 -158.3
 0.350  0.7709  175.8   6.201   85.9  0.0386   65.1  0.2697 -161.4
 0.400  0.7731  173.8   5.341   83.3  0.0434   66.3  0.2683 -164.6
 0.450  0.7736  172.0   4.807   81.7  0.0480   66.8  0.2680 -166.6
 0.500  0.7748  170.2   4.277   79.6  0.0527   67.2  0.2680 -168.7
 0.600  0.7755  167.1   3.585   76.2  0.0626   67.2  0.2696 -172.0
 0.700  0.7761  164.1   3.080   73.3  0.0714   67.4  0.2696 -174.6
 0.800  0.7772  161.3   2.704   70.0  0.0819   67.4  0.2727 -176.5
 0.900  0.7764  158.4   2.408   67.1  0.0909   66.0  0.2754 -178.1
 1.000  0.7794  155.5   2.185   64.2  0.1004   65.5  0.2788 -179.9
 1.100  0.7829  152.7   1.999   61.5  0.1096   64.3  0.2817  178.9
 1.200  0.7828  149.8   1.840   58.6  0.1190   62.8  0.2845  177.4
 1.300  0.7838  147.2   1.709   55.9  0.1280   61.7  0.2891  176.4
 1.400  0.7856  144.5   1.600   53.2  0.1372   60.6  0.2944  175.1
 1.500  0.7897  141.8   1.500   50.6  0.1458   59.1  0.2996  174.0
 1.600  0.7925  139.1   1.417   47.9  0.1549   57.6  0.3039  173.2
 1.700  0.7939  136.4   1.345   45.4  0.1634   56.5  0.3105  172.3
 1.800  0.7989  133.7   1.281   42.7  0.1723   54.9  0.3169  171.1
 1.900  0.8004  131.2   1.219   40.5  0.1803   53.6  0.3228  170.3
 2.000  0.8000  128.5   1.164   37.9  0.1885   52.0  0.3288  169.5
 2.100  0.8018  125.9   1.115   35.7  0.1960   50.5  0.3353  168.5
 2.200  0.8051  123.4   1.067   33.3  0.2036   49.2  0.3420  167.5
 2.300  0.8068  121.2   1.029   31.2  0.2118   47.7  0.3480  166.8
 2.400  0.8097  119.0   0.993   29.0  0.2202   46.3  0.3540  166.2
 2.500  0.8111  116.8   0.959   27.1  0.2271   44.8  0.3611  165.3
 2.600  0.8136  114.6   0.926   25.0  0.2341   43.3  0.3682  164.5
 2.700  0.8159  112.5   0.898   23.2  0.2405   41.9  0.3732  163.6
 2.800  0.8192  110.5   0.870   21.3  0.2471   40.6  0.3783  162.8
 2.900  0.8197  108.4   0.845   19.6  0.2534   39.2  0.3842  161.6
 3.000  0.8212  106.4   0.821   17.8  0.2599   37.8  0.3903  160.5
 3.100  0.8211  104.5   0.802   16.3  0.2656   36.4  0.3940  159.3
 3.200  0.8218  102.7   0.783   14.8  0.2714   35.2  0.3979  158.0
 3.300  0.8233  100.9   0.765   13.2  0.2774   33.9  0.4020  156.8
 3.400  0.8257   99.0   0.747   11.5  0.2835   32.7  0.4063  155.7
 3.500  0.8290   97.2   0.730    9.7  0.2897   31.6  0.4107  154.5
 3.600  0.8289   95.6   0.716    8.4  0.2950   30.3  0.4154  153.1
 3.700  0.8295   94.0   0.702    7.1  0.3005   29.0  0.4204  151.6
 3.800  0.8307   92.4   0.689    5.7  0.3061   27.7  0.4256  150.3
 3.900  0.8326   90.8   0.676    4.3  0.3118   26.5  0.4310  148.9
 4.000  0.8351   89.2   0.663    2.8  0.3177   25.4  0.4367  147.6
 4.100  0.8337   87.7   0.652    1.7  0.3226   24.1  0.4425  146.1
 4.200  0.8328   86.2   0.642    0.6  0.3277   22.8  0.4486  144.6
 4.300  0.8325   84.7   0.632   -0.6  0.3329   21.5  0.4550  143.2
 4.400  0.8328   83.2   0.622   -1.8  0.3383   20.3  0.4617  141.8
 4.500  0.8336   81.7   0.613   -3.1  0.3439   19.1  0.4687  140.4
 4.600  0.8342   80.4   0.605   -4.0  0.3483   17.9  0.4750  139.2
 4.700  0.8351   79.1   0.597   -4.9  0.3529   16.7  0.4816  138.0
 4.800  0.8365   77.8   0.589   -5.8  0.3576   15.6  0.4883  136.9
 4.900  0.8384   76.6   0.581   -6.8  0.3624   14.5  0.4953  135.8
 5.000  0.8406   75.3   0.574   -7.8  0.3674   13.4  0.5024  134.7
 5.100  0.8384   74.0   0.570   -8.7  0.3714   12.2  0.5085  133.9
 5.200  0.8365   72.7   0.566   -9.6  0.3756   11.0  0.5147  133.1
 5.300  0.8352   71.4   0.562  -10.5  0.3799    9.8  0.5210  132.4
 5.400  0.8342   70.1   0.558  -11.4  0.3844    8.6  0.5273  131.6
 5.500  0.8337   68.8   0.554  -12.3  0.3891    7.5  0.5338  130.9
 5.600  0.8315   67.7   0.550  -13.0  0.3927    6.4  0.5362  130.2
 5.700  0.8297   66.6   0.546  -13.8  0.3965    5.2  0.5386  129.5
 5.800  0.8281   65.5   0.542  -14.5  0.4004    4.1  0.5412  128.8
 5.900  0.8269   64.3   0.539  -15.3  0.4045    3.1  0.5438  128.1
 6.000  0.8260   63.2   0.535  -16.1  0.4087    2.0  0.5465  127.4
!
!  f       NFmin   Gammaopt  rn/50
! GHz       dB    MAG  ANG    -
 0.450      1.67  0.48 -170   0.10
 0.900      1.73  0.49 -163   0.10
 1.900      2.41  0.62 -131   0.27
 2.400      2.75  0.65 -118   0.56
!
! (c) 2017  Infineon Technologies AG, Munich