! Infineon Technologies  Discrete & RF Semiconductors
! BFP193
! VCE =  1.0 V,  IC =  40 mA
! Common Emitter S-Parameters:                            Jan 2017
# GHz  S  MA  R  50
!  f         S11            S21            S12            S22
! GHz     MAG   ANG      MAG   ANG      MAG   ANG      MAG   ANG
 0.010  0.2098  -54.3  65.111  168.1  0.0036   79.0  0.9074  -13.9
 0.020  0.3077  -85.2  62.425  157.2  0.0070   75.4  0.8608  -27.7
 0.030  0.3511 -103.1  56.037  150.7  0.0092   66.1  0.7710  -36.2
 0.040  0.4201 -116.1  50.540  142.7  0.0115   60.5  0.7022  -46.6
 0.050  0.5044 -125.1  46.253  133.0  0.0139   56.8  0.6610  -58.8
 0.060  0.5193 -131.0  42.546  130.4  0.0150   55.9  0.6079  -63.1
 0.070  0.5393 -136.5  38.943  127.3  0.0162   55.1  0.5588  -68.1
 0.080  0.5640 -141.6  35.478  123.6  0.0173   54.4  0.5148  -74.1
 0.090  0.5928 -146.2  32.193  119.1  0.0185   53.7  0.4775  -81.1
 0.100  0.6250 -150.4  29.151  113.6  0.0196   53.2  0.4483  -89.1
 0.110  0.6287 -152.8  27.377  112.2  0.0204   53.1  0.4255  -92.0
 0.120  0.6334 -155.1  25.620  110.7  0.0212   53.0  0.4040  -95.2
 0.130  0.6392 -157.4  23.884  108.9  0.0221   52.9  0.3838  -98.7
 0.140  0.6460 -159.7  22.175  106.9  0.0229   52.9  0.3652 -102.6
 0.150  0.6538 -161.9  20.499  104.5  0.0237   52.8  0.3485 -106.9
 0.200  0.6692 -168.2  15.711   98.8  0.0263   55.7  0.3000 -119.5
 0.250  0.6760 -172.9  12.691   94.6  0.0306   57.4  0.2721 -128.4
 0.300  0.6770 -176.3  10.645   91.7  0.0348   60.1  0.2552 -135.9
 0.350  0.6790 -179.0   9.344   89.6  0.0387   61.6  0.2460 -140.7
 0.400  0.6826  178.3   8.060   86.8  0.0426   62.8  0.2387 -145.9
 0.450  0.6831  176.1   7.257   85.1  0.0473   63.5  0.2344 -149.4
 0.500  0.6845  174.0   6.463   82.9  0.0520   64.1  0.2311 -153.0
 0.600  0.6892  170.3   5.415   79.4  0.0610   64.5  0.2288 -158.4
 0.700  0.6894  167.2   4.647   76.5  0.0693   65.6  0.2263 -162.4
 0.800  0.6939  163.9   4.079   73.2  0.0790   65.7  0.2277 -165.5
 0.900  0.6931  161.0   3.625   70.4  0.0875   64.7  0.2299 -168.0
 1.000  0.6951  157.9   3.282   67.6  0.0963   63.9  0.2321 -170.6
 1.100  0.6997  154.9   2.994   65.0  0.1055   63.3  0.2341 -172.3
 1.200  0.7006  152.1   2.751   62.2  0.1141   62.0  0.2367 -174.2
 1.300  0.7040  149.4   2.550   59.6  0.1228   60.8  0.2415 -175.6
 1.400  0.7061  146.6   2.381   57.0  0.1320   60.0  0.2469 -177.4
 1.500  0.7103  143.9   2.225   54.4  0.1401   58.5  0.2519 -178.8
 1.600  0.7141  141.1   2.098   51.8  0.1487   57.4  0.2566 -179.7
 1.700  0.7167  138.4   1.984   49.3  0.1573   56.2  0.2631  179.2
 1.800  0.7219  135.8   1.884   46.7  0.1650   54.8  0.2697  178.0
 1.900  0.7239  133.2   1.789   44.5  0.1733   53.5  0.2758  176.8
 2.000  0.7267  130.6   1.702   41.9  0.1812   52.1  0.2821  175.9
 2.100  0.7302  128.0   1.626   39.7  0.1887   50.7  0.2892  174.8
 2.200  0.7351  125.5   1.553   37.2  0.1964   49.4  0.2963  173.8
 2.300  0.7373  123.3   1.492   35.1  0.2040   47.9  0.3027  173.1
 2.400  0.7405  121.1   1.434   32.9  0.2117   46.6  0.3092  172.4
 2.500  0.7435  118.9   1.381   30.9  0.2186   45.2  0.3167  171.4
 2.600  0.7476  116.7   1.330   28.7  0.2256   43.8  0.3242  170.4
 2.700  0.7510  114.6   1.285   26.8  0.2321   42.5  0.3299  169.4
 2.800  0.7555  112.5   1.242   24.8  0.2387   41.2  0.3356  168.5
 2.900  0.7575  110.4   1.202   22.9  0.2448   39.8  0.3415  167.2
 3.000  0.7605  108.4   1.164   20.9  0.2510   38.5  0.3475  166.0
 3.100  0.7621  106.6   1.133   19.3  0.2567   37.2  0.3516  164.6
 3.200  0.7645  104.7   1.103   17.7  0.2625   35.9  0.3560  163.3
 3.300  0.7677  102.9   1.073   15.9  0.2685   34.7  0.3605  162.0
 3.400  0.7717  101.1   1.045   14.1  0.2745   33.5  0.3652  160.7
 3.500  0.7764   99.3   1.018   12.1  0.2807   32.4  0.3701  159.5
 3.600  0.7778   97.7   0.995   10.6  0.2859   31.1  0.3746  158.0
 3.700  0.7798   96.1   0.972    9.1  0.2913   29.8  0.3794  156.5
 3.800  0.7824   94.5   0.950    7.5  0.2969   28.5  0.3844  155.0
 3.900  0.7855   93.0   0.929    5.8  0.3025   27.3  0.3897  153.6
 4.000  0.7893   91.4   0.909    4.1  0.3083   26.2  0.3952  152.2
 4.100  0.7892   89.9   0.891    2.8  0.3132   24.9  0.4010  150.6
 4.200  0.7897   88.4   0.873    1.4  0.3183   23.7  0.4072  149.0
 4.300  0.7907   86.9   0.855    0.0  0.3235   22.5  0.4136  147.5
 4.400  0.7922   85.5   0.838   -1.5  0.3289   21.3  0.4203  146.0
 4.500  0.7942   84.0   0.822   -3.0  0.3344   20.2  0.4273  144.6
 4.600  0.7958   82.7   0.808   -4.1  0.3389   19.0  0.4339  143.3
 4.700  0.7978   81.3   0.794   -5.2  0.3435   17.8  0.4407  142.1
 4.800  0.8003   80.0   0.780   -6.4  0.3483   16.7  0.4477  140.9
 4.900  0.8032   78.7   0.767   -7.6  0.3532   15.6  0.4549  139.8
 5.000  0.8065   77.4   0.754   -8.8  0.3582   14.5  0.4623  138.7
 5.100  0.8056   76.1   0.745   -9.9  0.3622   13.3  0.4688  137.9
 5.200  0.8051   74.8   0.736  -11.0  0.3664   12.1  0.4755  137.1
 5.300  0.8051   73.5   0.728  -12.1  0.3708   10.9  0.4822  136.4
 5.400  0.8054   72.2   0.720  -13.3  0.3753    9.7  0.4890  135.6
 5.500  0.8062   70.9   0.712  -14.5  0.3800    8.6  0.4959  134.9
 5.600  0.8047   69.8   0.703  -15.4  0.3836    7.5  0.4987  134.2
 5.700  0.8035   68.6   0.695  -16.4  0.3874    6.4  0.5016  133.5
 5.800  0.8027   67.5   0.686  -17.3  0.3912    5.4  0.5046  132.8
 5.900  0.8021   66.3   0.678  -18.3  0.3953    4.3  0.5077  132.2
 6.000  0.8019   65.2   0.670  -19.3  0.3994    3.3  0.5108  131.5
!
!  f       NFmin   Gammaopt  rn/50
! GHz       dB    MAG  ANG    -
 0.450      1.38  0.38 -172   0.08
 0.900      1.43  0.41 -167   0.08
 1.900      2.05  0.59 -135   0.20
 2.400      2.37  0.63 -120   0.42
!
! (c) 2017  Infineon Technologies AG, Munich