! Infineon Technologies  Discrete & RF Semiconductors
! BFP193
! VCE =  10. V,  IC =  32 mA
! Common Emitter S-Parameters:                            Jan 2017
# GHz  S  MA  R  50
!  f         S11            S21            S12            S22
! GHz     MAG   ANG      MAG   ANG      MAG   ANG      MAG   ANG
 0.010  0.4335  -14.9  59.379  172.3  0.0022   87.1  0.9704   -6.3
 0.020  0.4450  -30.3  58.580  165.8  0.0047   80.6  0.9419  -13.0
 0.030  0.4275  -43.2  55.495  160.4  0.0067   74.0  0.8981  -18.1
 0.040  0.4328  -56.4  52.959  154.4  0.0087   70.4  0.8622  -23.8
 0.050  0.4599  -68.7  51.054  147.9  0.0108   68.2  0.8353  -29.8
 0.060  0.4491  -76.8  48.098  144.8  0.0122   65.5  0.7890  -32.7
 0.070  0.4478  -85.2  45.304  141.3  0.0136   63.4  0.7449  -35.9
 0.080  0.4560  -93.5  42.701  137.3  0.0150   61.6  0.7034  -39.5
 0.090  0.4732 -101.3  40.327  132.9  0.0165   60.2  0.6651  -43.5
 0.100  0.4984 -108.4  38.226  127.9  0.0179   59.0  0.6304  -48.0
 0.110  0.4950 -112.8  36.260  126.0  0.0187   58.2  0.5996  -49.6
 0.120  0.4945 -117.3  34.338  123.9  0.0195   57.4  0.5692  -51.3
 0.130  0.4970 -121.7  32.467  121.6  0.0203   56.7  0.5394  -53.2
 0.140  0.5025 -126.1  30.657  118.9  0.0211   56.0  0.5103  -55.3
 0.150  0.5108 -130.3  28.919  116.0  0.0219   55.4  0.4820  -57.7
 0.200  0.5242 -143.4  22.945  108.4  0.0245   56.0  0.3889  -63.3
 0.250  0.5286 -152.5  18.873  102.8  0.0278   55.5  0.3253  -66.5
 0.300  0.5310 -159.0  15.955   99.0  0.0308   57.1  0.2796  -69.0
 0.350  0.5316 -163.6  14.069   96.4  0.0339   59.1  0.2513  -70.2
 0.400  0.5356 -168.1  12.223   92.9  0.0370   60.7  0.2232  -71.6
 0.450  0.5367 -171.7  11.029   90.9  0.0403   61.3  0.2061  -72.6
 0.500  0.5398 -175.2   9.851   88.4  0.0436   61.8  0.1891  -73.8
 0.600  0.5426  179.5   8.274   84.5  0.0505   62.7  0.1662  -75.8
 0.700  0.5463  175.2   7.110   81.3  0.0567   64.1  0.1507  -77.1
 0.800  0.5494  171.1   6.243   78.0  0.0645   64.4  0.1407  -79.3
 0.900  0.5507  167.3   5.550   75.2  0.0713   64.6  0.1338  -81.8
 1.000  0.5552  164.0   5.022   72.4  0.0788   64.2  0.1271  -84.8
 1.100  0.5580  160.6   4.577   69.8  0.0856   63.6  0.1247  -86.9
 1.200  0.5612  157.2   4.201   67.0  0.0924   63.2  0.1223  -90.0
 1.300  0.5624  154.1   3.888   64.5  0.0994   62.2  0.1216  -93.4
 1.400  0.5681  151.3   3.624   61.9  0.1066   61.6  0.1210  -97.4
 1.500  0.5741  148.4   3.383   59.5  0.1139   60.8  0.1221 -100.9
 1.600  0.5775  145.3   3.182   57.0  0.1205   59.7  0.1245 -104.2
 1.700  0.5811  142.7   3.003   54.6  0.1277   58.9  0.1281 -108.7
 1.800  0.5879  139.7   2.850   52.1  0.1348   57.9  0.1308 -112.6
 1.900  0.5920  137.2   2.701   49.9  0.1413   56.8  0.1347 -116.3
 2.000  0.5954  134.4   2.566   47.4  0.1482   55.6  0.1405 -119.8
 2.100  0.6008  131.8   2.448   45.2  0.1547   54.5  0.1456 -123.4
 2.200  0.6074  129.2   2.334   42.8  0.1613   53.5  0.1512 -126.7
 2.300  0.6121  126.9   2.238   40.7  0.1682   52.5  0.1584 -129.5
 2.400  0.6178  124.7   2.146   38.5  0.1752   51.5  0.1660 -132.0
 2.500  0.6227  122.4   2.062   36.4  0.1813   50.2  0.1729 -135.1
 2.600  0.6285  120.2   1.981   34.2  0.1875   48.9  0.1803 -137.9
 2.700  0.6341  118.1   1.911   32.3  0.1934   47.7  0.1870 -140.2
 2.800  0.6406  116.0   1.843   30.2  0.1993   46.6  0.1939 -142.4
 2.900  0.6457  113.9   1.780   28.3  0.2052   45.4  0.1996 -145.0
 3.000  0.6516  111.9   1.719   26.3  0.2112   44.3  0.2056 -147.5
 3.100  0.6556  110.0   1.668   24.6  0.2169   43.1  0.2097 -149.8
 3.200  0.6602  108.2   1.619   22.9  0.2226   42.0  0.2141 -152.1
 3.300  0.6656  106.4   1.572   21.0  0.2285   41.0  0.2189 -154.2
 3.400  0.6716  104.6   1.526   19.0  0.2344   40.0  0.2239 -156.2
 3.500  0.6782  102.8   1.482   16.9  0.2404   39.0  0.2292 -158.2
 3.600  0.6820  101.2   1.444   15.3  0.2458   37.7  0.2333 -160.7
 3.700  0.6863   99.6   1.408   13.7  0.2512   36.5  0.2378 -163.2
 3.800  0.6911   98.0   1.373   11.9  0.2568   35.4  0.2427 -165.6
 3.900  0.6964   96.4   1.339   10.1  0.2625   34.3  0.2480 -167.8
 4.000  0.7023   94.9   1.306    8.2  0.2683   33.2  0.2537 -170.0
 4.100  0.7045   93.4   1.276    6.7  0.2735   31.9  0.2589 -172.6
 4.200  0.7073   91.9   1.247    5.1  0.2788   30.7  0.2647 -175.2
 4.300  0.7105   90.4   1.219    3.5  0.2843   29.6  0.2709 -177.6
 4.400  0.7142   89.0   1.192    1.8  0.2898   28.5  0.2777 -179.9
 4.500  0.7183   87.5   1.166    0.0  0.2955   27.4  0.2848  177.9
 4.600  0.7220   86.1   1.141   -1.3  0.3005   26.2  0.2923  175.7
 4.700  0.7261   84.7   1.117   -2.7  0.3056   25.1  0.3001  173.7
 4.800  0.7307   83.4   1.094   -4.1  0.3108   24.0  0.3083  171.8
 4.900  0.7356   82.0   1.071   -5.6  0.3161   22.9  0.3169  169.9
 5.000  0.7410   80.7   1.049   -7.1  0.3215   21.9  0.3257  168.2
 5.100  0.7413   79.4   1.032   -8.3  0.3261   20.7  0.3346  166.8
 5.200  0.7421   78.1   1.015   -9.6  0.3308   19.5  0.3437  165.5
 5.300  0.7432   76.8   0.998  -10.9  0.3356   18.4  0.3530  164.2
 5.400  0.7446   75.5   0.982  -12.3  0.3406   17.3  0.3625  163.0
 5.500  0.7465   74.2   0.967  -13.7  0.3457   16.2  0.3721  161.9
 5.600  0.7470   73.0   0.951  -14.8  0.3500   15.0  0.3778  160.8
 5.700  0.7478   71.7   0.935  -15.9  0.3543   13.9  0.3836  159.8
 5.800  0.7490   70.5   0.919  -17.1  0.3589   12.8  0.3895  158.8
 5.900  0.7505   69.3   0.904  -18.3  0.3635   11.7  0.3955  157.8
 6.000  0.7523   68.1   0.889  -19.6  0.3683   10.7  0.4017  156.9
!
!  f       NFmin   Gammaopt  rn/50
! GHz       dB    MAG  ANG    -
 0.450      1.24  0.35 -173   0.08
 0.900      1.30  0.39 -171   0.07
 1.900      1.92  0.58 -136   0.17
 2.400      2.25  0.62 -121   0.38
!
! (c) 2017  Infineon Technologies AG, Munich