! Infineon Technologies  Discrete & RF Semiconductors
! BFP193
! VCE =  10. V,  IC =  45 mA
! Common Emitter S-Parameters:                            Jan 2017
# GHz  S  MA  R  50
!  f         S11            S21            S12            S22
! GHz     MAG   ANG      MAG   ANG      MAG   ANG      MAG   ANG
 0.010  0.3537  -19.1  68.416  171.2  0.0022   81.7  0.9579   -7.1
 0.020  0.3719  -38.4  67.268  163.9  0.0042   86.8  0.9282  -14.7
 0.030  0.3621  -53.8  62.931  158.1  0.0061   74.8  0.8743  -20.3
 0.040  0.3786  -68.9  59.322  151.6  0.0081   68.7  0.8296  -26.5
 0.050  0.4184  -81.9  56.579  144.3  0.0102   65.0  0.7957  -33.3
 0.060  0.4145  -90.2  52.930  141.3  0.0113   63.4  0.7462  -36.1
 0.070  0.4195  -98.6  49.453  137.8  0.0124   62.0  0.6987  -39.3
 0.080  0.4330 -106.5  46.184  133.8  0.0135   60.9  0.6537  -43.0
 0.090  0.4543 -113.9  43.173  129.2  0.0147   59.9  0.6117  -47.1
 0.100  0.4824 -120.5  40.477  124.0  0.0158   59.1  0.5735  -51.9
 0.110  0.4823 -124.5  38.265  122.2  0.0166   58.7  0.5437  -53.3
 0.120  0.4846 -128.5  36.093  120.3  0.0173   58.3  0.5144  -55.0
 0.130  0.4892 -132.5  33.969  118.1  0.0181   57.9  0.4855  -56.8
 0.140  0.4961 -136.4  31.903  115.6  0.0188   57.6  0.4571  -58.8
 0.150  0.5052 -140.1  29.906  112.7  0.0196   57.3  0.4294  -61.1
 0.200  0.5209 -151.0  23.454  105.7  0.0223   59.6  0.3436  -66.3
 0.250  0.5268 -159.0  19.176  100.5  0.0259   59.1  0.2857  -69.1
 0.300  0.5277 -164.6  16.152   97.0  0.0287   60.5  0.2448  -71.4
 0.350  0.5304 -168.5  14.225   94.6  0.0322   62.3  0.2201  -72.5
 0.400  0.5355 -172.4  12.331   91.4  0.0357   63.7  0.1956  -73.9
 0.450  0.5373 -175.4  11.117   89.5  0.0393   64.8  0.1807  -74.9
 0.500  0.5406 -178.3   9.917   87.2  0.0429   65.7  0.1658  -76.1
 0.600  0.5427  176.7   8.324   83.6  0.0500   65.9  0.1460  -78.4
 0.700  0.5465  172.9   7.148   80.5  0.0568   67.0  0.1325  -79.9
 0.800  0.5491  169.1   6.275   77.3  0.0647   67.1  0.1258  -82.2
 0.900  0.5504  165.5   5.574   74.5  0.0713   66.5  0.1194  -85.0
 1.000  0.5540  162.3   5.043   71.8  0.0788   66.0  0.1138  -88.1
 1.100  0.5580  159.0   4.595   69.2  0.0863   65.4  0.1122  -90.6
 1.200  0.5618  155.9   4.219   66.5  0.0931   64.4  0.1110  -93.8
 1.300  0.5638  152.8   3.902   64.1  0.1004   63.7  0.1107  -97.3
 1.400  0.5675  150.1   3.638   61.6  0.1080   62.8  0.1108 -101.6
 1.500  0.5740  147.3   3.395   59.2  0.1150   61.7  0.1123 -105.3
 1.600  0.5777  144.4   3.195   56.6  0.1221   60.9  0.1156 -108.7
 1.700  0.5801  141.6   3.014   54.3  0.1294   59.9  0.1198 -113.0
 1.800  0.5887  138.9   2.860   51.8  0.1362   58.8  0.1236 -117.1
 1.900  0.5918  136.4   2.709   49.6  0.1430   57.6  0.1280 -120.5
 2.000  0.5964  133.7   2.574   47.2  0.1505   56.4  0.1346 -124.0
 2.100  0.6012  131.1   2.456   45.0  0.1570   55.2  0.1401 -127.5
 2.200  0.6073  128.5   2.342   42.5  0.1636   54.1  0.1461 -130.8
 2.300  0.6116  126.2   2.246   40.5  0.1705   52.9  0.1535 -133.4
 2.400  0.6169  124.0   2.153   38.3  0.1774   51.7  0.1611 -135.7
 2.500  0.6222  121.8   2.069   36.3  0.1837   50.4  0.1685 -138.6
 2.600  0.6284  119.7   1.988   34.1  0.1900   49.2  0.1763 -141.3
 2.700  0.6341  117.6   1.918   32.2  0.1960   48.0  0.1831 -143.5
 2.800  0.6407  115.5   1.850   30.1  0.2021   46.9  0.1901 -145.5
 2.900  0.6462  113.4   1.787   28.2  0.2079   45.7  0.1959 -148.1
 3.000  0.6525  111.4   1.726   26.1  0.2138   44.5  0.2020 -150.5
 3.100  0.6560  109.6   1.675   24.4  0.2194   43.3  0.2063 -152.8
 3.200  0.6602  107.7   1.626   22.7  0.2251   42.1  0.2108 -154.9
 3.300  0.6651  105.9   1.578   20.8  0.2309   41.0  0.2157 -157.0
 3.400  0.6706  104.1   1.532   18.8  0.2368   39.9  0.2208 -159.0
 3.500  0.6768  102.4   1.488   16.7  0.2428   38.9  0.2262 -160.9
 3.600  0.6805  100.8   1.450   15.1  0.2481   37.6  0.2304 -163.4
 3.700  0.6847   99.3   1.414   13.5  0.2536   36.4  0.2350 -165.8
 3.800  0.6895   97.7   1.379   11.8  0.2591   35.3  0.2401 -168.1
 3.900  0.6947   96.2   1.345   10.0  0.2648   34.2  0.2455 -170.3
 4.000  0.7004   94.7   1.312    8.1  0.2705   33.1  0.2512 -172.4
 4.100  0.7028   93.2   1.282    6.6  0.2757   31.8  0.2565 -175.0
 4.200  0.7057   91.7   1.252    5.0  0.2811   30.6  0.2624 -177.5
 4.300  0.7090   90.2   1.224    3.4  0.2866   29.4  0.2686 -179.8
 4.400  0.7128   88.8   1.196    1.7  0.2922   28.3  0.2754  177.9
 4.500  0.7171   87.3   1.170   -0.1  0.2979   27.2  0.2825  175.8
 4.600  0.7207   85.9   1.145   -1.4  0.3027   26.0  0.2899  173.7
 4.700  0.7247   84.6   1.122   -2.8  0.3076   24.9  0.2977  171.8
 4.800  0.7290   83.3   1.098   -4.2  0.3127   23.7  0.3059  169.9
 4.900  0.7338   82.0   1.076   -5.7  0.3178   22.6  0.3143  168.2
 5.000  0.7389   80.7   1.054   -7.2  0.3231   21.6  0.3230  166.5
 5.100  0.7392   79.4   1.037   -8.5  0.3276   20.4  0.3318  165.1
 5.200  0.7399   78.0   1.020   -9.8  0.3323   19.2  0.3407  163.9
 5.300  0.7410   76.7   1.004  -11.1  0.3370   18.1  0.3498  162.6
 5.400  0.7426   75.3   0.988  -12.6  0.3420   17.0  0.3590  161.5
 5.500  0.7445   74.0   0.973  -14.0  0.3470   15.9  0.3684  160.4
 5.600  0.7449   72.8   0.956  -15.1  0.3512   14.7  0.3740  159.4
 5.700  0.7456   71.6   0.940  -16.2  0.3555   13.6  0.3797  158.4
 5.800  0.7466   70.4   0.924  -17.4  0.3599   12.5  0.3856  157.5
 5.900  0.7479   69.3   0.909  -18.6  0.3645   11.4  0.3915  156.6
 6.000  0.7496   68.1   0.894  -19.8  0.3692   10.4  0.3975  155.7
!
!  f       NFmin   Gammaopt  rn/50
! GHz       dB    MAG  ANG    -
 0.450      1.45  0.40 -171   0.08
 0.900      1.49  0.43 -165   0.08
 1.900      2.13  0.59 -134   0.21
 2.400      2.45  0.63 -119   0.45
!
! (c) 2017  Infineon Technologies AG, Munich