! Infineon Technologies  Discrete & RF Semiconductors
! BFP193
! VCE =  4.0 V,  IC =  32 mA
! Common Emitter S-Parameters:                            Jan 2017
# GHz  S  MA  R  50
!  f         S11            S21            S12            S22
! GHz     MAG   ANG      MAG   ANG      MAG   ANG      MAG   ANG
 0.010  0.3299  -21.4  61.502  171.9  0.0025   83.6  0.9730   -7.8
 0.020  0.3527  -41.6  60.585  164.4  0.0052   78.2  0.9419  -15.8
 0.030  0.3486  -57.7  56.793  158.6  0.0074   71.5  0.8861  -21.8
 0.040  0.3716  -73.1  53.669  152.0  0.0097   67.9  0.8412  -28.5
 0.050  0.4172  -85.8  51.333  144.7  0.0120   65.7  0.8090  -35.8
 0.060  0.4180  -94.3  48.035  141.6  0.0132   63.3  0.7572  -39.0
 0.070  0.4279 -102.5  44.896  138.1  0.0144   61.3  0.7081  -42.7
 0.080  0.4461 -110.3  41.952  134.1  0.0156   59.6  0.6623  -46.9
 0.090  0.4717 -117.3  39.245  129.5  0.0168   58.2  0.6207  -51.7
 0.100  0.5037 -123.5  36.830  124.2  0.0180   56.9  0.5839  -57.1
 0.110  0.5055 -127.4  34.829  122.4  0.0188   56.3  0.5533  -59.0
 0.120  0.5096 -131.3  32.865  120.5  0.0195   55.8  0.5233  -61.0
 0.130  0.5161 -135.1  30.944  118.3  0.0203   55.3  0.4940  -63.4
 0.140  0.5247 -138.8  29.076  115.7  0.0210   54.8  0.4657  -66.0
 0.150  0.5354 -142.3  27.271  112.9  0.0218   54.4  0.4385  -68.9
 0.200  0.5556 -152.7  21.406  105.7  0.0249   57.1  0.3499  -76.6
 0.250  0.5627 -160.5  17.495  100.5  0.0287   56.5  0.2902  -81.9
 0.300  0.5652 -165.7  14.748   97.0  0.0318   59.0  0.2489  -86.6
 0.350  0.5674 -169.5  12.987   94.5  0.0351   60.6  0.2231  -89.5
 0.400  0.5721 -173.3  11.259   91.2  0.0385   61.9  0.1980  -93.2
 0.450  0.5730 -176.4  10.149   89.3  0.0422   62.7  0.1828  -96.0
 0.500  0.5756 -179.4   9.053   86.9  0.0460   63.3  0.1681  -99.2
 0.600  0.5801  176.2   7.598   83.2  0.0537   64.2  0.1491 -104.5
 0.700  0.5820  172.2   6.524   80.1  0.0607   65.1  0.1360 -108.8
 0.800  0.5872  168.4   5.729   76.9  0.0688   65.2  0.1298 -112.6
 0.900  0.5885  165.0   5.091   74.0  0.0760   65.0  0.1256 -116.9
 1.000  0.5920  161.7   4.605   71.2  0.0837   64.2  0.1215 -121.1
 1.100  0.5949  158.5   4.198   68.6  0.0913   63.9  0.1213 -124.1
 1.200  0.5991  155.4   3.853   65.9  0.0990   63.1  0.1215 -127.3
 1.300  0.6009  152.5   3.565   63.4  0.1065   62.2  0.1238 -130.4
 1.400  0.6038  149.7   3.326   60.8  0.1147   61.4  0.1262 -134.2
 1.500  0.6091  146.9   3.105   58.4  0.1217   60.2  0.1303 -137.2
 1.600  0.6130  144.0   2.922   55.8  0.1293   59.2  0.1348 -139.2
 1.700  0.6156  141.3   2.756   53.4  0.1371   58.2  0.1409 -142.2
 1.800  0.6232  138.4   2.616   50.9  0.1437   56.9  0.1467 -144.9
 1.900  0.6283  135.8   2.480   48.7  0.1509   55.9  0.1529 -147.3
 2.000  0.6303  133.3   2.356   46.2  0.1583   54.7  0.1605 -149.3
 2.100  0.6355  130.6   2.248   44.0  0.1651   53.5  0.1674 -151.6
 2.200  0.6421  128.0   2.144   41.6  0.1719   52.3  0.1745 -153.8
 2.300  0.6456  125.7   2.056   39.5  0.1790   51.1  0.1826 -155.3
 2.400  0.6500  123.5   1.971   37.2  0.1862   49.9  0.1909 -156.7
 2.500  0.6549  121.3   1.895   35.2  0.1929   48.6  0.1991 -158.7
 2.600  0.6607  119.2   1.821   33.0  0.1996   47.4  0.2075 -160.5
 2.700  0.6660  117.1   1.757   31.1  0.2057   46.2  0.2145 -162.0
 2.800  0.6721  115.0   1.695   29.0  0.2118   45.0  0.2217 -163.4
 2.900  0.6763  112.9   1.639   27.1  0.2178   43.7  0.2280 -165.4
 3.000  0.6813  110.9   1.584   25.1  0.2239   42.4  0.2345 -167.3
 3.100  0.6847  109.1   1.538   23.5  0.2296   41.2  0.2392 -169.2
 3.200  0.6888  107.2   1.493   21.7  0.2354   40.0  0.2442 -171.0
 3.300  0.6937  105.4   1.450   19.9  0.2412   38.9  0.2494 -172.7
 3.400  0.6991  103.6   1.408   17.9  0.2472   37.9  0.2549 -174.3
 3.500  0.7053  101.9   1.368   15.8  0.2532   36.9  0.2605 -175.9
 3.600  0.7083  100.3   1.334   14.3  0.2585   35.6  0.2653 -178.0
 3.700  0.7119   98.7   1.301   12.7  0.2640   34.4  0.2704  180.0
 3.800  0.7160   97.1   1.269   11.0  0.2695   33.2  0.2758  178.1
 3.900  0.7207   95.5   1.238    9.2  0.2752   32.1  0.2815  176.2
 4.000  0.7259   94.0   1.208    7.3  0.2810   31.0  0.2875  174.4
 4.100  0.7277   92.5   1.181    5.8  0.2862   29.7  0.2935  172.2
 4.200  0.7299   91.0   1.155    4.3  0.2915   28.5  0.2998  170.1
 4.300  0.7327   89.5   1.129    2.7  0.2970   27.3  0.3066  168.1
 4.400  0.7359   88.0   1.105    1.0  0.3026   26.1  0.3137  166.1
 4.500  0.7397   86.5   1.081   -0.7  0.3083   25.0  0.3212  164.3
 4.600  0.7428   85.2   1.059   -1.9  0.3131   23.8  0.3288  162.6
 4.700  0.7464   83.8   1.037   -3.3  0.3180   22.7  0.3367  160.9
 4.800  0.7503   82.5   1.016   -4.6  0.3231   21.5  0.3449  159.3
 4.900  0.7547   81.2   0.995   -6.0  0.3282   20.5  0.3533  157.8
 5.000  0.7594   79.9   0.975   -7.5  0.3335   19.4  0.3619  156.4
 5.100  0.7594   78.6   0.960   -8.7  0.3379   18.2  0.3702  155.3
 5.200  0.7598   77.2   0.945   -9.9  0.3424   17.0  0.3785  154.3
 5.300  0.7606   75.9   0.931  -11.2  0.3470   15.8  0.3871  153.3
 5.400  0.7618   74.5   0.917  -12.5  0.3518   14.7  0.3957  152.3
 5.500  0.7635   73.2   0.904  -13.9  0.3567   13.6  0.4044  151.4
 5.600  0.7630   72.0   0.890  -14.9  0.3606   12.5  0.4093  150.5
 5.700  0.7628   70.8   0.875  -16.0  0.3647   11.4  0.4143  149.7
 5.800  0.7629   69.7   0.862  -17.2  0.3689   10.3  0.4194  148.8
 5.900  0.7633   68.5   0.848  -18.3  0.3732    9.2  0.4245  148.0
 6.000  0.7641   67.3   0.835  -19.5  0.3776    8.2  0.4298  147.2
!
!  f       NFmin   Gammaopt  rn/50
! GHz       dB    MAG  ANG    -
 0.450      1.24  0.35 -173   0.08
 0.900      1.30  0.39 -171   0.07
 1.900      1.92  0.58 -136   0.17
 2.400      2.25  0.62 -121   0.38
!
! (c) 2017  Infineon Technologies AG, Munich