! Infineon Technologies  Discrete & RF Semiconductors
! BFP193
! VCE =  5.0 V,  IC =  92 mA
! Common Emitter S-Parameters:                            Jan 2017
# GHz  S  MA  R  50
!  f         S11            S21            S12            S22
! GHz     MAG   ANG      MAG   ANG      MAG   ANG      MAG   ANG
 0.010  0.1343  -91.7  81.069  167.9  0.0020   79.6  0.8765  -10.7
 0.020  0.2495 -108.5  77.168  157.0  0.0043   76.3  0.8262  -22.4
 0.030  0.3100 -121.6  69.174  150.4  0.0058   68.5  0.7441  -28.9
 0.040  0.3812 -130.1  62.314  142.3  0.0074   64.0  0.6740  -37.0
 0.050  0.4580 -135.8  56.998  132.4  0.0090   61.1  0.6199  -46.6
 0.060  0.4753 -140.6  52.344  129.8  0.0098   60.8  0.5704  -49.1
 0.070  0.4957 -145.1  47.814  126.8  0.0107   60.6  0.5223  -52.1
 0.080  0.5188 -149.1  43.446  123.1  0.0115   60.3  0.4759  -55.7
 0.090  0.5443 -152.8  39.296  118.7  0.0124   60.2  0.4318  -60.1
 0.100  0.5719 -156.2  35.439  113.2  0.0132   60.0  0.3907  -65.4
 0.110  0.5762 -158.2  33.272  111.9  0.0138   60.6  0.3680  -66.6
 0.120  0.5811 -160.1  31.126  110.4  0.0144   61.2  0.3456  -68.0
 0.130  0.5867 -162.0  29.005  108.6  0.0151   61.8  0.3233  -69.5
 0.140  0.5930 -163.9  26.914  106.6  0.0157   62.2  0.3013  -71.3
 0.150  0.5998 -165.7  24.861  104.3  0.0163   62.7  0.2797  -73.4
 0.200  0.6149 -171.0  19.023   98.8  0.0195   66.5  0.2199  -78.4
 0.250  0.6224 -175.2  15.363   94.7  0.0236   66.7  0.1828  -81.2
 0.300  0.6236 -178.1  12.862   92.0  0.0269   69.1  0.1568  -84.1
 0.350  0.6257  179.5  11.294   90.0  0.0307   70.6  0.1423  -85.9
 0.400  0.6289  177.2   9.745   87.3  0.0346   71.7  0.1279  -88.2
 0.450  0.6289  175.1   8.774   85.7  0.0385   71.8  0.1199  -90.1
 0.500  0.6298  173.0   7.813   83.6  0.0424   71.8  0.1121  -92.2
 0.600  0.6343  169.6   6.547   80.3  0.0502   71.4  0.1016  -96.3
 0.700  0.6357  166.6   5.617   77.5  0.0581   71.6  0.0956  -99.2
 0.800  0.6386  163.4   4.927   74.4  0.0664   71.3  0.0940 -102.8
 0.900  0.6401  160.4   4.377   71.7  0.0742   70.2  0.0936 -106.7
 1.000  0.6434  157.7   3.962   69.0  0.0816   69.7  0.0929 -111.1
 1.100  0.6470  154.8   3.612   66.5  0.0894   68.7  0.0951 -113.8
 1.200  0.6482  151.9   3.316   63.8  0.0974   67.4  0.0974 -117.3
 1.300  0.6517  149.1   3.070   61.3  0.1048   66.4  0.1015 -120.9
 1.400  0.6542  146.5   2.865   58.8  0.1135   65.4  0.1055 -125.2
 1.500  0.6585  143.9   2.675   56.3  0.1206   64.1  0.1101 -128.3
 1.600  0.6618  141.1   2.519   53.8  0.1280   62.8  0.1162 -130.6
 1.700  0.6653  138.4   2.379   51.3  0.1359   61.6  0.1237 -134.1
 1.800  0.6706  135.9   2.258   48.8  0.1435   60.4  0.1300 -137.4
 1.900  0.6745  133.4   2.141   46.7  0.1504   59.1  0.1370 -139.9
 2.000  0.6782  130.9   2.035   44.1  0.1579   57.7  0.1455 -142.2
 2.100  0.6819  128.3   1.943   41.9  0.1647   56.4  0.1534 -144.9
 2.200  0.6870  125.8   1.854   39.5  0.1716   55.2  0.1616 -147.4
 2.300  0.6901  123.6   1.779   37.4  0.1789   53.8  0.1703 -149.1
 2.400  0.6942  121.4   1.706   35.2  0.1863   52.6  0.1792 -150.6
 2.500  0.6983  119.2   1.641   33.2  0.1928   51.2  0.1882 -152.9
 2.600  0.7034  117.1   1.578   31.0  0.1995   49.9  0.1974 -154.9
 2.700  0.7078  115.0   1.523   29.1  0.2058   48.6  0.2050 -156.5
 2.800  0.7132  113.0   1.470   27.0  0.2122   47.3  0.2127 -158.0
 2.900  0.7166  111.0   1.421   25.1  0.2183   46.0  0.2197 -160.2
 3.000  0.7209  109.0   1.374   23.1  0.2246   44.7  0.2270 -162.2
 3.100  0.7234  107.2   1.335   21.5  0.2304   43.4  0.2323 -164.2
 3.200  0.7267  105.3   1.297   19.8  0.2363   42.2  0.2378 -166.0
 3.300  0.7306  103.5   1.260   18.0  0.2422   41.0  0.2435 -167.8
 3.400  0.7353  101.8   1.224   16.0  0.2483   39.9  0.2495 -169.5
 3.500  0.7407  100.0   1.190   14.0  0.2545   38.8  0.2557 -171.1
 3.600  0.7429   98.4   1.161   12.5  0.2600   37.5  0.2610 -173.3
 3.700  0.7458   96.8   1.132   10.9  0.2656   36.2  0.2667 -175.4
 3.800  0.7491   95.3   1.105    9.3  0.2714   35.0  0.2727 -177.4
 3.900  0.7530   93.7   1.078    7.5  0.2772   33.8  0.2790 -179.3
 4.000  0.7575   92.2   1.053    5.7  0.2832   32.7  0.2856  178.9
 4.100  0.7584   90.7   1.030    4.3  0.2886   31.4  0.2918  176.5
 4.200  0.7599   89.2   1.008    2.8  0.2941   30.1  0.2984  174.3
 4.300  0.7618   87.7   0.986    1.3  0.2997   28.9  0.3054  172.1
 4.400  0.7643   86.2   0.965   -0.3  0.3055   27.7  0.3129  170.1
 4.500  0.7673   84.7   0.945   -2.0  0.3114   26.6  0.3208  168.1
 4.600  0.7696   83.4   0.927   -3.2  0.3163   25.4  0.3287  166.2
 4.700  0.7724   82.1   0.908   -4.4  0.3213   24.2  0.3369  164.5
 4.800  0.7755   80.8   0.891   -5.7  0.3264   23.0  0.3454  162.8
 4.900  0.7791   79.5   0.874   -7.1  0.3317   21.9  0.3542  161.2
 5.000  0.7830   78.2   0.857   -8.5  0.3371   20.8  0.3632  159.7
 5.100  0.7827   76.9   0.844   -9.6  0.3416   19.5  0.3721  158.5
 5.200  0.7828   75.6   0.832  -10.8  0.3463   18.3  0.3811  157.3
 5.300  0.7834   74.2   0.820  -11.9  0.3511   17.1  0.3903  156.2
 5.400  0.7843   72.9   0.808  -13.2  0.3561   15.9  0.3996  155.1
 5.500  0.7857   71.6   0.797  -14.4  0.3612   14.8  0.4091  154.1
 5.600  0.7849   70.4   0.785  -15.4  0.3653   13.6  0.4144  153.2
 5.700  0.7844   69.3   0.773  -16.4  0.3695   12.5  0.4197  152.2
 5.800  0.7843   68.1   0.761  -17.4  0.3739   11.4  0.4252  151.3
 5.900  0.7844   67.0   0.749  -18.5  0.3784   10.3  0.4308  150.5
 6.000  0.7849   65.8   0.738  -19.6  0.3830    9.3  0.4365  149.6
!
!  f       NFmin   Gammaopt  rn/50
! GHz       dB    MAG  ANG    -
!
! noise parameter not available yet for this operation point!
!
! (c) 2017  Infineon Technologies AG, Munich