! Infineon Technologies  Discrete & RF Semiconductors
! BFP193
! VCE =  1.0 V,  IC =  25 mA
! Common Emitter S-Parameters:                            Jan 2017
# GHz  S  MA  R  50
!  f         S11            S21            S12            S22
! GHz     MAG   ANG      MAG   ANG      MAG   ANG      MAG   ANG
 0.010  0.3614  -24.9  53.743  171.1  0.0037   79.9  0.9604  -10.2
 0.020  0.3911  -47.9  52.883  162.6  0.0076   81.1  0.9243  -20.5
 0.030  0.3902  -65.3  48.981  156.5  0.0104   70.7  0.8568  -28.0
 0.040  0.4235  -81.3  45.729  149.4  0.0135   64.8  0.8061  -36.5
 0.050  0.4840  -94.1  43.271  141.4  0.0166   61.1  0.7756  -46.0
 0.060  0.4862 -102.2  40.257  138.4  0.0181   58.5  0.7202  -50.1
 0.070  0.4980 -110.1  37.371  134.9  0.0196   56.4  0.6690  -54.8
 0.080  0.5186 -117.4  34.643  130.9  0.0211   54.5  0.6232  -60.3
 0.090  0.5470 -124.1  32.115  126.2  0.0226   52.9  0.5840  -66.6
 0.100  0.5822 -130.1  29.837  120.8  0.0242   51.5  0.5527  -73.7
 0.110  0.5841 -133.7  28.150  119.1  0.0250   50.8  0.5237  -76.4
 0.120  0.5883 -137.3  26.490  117.3  0.0259   50.1  0.4960  -79.4
 0.130  0.5948 -140.8  24.862  115.2  0.0267   49.5  0.4699  -82.8
 0.140  0.6034 -144.2  23.273  112.8  0.0276   48.9  0.4455  -86.5
 0.150  0.6141 -147.5  21.730  110.0  0.0284   48.4  0.4233  -90.7
 0.200  0.6345 -157.2  16.909  103.2  0.0311   49.9  0.3516 -103.0
 0.250  0.6419 -164.1  13.750   98.2  0.0351   50.6  0.3066 -112.2
 0.300  0.6456 -168.7  11.582   94.8  0.0381   52.8  0.2771 -120.1
 0.350  0.6469 -172.3  10.182   92.4  0.0420   54.2  0.2599 -125.5
 0.400  0.6506 -175.8   8.806   89.3  0.0460   55.3  0.2454 -131.6
 0.450  0.6513 -178.6   7.934   87.4  0.0498   56.8  0.2367 -135.7
 0.500  0.6536  178.7   7.074   85.0  0.0537   58.1  0.2292 -140.0
 0.600  0.6588  174.1   5.933   81.3  0.0618   59.3  0.2218 -146.8
 0.700  0.6603  170.6   5.096   78.2  0.0694   60.4  0.2161 -151.9
 0.800  0.6614  166.9   4.469   74.8  0.0789   60.9  0.2152 -155.8
 0.900  0.6623  163.4   3.974   71.9  0.0870   60.6  0.2153 -159.1
 1.000  0.6668  160.3   3.597   69.1  0.0953   60.2  0.2166 -162.5
 1.100  0.6711  157.2   3.281   66.3  0.1035   59.9  0.2180 -164.6
 1.200  0.6726  154.2   3.015   63.5  0.1121   59.0  0.2207 -167.0
 1.300  0.6734  151.1   2.791   61.0  0.1203   58.2  0.2244 -168.9
 1.400  0.6761  148.4   2.606   58.3  0.1291   57.5  0.2296 -171.0
 1.500  0.6819  145.7   2.435   55.7  0.1372   56.4  0.2343 -172.6
 1.600  0.6851  142.9   2.295   53.1  0.1453   55.3  0.2389 -173.8
 1.700  0.6881  140.0   2.168   50.6  0.1537   54.4  0.2457 -175.2
 1.800  0.6944  137.3   2.060   48.0  0.1616   53.0  0.2524 -176.7
 1.900  0.6976  134.6   1.954   45.8  0.1690   51.8  0.2585 -177.9
 2.000  0.6984  132.1   1.857   43.2  0.1771   50.6  0.2651 -179.0
 2.100  0.7029  129.4   1.775   41.0  0.1841   49.4  0.2721  179.7
 2.200  0.7089  126.8   1.695   38.5  0.1912   48.2  0.2792  178.5
 2.300  0.7111  124.5   1.627   36.4  0.1989   47.0  0.2861  177.7
 2.400  0.7144  122.3   1.562   34.1  0.2067   45.8  0.2931  176.9
 2.500  0.7183  120.1   1.504   32.1  0.2134   44.4  0.3007  175.7
 2.600  0.7232  117.9   1.448   29.9  0.2202   43.1  0.3084  174.6
 2.700  0.7273  115.8   1.398   28.0  0.2266   41.8  0.3144  173.6
 2.800  0.7323  113.7   1.350   25.9  0.2331   40.6  0.3205  172.6
 2.900  0.7359  111.6   1.306   24.0  0.2393   39.3  0.3264  171.2
 3.000  0.7404  109.5   1.264   22.0  0.2456   38.0  0.3325  169.9
 3.100  0.7421  107.6   1.229   20.4  0.2512   36.7  0.3368  168.5
 3.200  0.7446  105.8   1.195   18.7  0.2569   35.5  0.3413  167.1
 3.300  0.7479  103.9   1.163   16.9  0.2627   34.4  0.3460  165.7
 3.400  0.7519  102.1   1.131   15.0  0.2687   33.3  0.3509  164.4
 3.500  0.7567  100.3   1.101   13.0  0.2747   32.2  0.3560  163.1
 3.600  0.7586   98.7   1.075   11.5  0.2800   30.9  0.3607  161.5
 3.700  0.7611   97.1   1.050    9.9  0.2855   29.7  0.3657  159.9
 3.800  0.7641   95.5   1.026    8.3  0.2910   28.5  0.3709  158.3
 3.900  0.7678   94.0   1.003    6.6  0.2967   27.4  0.3764  156.9
 4.000  0.7720   92.4   0.981    4.8  0.3025   26.3  0.3822  155.4
 4.100  0.7724   90.9   0.960    3.4  0.3075   25.0  0.3880  153.7
 4.200  0.7732   89.4   0.940    2.0  0.3126   23.7  0.3942  152.0
 4.300  0.7747   87.9   0.921    0.5  0.3179   22.5  0.4007  150.4
 4.400  0.7766   86.4   0.902   -1.0  0.3233   21.3  0.4075  148.9
 4.500  0.7791   84.9   0.884   -2.6  0.3289   20.2  0.4146  147.4
 4.600  0.7812   83.6   0.868   -3.7  0.3334   19.0  0.4215  146.1
 4.700  0.7836   82.2   0.852   -4.9  0.3381   17.9  0.4286  144.8
 4.800  0.7866   80.9   0.837   -6.1  0.3429   16.8  0.4359  143.6
 4.900  0.7899   79.6   0.822   -7.4  0.3478   15.7  0.4433  142.4
 5.000  0.7936   78.3   0.807   -8.7  0.3528   14.7  0.4510  141.3
 5.100  0.7927   77.0   0.797   -9.8  0.3569   13.5  0.4578  140.5
 5.200  0.7922   75.7   0.786  -10.9  0.3612   12.3  0.4648  139.6
 5.300  0.7922   74.3   0.777  -12.1  0.3656   11.2  0.4718  138.8
 5.400  0.7925   73.0   0.767  -13.3  0.3701   10.1  0.4789  138.1
 5.500  0.7933   71.7   0.758  -14.5  0.3748    9.0  0.4861  137.3
 5.600  0.7919   70.5   0.748  -15.4  0.3786    7.9  0.4893  136.5
 5.700  0.7908   69.4   0.738  -16.4  0.3825    6.8  0.4925  135.8
 5.800  0.7901   68.2   0.729  -17.4  0.3865    5.8  0.4958  135.1
 5.900  0.7897   67.1   0.719  -18.4  0.3907    4.7  0.4992  134.3
 6.000  0.7896   65.9   0.710  -19.5  0.3950    3.7  0.5027  133.6
!
!  f       NFmin   Gammaopt  rn/50
! GHz       dB    MAG  ANG    -
 0.450      1.12  0.30 -176   0.36
 0.900      1.19  0.37 -175   0.07
 1.900      1.81  0.57 -138   0.16
 2.400      2.15  0.62 -122   0.35
!
! (c) 2017  Infineon Technologies AG, Munich