! Infineon Technologies  Discrete & RF Semiconductors
! BFP193
! VCE =  4.0 V,  IC =  8.0 mA
! Common Emitter S-Parameters:                            Jan 2017
# GHz  S  MA  R  50
!  f         S11            S21            S12            S22
! GHz     MAG   ANG      MAG   ANG      MAG   ANG      MAG   ANG
 0.010  0.7368   -7.1  24.482  176.1  0.0028   84.8  1.0000   -3.4
 0.020  0.7453  -14.2  24.573  172.3  0.0070   86.7  0.9857   -6.9
 0.030  0.7266  -20.7  24.082  168.6  0.0104   79.7  0.9699  -10.0
 0.040  0.7176  -27.4  23.694  164.8  0.0139   76.1  0.9570  -13.2
 0.050  0.7187  -34.2  23.414  160.9  0.0174   74.0  0.9472  -16.5
 0.060  0.7010  -39.9  22.756  158.0  0.0201   70.3  0.9218  -19.0
 0.070  0.6907  -45.9  22.160  154.9  0.0229   67.6  0.8982  -21.6
 0.080  0.6880  -52.0  21.631  151.7  0.0257   65.4  0.8766  -24.3
 0.090  0.6930  -58.0  21.174  148.3  0.0285   63.6  0.8571  -27.2
 0.100  0.7056  -63.9  20.794  144.8  0.0314   62.2  0.8398  -30.2
 0.110  0.6904  -68.3  20.101  142.6  0.0330   59.8  0.8146  -31.9
 0.120  0.6794  -72.8  19.440  140.2  0.0347   57.6  0.7902  -33.8
 0.130  0.6729  -77.5  18.815  137.6  0.0364   55.6  0.7667  -35.8
 0.140  0.6709  -82.3  18.231  134.9  0.0382   53.8  0.7441  -37.9
 0.150  0.6735  -87.0  17.690  132.0  0.0400   52.2  0.7226  -40.1
 0.200  0.6608 -104.8  15.120  122.6  0.0455   47.2  0.6245  -46.9
 0.250  0.6481 -118.6  13.008  114.9  0.0497   43.5  0.5440  -51.4
 0.300  0.6391 -129.1  11.326  109.4  0.0529   41.0  0.4810  -54.7
 0.350  0.6288 -136.7  10.110  105.6  0.0552   40.3  0.4376  -56.5
 0.400  0.6298 -144.4   8.952  100.7  0.0575   39.7  0.3948  -58.6
 0.450  0.6248 -150.0   8.127   97.8  0.0592   39.6  0.3671  -59.8
 0.500  0.6258 -155.6   7.328   94.3  0.0610   39.5  0.3396  -61.2
 0.600  0.6241 -163.8   6.210   89.0  0.0654   40.4  0.3023  -63.0
 0.700  0.6242 -170.5   5.365   84.7  0.0679   40.9  0.2765  -64.2
 0.800  0.6246 -176.5   4.731   80.5  0.0724   42.7  0.2588  -66.0
 0.900  0.6246  178.4   4.219   76.8  0.0769   43.4  0.2455  -67.8
 1.000  0.6277  173.7   3.823   73.4  0.0812   44.8  0.2347  -69.7
 1.100  0.6300  169.5   3.490   70.1  0.0854   45.9  0.2283  -71.8
 1.200  0.6328  165.5   3.210   66.8  0.0899   46.4  0.2225  -74.2
 1.300  0.6339  161.7   2.972   63.9  0.0949   47.1  0.2192  -76.8
 1.400  0.6388  158.2   2.775   60.9  0.1001   47.9  0.2160  -79.9
 1.500  0.6439  154.8   2.593   58.0  0.1055   48.2  0.2142  -82.8
 1.600  0.6483  151.4   2.440   55.1  0.1105   48.2  0.2147  -85.8
 1.700  0.6516  148.1   2.305   52.3  0.1165   48.6  0.2152  -89.4
 1.800  0.6574  145.0   2.189   49.5  0.1213   48.6  0.2162  -92.8
 1.900  0.6627  142.0   2.076   47.1  0.1272   48.5  0.2184  -96.1
 2.000  0.6668  138.9   1.972   44.2  0.1329   48.5  0.2222  -99.5
 2.100  0.6714  136.0   1.882   41.8  0.1386   48.2  0.2258 -103.0
 2.200  0.6776  133.2   1.796   39.1  0.1443   48.0  0.2302 -106.3
 2.300  0.6812  130.6   1.722   36.8  0.1507   47.7  0.2364 -109.5
 2.400  0.6861  128.1   1.651   34.3  0.1571   47.4  0.2433 -112.5
 2.500  0.6912  125.6   1.586   32.1  0.1630   46.7  0.2496 -115.7
 2.600  0.6976  123.2   1.523   29.7  0.1690   46.0  0.2566 -118.8
 2.700  0.7031  120.9   1.468   27.6  0.1750   45.4  0.2634 -121.6
 2.800  0.7097  118.6   1.415   25.3  0.1810   44.9  0.2708 -124.2
 2.900  0.7141  116.3   1.367   23.2  0.1872   44.1  0.2760 -127.0
 3.000  0.7197  114.1   1.320   21.0  0.1935   43.4  0.2819 -129.7
 3.100  0.7226  112.1   1.280   19.3  0.1996   42.6  0.2866 -132.4
 3.200  0.7265  110.1   1.241   17.5  0.2057   41.8  0.2919 -135.0
 3.300  0.7312  108.1   1.204   15.7  0.2118   41.1  0.2978 -137.6
 3.400  0.7368  106.1   1.168   13.6  0.2180   40.4  0.3042 -140.0
 3.500  0.7432  104.2   1.133   11.5  0.2242   39.8  0.3112 -142.3
 3.600  0.7461  102.4   1.103    9.9  0.2304   38.8  0.3154 -145.1
 3.700  0.7497  100.7   1.074    8.3  0.2368   37.8  0.3204 -147.9
 3.800  0.7540   98.9   1.046    6.6  0.2431   36.8  0.3261 -150.5
 3.900  0.7590   97.2   1.019    4.7  0.2496   35.9  0.3325 -153.1
 4.000  0.7647   95.5   0.993    2.8  0.2561   35.1  0.3395 -155.5
 4.100  0.7662   93.9   0.970    1.4  0.2624   33.9  0.3449 -158.5
 4.200  0.7683   92.3   0.947   -0.1  0.2689   32.8  0.3512 -161.3
 4.300  0.7710   90.7   0.925   -1.6  0.2754   31.7  0.3583 -164.1
 4.400  0.7743   89.1   0.904   -3.2  0.2821   30.7  0.3663 -166.8
 4.500  0.7782   87.5   0.883   -4.9  0.2888   29.7  0.3750 -169.3
 4.600  0.7806   86.1   0.864   -6.1  0.2948   28.5  0.3828 -171.9
 4.700  0.7835   84.7   0.845   -7.3  0.3008   27.4  0.3914 -174.4
 4.800  0.7868   83.3   0.826   -8.5  0.3070   26.3  0.4006 -176.8
 4.900  0.7906   81.9   0.808   -9.8  0.3133   25.3  0.4106 -179.0
 5.000  0.7949   80.5   0.790  -11.2  0.3197   24.3  0.4211  178.8
 5.100  0.7946   79.1   0.776  -12.2  0.3253   23.0  0.4306  176.8
 5.200  0.7949   77.7   0.763  -13.3  0.3310   21.8  0.4407  174.9
 5.300  0.7956   76.3   0.750  -14.4  0.3369   20.6  0.4512  173.0
 5.400  0.7968   74.9   0.737  -15.6  0.3429   19.5  0.4622  171.3
 5.500  0.7984   73.5   0.725  -16.8  0.3490   18.4  0.4736  169.6
 5.600  0.7975   72.2   0.713  -17.6  0.3540   17.2  0.4801  168.1
 5.700  0.7971   71.0   0.701  -18.5  0.3592   16.0  0.4869  166.6
 5.800  0.7970   69.7   0.690  -19.4  0.3645   14.8  0.4940  165.1
 5.900  0.7973   68.5   0.678  -20.3  0.3700   13.7  0.5015  163.7
 6.000  0.7980   67.2   0.667  -21.2  0.3756   12.6  0.5092  162.3
!
!  f       NFmin   Gammaopt  rn/50
! GHz       dB    MAG  ANG    -
 0.450      0.85  0.21  129   0.09
 0.900      0.97  0.36  162   0.07
 1.900      1.79  0.58 -148   0.12
 2.400      2.19  0.64 -129   0.31
!
! (c) 2017  Infineon Technologies AG, Munich