! Infineon Technologies  Discrete & RF Semiconductors
! BFP193
! VCE =  2.0 V,  IC =  8.0 mA
! Common Emitter S-Parameters:                            Jan 2017
# GHz  S  MA  R  50
!  f         S11            S21            S12            S22
! GHz     MAG   ANG      MAG   ANG      MAG   ANG      MAG   ANG
 0.010  0.7253   -8.0  24.602  175.9  0.0039   85.4  0.9981   -4.0
 0.020  0.7389  -15.6  24.870  171.7  0.0077   85.7  0.9823   -8.1
 0.030  0.7178  -22.7  24.245  167.8  0.0120   77.9  0.9635  -11.7
 0.040  0.7083  -30.1  23.738  163.7  0.0164   74.3  0.9487  -15.5
 0.050  0.7108  -37.6  23.356  159.5  0.0208   72.2  0.9382  -19.4
 0.060  0.6917  -43.7  22.612  156.5  0.0237   68.7  0.9089  -22.2
 0.070  0.6808  -50.1  21.934  153.3  0.0266   66.0  0.8819  -25.2
 0.080  0.6787  -56.6  21.330  149.9  0.0296   63.8  0.8575  -28.3
 0.090  0.6853  -63.1  20.806  146.3  0.0326   62.0  0.8357  -31.6
 0.100  0.7005  -69.4  20.367  142.5  0.0356   60.5  0.8169  -35.1
 0.110  0.6856  -73.9  19.635  140.3  0.0374   58.2  0.7889  -37.1
 0.120  0.6752  -78.7  18.935  137.8  0.0392   56.1  0.7619  -39.2
 0.130  0.6695  -83.5  18.271  135.3  0.0411   54.2  0.7360  -41.4
 0.140  0.6686  -88.3  17.647  132.5  0.0430   52.5  0.7113  -43.8
 0.150  0.6725  -93.2  17.068  129.5  0.0450   50.9  0.6879  -46.4
 0.200  0.6656 -110.9  14.416  120.1  0.0504   44.8  0.5861  -54.4
 0.250  0.6570 -124.3  12.305  112.6  0.0550   41.4  0.5042  -59.9
 0.300  0.6495 -134.3  10.661  107.3  0.0574   39.3  0.4415  -64.1
 0.350  0.6420 -141.5   9.490  103.6  0.0597   38.3  0.3985  -66.6
 0.400  0.6448 -148.7   8.371   98.8  0.0621   37.4  0.3564  -69.8
 0.450  0.6408 -153.9   7.589   96.0  0.0639   37.7  0.3291  -71.7
 0.500  0.6422 -159.2   6.830   92.6  0.0657   38.0  0.3023  -74.0
 0.600  0.6441 -167.1   5.776   87.5  0.0704   38.6  0.2658  -77.3
 0.700  0.6426 -173.3   4.983   83.2  0.0735   40.0  0.2403  -79.8
 0.800  0.6446 -178.9   4.393   79.1  0.0785   41.6  0.2241  -82.5
 0.900  0.6452  176.3   3.913   75.5  0.0828   42.3  0.2112  -85.4
 1.000  0.6473  171.7   3.547   72.0  0.0870   43.4  0.2018  -88.4
 1.100  0.6502  167.7   3.239   68.8  0.0923   44.2  0.1963  -90.9
 1.200  0.6526  163.7   2.977   65.5  0.0975   44.7  0.1922  -93.9
 1.300  0.6535  160.1   2.757   62.6  0.1027   45.4  0.1903  -97.2
 1.400  0.6579  156.8   2.575   59.5  0.1083   46.0  0.1892 -100.6
 1.500  0.6641  153.5   2.407   56.7  0.1137   46.2  0.1899 -104.1
 1.600  0.6673  150.1   2.267   53.7  0.1191   46.4  0.1920 -107.1
 1.700  0.6713  147.0   2.140   51.0  0.1251   46.6  0.1955 -110.8
 1.800  0.6787  143.9   2.035   48.2  0.1310   46.5  0.1989 -114.3
 1.900  0.6814  140.9   1.927   45.7  0.1365   46.5  0.2034 -117.4
 2.000  0.6842  138.0   1.834   42.9  0.1426   46.2  0.2095 -120.4
 2.100  0.6892  135.1   1.751   40.4  0.1486   45.9  0.2151 -123.6
 2.200  0.6960  132.2   1.671   37.7  0.1547   45.6  0.2214 -126.7
 2.300  0.6994  129.7   1.602   35.4  0.1613   45.2  0.2297 -129.3
 2.400  0.7040  127.3   1.536   32.9  0.1680   44.8  0.2384 -131.8
 2.500  0.7083  124.8   1.476   30.7  0.1740   44.1  0.2464 -134.6
 2.600  0.7139  122.3   1.419   28.4  0.1801   43.4  0.2549 -137.2
 2.700  0.7192  120.0   1.368   26.3  0.1862   42.8  0.2629 -139.5
 2.800  0.7256  117.8   1.319   24.0  0.1923   42.2  0.2713 -141.7
 2.900  0.7296  115.6   1.275   22.0  0.1984   41.3  0.2777 -144.2
 3.000  0.7347  113.4   1.232   19.9  0.2046   40.5  0.2846 -146.6
 3.100  0.7373  111.4   1.195   18.2  0.2107   39.7  0.2904 -149.0
 3.200  0.7409  109.4   1.159   16.4  0.2168   38.9  0.2967 -151.3
 3.300  0.7453  107.4   1.124   14.5  0.2230   38.2  0.3035 -153.4
 3.400  0.7506  105.4   1.091   12.5  0.2292   37.5  0.3106 -155.5
 3.500  0.7568  103.5   1.059   10.4  0.2355   36.8  0.3182 -157.5
 3.600  0.7594  101.7   1.032    8.9  0.2416   35.7  0.3236 -160.0
 3.700  0.7627  100.0   1.006    7.3  0.2479   34.7  0.3297 -162.5
 3.800  0.7667   98.3   0.981    5.6  0.2542   33.7  0.3363 -164.9
 3.900  0.7714   96.6   0.956    3.9  0.2606   32.8  0.3435 -167.1
 4.000  0.7767   94.9   0.933    2.0  0.2670   31.9  0.3512 -169.3
 4.100  0.7777   93.3   0.911    0.7  0.2731   30.7  0.3578 -171.9
 4.200  0.7794   91.7   0.890   -0.8  0.2794   29.6  0.3650 -174.5
 4.300  0.7816   90.1   0.870   -2.2  0.2857   28.5  0.3730 -176.9
 4.400  0.7844   88.6   0.850   -3.8  0.2922   27.5  0.3816 -179.2
 4.500  0.7878   87.0   0.831   -5.4  0.2987   26.5  0.3908  178.6
 4.600  0.7898   85.5   0.814   -6.5  0.3045   25.4  0.3992  176.3
 4.700  0.7923   84.1   0.796   -7.6  0.3104   24.3  0.4082  174.1
 4.800  0.7953   82.6   0.780   -8.8  0.3164   23.2  0.4179  171.9
 4.900  0.7988   81.2   0.763  -10.1  0.3226   22.2  0.4280  169.9
 5.000  0.8028   79.8   0.747  -11.4  0.3288   21.2  0.4387  168.0
 5.100  0.8024   78.4   0.736  -12.4  0.3340   19.9  0.4482  166.3
 5.200  0.8025   77.1   0.724  -13.4  0.3394   18.7  0.4581  164.7
 5.300  0.8030   75.7   0.713  -14.5  0.3449   17.5  0.4683  163.2
 5.400  0.8040   74.4   0.702  -15.6  0.3505   16.4  0.4789  161.7
 5.500  0.8054   73.0   0.692  -16.7  0.3563   15.3  0.4897  160.3
 5.600  0.8041   71.8   0.681  -17.5  0.3611   14.1  0.4956  159.0
 5.700  0.8031   70.6   0.671  -18.3  0.3660   13.0  0.5019  157.6
 5.800  0.8026   69.3   0.660  -19.1  0.3711   11.8  0.5083  156.4
 5.900  0.8024   68.1   0.650  -19.9  0.3763   10.8  0.5150  155.1
 6.000  0.8025   66.9   0.640  -20.8  0.3817    9.7  0.5220  153.9
!
!  f       NFmin   Gammaopt  rn/50
! GHz       dB    MAG  ANG    -
 0.450      0.85  0.21  129   0.09
 0.900      0.97  0.36  162   0.07
 1.900      1.79  0.58 -148   0.12
 2.400      2.19  0.64 -129   0.31
!
! (c) 2017  Infineon Technologies AG, Munich