! Infineon Technologies  Discrete & RF Semiconductors
! BFP193
! VCE =  3.0 V,  IC = 0.10 A
! Common Emitter S-Parameters:                            Jan 2017
# GHz  S  MA  R  50
!  f         S11            S21            S12            S22
! GHz     MAG   ANG      MAG   ANG      MAG   ANG      MAG   ANG
 0.010  0.2186 -134.7  72.331  165.0  0.0026   75.4  0.7509  -15.1
 0.020  0.3636 -135.4  66.683  151.8  0.0049   66.9  0.6902  -30.3
 0.030  0.4338 -142.4  58.192  145.3  0.0064   62.3  0.6020  -37.7
 0.040  0.5088 -147.5  50.683  136.8  0.0079   59.4  0.5270  -47.4
 0.050  0.5866 -151.2  44.654  125.7  0.0094   57.5  0.4717  -59.8
 0.060  0.6026 -154.4  40.731  123.5  0.0102   58.5  0.4306  -62.8
 0.070  0.6204 -157.4  36.882  120.8  0.0109   59.4  0.3910  -66.3
 0.080  0.6397 -160.2  33.131  117.5  0.0117   60.2  0.3532  -70.7
 0.090  0.6606 -162.9  29.517  113.4  0.0124   60.9  0.3179  -76.1
 0.100  0.6828 -165.4  26.097  108.2  0.0132   61.5  0.2861  -82.7
 0.110  0.6862 -166.8  24.442  107.1  0.0140   61.9  0.2694  -84.6
 0.120  0.6900 -168.2  22.799  105.7  0.0148   62.2  0.2530  -86.8
 0.130  0.6943 -169.6  21.169  104.2  0.0155   62.6  0.2370  -89.2
 0.140  0.6989 -171.0  19.557  102.5  0.0163   62.8  0.2216  -92.0
 0.150  0.7039 -172.3  17.966  100.4  0.0171   63.1  0.2067  -95.2
 0.200  0.7123 -176.2  13.636   95.5  0.0201   66.3  0.1682 -104.3
 0.250  0.7181 -179.3  10.985   91.9  0.0244   67.4  0.1448 -110.4
 0.300  0.7168  178.2   9.172   89.3  0.0282   69.8  0.1300 -116.6
 0.350  0.7178  176.2   8.046   87.4  0.0321   70.6  0.1223 -120.5
 0.400  0.7197  174.2   6.933   84.8  0.0360   71.3  0.1153 -124.9
 0.450  0.7214  172.3   6.240   83.2  0.0406   71.5  0.1122 -128.0
 0.500  0.7238  170.5   5.553   81.2  0.0452   71.7  0.1095 -131.2
 0.600  0.7254  167.4   4.648   77.9  0.0533   71.5  0.1075 -136.7
 0.700  0.7255  164.6   3.989   74.9  0.0613   72.1  0.1054 -140.0
 0.800  0.7286  161.6   3.502   71.8  0.0702   71.6  0.1080 -142.4
 0.900  0.7273  158.6   3.114   68.9  0.0786   70.1  0.1122 -144.9
 1.000  0.7315  155.9   2.821   66.2  0.0864   69.2  0.1149 -148.0
 1.100  0.7342  153.1   2.574   63.4  0.0948   68.4  0.1190 -149.1
 1.200  0.7359  150.5   2.366   60.6  0.1029   66.9  0.1235 -151.0
 1.300  0.7381  147.7   2.193   58.1  0.1110   66.0  0.1299 -152.3
 1.400  0.7408  145.1   2.048   55.3  0.1193   64.8  0.1368 -154.5
 1.500  0.7448  142.4   1.915   52.8  0.1274   63.5  0.1430 -156.1
 1.600  0.7481  139.7   1.806   50.1  0.1354   62.1  0.1496 -157.0
 1.700  0.7508  137.1   1.706   47.6  0.1438   61.0  0.1588 -158.5
 1.800  0.7555  134.4   1.623   45.0  0.1513   59.6  0.1670 -160.3
 1.900  0.7580  131.8   1.539   42.8  0.1588   58.2  0.1745 -161.5
 2.000  0.7589  129.3   1.466   40.2  0.1666   56.8  0.1835 -162.6
 2.100  0.7619  126.7   1.401   38.0  0.1738   55.4  0.1925 -164.2
 2.200  0.7664  124.1   1.338   35.5  0.1811   54.2  0.2016 -165.6
 2.300  0.7681  121.9   1.286   33.4  0.1888   52.8  0.2104 -166.5
 2.400  0.7710  119.7   1.236   31.1  0.1967   51.5  0.2192 -167.3
 2.500  0.7736  117.5   1.191   29.1  0.2033   50.1  0.2287 -168.7
 2.600  0.7772  115.4   1.147   27.0  0.2101   48.7  0.2383 -170.0
 2.700  0.7803  113.3   1.108   25.1  0.2166   47.3  0.2463 -171.1
 2.800  0.7843  111.3   1.070   23.0  0.2233   46.0  0.2544 -172.1
 2.900  0.7863  109.3   1.036   21.3  0.2296   44.7  0.2621 -173.7
 3.000  0.7892  107.3   1.003   19.4  0.2360   43.4  0.2700 -175.3
 3.100  0.7902  105.4   0.976   17.9  0.2419   42.1  0.2758 -176.9
 3.200  0.7919  103.6   0.950   16.2  0.2479   40.8  0.2818 -178.5
 3.300  0.7945  101.7   0.924   14.5  0.2540   39.6  0.2880 -179.9
 3.400  0.7980   99.9   0.900   12.7  0.2603   38.5  0.2944  178.7
 3.500  0.8022   98.1   0.876   10.8  0.2666   37.4  0.3010  177.3
 3.600  0.8030   96.5   0.856    9.4  0.2723   36.0  0.3071  175.4
 3.700  0.8045   94.9   0.837    8.0  0.2781   34.7  0.3135  173.6
 3.800  0.8066   93.3   0.818    6.5  0.2840   33.5  0.3203  171.8
 3.900  0.8093   91.7   0.800    4.9  0.2901   32.3  0.3273  170.1
 4.000  0.8127   90.1   0.782    3.3  0.2963   31.1  0.3346  168.5
 4.100  0.8121   88.6   0.767    2.1  0.3017   29.8  0.3415  166.4
 4.200  0.8121   87.1   0.752    0.8  0.3072   28.5  0.3489  164.4
 4.300  0.8126   85.7   0.738   -0.5  0.3129   27.2  0.3567  162.6
 4.400  0.8137   84.2   0.724   -1.9  0.3187   26.1  0.3648  160.7
 4.500  0.8153   82.7   0.710   -3.3  0.3247   24.9  0.3733  159.0
 4.600  0.8165   81.4   0.698   -4.3  0.3296   23.6  0.3814  157.4
 4.700  0.8182   80.0   0.687   -5.3  0.3347   22.4  0.3898  155.8
 4.800  0.8203   78.7   0.675   -6.3  0.3400   21.2  0.3985  154.4
 4.900  0.8228   77.4   0.664   -7.4  0.3454   20.0  0.4074  153.0
 5.000  0.8258   76.1   0.653   -8.5  0.3509   18.9  0.4166  151.6
 5.100  0.8241   74.8   0.646   -9.5  0.3554   17.6  0.4251  150.5
 5.200  0.8228   73.5   0.638  -10.4  0.3601   16.4  0.4338  149.4
 5.300  0.8220   72.1   0.631  -11.4  0.3649   15.2  0.4426  148.4
 5.400  0.8216   70.8   0.625  -12.5  0.3699   14.0  0.4515  147.4
 5.500  0.8217   69.5   0.618  -13.5  0.3750   12.9  0.4606  146.5
 5.600  0.8198   68.3   0.611  -14.3  0.3790   11.7  0.4654  145.6
 5.700  0.8183   67.2   0.604  -15.0  0.3833   10.5  0.4702  144.7
 5.800  0.8171   66.0   0.597  -15.8  0.3876    9.4  0.4752  143.8
 5.900  0.8162   64.9   0.590  -16.7  0.3921    8.3  0.4803  142.9
 6.000  0.8157   63.7   0.583  -17.5  0.3968    7.2  0.4855  142.1
!
!  f       NFmin   Gammaopt  rn/50
! GHz       dB    MAG  ANG    -
!
! noise parameter not available yet for this operation point!
!
! (c) 2017  Infineon Technologies AG, Munich