! Infineon Technologies  Discrete & RF Semiconductors
! BFP193
! VCE =  3.0 V,  IC =  30 mA
! Common Emitter S-Parameters:                            Jan 2017
# GHz  S  MA  R  50
!  f         S11            S21            S12            S22
! GHz     MAG   ANG      MAG   ANG      MAG   ANG      MAG   ANG
 0.010  0.3314  -22.0  59.707  171.9  0.0026   85.2  0.9732   -8.1
 0.020  0.3522  -42.6  58.737  164.3  0.0057   83.9  0.9423  -16.4
 0.030  0.3505  -59.1  55.023  158.4  0.0080   74.8  0.8849  -22.6
 0.040  0.3769  -74.5  51.968  151.8  0.0104   69.8  0.8391  -29.5
 0.050  0.4261  -87.1  49.693  144.4  0.0128   66.7  0.8068  -37.1
 0.060  0.4274  -95.6  46.481  141.3  0.0141   64.1  0.7546  -40.4
 0.070  0.4378 -103.8  43.423  137.8  0.0153   62.0  0.7054  -44.3
 0.080  0.4567 -111.5  40.552  133.8  0.0167   60.2  0.6597  -48.6
 0.090  0.4831 -118.4  37.911  129.2  0.0180   58.6  0.6185  -53.6
 0.100  0.5159 -124.6  35.552  123.9  0.0193   57.3  0.5826  -59.3
 0.110  0.5176 -128.4  33.612  122.1  0.0201   56.4  0.5515  -61.3
 0.120  0.5216 -132.2  31.708  120.2  0.0208   55.5  0.5211  -63.5
 0.130  0.5278 -135.9  29.846  118.0  0.0216   54.7  0.4916  -66.0
 0.140  0.5362 -139.5  28.035  115.4  0.0224   53.9  0.4632  -68.8
 0.150  0.5466 -143.0  26.285  112.6  0.0232   53.2  0.4360  -72.0
 0.200  0.5659 -153.6  20.608  105.5  0.0258   55.4  0.3490  -80.5
 0.250  0.5756 -161.1  16.838  100.3  0.0297   56.2  0.2904  -86.6
 0.300  0.5795 -166.0  14.189   96.7  0.0329   57.5  0.2499  -92.0
 0.350  0.5815 -169.9  12.494   94.2  0.0362   59.6  0.2247  -95.6
 0.400  0.5861 -173.7  10.829   91.0  0.0396   61.3  0.2005 -100.0
 0.450  0.5880 -176.7   9.762   89.1  0.0434   61.8  0.1862 -103.1
 0.500  0.5914 -179.6   8.708   86.7  0.0472   62.2  0.1725 -106.8
 0.600  0.5965  175.8   7.310   83.0  0.0549   63.2  0.1548 -113.0
 0.700  0.5968  172.0   6.275   79.8  0.0622   64.2  0.1425 -118.0
 0.800  0.6002  168.3   5.509   76.5  0.0706   64.3  0.1373 -122.3
 0.900  0.6000  164.8   4.895   73.7  0.0778   64.0  0.1334 -126.5
 1.000  0.6033  161.6   4.429   70.9  0.0857   63.8  0.1314 -130.9
 1.100  0.6093  158.4   4.036   68.3  0.0938   63.2  0.1316 -133.6
 1.200  0.6104  155.2   3.706   65.5  0.1011   62.2  0.1321 -136.9
 1.300  0.6129  152.2   3.428   63.0  0.1085   61.4  0.1351 -139.6
 1.400  0.6183  149.4   3.199   60.4  0.1167   60.7  0.1381 -142.9
 1.500  0.6227  146.8   2.985   57.9  0.1243   59.5  0.1424 -145.6
 1.600  0.6251  143.8   2.811   55.4  0.1319   58.6  0.1473 -147.4
 1.700  0.6304  141.2   2.653   53.0  0.1396   57.6  0.1542 -149.9
 1.800  0.6358  138.3   2.518   50.4  0.1471   56.5  0.1603 -152.3
 1.900  0.6413  135.7   2.387   48.2  0.1537   55.2  0.1666 -154.2
 2.000  0.6436  133.2   2.269   45.7  0.1609   54.0  0.1739 -156.0
 2.100  0.6480  130.5   2.165   43.5  0.1681   52.9  0.1812 -158.0
 2.200  0.6538  127.9   2.064   41.0  0.1753   51.8  0.1887 -159.9
 2.300  0.6579  125.6   1.981   38.9  0.1827   50.5  0.1967 -161.1
 2.400  0.6630  123.4   1.900   36.7  0.1901   49.3  0.2048 -162.3
 2.500  0.6674  121.1   1.826   34.7  0.1964   47.9  0.2128 -164.0
 2.600  0.6729  118.9   1.755   32.5  0.2029   46.6  0.2210 -165.6
 2.700  0.6776  116.8   1.693   30.5  0.2090   45.4  0.2281 -167.0
 2.800  0.6831  114.8   1.633   28.4  0.2152   44.3  0.2354 -168.3
 2.900  0.6872  112.7   1.579   26.5  0.2214   43.0  0.2419 -170.1
 3.000  0.6922  110.6   1.526   24.5  0.2278   41.7  0.2487 -171.8
 3.100  0.6954  108.8   1.482   22.9  0.2334   40.5  0.2534 -173.6
 3.200  0.6992  107.0   1.439   21.1  0.2391   39.3  0.2583 -175.3
 3.300  0.7037  105.2   1.397   19.3  0.2449   38.2  0.2635 -176.9
 3.400  0.7089  103.4   1.357   17.4  0.2508   37.1  0.2688 -178.5
 3.500  0.7148  101.7   1.319   15.3  0.2568   36.1  0.2744  180.0
 3.600  0.7177  100.1   1.286   13.8  0.2621   34.8  0.2793  178.0
 3.700  0.7212   98.5   1.255   12.2  0.2676   33.6  0.2845  176.1
 3.800  0.7252   96.9   1.224   10.5  0.2732   32.4  0.2900  174.2
 3.900  0.7298   95.3   1.194    8.7  0.2789   31.3  0.2958  172.4
 4.000  0.7349   93.8   1.166    6.8  0.2847   30.2  0.3019  170.7
 4.100  0.7366   92.3   1.140    5.4  0.2899   28.9  0.3080  168.6
 4.200  0.7388   90.8   1.115    3.8  0.2952   27.7  0.3144  166.6
 4.300  0.7415   89.3   1.091    2.3  0.3007   26.5  0.3212  164.7
 4.400  0.7447   87.8   1.067    0.6  0.3063   25.3  0.3284  162.9
 4.500  0.7484   86.3   1.045   -1.1  0.3120   24.2  0.3359  161.1
 4.600  0.7511   84.9   1.024   -2.3  0.3167   23.0  0.3435  159.5
 4.700  0.7542   83.6   1.003   -3.6  0.3216   21.9  0.3514  157.9
 4.800  0.7578   82.2   0.983   -5.0  0.3265   20.8  0.3595  156.4
 4.900  0.7617   80.9   0.963   -6.3  0.3316   19.7  0.3678  155.0
 5.000  0.7661   79.6   0.944   -7.8  0.3368   18.7  0.3764  153.6
 5.100  0.7659   78.3   0.930   -9.0  0.3411   17.5  0.3845  152.6
 5.200  0.7662   77.0   0.916  -10.2  0.3455   16.3  0.3927  151.6
 5.300  0.7668   75.6   0.902  -11.4  0.3501   15.1  0.4011  150.6
 5.400  0.7678   74.3   0.889  -12.7  0.3548   14.0  0.4095  149.7
 5.500  0.7693   73.0   0.876  -14.0  0.3597   12.9  0.4181  148.8
 5.600  0.7687   71.8   0.863  -15.1  0.3638   11.7  0.4227  147.9
 5.700  0.7684   70.6   0.850  -16.1  0.3680   10.6  0.4274  147.1
 5.800  0.7685   69.4   0.837  -17.3  0.3724    9.5  0.4322  146.3
 5.900  0.7689   68.2   0.825  -18.4  0.3770    8.4  0.4371  145.5
 6.000  0.7697   67.0   0.813  -19.6  0.3816    7.4  0.4421  144.7
!
!  f       NFmin   Gammaopt  rn/50
! GHz       dB    MAG  ANG    -
 0.450      1.22  0.33 -174   0.08
 0.900      1.27  0.38 -173   0.07
 1.900      1.89  0.57 -137   0.17
 2.400      2.22  0.62 -121   0.38
!
! (c) 2017  Infineon Technologies AG, Munich