! Infineon Technologies  Discrete & RF Semiconductors
! BFP193
! VCE =  5.0 V,  IC =  80 mA
! Common Emitter S-Parameters:                            Jan 2017
# GHz  S  MA  R  50
!  f         S11            S21            S12            S22
! GHz     MAG   ANG      MAG   ANG      MAG   ANG      MAG   ANG
 0.010  0.1321  -72.0  82.367  168.7  0.0020   80.3  0.9125  -10.2
 0.020  0.2294  -96.8  79.275  158.5  0.0043   80.4  0.8695  -21.2
 0.030  0.2814 -112.3  71.680  152.0  0.0058   70.9  0.7892  -27.8
 0.040  0.3472 -122.4  65.202  144.2  0.0074   65.4  0.7217  -35.7
 0.050  0.4203 -129.2  60.202  134.8  0.0091   61.9  0.6706  -45.1
 0.060  0.4368 -134.6  55.451  132.1  0.0099   62.0  0.6186  -47.8
 0.070  0.4569 -139.6  50.842  129.0  0.0107   62.0  0.5684  -51.1
 0.080  0.4802 -144.1  46.417  125.2  0.0114   62.1  0.5203  -54.9
 0.090  0.5061 -148.1  42.234  120.7  0.0122   62.2  0.4750  -59.6
 0.100  0.5343 -151.8  38.372  115.2  0.0130   62.2  0.4334  -65.1
 0.110  0.5392 -154.1  36.064  113.8  0.0137   62.1  0.4082  -66.5
 0.120  0.5449 -156.3  33.781  112.2  0.0145   62.1  0.3832  -68.2
 0.130  0.5514 -158.5  31.529  110.3  0.0152   62.0  0.3587  -70.0
 0.140  0.5587 -160.6  29.315  108.2  0.0160   61.9  0.3345  -72.1
 0.150  0.5668 -162.7  27.148  105.7  0.0167   61.9  0.3109  -74.6
 0.200  0.5832 -168.6  20.844  100.0  0.0198   65.0  0.2445  -80.7
 0.250  0.5900 -173.2  16.862   95.8  0.0242   66.7  0.2024  -84.5
 0.300  0.5911 -176.6  14.127   92.8  0.0274   68.9  0.1732  -88.2
 0.350  0.5938 -179.1  12.412   90.7  0.0312   69.9  0.1565  -90.5
 0.400  0.5976  178.4  10.718   88.0  0.0350   70.7  0.1402  -93.4
 0.450  0.5988  176.3   9.651   86.4  0.0392   70.8  0.1308  -95.6
 0.500  0.6008  174.2   8.594   84.3  0.0434   70.9  0.1216  -98.2
 0.600  0.6039  170.7   7.201   80.9  0.0509   71.3  0.1093 -103.3
 0.700  0.6058  167.6   6.180   78.1  0.0583   71.5  0.1015 -106.7
 0.800  0.6098  164.2   5.422   75.0  0.0672   70.9  0.0986 -110.3
 0.900  0.6117  161.3   4.815   72.3  0.0748   69.5  0.0980 -114.5
 1.000  0.6158  158.5   4.354   69.7  0.0824   69.2  0.0967 -118.8
 1.100  0.6194  155.5   3.967   67.1  0.0906   67.9  0.0979 -121.3
 1.200  0.6211  152.7   3.642   64.4  0.0984   66.8  0.0993 -124.5
 1.300  0.6236  149.9   3.370   62.0  0.1060   65.9  0.1036 -127.6
 1.400  0.6280  147.2   3.143   59.4  0.1139   64.7  0.1072 -131.6
 1.500  0.6327  144.7   2.933   57.0  0.1215   63.6  0.1117 -134.6
 1.600  0.6356  141.9   2.761   54.5  0.1293   62.2  0.1173 -136.6
 1.700  0.6405  139.1   2.604   52.1  0.1369   61.1  0.1248 -139.6
 1.800  0.6462  136.6   2.472   49.6  0.1444   59.7  0.1309 -142.5
 1.900  0.6493  134.0   2.343   47.5  0.1513   58.4  0.1374 -144.9
 2.000  0.6527  131.6   2.225   45.0  0.1586   57.2  0.1458 -146.8
 2.100  0.6575  129.0   2.124   42.8  0.1655   55.8  0.1536 -149.3
 2.200  0.6637  126.5   2.026   40.3  0.1724   54.5  0.1617 -151.6
 2.300  0.6668  124.3   1.943   38.2  0.1799   53.1  0.1699 -153.0
 2.400  0.6709  122.1   1.863   36.0  0.1874   51.9  0.1781 -154.3
 2.500  0.6754  119.9   1.792   34.0  0.1939   50.5  0.1868 -156.4
 2.600  0.6808  117.8   1.723   31.9  0.2005   49.1  0.1957 -158.3
 2.700  0.6854  115.7   1.661   29.9  0.2066   47.8  0.2031 -159.8
 2.800  0.6908  113.7   1.602   27.8  0.2127   46.6  0.2107 -161.1
 2.900  0.6948  111.6   1.549   26.0  0.2189   45.3  0.2173 -163.2
 3.000  0.6996  109.6   1.498   24.0  0.2252   44.1  0.2242 -165.2
 3.100  0.7025  107.8   1.454   22.4  0.2308   42.8  0.2292 -167.1
 3.200  0.7061  106.0   1.412   20.6  0.2365   41.6  0.2344 -168.9
 3.300  0.7105  104.2   1.371   18.8  0.2424   40.5  0.2398 -170.6
 3.400  0.7154  102.4   1.332   16.9  0.2483   39.4  0.2454 -172.2
 3.500  0.7211  100.7   1.294   14.8  0.2543   38.3  0.2512 -173.8
 3.600  0.7239   99.1   1.262   13.3  0.2597   37.0  0.2563 -176.0
 3.700  0.7273   97.6   1.231   11.7  0.2652   35.7  0.2618 -178.0
 3.800  0.7312   96.0   1.200   10.0  0.2709   34.4  0.2675 -180.0
 3.900  0.7356   94.5   1.171    8.3  0.2767   33.2  0.2736  178.1
 4.000  0.7405   93.0   1.143    6.4  0.2826   32.1  0.2800  176.3
 4.100  0.7421   91.5   1.118    5.0  0.2878   30.8  0.2860  174.0
 4.200  0.7442   90.0   1.093    3.5  0.2931   29.5  0.2924  171.9
 4.300  0.7468   88.5   1.069    1.9  0.2985   28.3  0.2993  169.8
 4.400  0.7499   87.0   1.046    0.3  0.3041   27.1  0.3065  167.9
 4.500  0.7535   85.5   1.024   -1.4  0.3098   26.0  0.3140  166.0
 4.600  0.7559   84.2   1.003   -2.6  0.3146   24.8  0.3217  164.2
 4.700  0.7586   82.8   0.983   -3.9  0.3195   23.6  0.3296  162.5
 4.800  0.7618   81.5   0.964   -5.3  0.3245   22.5  0.3379  160.9
 4.900  0.7654   80.2   0.945   -6.7  0.3297   21.4  0.3464  159.4
 5.000  0.7694   78.9   0.926   -8.1  0.3350   20.3  0.3551  157.9
 5.100  0.7692   77.6   0.912   -9.3  0.3394   19.1  0.3637  156.8
 5.200  0.7694   76.3   0.898  -10.5  0.3439   17.8  0.3724  155.7
 5.300  0.7700   74.9   0.885  -11.7  0.3486   16.7  0.3812  154.7
 5.400  0.7711   73.6   0.872  -13.0  0.3534   15.5  0.3901  153.7
 5.500  0.7725   72.3   0.859  -14.3  0.3584   14.4  0.3992  152.8
 5.600  0.7719   71.1   0.846  -15.3  0.3625   13.2  0.4043  151.9
 5.700  0.7716   70.0   0.832  -16.4  0.3667   12.1  0.4096  151.0
 5.800  0.7716   68.8   0.820  -17.5  0.3711   11.0  0.4149  150.2
 5.900  0.7719   67.7   0.807  -18.6  0.3757    9.9  0.4203  149.3
 6.000  0.7726   66.5   0.795  -19.8  0.3803    8.9  0.4258  148.5
!
!  f       NFmin   Gammaopt  rn/50
! GHz       dB    MAG  ANG    -
!
! noise parameter not available yet for this operation point!
!
! (c) 2017  Infineon Technologies AG, Munich