! Infineon Technologies  Discrete & RF Semiconductors
! BFP193
! VCE =  4.0 V,  IC =  85 mA
! Common Emitter S-Parameters:                            Jan 2017
# GHz  S  MA  R  50
!  f         S11            S21            S12            S22
! GHz     MAG   ANG      MAG   ANG      MAG   ANG      MAG   ANG
 0.010  0.1325 -100.9  81.306  167.9  0.0022   81.3  0.8836  -11.3
 0.020  0.2551 -113.2  77.777  156.8  0.0040   80.4  0.8344  -23.4
 0.030  0.3169 -124.8  69.615  150.3  0.0055   70.3  0.7495  -30.2
 0.040  0.3874 -132.5  62.569  142.3  0.0071   64.6  0.6779  -38.7
 0.050  0.4626 -137.7  57.053  132.4  0.0087   61.0  0.6241  -48.8
 0.060  0.4801 -142.2  52.396  129.8  0.0096   61.1  0.5737  -51.6
 0.070  0.5004 -146.4  47.864  126.8  0.0105   61.3  0.5249  -54.9
 0.080  0.5232 -150.3  43.496  123.1  0.0115   61.3  0.4781  -58.9
 0.090  0.5481 -153.8  39.349  118.6  0.0124   61.4  0.4342  -63.7
 0.100  0.5749 -157.0  35.498  113.1  0.0133   61.5  0.3940  -69.5
 0.110  0.5791 -158.9  33.322  111.8  0.0140   61.9  0.3708  -71.0
 0.120  0.5840 -160.8  31.167  110.3  0.0146   62.2  0.3479  -72.7
 0.130  0.5894 -162.7  29.036  108.5  0.0153   62.5  0.3253  -74.7
 0.140  0.5955 -164.5  26.936  106.5  0.0159   62.8  0.3032  -76.9
 0.150  0.6022 -166.3  24.874  104.2  0.0166   63.1  0.2816  -79.5
 0.200  0.6172 -171.4  19.023   98.7  0.0197   66.3  0.2220  -86.4
 0.250  0.6242 -175.5  15.360   94.7  0.0239   67.7  0.1849  -90.8
 0.300  0.6244 -178.5  12.854   91.9  0.0275   69.6  0.1589  -95.2
 0.350  0.6273  179.2  11.290   89.8  0.0313   70.6  0.1445  -98.2
 0.400  0.6312  176.9   9.746   87.1  0.0352   71.3  0.1305 -101.9
 0.450  0.6312  174.9   8.774   85.5  0.0393   71.5  0.1228 -104.7
 0.500  0.6320  173.0   7.811   83.4  0.0435   71.7  0.1154 -107.8
 0.600  0.6353  169.4   6.542   80.1  0.0516   71.6  0.1062 -113.3
 0.700  0.6380  166.5   5.614   77.3  0.0597   71.9  0.1001 -117.4
 0.800  0.6429  163.4   4.926   74.2  0.0679   71.1  0.0991 -120.8
 0.900  0.6423  160.4   4.374   71.5  0.0761   70.0  0.0997 -124.9
 1.000  0.6453  157.6   3.956   68.8  0.0840   69.2  0.0996 -129.0
 1.100  0.6483  154.8   3.606   66.2  0.0920   68.3  0.1023 -130.9
 1.200  0.6527  152.0   3.312   63.5  0.0995   67.0  0.1051 -133.9
 1.300  0.6544  149.3   3.064   61.0  0.1071   66.0  0.1094 -136.4
 1.400  0.6568  146.7   2.858   58.5  0.1155   64.7  0.1144 -140.0
 1.500  0.6612  144.0   2.670   56.0  0.1232   63.5  0.1194 -142.5
 1.600  0.6654  141.3   2.512   53.4  0.1311   62.3  0.1255 -143.8
 1.700  0.6684  138.5   2.372   51.0  0.1389   61.1  0.1334 -146.7
 1.800  0.6758  135.9   2.251   48.5  0.1465   59.8  0.1406 -149.0
 1.900  0.6787  133.5   2.134   46.3  0.1537   58.4  0.1475 -151.0
 2.000  0.6815  130.9   2.029   43.8  0.1608   56.9  0.1560 -152.6
 2.100  0.6857  128.3   1.937   41.6  0.1680   55.6  0.1641 -154.7
 2.200  0.6913  125.8   1.849   39.1  0.1752   54.5  0.1724 -156.6
 2.300  0.6941  123.6   1.773   37.0  0.1824   53.1  0.1808 -157.9
 2.400  0.6978  121.5   1.699   34.8  0.1898   51.8  0.1893 -159.0
 2.500  0.7019  119.4   1.634   32.8  0.1965   50.4  0.1985 -160.9
 2.600  0.7070  117.3   1.572   30.6  0.2034   49.0  0.2078 -162.6
 2.700  0.7112  115.2   1.517   28.7  0.2098   47.8  0.2153 -163.8
 2.800  0.7164  113.1   1.464   26.6  0.2162   46.6  0.2228 -165.0
 2.900  0.7205  111.1   1.416   24.7  0.2222   45.2  0.2298 -167.0
 3.000  0.7255  109.1   1.369   22.7  0.2283   43.9  0.2371 -168.8
 3.100  0.7277  107.3   1.330   21.1  0.2340   42.6  0.2423 -170.6
 3.200  0.7306  105.4   1.292   19.4  0.2399   41.4  0.2477 -172.3
 3.300  0.7343  103.6   1.255   17.6  0.2459   40.2  0.2533 -173.9
 3.400  0.7387  101.9   1.219   15.7  0.2519   39.1  0.2591 -175.4
 3.500  0.7438  100.1   1.185   13.7  0.2581   38.0  0.2651 -176.9
 3.600  0.7460   98.5   1.156   12.2  0.2635   36.7  0.2705 -179.0
 3.700  0.7488   96.9   1.127   10.6  0.2691   35.4  0.2762  179.1
 3.800  0.7522   95.3   1.100    9.0  0.2748   34.1  0.2822  177.2
 3.900  0.7562   93.7   1.073    7.2  0.2807   32.9  0.2886  175.3
 4.000  0.7607   92.2   1.048    5.4  0.2866   31.8  0.2952  173.6
 4.100  0.7618   90.7   1.025    4.0  0.2919   30.5  0.3015  171.4
 4.200  0.7634   89.3   1.003    2.5  0.2973   29.2  0.3083  169.3
 4.300  0.7656   87.8   0.981    1.0  0.3029   28.0  0.3154  167.3
 4.400  0.7682   86.3   0.960   -0.6  0.3087   26.8  0.3229  165.4
 4.500  0.7713   84.9   0.940   -2.3  0.3145   25.7  0.3308  163.6
 4.600  0.7734   83.6   0.922   -3.5  0.3192   24.5  0.3386  161.9
 4.700  0.7760   82.2   0.904   -4.7  0.3241   23.3  0.3467  160.3
 4.800  0.7790   80.9   0.887   -6.0  0.3292   22.1  0.3550  158.7
 4.900  0.7824   79.6   0.870   -7.3  0.3343   21.0  0.3636  157.2
 5.000  0.7862   78.3   0.854   -8.7  0.3396   19.9  0.3724  155.8
 5.100  0.7857   77.0   0.841   -9.8  0.3441   18.7  0.3810  154.7
 5.200  0.7856   75.7   0.829  -11.0  0.3488   17.4  0.3898  153.7
 5.300  0.7859   74.3   0.818  -12.2  0.3536   16.3  0.3986  152.7
 5.400  0.7866   73.0   0.806  -13.4  0.3585   15.1  0.4076  151.7
 5.500  0.7878   71.7   0.795  -14.7  0.3636   14.0  0.4167  150.8
 5.600  0.7869   70.5   0.783  -15.7  0.3676   12.8  0.4217  149.9
 5.700  0.7864   69.3   0.771  -16.6  0.3717   11.7  0.4268  149.0
 5.800  0.7862   68.1   0.759  -17.7  0.3760   10.6  0.4320  148.2
 5.900  0.7863   66.9   0.748  -18.7  0.3804    9.5  0.4372  147.3
 6.000  0.7868   65.7   0.737  -19.8  0.3850    8.5  0.4426  146.5
!
!  f       NFmin   Gammaopt  rn/50
! GHz       dB    MAG  ANG    -
!
! noise parameter not available yet for this operation point!
!
! (c) 2017  Infineon Technologies AG, Munich