! Infineon Technologies  Discrete & RF Semiconductors
! BFP193
! VCE =  8.0 V,  IC =  72 mA
! Common Emitter S-Parameters:                            Jan 2017
# GHz  S  MA  R  50
!  f         S11            S21            S12            S22
! GHz     MAG   ANG      MAG   ANG      MAG   ANG      MAG   ANG
 0.010  0.2183  -36.1  74.698  169.7  0.0024   82.4  0.9202   -8.3
 0.020  0.2703  -64.5  72.369  160.7  0.0041   80.1  0.8822  -17.4
 0.030  0.2915  -84.1  66.322  154.4  0.0058   70.6  0.8148  -23.2
 0.040  0.3407  -99.5  61.239  146.9  0.0075   65.4  0.7572  -30.0
 0.050  0.4079 -110.5  57.379  138.2  0.0093   62.2  0.7117  -37.7
 0.060  0.4186 -117.7  53.114  135.4  0.0103   60.8  0.6616  -40.1
 0.070  0.4357 -124.5  49.000  132.1  0.0113   59.6  0.6128  -42.9
 0.080  0.4582 -130.7  45.079  128.2  0.0123   58.6  0.5658  -46.1
 0.090  0.4856 -136.2  41.404  123.6  0.0134   57.8  0.5209  -50.0
 0.100  0.5170 -141.1  38.049  118.1  0.0144   57.1  0.4787  -54.5
 0.110  0.5205 -144.0  35.815  116.6  0.0150   57.6  0.4530  -55.5
 0.120  0.5253 -146.9  33.608  114.9  0.0156   58.0  0.4275  -56.6
 0.130  0.5314 -149.7  31.436  112.9  0.0161   58.5  0.4022  -57.8
 0.140  0.5387 -152.4  29.306  110.7  0.0167   58.8  0.3771  -59.2
 0.150  0.5473 -155.1  27.228  108.1  0.0173   59.2  0.3522  -60.8
 0.200  0.5623 -162.9  21.037  102.0  0.0198   63.1  0.2822  -63.8
 0.250  0.5711 -168.6  17.073   97.4  0.0238   63.9  0.2370  -64.9
 0.300  0.5733 -172.6  14.323   94.4  0.0266   65.7  0.2066  -65.7
 0.350  0.5754 -175.7  12.595   92.2  0.0301   67.1  0.1887  -66.1
 0.400  0.5792 -178.8  10.891   89.3  0.0336   68.2  0.1708  -66.5
 0.450  0.5806  178.8   9.813   87.6  0.0372   68.8  0.1607  -67.1
 0.500  0.5831  176.4   8.746   85.5  0.0409   69.3  0.1507  -67.8
 0.600  0.5864  172.3   7.337   82.1  0.0483   69.8  0.1368  -69.4
 0.700  0.5889  168.9   6.300   79.2  0.0554   70.6  0.1281  -70.9
 0.800  0.5912  165.5   5.532   76.2  0.0637   69.6  0.1242  -73.6
 0.900  0.5923  162.3   4.918   73.4  0.0707   69.3  0.1209  -76.8
 1.000  0.5962  159.3   4.453   70.8  0.0777   68.9  0.1171  -80.2
 1.100  0.5993  156.3   4.059   68.3  0.0859   68.2  0.1168  -83.5
 1.200  0.6026  153.4   3.727   65.6  0.0929   67.0  0.1165  -87.1
 1.300  0.6046  150.5   3.452   63.1  0.1007   66.0  0.1182  -91.2
 1.400  0.6075  147.7   3.221   60.6  0.1082   65.2  0.1190  -96.1
 1.500  0.6130  145.2   3.009   58.2  0.1152   63.9  0.1209 -100.0
 1.600  0.6163  142.2   2.832   55.7  0.1229   62.9  0.1251 -103.8
 1.700  0.6196  139.5   2.674   53.3  0.1302   61.9  0.1295 -108.4
 1.800  0.6264  136.9   2.539   50.8  0.1374   60.6  0.1339 -112.8
 1.900  0.6318  134.4   2.406   48.7  0.1442   59.3  0.1385 -116.6
 2.000  0.6328  131.9   2.288   46.2  0.1517   58.1  0.1454 -120.3
 2.100  0.6377  129.3   2.184   44.0  0.1585   56.8  0.1514 -124.3
 2.200  0.6440  126.7   2.084   41.6  0.1653   55.7  0.1581 -127.9
 2.300  0.6477  124.5   2.000   39.5  0.1723   54.5  0.1658 -130.7
 2.400  0.6523  122.3   1.918   37.3  0.1793   53.3  0.1739 -133.2
 2.500  0.6566  120.1   1.844   35.3  0.1857   51.9  0.1815 -136.4
 2.600  0.6619  118.0   1.773   33.1  0.1922   50.5  0.1896 -139.3
 2.700  0.6667  115.9   1.711   31.2  0.1986   49.2  0.1968 -141.5
 2.800  0.6723  113.9   1.651   29.1  0.2050   48.0  0.2043 -143.6
 2.900  0.6772  111.9   1.596   27.2  0.2109   46.8  0.2102 -146.3
 3.000  0.6829  109.9   1.543   25.1  0.2168   45.6  0.2166 -148.9
 3.100  0.6859  108.1   1.499   23.5  0.2226   44.3  0.2212 -151.3
 3.200  0.6895  106.3   1.455   21.7  0.2286   43.1  0.2261 -153.6
 3.300  0.6939  104.5   1.414   19.9  0.2346   41.9  0.2313 -155.7
 3.400  0.6989  102.7   1.374   18.0  0.2407   40.8  0.2369 -157.8
 3.500  0.7045  101.0   1.335   15.9  0.2469   39.8  0.2428 -159.8
 3.600  0.7075   99.4   1.302   14.4  0.2524   38.5  0.2472 -162.3
 3.700  0.7111   97.8   1.270   12.8  0.2580   37.2  0.2520 -164.8
 3.800  0.7152   96.3   1.239   11.1  0.2637   36.0  0.2573 -167.1
 3.900  0.7198   94.7   1.209    9.3  0.2695   34.9  0.2629 -169.4
 4.000  0.7249   93.2   1.180    7.4  0.2754   33.8  0.2690 -171.5
 4.100  0.7266   91.7   1.154    5.9  0.2807   32.5  0.2744 -174.1
 4.200  0.7288   90.2   1.129    4.4  0.2861   31.2  0.2804 -176.6
 4.300  0.7315   88.7   1.104    2.8  0.2916   30.0  0.2869 -179.0
 4.400  0.7347   87.3   1.081    1.1  0.2973   28.8  0.2939  178.7
 4.500  0.7384   85.8   1.058   -0.6  0.3031   27.7  0.3013  176.5
 4.600  0.7413   84.5   1.036   -1.9  0.3081   26.5  0.3087  174.4
 4.700  0.7447   83.1   1.015   -3.2  0.3132   25.3  0.3165  172.4
 4.800  0.7484   81.8   0.994   -4.6  0.3185   24.2  0.3247  170.4
 4.900  0.7526   80.5   0.974   -6.0  0.3239   23.1  0.3332  168.6
 5.000  0.7571   79.2   0.954   -7.5  0.3294   22.0  0.3421  166.9
 5.100  0.7572   77.9   0.939   -8.7  0.3339   20.8  0.3509  165.5
 5.200  0.7576   76.6   0.924   -9.9  0.3386   19.5  0.3599  164.1
 5.300  0.7585   75.3   0.910  -11.2  0.3434   18.4  0.3691  162.9
 5.400  0.7598   74.0   0.896  -12.5  0.3484   17.2  0.3785  161.7
 5.500  0.7614   72.7   0.883  -13.9  0.3535   16.1  0.3880  160.5
 5.600  0.7613   71.5   0.869  -15.0  0.3576   14.9  0.3936  159.4
 5.700  0.7614   70.4   0.855  -16.0  0.3619   13.8  0.3993  158.4
 5.800  0.7619   69.2   0.842  -17.2  0.3662   12.7  0.4052  157.4
 5.900  0.7627   68.1   0.829  -18.3  0.3708   11.6  0.4112  156.4
 6.000  0.7638   66.9   0.816  -19.5  0.3754   10.6  0.4173  155.4
!
!  f       NFmin   Gammaopt  rn/50
! GHz       dB    MAG  ANG    -
!
! noise parameter not available yet for this operation point!
!
! (c) 2017  Infineon Technologies AG, Munich