! Infineon Technologies  Discrete & RF Semiconductors
! BFP193
! VCE =  7.0 V,  IC =  65 mA
! Common Emitter S-Parameters:                            Jan 2017
# GHz  S  MA  R  50
!  f         S11            S21            S12            S22
! GHz     MAG   ANG      MAG   ANG      MAG   ANG      MAG   ANG
 0.010  0.2096  -35.3  78.955  169.9  0.0020   80.4  0.9422   -8.7
 0.020  0.2562  -63.4  76.589  161.0  0.0047   83.2  0.9079  -18.2
 0.030  0.2775  -82.9  70.371  154.7  0.0061   73.3  0.8373  -24.4
 0.040  0.3248  -98.1  65.147  147.4  0.0077   67.3  0.7781  -31.6
 0.050  0.3887 -108.9  61.172  138.9  0.0093   63.3  0.7330  -39.8
 0.060  0.3990 -116.2  56.693  136.1  0.0102   62.6  0.6806  -42.6
 0.070  0.4155 -123.1  52.378  132.7  0.0112   62.1  0.6300  -45.8
 0.080  0.4374 -129.4  48.269  128.8  0.0121   61.6  0.5818  -49.6
 0.090  0.4640 -135.0  44.425  124.2  0.0131   61.2  0.5366  -54.0
 0.100  0.4946 -139.9  40.921  118.8  0.0140   60.9  0.4951  -59.2
 0.110  0.4982 -142.9  38.539  117.3  0.0147   60.9  0.4675  -60.6
 0.120  0.5032 -145.9  36.189  115.5  0.0155   60.9  0.4402  -62.2
 0.130  0.5094 -148.8  33.878  113.5  0.0162   61.0  0.4132  -64.0
 0.140  0.5170 -151.6  31.613  111.2  0.0170   61.0  0.3867  -66.0
 0.150  0.5257 -154.3  29.406  108.6  0.0177   61.0  0.3608  -68.3
 0.200  0.5422 -162.1  22.752  102.3  0.0206   63.2  0.2847  -73.8
 0.250  0.5500 -167.9  18.473   97.7  0.0243   64.6  0.2363  -77.0
 0.300  0.5516 -171.9  15.508   94.6  0.0278   65.9  0.2018  -79.9
 0.350  0.5543 -175.0  13.636   92.4  0.0316   67.1  0.1812  -81.5
 0.400  0.5586 -178.1  11.790   89.5  0.0355   68.0  0.1607  -83.5
 0.450  0.5602  179.5  10.622   87.8  0.0391   68.6  0.1491  -85.3
 0.500  0.5628  177.1   9.467   85.6  0.0427   69.1  0.1376  -87.3
 0.600  0.5664  172.9   7.934   82.1  0.0506   69.2  0.1214  -90.8
 0.700  0.5697  169.6   6.810   79.2  0.0577   69.8  0.1108  -93.5
 0.800  0.5714  166.1   5.975   76.1  0.0664   69.9  0.1060  -96.7
 0.900  0.5738  162.9   5.308   73.4  0.0736   68.9  0.1028 -100.4
 1.000  0.5791  159.9   4.803   70.8  0.0809   68.3  0.0990 -104.3
 1.100  0.5809  156.9   4.375   68.3  0.0891   67.5  0.0993 -106.9
 1.200  0.5850  153.9   4.014   65.6  0.0962   66.2  0.0995 -110.3
 1.300  0.5869  151.1   3.714   63.1  0.1037   65.0  0.1016 -114.2
 1.400  0.5917  148.4   3.462   60.6  0.1113   64.1  0.1040 -118.6
 1.500  0.5963  145.7   3.232   58.3  0.1187   63.0  0.1070 -122.1
 1.600  0.6003  142.9   3.041   55.8  0.1261   61.9  0.1119 -124.7
 1.700  0.6030  140.1   2.868   53.4  0.1334   60.8  0.1173 -128.6
 1.800  0.6103  137.5   2.722   50.9  0.1409   59.5  0.1232 -132.0
 1.900  0.6153  135.0   2.579   48.8  0.1477   58.2  0.1284 -135.0
 2.000  0.6175  132.4   2.450   46.3  0.1552   56.8  0.1364 -137.7
 2.100  0.6228  129.8   2.337   44.1  0.1619   55.6  0.1433 -140.6
 2.200  0.6294  127.3   2.228   41.7  0.1686   54.5  0.1505 -143.3
 2.300  0.6335  125.1   2.138   39.7  0.1756   53.2  0.1585 -145.2
 2.400  0.6384  123.0   2.050   37.5  0.1827   52.0  0.1666 -147.0
 2.500  0.6432  120.8   1.970   35.5  0.1892   50.6  0.1748 -149.5
 2.600  0.6490  118.6   1.892   33.3  0.1958   49.2  0.1833 -151.7
 2.700  0.6542  116.6   1.825   31.4  0.2020   47.9  0.1906 -153.5
 2.800  0.6602  114.6   1.760   29.3  0.2082   46.7  0.1981 -155.1
 2.900  0.6650  112.5   1.701   27.4  0.2140   45.4  0.2042 -157.4
 3.000  0.6707  110.5   1.644   25.4  0.2199   44.2  0.2107 -159.6
 3.100  0.6740  108.7   1.596   23.8  0.2256   42.9  0.2153 -161.6
 3.200  0.6779  106.9   1.549   22.0  0.2313   41.7  0.2202 -163.5
 3.300  0.6825  105.1   1.504   20.2  0.2372   40.5  0.2254 -165.4
 3.400  0.6877  103.3   1.461   18.2  0.2432   39.4  0.2307 -167.1
 3.500  0.6936  101.6   1.419   16.1  0.2492   38.4  0.2363 -168.8
 3.600  0.6969  100.0   1.383   14.6  0.2546   37.1  0.2409 -171.1
 3.700  0.7007   98.4   1.348   13.0  0.2600   35.9  0.2459 -173.3
 3.800  0.7051   96.9   1.315   11.3  0.2656   34.7  0.2512 -175.4
 3.900  0.7099   95.3   1.282    9.5  0.2713   33.6  0.2569 -177.5
 4.000  0.7153   93.8   1.251    7.6  0.2771   32.5  0.2629 -179.4
 4.100  0.7174   92.3   1.223    6.1  0.2823   31.2  0.2685  178.2
 4.200  0.7200   90.8   1.195    4.6  0.2876   29.9  0.2746  175.9
 4.300  0.7231   89.4   1.169    3.0  0.2931   28.7  0.2811  173.7
 4.400  0.7266   87.9   1.143    1.3  0.2987   27.5  0.2880  171.6
 4.500  0.7306   86.5   1.119   -0.4  0.3044   26.4  0.2953  169.6
 4.600  0.7335   85.2   1.096   -1.7  0.3091   25.2  0.3028  167.7
 4.700  0.7368   83.8   1.073   -3.0  0.3140   24.1  0.3106  166.0
 4.800  0.7405   82.5   1.051   -4.4  0.3189   22.9  0.3187  164.3
 4.900  0.7446   81.2   1.030   -5.8  0.3240   21.9  0.3270  162.7
 5.000  0.7491   79.9   1.009   -7.3  0.3292   20.8  0.3356  161.2
 5.100  0.7494   78.6   0.993   -8.5  0.3336   19.6  0.3441  160.0
 5.200  0.7502   77.2   0.977   -9.8  0.3381   18.4  0.3528  158.8
 5.300  0.7513   75.9   0.962  -11.1  0.3428   17.2  0.3616  157.7
 5.400  0.7529   74.5   0.948  -12.5  0.3476   16.1  0.3705  156.7
 5.500  0.7549   73.2   0.934  -13.9  0.3525   15.0  0.3796  155.7
 5.600  0.7546   72.0   0.919  -15.0  0.3565   13.8  0.3848  154.8
 5.700  0.7547   70.8   0.904  -16.1  0.3607   12.7  0.3902  153.9
 5.800  0.7551   69.7   0.890  -17.3  0.3651   11.6  0.3956  153.0
 5.900  0.7558   68.5   0.876  -18.5  0.3695   10.5  0.4011  152.2
 6.000  0.7568   67.3   0.862  -19.7  0.3741    9.5  0.4067  151.4
!
!  f       NFmin   Gammaopt  rn/50
! GHz       dB    MAG  ANG    -
!
! noise parameter not available yet for this operation point!
!
! (c) 2017  Infineon Technologies AG, Munich