! Infineon Technologies  Discrete & RF Semiconductors
! BFR182W
! VCE =  4.0 V,  IC =  45 mA
! Common Emitter S-Parameters:                            Jan 2017
# GHz  S  MA  R  50
!  f         S11            S21            S12            S22
! GHz     MAG   ANG      MAG   ANG      MAG   ANG      MAG   ANG
 0.010  0.3563  -16.4  41.606  172.8  0.0020   80.3  0.9087   -3.6
 0.020  0.3678  -32.0  41.100  166.2  0.0042   81.6  0.8984   -8.1
 0.030  0.3538  -45.3  38.943  160.7  0.0059   74.4  0.8651  -11.2
 0.040  0.3599  -58.9  37.185  154.6  0.0076   70.4  0.8345  -14.6
 0.050  0.3849  -71.4  35.885  148.0  0.0093   67.9  0.8071  -18.2
 0.060  0.3782  -79.8  33.760  144.9  0.0104   66.6  0.7749  -19.5
 0.070  0.3797  -88.2  31.749  141.3  0.0115   65.5  0.7432  -20.9
 0.080  0.3893  -96.5  29.875  137.3  0.0126   64.7  0.7119  -22.5
 0.090  0.4065 -104.2  28.165  132.8  0.0137   63.9  0.6812  -24.2
 0.100  0.4304 -111.1  26.650  127.8  0.0148   63.3  0.6512  -26.0
 0.110  0.4289 -115.5  25.275  125.9  0.0156   62.7  0.6307  -26.3
 0.120  0.4299 -119.8  23.929  123.9  0.0164   62.2  0.6102  -26.6
 0.130  0.4334 -124.2  22.618  121.6  0.0171   61.7  0.5897  -26.9
 0.140  0.4393 -128.4  21.347  119.0  0.0179   61.2  0.5692  -27.2
 0.150  0.4476 -132.5  20.126  116.1  0.0187   60.8  0.5488  -27.6
 0.200  0.4583 -145.2  15.907  108.6  0.0218   61.2  0.4912  -26.8
 0.250  0.4660 -153.9  13.110  103.1  0.0254   63.3  0.4561  -25.5
 0.300  0.4670 -160.0  11.091   99.3  0.0281   64.5  0.4326  -24.4
 0.350  0.4688 -164.4   9.784   96.7  0.0317   67.2  0.4197  -23.7
 0.400  0.4734 -168.8   8.502   93.4  0.0353   69.3  0.4068  -22.9
 0.450  0.4742 -172.2   7.676   91.5  0.0387   70.0  0.3999  -22.7
 0.500  0.4766 -175.5   6.861   89.1  0.0421   70.5  0.3930  -22.4
 0.600  0.4802  179.4   5.771   85.4  0.0496   72.0  0.3837  -22.4
 0.700  0.4831  175.4   4.971   82.2  0.0563   73.6  0.3772  -22.8
 0.800  0.4871  171.4   4.374   79.0  0.0641   74.7  0.3727  -23.7
 0.900  0.4892  168.0   3.894   76.3  0.0715   74.2  0.3687  -24.7
 1.000  0.4958  164.7   3.533   73.6  0.0797   75.0  0.3647  -26.0
 1.100  0.4973  161.7   3.227   71.1  0.0875   74.8  0.3621  -27.4
 1.200  0.5004  158.7   2.970   68.6  0.0952   74.8  0.3584  -28.8
 1.300  0.5034  156.1   2.753   66.2  0.1032   74.6  0.3555  -30.5
 1.400  0.5076  153.5   2.575   63.8  0.1112   74.6  0.3513  -32.3
 1.500  0.5139  151.0   2.412   61.6  0.1195   74.4  0.3483  -34.2
 1.600  0.5172  148.6   2.275   59.3  0.1275   73.9  0.3461  -36.2
 1.700  0.5195  146.1   2.153   57.1  0.1365   73.5  0.3425  -38.3
 1.800  0.5259  143.7   2.050   54.9  0.1452   72.8  0.3394  -40.5
 1.900  0.5293  141.6   1.952   53.0  0.1536   72.4  0.3372  -42.8
 2.000  0.5321  139.3   1.862   50.8  0.1623   71.8  0.3346  -45.3
 2.100  0.5368  137.0   1.785   48.8  0.1710   71.1  0.3323  -47.8
 2.200  0.5423  134.8   1.710   46.7  0.1798   70.5  0.3306  -50.4
 2.300  0.5461  132.9   1.648   44.8  0.1889   69.8  0.3290  -53.1
 2.400  0.5505  131.0   1.588   42.8  0.1981   69.1  0.3281  -55.8
 2.500  0.5541  129.0   1.533   41.1  0.2072   68.3  0.3273  -58.4
 2.600  0.5584  127.1   1.480   39.2  0.2163   67.5  0.3272  -61.1
 2.700  0.5623  125.2   1.434   37.6  0.2255   66.6  0.3271  -63.7
 2.800  0.5669  123.3   1.389   35.8  0.2348   65.8  0.3276  -66.3
 2.900  0.5700  121.3   1.349   34.1  0.2441   64.9  0.3271  -68.9
 3.000  0.5737  119.3   1.311   32.4  0.2534   64.1  0.3274  -71.6
 3.100  0.5760  117.4   1.278   31.0  0.2629   63.0  0.3259  -74.1
 3.200  0.5789  115.6   1.245   29.6  0.2724   62.1  0.3250  -76.5
 3.300  0.5824  113.7   1.214   28.1  0.2821   61.2  0.3247  -79.0
 3.400  0.5865  111.9   1.183   26.5  0.2917   60.3  0.3250  -81.5
 3.500  0.5912  110.1   1.153   24.8  0.3015   59.5  0.3259  -84.0
 3.600  0.5941  108.4   1.129   23.6  0.3109   58.3  0.3227  -86.6
 3.700  0.5975  106.8   1.106   22.2  0.3205   57.2  0.3201  -89.2
 3.800  0.6014  105.1   1.083   20.9  0.3302   56.1  0.3182  -91.8
 3.900  0.6058  103.5   1.061   19.5  0.3399   55.1  0.3170  -94.5
 4.000  0.6107  101.9   1.039   18.0  0.3498   54.2  0.3165  -97.2
 4.100  0.6124  100.4   1.020   16.8  0.3589   52.9  0.3121 -100.2
 4.200  0.6145   98.9   1.002   15.7  0.3683   51.7  0.3086 -103.4
 4.300  0.6170   97.4   0.984   14.4  0.3777   50.5  0.3060 -106.5
 4.400  0.6200   96.0   0.966   13.1  0.3873   49.4  0.3044 -109.8
 4.500  0.6233   94.5   0.949   11.8  0.3971   48.4  0.3038 -113.0
 4.600  0.6272   93.1   0.933   10.9  0.4058   47.1  0.3012 -116.6
 4.700  0.6314   91.8   0.918    9.9  0.4148   45.9  0.2998 -120.3
 4.800  0.6359   90.4   0.903    9.0  0.4239   44.8  0.2996 -123.9
 4.900  0.6409   89.1   0.888    7.9  0.4332   43.7  0.3006 -127.6
 5.000  0.6461   87.8   0.873    6.9  0.4426   42.6  0.3029 -131.2
 5.100  0.6467   86.5   0.862    6.1  0.4507   41.3  0.3047 -134.7
 5.200  0.6476   85.3   0.852    5.2  0.4589   40.1  0.3076 -138.2
 5.300  0.6488   84.0   0.841    4.4  0.4674   38.9  0.3116 -141.6
 5.400  0.6503   82.7   0.831    3.5  0.4761   37.7  0.3167 -144.9
 5.500  0.6521   81.5   0.821    2.6  0.4850   36.6  0.3228 -148.1
 5.600  0.6526   80.4   0.811    1.9  0.4921   35.3  0.3258 -150.9
 5.700  0.6533   79.3   0.802    1.2  0.4994   34.1  0.3295 -153.7
 5.800  0.6543   78.2   0.792    0.5  0.5069   33.0  0.3340 -156.4
 5.900  0.6555   77.1   0.783   -0.2  0.5147   31.8  0.3393 -159.1
 6.000  0.6569   76.0   0.774   -1.0  0.5226   30.7  0.3452 -161.6
!
!  f       NFmin   Gammaopt  rn/50
! GHz       dB    MAG  ANG    -
!
! noise parameter not available yet for this operation point!
!
! (c) 2017  Infineon Technologies AG, Munich