! Infineon Technologies  Discrete & RF Semiconductors
! BFR182W
! VCE =  3.0 V,  IC =  23 mA
! Common Emitter S-Parameters:                            Jan 2017
# GHz  S  MA  R  50
!  f         S11            S21            S12            S22
! GHz     MAG   ANG      MAG   ANG      MAG   ANG      MAG   ANG
 0.010  0.5280   -7.5  39.027  175.1  0.0016   80.3  0.9776   -2.9
 0.020  0.5330  -15.0  39.104  170.6  0.0040   93.2  0.9665   -6.3
 0.030  0.5137  -21.8  37.982  166.4  0.0057   85.3  0.9476   -9.1
 0.040  0.5022  -29.0  37.074  162.0  0.0074   81.0  0.9310  -12.1
 0.050  0.4988  -36.4  36.396  157.4  0.0092   78.4  0.9170  -15.1
 0.060  0.4808  -41.8  34.983  154.4  0.0107   75.8  0.8894  -17.0
 0.070  0.4675  -47.6  33.676  151.1  0.0121   73.8  0.8627  -18.9
 0.080  0.4592  -53.7  32.490  147.5  0.0136   72.2  0.8372  -21.0
 0.090  0.4561  -59.9  31.436  143.7  0.0151   70.9  0.8128  -23.2
 0.100  0.4585  -66.1  30.529  139.7  0.0166   69.9  0.7897  -25.6
 0.110  0.4439  -70.2  29.322  137.6  0.0176   68.6  0.7659  -26.6
 0.120  0.4318  -74.6  28.158  135.3  0.0186   67.5  0.7423  -27.6
 0.130  0.4224  -79.2  27.042  132.9  0.0196   66.5  0.7190  -28.7
 0.140  0.4158  -84.0  25.980  130.2  0.0206   65.6  0.6959  -29.9
 0.150  0.4122  -88.9  24.980  127.3  0.0216   64.8  0.6732  -31.2
 0.200  0.3849 -105.9  20.673  118.6  0.0247   64.1  0.5873  -33.5
 0.250  0.3699 -119.2  17.503  112.0  0.0290   63.9  0.5247  -34.3
 0.300  0.3547 -128.9  15.030  107.3  0.0326   64.1  0.4788  -34.1
 0.350  0.3454 -136.2  13.363  104.1  0.0364   65.4  0.4505  -33.6
 0.400  0.3419 -143.8  11.748  100.1  0.0402   66.4  0.4222  -33.0
 0.450  0.3380 -149.2  10.645   97.8  0.0435   66.9  0.4055  -32.4
 0.500  0.3371 -154.7   9.563   95.0  0.0469   67.3  0.3889  -31.8
 0.600  0.3355 -162.8   8.081   90.9  0.0543   69.0  0.3676  -30.9
 0.700  0.3360 -169.3   6.979   87.4  0.0616   70.0  0.3529  -30.3
 0.800  0.3368 -175.3   6.152   84.1  0.0695   70.8  0.3429  -30.3
 0.900  0.3379  179.9   5.486   81.2  0.0768   70.9  0.3347  -30.5
 1.000  0.3424  175.6   4.975   78.5  0.0846   71.2  0.3278  -30.8
 1.100  0.3463  171.7   4.545   76.1  0.0924   71.1  0.3227  -31.4
 1.200  0.3496  167.9   4.183   73.5  0.0999   70.8  0.3177  -32.2
 1.300  0.3513  164.3   3.875   71.1  0.1079   70.7  0.3133  -33.2
 1.400  0.3558  161.6   3.620   68.9  0.1160   70.5  0.3084  -34.5
 1.500  0.3624  158.8   3.391   66.8  0.1243   69.9  0.3045  -35.8
 1.600  0.3661  155.8   3.196   64.5  0.1324   69.6  0.3025  -37.3
 1.700  0.3697  153.2   3.023   62.5  0.1404   69.3  0.2983  -39.0
 1.800  0.3758  150.5   2.876   60.3  0.1484   68.6  0.2951  -40.7
 1.900  0.3800  148.2   2.739   58.5  0.1567   68.2  0.2922  -42.6
 2.000  0.3834  145.8   2.610   56.3  0.1652   67.5  0.2895  -44.8
 2.100  0.3888  143.4   2.503   54.4  0.1733   66.9  0.2871  -47.0
 2.200  0.3949  141.0   2.398   52.4  0.1814   66.3  0.2852  -49.2
 2.300  0.3995  139.0   2.310   50.6  0.1897   65.6  0.2835  -51.6
 2.400  0.4046  137.1   2.225   48.6  0.1980   64.9  0.2822  -54.0
 2.500  0.4094  135.1   2.146   46.9  0.2063   64.1  0.2814  -56.3
 2.600  0.4147  133.1   2.070   45.0  0.2146   63.4  0.2810  -58.7
 2.700  0.4196  131.1   2.006   43.3  0.2230   62.6  0.2808  -61.1
 2.800  0.4250  129.2   1.943   41.5  0.2314   61.9  0.2811  -63.4
 2.900  0.4303  127.3   1.887   39.8  0.2398   61.1  0.2807  -65.7
 3.000  0.4360  125.5   1.833   38.0  0.2482   60.3  0.2807  -68.0
 3.100  0.4394  123.6   1.786   36.5  0.2567   59.4  0.2796  -70.2
 3.200  0.4433  121.7   1.741   35.0  0.2652   58.5  0.2790  -72.4
 3.300  0.4477  119.9   1.697   33.4  0.2737   57.7  0.2787  -74.7
 3.400  0.4525  118.1   1.654   31.7  0.2823   57.0  0.2789  -76.9
 3.500  0.4578  116.3   1.613   29.9  0.2910   56.3  0.2795  -79.1
 3.600  0.4627  114.7   1.579   28.5  0.2995   55.3  0.2767  -81.4
 3.700  0.4680  113.2   1.546   27.1  0.3080   54.3  0.2744  -83.7
 3.800  0.4737  111.6   1.514   25.6  0.3167   53.4  0.2725  -86.0
 3.900  0.4796  110.1   1.484   24.0  0.3254   52.5  0.2711  -88.4
 4.000  0.4859  108.7   1.454   22.4  0.3342   51.7  0.2701  -90.8
 4.100  0.4904  107.3   1.427   21.0  0.3424   50.6  0.2661  -93.6
 4.200  0.4952  105.9   1.401   19.6  0.3508   49.5  0.2628  -96.5
 4.300  0.5003  104.6   1.376   18.2  0.3593   48.5  0.2601  -99.4
 4.400  0.5057  103.3   1.351   16.7  0.3679   47.5  0.2582 -102.4
 4.500  0.5113  102.0   1.328   15.1  0.3766   46.6  0.2569 -105.4
 4.600  0.5173  100.6   1.304   13.9  0.3848   45.5  0.2544 -108.9
 4.700  0.5237   99.2   1.281   12.7  0.3931   44.5  0.2529 -112.4
 4.800  0.5303   97.8   1.258   11.5  0.4015   43.5  0.2524 -116.0
 4.900  0.5373   96.5   1.236   10.2  0.4101   42.6  0.2528 -119.6
 5.000  0.5445   95.2   1.215    8.8  0.4187   41.7  0.2542 -123.1
 5.100  0.5479   93.9   1.198    7.7  0.4264   40.5  0.2560 -126.7
 5.200  0.5516   92.7   1.181    6.5  0.4342   39.4  0.2589 -130.3
 5.300  0.5556   91.5   1.165    5.4  0.4422   38.3  0.2627 -133.7
 5.400  0.5598   90.3   1.149    4.1  0.4504   37.3  0.2675 -137.1
 5.500  0.5642   89.1   1.134    2.9  0.4587   36.3  0.2731 -140.3
 5.600  0.5667   88.0   1.117    1.9  0.4660   35.2  0.2764 -143.2
 5.700  0.5695   86.9   1.101    0.9  0.4735   34.2  0.2805 -146.0
 5.800  0.5724   85.9   1.086   -0.1  0.4811   33.1  0.2852 -148.7
 5.900  0.5755   84.8   1.070   -1.2  0.4889   32.2  0.2905 -151.4
 6.000  0.5788   83.8   1.055   -2.3  0.4968   31.2  0.2964 -153.9
!
!  f       NFmin   Gammaopt  rn/50
! GHz       dB    MAG  ANG    -
 0.450      1.50  0.14 -170   0.15
 0.900      1.58  0.16 -165   0.16
 1.900      2.10  0.31 -139   0.17
 2.400      2.38  0.32 -127   0.27
!
! (c) 2017  Infineon Technologies AG, Munich