! Infineon Technologies  Discrete & RF Semiconductors
! BFR182W
! VCE =  6.0 V,  IC =  27 mA
! Common Emitter S-Parameters:                            Jan 2017
# GHz  S  MA  R  50
!  f         S11            S21            S12            S22
! GHz     MAG   ANG      MAG   ANG      MAG   ANG      MAG   ANG
 0.010  0.5202   -6.9  42.659  174.6  0.0014   85.1  0.9794   -2.7
 0.020  0.5252  -14.1  42.729  170.4  0.0031   89.0  0.9724   -6.1
 0.030  0.5059  -20.4  41.450  166.3  0.0049   82.2  0.9524   -8.9
 0.040  0.4933  -27.2  40.400  161.9  0.0068   79.1  0.9347  -11.8
 0.050  0.4878  -34.2  39.598  157.3  0.0087   77.3  0.9195  -14.8
 0.060  0.4693  -39.4  38.055  154.3  0.0099   75.3  0.8921  -16.6
 0.070  0.4550  -44.9  36.627  151.0  0.0112   73.7  0.8656  -18.4
 0.080  0.4452  -50.8  35.327  147.5  0.0124   72.5  0.8401  -20.4
 0.090  0.4402  -56.9  34.170  143.7  0.0136   71.5  0.8157  -22.6
 0.100  0.4403  -63.0  33.172  139.7  0.0149   70.6  0.7925  -24.8
 0.110  0.4252  -66.9  31.861  137.6  0.0158   69.7  0.7691  -25.8
 0.120  0.4122  -71.1  30.595  135.3  0.0167   68.9  0.7460  -26.8
 0.130  0.4016  -75.6  29.382  132.9  0.0175   68.2  0.7231  -27.8
 0.140  0.3935  -80.3  28.228  130.2  0.0184   67.6  0.7005  -29.0
 0.150  0.3882  -85.1  27.141  127.3  0.0193   67.0  0.6782  -30.2
 0.200  0.3562 -101.6  22.460  118.7  0.0230   67.3  0.5939  -32.2
 0.250  0.3346 -114.7  19.002  112.2  0.0270   66.7  0.5333  -32.8
 0.300  0.3169 -125.1  16.324  107.6  0.0299   66.6  0.4882  -32.5
 0.350  0.3062 -132.4  14.502  104.5  0.0337   67.4  0.4613  -31.9
 0.400  0.3007 -140.0  12.734  100.6  0.0375   68.0  0.4345  -31.2
 0.450  0.2961 -145.6  11.547   98.3  0.0411   69.1  0.4180  -30.6
 0.500  0.2944 -151.4  10.383   95.5  0.0448   70.1  0.4016  -30.0
 0.600  0.2889 -160.4   8.778   91.4  0.0523   70.9  0.3814  -29.1
 0.700  0.2902 -167.1   7.581   88.1  0.0594   71.8  0.3674  -28.4
 0.800  0.2922 -173.3   6.682   84.8  0.0672   72.2  0.3576  -28.4
 0.900  0.2928 -178.4   5.957   82.1  0.0746   72.2  0.3495  -28.5
 1.000  0.2952  177.0   5.402   79.5  0.0825   72.3  0.3426  -28.9
 1.100  0.2993  172.6   4.933   77.1  0.0901   72.3  0.3384  -29.4
 1.200  0.3033  168.8   4.541   74.6  0.0976   72.0  0.3332  -30.1
 1.300  0.3050  165.0   4.207   72.4  0.1055   71.9  0.3293  -31.0
 1.400  0.3102  162.5   3.929   70.2  0.1136   71.6  0.3244  -32.3
 1.500  0.3149  159.6   3.681   68.1  0.1214   71.0  0.3211  -33.5
 1.600  0.3179  156.3   3.467   65.9  0.1290   70.7  0.3186  -34.8
 1.700  0.3221  153.5   3.277   64.0  0.1369   70.1  0.3146  -36.4
 1.800  0.3277  150.7   3.119   61.9  0.1450   69.5  0.3114  -38.0
 1.900  0.3329  148.7   2.969   60.1  0.1527   68.9  0.3088  -39.8
 2.000  0.3369  146.3   2.830   58.1  0.1607   68.3  0.3058  -41.8
 2.100  0.3415  143.8   2.714   56.3  0.1688   67.7  0.3033  -43.8
 2.200  0.3467  141.3   2.600   54.3  0.1769   67.1  0.3012  -45.9
 2.300  0.3522  139.4   2.503   52.5  0.1852   66.4  0.2995  -48.1
 2.400  0.3581  137.5   2.409   50.6  0.1935   65.7  0.2983  -50.3
 2.500  0.3627  135.5   2.325   48.9  0.2015   64.9  0.2970  -52.5
 2.600  0.3678  133.6   2.243   47.0  0.2095   64.2  0.2961  -54.7
 2.700  0.3731  131.6   2.173   45.4  0.2178   63.5  0.2957  -56.9
 2.800  0.3788  129.6   2.105   43.6  0.2261   62.8  0.2958  -59.1
 2.900  0.3838  127.7   2.045   41.9  0.2342   62.0  0.2950  -61.3
 3.000  0.3893  125.8   1.986   40.2  0.2423   61.2  0.2947  -63.5
 3.100  0.3932  124.0   1.935   38.8  0.2505   60.3  0.2936  -65.5
 3.200  0.3975  122.2   1.886   37.2  0.2587   59.4  0.2928  -67.6
 3.300  0.4022  120.5   1.838   35.6  0.2670   58.7  0.2924  -69.7
 3.400  0.4072  118.8   1.792   34.0  0.2754   57.9  0.2924  -71.7
 3.500  0.4126  117.2   1.747   32.2  0.2838   57.2  0.2928  -73.8
 3.600  0.4175  115.6   1.711   30.8  0.2921   56.2  0.2899  -75.9
 3.700  0.4227  114.0   1.675   29.4  0.3004   55.2  0.2873  -78.0
 3.800  0.4282  112.5   1.641   27.9  0.3088   54.3  0.2852  -80.2
 3.900  0.4341  111.0   1.608   26.4  0.3173   53.4  0.2834  -82.4
 4.000  0.4402  109.5   1.576   24.8  0.3259   52.6  0.2821  -84.6
 4.100  0.4453  108.2   1.547   23.4  0.3341   51.5  0.2777  -87.1
 4.200  0.4507  106.8   1.518   22.0  0.3423   50.5  0.2738  -89.8
 4.300  0.4563  105.6   1.491   20.6  0.3507   49.6  0.2706  -92.5
 4.400  0.4622  104.3   1.464   19.1  0.3592   48.7  0.2679  -95.2
 4.500  0.4682  103.1   1.439   17.5  0.3677   47.8  0.2659  -98.0
 4.600  0.4752  101.7   1.414   16.3  0.3757   46.8  0.2628 -101.2
 4.700  0.4824  100.4   1.389   15.0  0.3839   45.8  0.2605 -104.6
 4.800  0.4899   99.1   1.365   13.7  0.3922   44.9  0.2591 -107.9
 4.900  0.4976   97.9   1.342   12.3  0.4005   44.0  0.2586 -111.3
 5.000  0.5055   96.7   1.320   10.9  0.4090   43.1  0.2590 -114.7
 5.100  0.5090   95.5   1.301    9.8  0.4168   42.0  0.2599 -118.3
 5.200  0.5126   94.3   1.283    8.6  0.4248   40.9  0.2617 -121.8
 5.300  0.5165   93.1   1.265    7.4  0.4329   39.9  0.2645 -125.3
 5.400  0.5207   91.9   1.248    6.2  0.4411   38.9  0.2683 -128.6
 5.500  0.5250   90.8   1.231    4.9  0.4495   37.9  0.2730 -131.9
 5.600  0.5285   89.7   1.214    3.9  0.4567   36.8  0.2758 -134.8
 5.700  0.5322   88.7   1.196    2.8  0.4641   35.7  0.2792 -137.7
 5.800  0.5361   87.6   1.180    1.7  0.4716   34.7  0.2834 -140.5
 5.900  0.5402   86.6   1.164    0.6  0.4793   33.7  0.2882 -143.2
 6.000  0.5444   85.6   1.148   -0.6  0.4871   32.7  0.2936 -145.8
!
!  f       NFmin   Gammaopt  rn/50
! GHz       dB    MAG  ANG    -
!
! noise parameter not available yet for this operation point!
!
! (c) 2017  Infineon Technologies AG, Munich