! Infineon Technologies  Discrete & RF Semiconductors
! BFR182W
! VCE =  8.0 V,  IC =  8.0 mA
! Common Emitter S-Parameters:                            Jan 2017
# GHz  S  MA  R  50
!  f         S11            S21            S12            S22
! GHz     MAG   ANG      MAG   ANG      MAG   ANG      MAG   ANG
 0.010  0.7763   -3.3  21.887  176.9  0.0014   80.6  0.9972   -1.6
 0.020  0.7871   -6.5  22.034  174.8  0.0037   88.0  0.9990   -3.5
 0.030  0.7729   -9.6  21.772  172.4  0.0058   83.8  0.9904   -5.1
 0.040  0.7611  -12.9  21.550  169.9  0.0080   81.9  0.9825   -6.7
 0.050  0.7518  -16.2  21.369  167.4  0.0101   80.8  0.9754   -8.3
 0.060  0.7421  -19.3  21.056  165.2  0.0118   79.2  0.9648   -9.7
 0.070  0.7346  -22.4  20.776  162.9  0.0136   78.1  0.9548  -11.1
 0.080  0.7293  -25.6  20.528  160.6  0.0153   77.2  0.9454  -12.5
 0.090  0.7263  -28.8  20.316  158.2  0.0171   76.5  0.9367  -14.0
 0.100  0.7257  -32.1  20.139  155.8  0.0188   75.9  0.9285  -15.5
 0.110  0.7110  -34.7  19.759  153.9  0.0203   74.3  0.9146  -16.6
 0.120  0.6978  -37.4  19.403  151.9  0.0218   73.0  0.9010  -17.8
 0.130  0.6861  -40.2  19.071  149.8  0.0233   71.8  0.8879  -19.1
 0.140  0.6762  -43.0  18.764  147.7  0.0249   70.8  0.8751  -20.3
 0.150  0.6680  -46.0  18.484  145.5  0.0264   69.9  0.8628  -21.6
 0.200  0.6138  -58.5  16.763  136.8  0.0312   65.4  0.7969  -25.9
 0.250  0.5620  -69.5  15.177  129.3  0.0370   62.3  0.7349  -29.1
 0.300  0.5151  -79.4  13.680  123.3  0.0410   60.8  0.6798  -31.3
 0.350  0.4770  -86.9  12.475  119.0  0.0444   59.8  0.6377  -32.4
 0.400  0.4483  -95.5  11.356  113.8  0.0478   59.0  0.5959  -33.6
 0.450  0.4200 -101.8  10.438  110.6  0.0508   58.6  0.5665  -34.1
 0.500  0.3976 -109.0   9.558  106.9  0.0539   58.2  0.5372  -34.6
 0.600  0.3649 -120.6   8.243  101.2  0.0601   58.1  0.4955  -34.8
 0.700  0.3419 -130.5   7.208   96.5  0.0652   59.4  0.4654  -34.8
 0.800  0.3251 -139.6   6.413   92.3  0.0721   60.5  0.4430  -34.8
 0.900  0.3128 -147.6   5.752   88.7  0.0770   61.0  0.4262  -34.9
 1.000  0.3075 -155.0   5.238   85.5  0.0831   61.9  0.4121  -35.1
 1.100  0.3037 -161.4   4.801   82.6  0.0896   62.5  0.4017  -35.5
 1.200  0.3017 -167.2   4.429   79.7  0.0955   63.2  0.3922  -35.9
 1.300  0.2991 -172.9   4.111   76.9  0.1019   63.3  0.3846  -36.5
 1.400  0.3019 -177.7   3.847   74.4  0.1090   63.7  0.3769  -37.4
 1.500  0.3049  178.1   3.609   72.1  0.1155   64.1  0.3711  -38.4
 1.600  0.3059  173.3   3.402   69.6  0.1222   64.1  0.3672  -39.4
 1.700  0.3071  169.6   3.219   67.4  0.1292   64.2  0.3616  -40.7
 1.800  0.3123  165.7   3.067   65.2  0.1362   64.3  0.3564  -41.9
 1.900  0.3165  162.3   2.923   63.2  0.1431   64.2  0.3533  -43.4
 2.000  0.3198  159.1   2.790   60.9  0.1504   64.0  0.3501  -45.0
 2.100  0.3240  155.9   2.676   58.9  0.1578   63.8  0.3469  -46.7
 2.200  0.3292  152.7   2.565   56.8  0.1652   63.6  0.3441  -48.5
 2.300  0.3344  150.0   2.470   54.9  0.1726   63.2  0.3423  -50.4
 2.400  0.3404  147.4   2.379   52.8  0.1801   62.9  0.3408  -52.3
 2.500  0.3449  144.8   2.296   51.0  0.1875   62.5  0.3395  -54.2
 2.600  0.3501  142.3   2.215   49.1  0.1949   62.1  0.3385  -56.1
 2.700  0.3550  140.0   2.147   47.4  0.2028   61.6  0.3381  -58.0
 2.800  0.3604  137.7   2.081   45.5  0.2108   61.2  0.3381  -60.0
 2.900  0.3658  135.3   2.022   43.7  0.2185   60.6  0.3374  -61.9
 3.000  0.3718  132.9   1.965   41.8  0.2262   60.1  0.3370  -63.8
 3.100  0.3758  130.8   1.915   40.3  0.2343   59.4  0.3359  -65.7
 3.200  0.3804  128.7   1.866   38.8  0.2424   58.8  0.3352  -67.6
 3.300  0.3854  126.6   1.819   37.1  0.2506   58.2  0.3348  -69.5
 3.400  0.3909  124.6   1.773   35.4  0.2588   57.7  0.3348  -71.4
 3.500  0.3969  122.7   1.729   33.6  0.2670   57.2  0.3352  -73.3
 3.600  0.4018  120.9   1.693   32.2  0.2754   56.3  0.3324  -75.2
 3.700  0.4072  119.1   1.658   30.7  0.2838   55.5  0.3300  -77.2
 3.800  0.4129  117.3   1.624   29.1  0.2923   54.8  0.3280  -79.2
 3.900  0.4190  115.6   1.591   27.5  0.3008   54.1  0.3263  -81.2
 4.000  0.4254  114.0   1.560   25.8  0.3094   53.4  0.3251  -83.2
 4.100  0.4309  112.4   1.531   24.4  0.3178   52.4  0.3209  -85.6
 4.200  0.4366  110.9   1.504   23.0  0.3263   51.5  0.3172  -88.1
 4.300  0.4427  109.4   1.477   21.5  0.3348   50.7  0.3142  -90.6
 4.400  0.4491  108.0   1.452   19.9  0.3434   49.9  0.3118  -93.2
 4.500  0.4557  106.6   1.427   18.3  0.3521   49.1  0.3100  -95.8
 4.600  0.4628  105.1   1.402   17.1  0.3607   48.1  0.3066  -98.8
 4.700  0.4702  103.6   1.377   15.8  0.3694   47.2  0.3040 -101.8
 4.800  0.4779  102.2   1.353   14.4  0.3782   46.3  0.3022 -104.9
 4.900  0.4859  100.8   1.329   13.0  0.3870   45.4  0.3014 -108.1
 5.000  0.4941   99.5   1.307   11.6  0.3960   44.6  0.3015 -111.2
 5.100  0.4981   98.2   1.288   10.4  0.4043   43.5  0.3020 -114.5
 5.200  0.5024   96.9   1.270    9.2  0.4127   42.5  0.3035 -117.8
 5.300  0.5069   95.6   1.252    8.0  0.4213   41.5  0.3060 -121.0
 5.400  0.5117   94.3   1.235    6.7  0.4300   40.5  0.3095 -124.2
 5.500  0.5167   93.1   1.218    5.4  0.4388   39.6  0.3139 -127.3
 5.600  0.5199   91.9   1.200    4.4  0.4466   38.5  0.3161 -130.2
 5.700  0.5234   90.7   1.183    3.3  0.4546   37.5  0.3191 -133.0
 5.800  0.5270   89.6   1.166    2.2  0.4627   36.4  0.3229 -135.8
 5.900  0.5309   88.4   1.149    1.1  0.4710   35.4  0.3274 -138.5
 6.000  0.5350   87.3   1.133   -0.1  0.4794   34.5  0.3326 -141.1
!
!  f       NFmin   Gammaopt  rn/50
! GHz       dB    MAG  ANG    -
 0.450      1.00  0.12   39   0.15
 0.900      1.08  0.12   69   0.15
 1.900      1.59  0.18 -174   0.13
 2.400      1.85  0.18 -169   0.19
!
! (c) 2017  Infineon Technologies AG, Munich