! Infineon Technologies  Discrete & RF Semiconductors
! BFR182W
! VCE =  5.0 V,  IC =  45 mA
! Common Emitter S-Parameters:                            Jan 2017
# GHz  S  MA  R  50
!  f         S11            S21            S12            S22
! GHz     MAG   ANG      MAG   ANG      MAG   ANG      MAG   ANG
 0.010  0.3756  -14.0  43.730  173.1  0.0019   79.0  0.9273   -3.2
 0.020  0.3829  -27.5  43.430  167.0  0.0032   85.3  0.9119   -7.4
 0.030  0.3660  -39.3  41.338  161.8  0.0051   78.0  0.8832  -10.5
 0.040  0.3657  -51.7  39.626  156.0  0.0071   74.7  0.8572  -13.7
 0.050  0.3820  -63.5  38.348  149.8  0.0091   72.9  0.8342  -17.2
 0.060  0.3712  -71.4  36.199  146.7  0.0101   71.2  0.8027  -18.6
 0.070  0.3677  -79.6  34.171  143.1  0.0110   69.8  0.7718  -20.1
 0.080  0.3720  -87.9  32.288  139.2  0.0120   68.6  0.7414  -21.7
 0.090  0.3836  -95.7  30.577  134.8  0.0130   67.7  0.7117  -23.5
 0.100  0.4019 -103.0  29.067  129.9  0.0140   66.8  0.6827  -25.4
 0.110  0.3982 -107.5  27.619  128.0  0.0149   65.9  0.6614  -25.7
 0.120  0.3971 -112.1  26.205  125.9  0.0159   65.2  0.6402  -26.1
 0.130  0.3986 -116.7  24.832  123.5  0.0168   64.5  0.6189  -26.5
 0.140  0.4026 -121.3  23.505  120.8  0.0178   63.9  0.5978  -26.9
 0.150  0.4090 -125.7  22.235  117.9  0.0187   63.4  0.5766  -27.4
 0.200  0.4174 -139.5  17.693  110.3  0.0207   65.1  0.5156  -26.9
 0.250  0.4215 -149.2  14.635  104.7  0.0248   64.7  0.4777  -25.8
 0.300  0.4231 -155.9  12.390  100.8  0.0274   66.1  0.4520  -24.7
 0.350  0.4231 -161.0  10.945   98.2  0.0310   67.8  0.4375  -23.9
 0.400  0.4264 -166.0   9.530   94.8  0.0346   69.2  0.4231  -23.1
 0.450  0.4264 -169.5   8.610   92.8  0.0380   70.2  0.4151  -22.8
 0.500  0.4279 -173.0   7.702   90.4  0.0415   71.1  0.4072  -22.5
 0.600  0.4330 -178.6   6.480   86.7  0.0485   73.1  0.3970  -22.4
 0.700  0.4353  176.8   5.582   83.6  0.0556   74.9  0.3901  -22.7
 0.800  0.4375  173.1   4.918   80.5  0.0635   75.2  0.3845  -23.5
 0.900  0.4406  169.4   4.379   77.8  0.0706   75.1  0.3798  -24.4
 1.000  0.4454  165.7   3.974   75.2  0.0783   75.3  0.3763  -25.4
 1.100  0.4498  162.8   3.627   72.8  0.0862   75.5  0.3729  -26.7
 1.200  0.4534  159.8   3.341   70.3  0.0940   75.1  0.3695  -28.1
 1.300  0.4549  157.0   3.099   67.9  0.1015   74.9  0.3660  -29.6
 1.400  0.4599  154.4   2.896   65.7  0.1100   74.9  0.3620  -31.2
 1.500  0.4637  151.9   2.714   63.6  0.1178   74.5  0.3593  -33.0
 1.600  0.4687  149.3   2.559   61.3  0.1260   74.1  0.3569  -34.8
 1.700  0.4712  147.1   2.422   59.2  0.1339   73.6  0.3534  -36.9
 1.800  0.4777  144.6   2.304   57.0  0.1423   73.2  0.3499  -38.9
 1.900  0.4818  142.4   2.197   55.1  0.1509   72.7  0.3475  -41.0
 2.000  0.4833  140.1   2.094   53.0  0.1595   72.0  0.3451  -43.4
 2.100  0.4882  137.9   2.008   51.1  0.1681   71.3  0.3428  -45.7
 2.200  0.4938  135.8   1.924   49.0  0.1768   70.7  0.3410  -48.1
 2.300  0.4980  133.9   1.853   47.1  0.1855   70.0  0.3391  -50.6
 2.400  0.5028  132.0   1.785   45.1  0.1943   69.3  0.3379  -53.2
 2.500  0.5068  130.0   1.724   43.4  0.2031   68.6  0.3371  -55.7
 2.600  0.5114  128.1   1.664   41.5  0.2119   67.9  0.3370  -58.2
 2.700  0.5155  126.2   1.613   39.8  0.2208   67.0  0.3364  -60.7
 2.800  0.5202  124.3   1.563   38.0  0.2298   66.2  0.3364  -63.2
 2.900  0.5242  122.4   1.518   36.3  0.2390   65.3  0.3360  -65.6
 3.000  0.5288  120.5   1.474   34.6  0.2483   64.5  0.3362  -68.1
 3.100  0.5315  118.7   1.437   33.2  0.2574   63.5  0.3347  -70.4
 3.200  0.5348  116.8   1.400   31.7  0.2667   62.6  0.3339  -72.8
 3.300  0.5387  115.0   1.365   30.1  0.2760   61.7  0.3335  -75.2
 3.400  0.5430  113.2   1.330   28.4  0.2853   60.9  0.3338  -77.5
 3.500  0.5479  111.5   1.297   26.7  0.2947   60.1  0.3346  -79.9
 3.600  0.5515  109.8   1.270   25.4  0.3040   58.9  0.3313  -82.3
 3.700  0.5556  108.2   1.243   24.1  0.3135   57.8  0.3286  -84.8
 3.800  0.5602  106.6   1.217   22.7  0.3230   56.8  0.3265  -87.3
 3.900  0.5652  105.0   1.191   21.2  0.3327   55.8  0.3250  -89.8
 4.000  0.5706  103.4   1.167   19.7  0.3424   54.9  0.3242  -92.3
 4.100  0.5733  101.9   1.146   18.5  0.3515   53.7  0.3197  -95.2
 4.200  0.5763  100.5   1.125   17.2  0.3607   52.5  0.3160  -98.1
 4.300  0.5797   99.1   1.105   15.9  0.3700   51.4  0.3132 -101.1
 4.400  0.5835   97.7   1.085   14.5  0.3795   50.4  0.3112 -104.1
 4.500  0.5876   96.3   1.066   13.1  0.3891   49.4  0.3101 -107.2
 4.600  0.5921   95.0   1.048   12.1  0.3978   48.2  0.3070 -110.6
 4.700  0.5970   93.6   1.030   11.0  0.4067   47.0  0.3050 -114.1
 4.800  0.6022   92.3   1.012    9.9  0.4158   45.9  0.3041 -117.7
 4.900  0.6076   91.1   0.995    8.8  0.4250   44.8  0.3044 -121.2
 5.000  0.6134   89.8   0.978    7.6  0.4344   43.8  0.3059 -124.7
 5.100  0.6149   88.5   0.965    6.7  0.4426   42.5  0.3071 -128.2
 5.200  0.6168   87.3   0.952    5.7  0.4510   41.3  0.3095 -131.7
 5.300  0.6189   86.0   0.940    4.7  0.4596   40.1  0.3130 -135.1
 5.400  0.6214   84.7   0.928    3.7  0.4684   39.0  0.3176 -138.4
 5.500  0.6241   83.5   0.916    2.7  0.4774   37.9  0.3232 -141.6
 5.600  0.6252   82.4   0.904    1.9  0.4849   36.7  0.3258 -144.5
 5.700  0.6266   81.3   0.892    1.1  0.4925   35.5  0.3293 -147.3
 5.800  0.6281   80.2   0.881    0.2  0.5004   34.3  0.3335 -150.1
 5.900  0.6300   79.1   0.869   -0.6  0.5085   33.2  0.3385 -152.8
 6.000  0.6320   78.0   0.858   -1.5  0.5168   32.1  0.3442 -155.4
!
!  f       NFmin   Gammaopt  rn/50
! GHz       dB    MAG  ANG    -
!
! noise parameter not available yet for this operation point!
!
! (c) 2017  Infineon Technologies AG, Munich