! Infineon Technologies  Discrete & RF Semiconductors
! BFR182W
! VCE =  3.0 V,  IC =  22 mA
! Common Emitter S-Parameters:                            Jan 2017
# GHz  S  MA  R  50
!  f         S11            S21            S12            S22
! GHz     MAG   ANG      MAG   ANG      MAG   ANG      MAG   ANG
 0.010  0.5396   -7.2  38.433  175.2  0.0018   77.1  0.9788   -2.9
 0.020  0.5471  -14.4  38.727  170.8  0.0037   95.3  0.9679   -6.2
 0.030  0.5269  -20.8  37.588  166.7  0.0056   86.8  0.9499   -9.0
 0.040  0.5137  -27.7  36.651  162.4  0.0076   82.6  0.9343  -11.9
 0.050  0.5083  -34.8  35.932  157.9  0.0096   80.2  0.9212  -14.9
 0.060  0.4902  -40.1  34.583  154.9  0.0110   76.7  0.8946  -16.7
 0.070  0.4766  -45.8  33.338  151.7  0.0124   74.0  0.8690  -18.7
 0.080  0.4678  -51.7  32.207  148.2  0.0138   71.9  0.8445  -20.8
 0.090  0.4643  -57.8  31.203  144.4  0.0152   70.1  0.8211  -23.0
 0.100  0.4660  -63.9  30.339  140.5  0.0167   68.7  0.7990  -25.3
 0.110  0.4514  -68.0  29.166  138.4  0.0177   67.9  0.7749  -26.3
 0.120  0.4393  -72.3  28.036  136.1  0.0187   67.1  0.7511  -27.4
 0.130  0.4298  -76.8  26.954  133.6  0.0198   66.4  0.7276  -28.6
 0.140  0.4231  -81.6  25.925  131.0  0.0208   65.8  0.7044  -29.8
 0.150  0.4194  -86.4  24.958  128.1  0.0218   65.3  0.6815  -31.1
 0.200  0.3890 -103.2  20.727  119.3  0.0254   63.7  0.5944  -33.6
 0.250  0.3699 -116.6  17.585  112.6  0.0292   63.6  0.5315  -34.5
 0.300  0.3546 -126.6  15.123  107.9  0.0328   63.9  0.4843  -34.5
 0.350  0.3441 -134.0  13.455  104.7  0.0364   64.8  0.4554  -34.0
 0.400  0.3396 -141.8  11.840  100.6  0.0401   65.5  0.4265  -33.5
 0.450  0.3350 -147.3  10.732   98.3  0.0436   66.6  0.4087  -33.0
 0.500  0.3336 -153.0   9.645   95.4  0.0471   67.6  0.3909  -32.4
 0.600  0.3324 -161.4   8.154   91.2  0.0549   68.3  0.3691  -31.5
 0.700  0.3302 -168.3   7.043   87.7  0.0615   70.0  0.3539  -30.8
 0.800  0.3328 -174.0   6.214   84.4  0.0701   70.6  0.3432  -30.7
 0.900  0.3340 -179.1   5.540   81.5  0.0766   70.5  0.3343  -30.9
 1.000  0.3369  176.4   5.024   78.8  0.0846   70.5  0.3269  -31.2
 1.100  0.3405  172.5   4.591   76.3  0.0929   70.8  0.3224  -31.8
 1.200  0.3444  168.5   4.222   73.8  0.1001   70.5  0.3168  -32.5
 1.300  0.3469  165.1   3.912   71.4  0.1082   70.4  0.3125  -33.6
 1.400  0.3500  162.2   3.656   69.2  0.1162   70.1  0.3073  -34.7
 1.500  0.3566  159.2   3.425   67.0  0.1240   69.9  0.3038  -36.1
 1.600  0.3614  156.3   3.228   64.8  0.1321   69.3  0.3012  -37.5
 1.700  0.3635  153.6   3.053   62.7  0.1403   69.0  0.2971  -39.2
 1.800  0.3703  150.8   2.905   60.6  0.1486   68.3  0.2939  -40.9
 1.900  0.3738  148.5   2.767   58.7  0.1567   67.8  0.2908  -42.8
 2.000  0.3772  146.0   2.637   56.6  0.1650   67.2  0.2884  -44.9
 2.100  0.3826  143.6   2.529   54.7  0.1731   66.6  0.2858  -47.1
 2.200  0.3886  141.3   2.423   52.7  0.1813   66.0  0.2837  -49.3
 2.300  0.3940  139.3   2.333   50.9  0.1898   65.4  0.2822  -51.6
 2.400  0.3998  137.4   2.246   48.9  0.1983   64.8  0.2812  -54.0
 2.500  0.4046  135.4   2.167   47.2  0.2064   64.0  0.2802  -56.3
 2.600  0.4099  133.4   2.091   45.3  0.2146   63.2  0.2796  -58.7
 2.700  0.4144  131.5   2.026   43.6  0.2229   62.4  0.2794  -61.1
 2.800  0.4193  129.6   1.963   41.8  0.2312   61.7  0.2797  -63.4
 2.900  0.4247  127.6   1.907   40.1  0.2396   60.9  0.2791  -65.7
 3.000  0.4306  125.7   1.852   38.3  0.2480   60.1  0.2790  -68.1
 3.100  0.4339  123.8   1.805   36.8  0.2564   59.2  0.2779  -70.3
 3.200  0.4377  122.0   1.759   35.3  0.2648   58.3  0.2772  -72.4
 3.300  0.4420  120.2   1.715   33.7  0.2733   57.6  0.2770  -74.6
 3.400  0.4466  118.4   1.672   32.0  0.2818   56.8  0.2771  -76.8
 3.500  0.4517  116.7   1.630   30.2  0.2904   56.1  0.2776  -79.0
 3.600  0.4565  115.1   1.596   28.8  0.2989   55.1  0.2749  -81.2
 3.700  0.4617  113.5   1.562   27.4  0.3075   54.1  0.2725  -83.5
 3.800  0.4673  112.0   1.530   25.9  0.3161   53.2  0.2707  -85.9
 3.900  0.4731  110.5   1.499   24.3  0.3249   52.3  0.2693  -88.2
 4.000  0.4793  109.0   1.469   22.7  0.3337   51.5  0.2683  -90.6
 4.100  0.4842  107.6   1.442   21.3  0.3420   50.4  0.2644  -93.4
 4.200  0.4895  106.1   1.415   19.9  0.3504   49.4  0.2611  -96.2
 4.300  0.4950  104.8   1.389   18.5  0.3589   48.4  0.2585  -99.1
 4.400  0.5008  103.4   1.365   17.0  0.3676   47.4  0.2566 -102.1
 4.500  0.5069  102.1   1.341   15.4  0.3763   46.5  0.2554 -105.1
 4.600  0.5130  100.7   1.317   14.2  0.3843   45.4  0.2528 -108.6
 4.700  0.5195   99.4   1.294   13.0  0.3923   44.4  0.2511 -112.1
 4.800  0.5262   98.0   1.272   11.7  0.4006   43.4  0.2504 -115.7
 4.900  0.5332   96.8   1.250   10.4  0.4089   42.5  0.2506 -119.3
 5.000  0.5404   95.5   1.229    9.0  0.4173   41.6  0.2519 -122.9
 5.100  0.5438   94.3   1.211    7.9  0.4251   40.5  0.2538 -126.5
 5.200  0.5474   93.0   1.194    6.7  0.4330   39.4  0.2566 -130.0
 5.300  0.5513   91.8   1.178    5.6  0.4411   38.3  0.2604 -133.5
 5.400  0.5554   90.7   1.162    4.3  0.4493   37.3  0.2651 -136.8
 5.500  0.5597   89.5   1.146    3.1  0.4577   36.3  0.2707 -140.0
 5.600  0.5625   88.4   1.129    2.1  0.4648   35.2  0.2741 -142.9
 5.700  0.5655   87.3   1.113    1.1  0.4721   34.1  0.2782 -145.7
 5.800  0.5686   86.2   1.098    0.1  0.4796   33.1  0.2830 -148.4
 5.900  0.5720   85.2   1.082   -1.0  0.4872   32.1  0.2883 -151.1
 6.000  0.5756   84.1   1.067   -2.1  0.4950   31.1  0.2943 -153.6
!
!  f       NFmin   Gammaopt  rn/50
! GHz       dB    MAG  ANG    -
 0.450      1.47  0.13 -172   0.15
 0.900      1.55  0.14 -167   0.15
 1.900      2.06  0.29 -141   0.17
 2.400      2.34  0.31 -127   0.27
!
! (c) 2017  Infineon Technologies AG, Munich