! Infineon Technologies  Discrete & RF Semiconductors
! BFR182W
! VCE =  7.0 V,  IC =  8.0 mA
! Common Emitter S-Parameters:                            Jan 2017
# GHz  S  MA  R  50
!  f         S11            S21            S12            S22
! GHz     MAG   ANG      MAG   ANG      MAG   ANG      MAG   ANG
 0.010  0.7735   -3.4  21.869  177.0  0.0019   86.6  0.9964   -1.6
 0.020  0.7849   -6.6  22.047  174.7  0.0036   93.9  0.9913   -3.4
 0.030  0.7696   -9.8  21.785  172.3  0.0055   87.8  0.9851   -5.0
 0.040  0.7567  -13.1  21.561  169.9  0.0075   84.9  0.9798   -6.6
 0.050  0.7465  -16.5  21.377  167.4  0.0095   83.2  0.9752   -8.3
 0.060  0.7373  -19.6  21.061  165.2  0.0113   80.6  0.9645   -9.7
 0.070  0.7302  -22.7  20.778  162.9  0.0131   78.7  0.9543  -11.2
 0.080  0.7254  -25.9  20.528  160.5  0.0149   77.3  0.9448  -12.7
 0.090  0.7229  -29.2  20.314  158.1  0.0167   76.2  0.9359  -14.2
 0.100  0.7227  -32.4  20.136  155.7  0.0185   75.3  0.9277  -15.7
 0.110  0.7077  -35.0  19.752  153.8  0.0201   73.8  0.9136  -16.8
 0.120  0.6942  -37.7  19.391  151.8  0.0218   72.5  0.8999  -18.0
 0.130  0.6823  -40.5  19.055  149.7  0.0234   71.4  0.8866  -19.3
 0.140  0.6721  -43.4  18.745  147.5  0.0250   70.4  0.8738  -20.5
 0.150  0.6637  -46.4  18.462  145.3  0.0267   69.6  0.8613  -21.8
 0.200  0.6118  -59.1  16.726  136.6  0.0321   66.1  0.7947  -26.1
 0.250  0.5599  -70.3  15.131  129.1  0.0371   62.7  0.7331  -29.4
 0.300  0.5124  -80.0  13.623  123.1  0.0409   60.3  0.6765  -31.5
 0.350  0.4740  -87.5  12.422  118.8  0.0445   59.4  0.6347  -32.6
 0.400  0.4452  -96.2  11.304  113.7  0.0482   58.6  0.5932  -33.9
 0.450  0.4189 -102.6  10.387  110.5  0.0510   58.2  0.5636  -34.4
 0.500  0.3986 -109.8   9.508  106.7  0.0539   57.9  0.5341  -34.9
 0.600  0.3645 -121.8   8.197  101.0  0.0603   58.5  0.4920  -35.1
 0.700  0.3412 -131.7   7.163   96.3  0.0655   59.4  0.4618  -35.0
 0.800  0.3279 -140.3   6.376   92.2  0.0715   61.1  0.4396  -35.1
 0.900  0.3168 -148.7   5.719   88.6  0.0775   60.7  0.4226  -35.2
 1.000  0.3098 -155.7   5.210   85.3  0.0837   62.1  0.4081  -35.4
 1.100  0.3072 -162.2   4.773   82.4  0.0899   62.6  0.3983  -35.6
 1.200  0.3061 -167.9   4.404   79.5  0.0962   62.8  0.3883  -36.2
 1.300  0.3035 -173.4   4.085   76.8  0.1023   63.3  0.3811  -36.8
 1.400  0.3046 -178.2   3.823   74.3  0.1098   63.7  0.3734  -37.7
 1.500  0.3077  177.3   3.587   71.9  0.1161   63.9  0.3681  -38.7
 1.600  0.3095  173.0   3.382   69.4  0.1228   64.0  0.3638  -39.7
 1.700  0.3118  169.1   3.201   67.3  0.1302   64.3  0.3578  -40.9
 1.800  0.3158  165.2   3.048   65.0  0.1371   64.1  0.3537  -42.4
 1.900  0.3214  161.8   2.906   63.0  0.1440   64.0  0.3499  -43.7
 2.000  0.3227  158.7   2.772   60.7  0.1513   63.9  0.3469  -45.4
 2.100  0.3280  155.5   2.659   58.7  0.1586   63.6  0.3438  -47.1
 2.200  0.3342  152.4   2.549   56.6  0.1660   63.3  0.3411  -48.9
 2.300  0.3391  149.8   2.456   54.7  0.1735   63.0  0.3390  -50.8
 2.400  0.3446  147.2   2.365   52.6  0.1810   62.8  0.3373  -52.8
 2.500  0.3495  144.6   2.283   50.8  0.1884   62.3  0.3361  -54.7
 2.600  0.3551  142.1   2.203   48.9  0.1959   61.9  0.3352  -56.7
 2.700  0.3600  139.8   2.135   47.2  0.2036   61.4  0.3348  -58.6
 2.800  0.3655  137.6   2.069   45.3  0.2113   61.0  0.3348  -60.6
 2.900  0.3704  135.1   2.010   43.5  0.2191   60.5  0.3338  -62.5
 3.000  0.3759  132.7   1.953   41.6  0.2270   60.0  0.3332  -64.4
 3.100  0.3797  130.6   1.903   40.1  0.2352   59.3  0.3321  -66.3
 3.200  0.3839  128.5   1.855   38.5  0.2434   58.7  0.3314  -68.2
 3.300  0.3887  126.4   1.808   36.9  0.2516   58.1  0.3311  -70.1
 3.400  0.3940  124.4   1.763   35.1  0.2598   57.6  0.3311  -72.0
 3.500  0.3997  122.5   1.719   33.3  0.2681   57.1  0.3315  -73.9
 3.600  0.4050  120.7   1.683   31.9  0.2765   56.2  0.3288  -75.9
 3.700  0.4107  118.9   1.648   30.4  0.2850   55.4  0.3264  -77.9
 3.800  0.4168  117.2   1.615   28.9  0.2936   54.6  0.3245  -79.9
 3.900  0.4232  115.5   1.582   27.3  0.3022   53.9  0.3229  -81.9
 4.000  0.4300  113.9   1.551   25.6  0.3108   53.2  0.3218  -84.0
 4.100  0.4355  112.3   1.522   24.2  0.3193   52.2  0.3176  -86.4
 4.200  0.4414  110.8   1.495   22.8  0.3279   51.3  0.3139  -88.9
 4.300  0.4475  109.3   1.468   21.3  0.3365   50.5  0.3109  -91.4
 4.400  0.4540  107.8   1.443   19.7  0.3452   49.7  0.3085  -94.0
 4.500  0.4607  106.4   1.418   18.1  0.3540   48.9  0.3067  -96.6
 4.600  0.4676  104.9   1.393   16.9  0.3625   47.9  0.3034  -99.6
 4.700  0.4748  103.5   1.369   15.6  0.3710   47.0  0.3009 -102.7
 4.800  0.4823  102.1   1.345   14.2  0.3797   46.1  0.2993 -105.9
 4.900  0.4901  100.7   1.322   12.8  0.3885   45.2  0.2987 -109.0
 5.000  0.4982   99.4   1.300   11.4  0.3973   44.4  0.2989 -112.2
 5.100  0.5017   98.1   1.281   10.2  0.4056   43.3  0.2995 -115.5
 5.200  0.5056   96.8   1.263    9.0  0.4140   42.2  0.3012 -118.8
 5.300  0.5096   95.5   1.245    7.8  0.4225   41.2  0.3038 -122.1
 5.400  0.5139   94.2   1.228    6.5  0.4312   40.2  0.3074 -125.3
 5.500  0.5185   93.0   1.211    5.2  0.4400   39.3  0.3119 -128.4
 5.600  0.5223   91.8   1.193    4.2  0.4478   38.2  0.3142 -131.3
 5.700  0.5262   90.7   1.176    3.1  0.4558   37.2  0.3174 -134.1
 5.800  0.5304   89.5   1.159    2.1  0.4639   36.1  0.3212 -136.8
 5.900  0.5348   88.4   1.143    0.9  0.4722   35.1  0.3258 -139.5
 6.000  0.5394   87.3   1.127   -0.2  0.4806   34.2  0.3311 -142.1
!
!  f       NFmin   Gammaopt  rn/50
! GHz       dB    MAG  ANG    -
 0.450      1.00  0.12   39   0.15
 0.900      1.08  0.12   69   0.15
 1.900      1.59  0.18 -174   0.13
 2.400      1.85  0.18 -169   0.19
!
! (c) 2017  Infineon Technologies AG, Munich