! Infineon Technologies  Discrete & RF Semiconductors
! BFR182W
! VCE =  11. V,  IC =  13 mA
! Common Emitter S-Parameters:                            Jan 2017
# GHz  S  MA  R  50
!  f         S11            S21            S12            S22
! GHz     MAG   ANG      MAG   ANG      MAG   ANG      MAG   ANG
 0.010  0.7042   -4.1  30.016  175.6  0.0017   84.5  0.9886   -2.0
 0.020  0.7103   -8.3  29.906  172.9  0.0035   79.3  0.9885   -4.3
 0.030  0.6943  -12.3  29.439  170.0  0.0054   79.6  0.9765   -6.3
 0.040  0.6819  -16.4  29.050  167.0  0.0072   79.8  0.9657   -8.3
 0.050  0.6731  -20.7  28.744  163.9  0.0091   79.9  0.9561  -10.4
 0.060  0.6592  -24.3  28.100  161.3  0.0107   77.5  0.9400  -12.0
 0.070  0.6480  -28.1  27.514  158.7  0.0123   75.8  0.9246  -13.7
 0.080  0.6398  -32.0  26.991  155.9  0.0139   74.4  0.9100  -15.4
 0.090  0.6345  -36.0  26.535  153.0  0.0156   73.4  0.8963  -17.2
 0.100  0.6324  -40.0  26.148  150.0  0.0172   72.5  0.8835  -19.0
 0.110  0.6149  -42.9  25.459  147.9  0.0184   71.1  0.8652  -20.1
 0.120  0.5992  -46.1  24.803  145.8  0.0196   69.9  0.8473  -21.3
 0.130  0.5853  -49.3  24.186  143.5  0.0208   68.8  0.8298  -22.6
 0.140  0.5735  -52.8  23.608  141.1  0.0220   67.9  0.8126  -23.9
 0.150  0.5637  -56.3  23.074  138.6  0.0232   67.0  0.7959  -25.2
 0.200  0.5049  -70.3  20.192  129.5  0.0275   64.0  0.7170  -29.1
 0.250  0.4555  -82.2  17.757  122.2  0.0321   62.4  0.6512  -31.4
 0.300  0.4132  -92.1  15.652  116.6  0.0355   61.1  0.5961  -32.7
 0.350  0.3818  -99.7  14.091  112.8  0.0389   62.0  0.5588  -33.1
 0.400  0.3582 -108.4  12.607  108.1  0.0423   62.7  0.5216  -33.5
 0.450  0.3380 -114.8  11.510  105.3  0.0453   63.0  0.4972  -33.4
 0.500  0.3226 -122.0  10.445  102.0  0.0484   63.2  0.4728  -33.3
 0.600  0.3004 -133.4   8.911   97.0  0.0550   64.0  0.4403  -32.8
 0.700  0.2867 -143.0   7.738   93.0  0.0613   65.9  0.4174  -32.2
 0.800  0.2787 -151.1   6.854   89.3  0.0685   66.5  0.4012  -32.1
 0.900  0.2721 -158.5   6.128   86.1  0.0750   66.5  0.3879  -32.0
 1.000  0.2705 -165.4   5.567   83.2  0.0816   67.3  0.3776  -32.2
 1.100  0.2715 -170.9   5.095   80.6  0.0891   67.5  0.3706  -32.5
 1.200  0.2725 -176.3   4.693   77.9  0.0953   67.6  0.3629  -32.9
 1.300  0.2713  178.5   4.350   75.5  0.1028   67.6  0.3576  -33.6
 1.400  0.2740  174.2   4.068   73.1  0.1105   67.7  0.3511  -34.5
 1.500  0.2793  170.2   3.810   71.0  0.1173   67.6  0.3469  -35.6
 1.600  0.2804  166.3   3.591   68.7  0.1249   67.5  0.3435  -36.7
 1.700  0.2844  162.8   3.396   66.6  0.1322   67.2  0.3388  -38.0
 1.800  0.2895  159.6   3.232   64.5  0.1396   66.8  0.3349  -39.3
 1.900  0.2928  156.5   3.079   62.7  0.1468   66.6  0.3317  -40.8
 2.000  0.2967  153.9   2.937   60.5  0.1548   66.2  0.3283  -42.6
 2.100  0.3018  150.8   2.816   58.6  0.1624   65.7  0.3256  -44.4
 2.200  0.3078  147.8   2.698   56.6  0.1701   65.3  0.3232  -46.2
 2.300  0.3132  145.4   2.599   54.8  0.1778   64.7  0.3213  -48.2
 2.400  0.3191  143.1   2.502   52.9  0.1856   64.2  0.3197  -50.2
 2.500  0.3241  140.8   2.414   51.2  0.1932   63.6  0.3184  -52.1
 2.600  0.3295  138.6   2.329   49.3  0.2009   63.0  0.3175  -54.1
 2.700  0.3341  136.3   2.256   47.6  0.2085   62.4  0.3170  -56.1
 2.800  0.3393  134.1   2.186   45.8  0.2161   61.8  0.3168  -58.1
 2.900  0.3447  132.0   2.124   44.1  0.2239   61.2  0.3161  -60.1
 3.000  0.3505  130.0   2.063   42.3  0.2318   60.6  0.3157  -62.1
 3.100  0.3545  128.0   2.011   40.9  0.2399   59.8  0.3146  -64.0
 3.200  0.3589  126.0   1.960   39.3  0.2480   59.1  0.3137  -65.9
 3.300  0.3637  124.1   1.911   37.7  0.2562   58.4  0.3133  -67.8
 3.400  0.3689  122.2   1.863   36.1  0.2644   57.7  0.3132  -69.7
 3.500  0.3745  120.4   1.817   34.3  0.2726   57.1  0.3134  -71.6
 3.600  0.3798  118.7   1.779   32.9  0.2808   56.2  0.3105  -73.5
 3.700  0.3853  117.1   1.742   31.4  0.2890   55.3  0.3079  -75.5
 3.800  0.3912  115.5   1.707   29.9  0.2973   54.5  0.3057  -77.5
 3.900  0.3974  114.0   1.672   28.3  0.3056   53.7  0.3039  -79.5
 4.000  0.4038  112.5   1.639   26.7  0.3140   53.0  0.3024  -81.5
 4.100  0.4092  111.1   1.609   25.3  0.3221   52.0  0.2981  -83.8
 4.200  0.4149  109.7   1.580   23.9  0.3303   51.1  0.2943  -86.3
 4.300  0.4209  108.3   1.552   22.4  0.3385   50.2  0.2910  -88.7
 4.400  0.4270  107.0   1.526   20.9  0.3469   49.3  0.2883  -91.2
 4.500  0.4334  105.7   1.500   19.3  0.3553   48.5  0.2862  -93.8
 4.600  0.4407  104.2   1.474   18.1  0.3634   47.5  0.2825  -96.8
 4.700  0.4483  102.8   1.448   16.8  0.3717   46.6  0.2797  -99.9
 4.800  0.4562  101.4   1.423   15.4  0.3800   45.7  0.2777 -103.1
 4.900  0.4643  100.1   1.399   14.0  0.3885   44.8  0.2765 -106.3
 5.000  0.4727   98.8   1.376   12.6  0.3970   44.0  0.2762 -109.5
 5.100  0.4769   97.6   1.356   11.4  0.4049   42.9  0.2765 -112.9
 5.200  0.4812   96.4   1.337   10.2  0.4129   41.9  0.2778 -116.2
 5.300  0.4858   95.2   1.319    9.0  0.4211   40.9  0.2801 -119.6
 5.400  0.4906   94.0   1.301    7.7  0.4294   39.9  0.2832 -122.8
 5.500  0.4956   92.9   1.284    6.4  0.4378   39.0  0.2873 -126.0
 5.600  0.4993   91.8   1.265    5.3  0.4453   37.9  0.2896 -128.9
 5.700  0.5032   90.7   1.247    4.3  0.4529   36.9  0.2926 -131.8
 5.800  0.5072   89.6   1.230    3.1  0.4607   35.9  0.2963 -134.6
 5.900  0.5115   88.5   1.213    2.0  0.4686   34.9  0.3007 -137.3
 6.000  0.5159   87.5   1.196    0.8  0.4766   34.0  0.3058 -139.9
!
!  f       NFmin   Gammaopt  rn/50
! GHz       dB    MAG  ANG    -
 0.450      1.17  0.04  108   0.14
 0.900      1.26  0.05  122   0.14
 1.900      1.73  0.23 -151   0.14
 2.400      2.00  0.22 -136   0.21
!
! (c) 2017  Infineon Technologies AG, Munich