! Infineon Technologies  Discrete & RF Semiconductors
! BFR182W
! VCE =  1.0 V,  IC =  30 mA
! Common Emitter S-Parameters:                            Jan 2017
# GHz  S  MA  R  50
!  f         S11            S21            S12            S22
! GHz     MAG   ANG      MAG   ANG      MAG   ANG      MAG   ANG
 0.010  0.3668  -28.9  35.433  169.6  0.0042   76.9  0.7942   -8.2
 0.020  0.4022  -53.9  34.317  159.9  0.0081   73.8  0.7662  -16.5
 0.030  0.3993  -72.2  31.268  153.5  0.0109   66.5  0.7066  -21.4
 0.040  0.4354  -89.1  28.692  145.8  0.0138   62.2  0.6531  -27.2
 0.050  0.5023 -102.4  26.725  136.8  0.0167   59.4  0.6074  -33.9
 0.060  0.5038 -110.0  24.667  134.0  0.0180   57.1  0.5672  -35.6
 0.070  0.5140 -117.4  22.678  130.7  0.0194   55.1  0.5276  -37.5
 0.080  0.5324 -124.4  20.779  126.8  0.0208   53.4  0.4887  -39.7
 0.090  0.5582 -130.9  18.997  122.1  0.0222   51.9  0.4506  -42.2
 0.100  0.5904 -136.7  17.366  116.5  0.0236   50.6  0.4136  -45.3
 0.110  0.5922 -139.9  16.341  115.0  0.0245   50.5  0.3937  -45.6
 0.120  0.5958 -143.1  15.330  113.2  0.0253   50.4  0.3738  -46.0
 0.130  0.6013 -146.2  14.334  111.2  0.0262   50.3  0.3539  -46.4
 0.140  0.6084 -149.2  13.359  108.9  0.0270   50.2  0.3340  -46.9
 0.150  0.6173 -152.2  12.408  106.3  0.0279   50.1  0.3142  -47.4
 0.200  0.6311 -160.9   9.555   99.9  0.0305   52.5  0.2615  -46.6
 0.250  0.6374 -166.8   7.757   95.2  0.0354   54.9  0.2297  -44.8
 0.300  0.6399 -171.2   6.504   91.8  0.0384   57.8  0.2089  -43.6
 0.350  0.6407 -174.4   5.715   89.4  0.0427   59.6  0.1975  -42.5
 0.400  0.6435 -177.6   4.939   86.2  0.0470   61.1  0.1861  -41.3
 0.450  0.6445  179.9   4.452   84.2  0.0517   62.7  0.1794  -40.9
 0.500  0.6466  177.5   3.972   81.8  0.0564   64.1  0.1727  -40.4
 0.600  0.6497  173.5   3.335   77.9  0.0653   66.2  0.1640  -40.8
 0.700  0.6534  170.1   2.869   74.4  0.0737   67.3  0.1581  -41.3
 0.800  0.6553  166.9   2.526   70.9  0.0841   68.1  0.1541  -43.2
 0.900  0.6558  163.6   2.251   67.7  0.0932   68.1  0.1506  -45.1
 1.000  0.6596  160.9   2.045   64.7  0.1029   68.6  0.1464  -47.4
 1.100  0.6649  158.1   1.871   61.8  0.1128   68.4  0.1442  -50.3
 1.200  0.6669  155.5   1.725   58.8  0.1224   68.2  0.1417  -53.1
 1.300  0.6677  152.9   1.603   56.1  0.1320   67.7  0.1394  -56.8
 1.400  0.6735  150.5   1.502   53.4  0.1426   67.4  0.1363  -60.8
 1.500  0.6767  148.1   1.410   50.9  0.1525   67.0  0.1347  -64.8
 1.600  0.6815  145.6   1.333   48.2  0.1630   66.3  0.1347  -68.9
 1.700  0.6853  143.1   1.265   45.8  0.1728   65.6  0.1333  -74.0
 1.800  0.6900  140.8   1.207   43.3  0.1828   64.8  0.1334  -78.6
 1.900  0.6940  138.5   1.152   41.4  0.1931   64.2  0.1346  -83.4
 2.000  0.6948  136.4   1.099   38.9  0.2032   63.4  0.1368  -88.7
 2.100  0.6977  134.0   1.055   36.9  0.2136   62.4  0.1389  -93.8
 2.200  0.7019  131.6   1.013   34.7  0.2240   61.4  0.1420  -98.8
 2.300  0.7046  129.6   0.977   32.9  0.2342   60.4  0.1456 -103.5
 2.400  0.7082  127.6   0.943   30.9  0.2444   59.5  0.1502 -108.0
 2.500  0.7099  125.5   0.911   29.3  0.2545   58.4  0.1547 -112.2
 2.600  0.7125  123.5   0.880   27.5  0.2646   57.4  0.1600 -116.1
 2.700  0.7151  121.5   0.854   25.9  0.2743   56.4  0.1649 -119.8
 2.800  0.7186  119.6   0.828   24.3  0.2841   55.4  0.1704 -123.2
 2.900  0.7197  117.5   0.805   22.9  0.2939   54.3  0.1749 -126.7
 3.000  0.7217  115.5   0.783   21.5  0.3038   53.2  0.1800 -130.0
 3.100  0.7217  113.5   0.765   20.4  0.3130   51.9  0.1826 -133.3
 3.200  0.7224  111.6   0.748   19.3  0.3224   50.8  0.1858 -136.5
 3.300  0.7241  109.7   0.730   18.2  0.3319   49.6  0.1896 -139.6
 3.400  0.7265  107.7   0.714   17.0  0.3415   48.6  0.1939 -142.6
 3.500  0.7298  105.8   0.697   15.7  0.3512   47.6  0.1987 -145.4
 3.600  0.7298  104.0   0.685   14.9  0.3600   46.3  0.2003 -148.9
 3.700  0.7304  102.3   0.673   14.1  0.3689   45.0  0.2027 -152.4
 3.800  0.7317  100.5   0.661   13.2  0.3780   43.8  0.2058 -155.7
 3.900  0.7338   98.7   0.649   12.3  0.3873   42.7  0.2096 -159.0
 4.000  0.7365   97.0   0.637   11.4  0.3967   41.6  0.2140 -162.1
 4.100  0.7350   95.4   0.629   10.8  0.4043   40.3  0.2167 -165.9
 4.200  0.7340   93.9   0.620   10.2  0.4120   39.0  0.2203 -169.6
 4.300  0.7335   92.3   0.612    9.5  0.4200   37.7  0.2248 -173.2
 4.400  0.7336   90.8   0.604    8.9  0.4282   36.5  0.2301 -176.6
 4.500  0.7343   89.2   0.596    8.2  0.4365   35.4  0.2362 -179.9
 4.600  0.7346   87.9   0.590    7.8  0.4431   34.2  0.2417  176.9
 4.700  0.7354   86.5   0.584    7.5  0.4500   33.0  0.2479  173.9
 4.800  0.7365   85.2   0.579    7.1  0.4570   31.8  0.2548  171.0
 4.900  0.7381   83.8   0.573    6.7  0.4642   30.7  0.2623  168.3
 5.000  0.7400   82.5   0.567    6.3  0.4716   29.6  0.2703  165.7
 5.100  0.7379   81.3   0.566    5.9  0.4773   28.4  0.2774  163.5
 5.200  0.7361   80.0   0.564    5.4  0.4833   27.2  0.2849  161.4
 5.300  0.7347   78.7   0.563    5.0  0.4894   26.0  0.2928  159.4
 5.400  0.7337   77.5   0.561    4.5  0.4958   24.8  0.3010  157.6
 5.500  0.7330   76.2   0.560    4.1  0.5023   23.7  0.3095  155.8
 5.600  0.7307   75.2   0.559    3.7  0.5070   22.6  0.3142  154.2
 5.700  0.7287   74.1   0.557    3.4  0.5119   21.5  0.3191  152.7
 5.800  0.7269   73.0   0.556    3.0  0.5170   20.4  0.3242  151.3
 5.900  0.7254   72.0   0.554    2.7  0.5223   19.3  0.3296  149.9
 6.000  0.7241   70.9   0.553    2.3  0.5277   18.3  0.3351  148.5
!
!  f       NFmin   Gammaopt  rn/50
! GHz       dB    MAG  ANG    -
!
! noise parameter not available yet for this operation point!
!
! (c) 2017  Infineon Technologies AG, Munich