! Infineon Technologies  Discrete & RF Semiconductors
! BFR182W
! VCE =  9.0 V,  IC =  2.0 mA
! Common Emitter S-Parameters:                            Jan 2017
# GHz  S  MA  R  50
!  f         S11            S21            S12            S22
! GHz     MAG   ANG      MAG   ANG      MAG   ANG      MAG   ANG
 0.010  0.9347   -1.6   6.824  178.8  0.0019   85.6  1.0000   -0.7
 0.020  0.9445   -3.0   6.880  177.9  0.0040   96.1  0.9937   -1.5
 0.030  0.9346   -4.4   6.857  176.7  0.0061   88.9  0.9942   -2.1
 0.040  0.9253   -5.8   6.838  175.6  0.0082   85.4  0.9948   -2.8
 0.050  0.9166   -7.3   6.821  174.4  0.0104   83.4  0.9956   -3.4
 0.060  0.9169   -8.9   6.799  173.3  0.0127   83.0  0.9934   -4.1
 0.070  0.9179  -10.4   6.780  172.1  0.0149   82.8  0.9913   -4.8
 0.080  0.9195  -12.0   6.763  171.0  0.0172   82.6  0.9893   -5.4
 0.090  0.9219  -13.6   6.749  169.9  0.0194   82.4  0.9875   -6.1
 0.100  0.9249  -15.1   6.738  168.7  0.0217   82.3  0.9858   -6.8
 0.110  0.9204  -16.5   6.711  167.6  0.0237   81.0  0.9830   -7.5
 0.120  0.9165  -17.9   6.687  166.4  0.0257   79.9  0.9804   -8.1
 0.130  0.9131  -19.3   6.665  165.2  0.0277   78.9  0.9778   -8.8
 0.140  0.9103  -20.8   6.646  164.1  0.0298   78.1  0.9755   -9.4
 0.150  0.9081  -22.2   6.630  162.9  0.0318   77.4  0.9732  -10.1
 0.200  0.8882  -29.6   6.485  157.1  0.0406   73.6  0.9564  -13.1
 0.250  0.8684  -36.7   6.347  151.6  0.0495   69.1  0.9356  -15.9
 0.300  0.8389  -43.3   6.137  146.5  0.0573   65.8  0.9100  -18.6
 0.350  0.8079  -49.4   5.919  142.0  0.0642   62.4  0.8850  -20.8
 0.400  0.7868  -55.9   5.740  137.1  0.0713   59.6  0.8613  -23.1
 0.450  0.7544  -61.5   5.502  133.2  0.0762   57.0  0.8358  -24.9
 0.500  0.7298  -67.6   5.293  128.9  0.0813   54.8  0.8111  -26.8
 0.600  0.6796  -78.4   4.887  121.3  0.0897   50.7  0.7653  -29.6
 0.700  0.6317  -88.3   4.490  114.7  0.0950   47.5  0.7243  -31.8
 0.800  0.5932  -97.5   4.159  108.8  0.1002   45.2  0.6895  -33.7
 0.900  0.5582 -106.0   3.845  103.4  0.1037   43.3  0.6592  -35.3
 1.000  0.5299 -113.9   3.577   98.7  0.1063   42.3  0.6330  -36.7
 1.100  0.5092 -121.8   3.338   94.4  0.1088   41.7  0.6127  -37.8
 1.200  0.4889 -129.1   3.124   90.1  0.1109   41.1  0.5930  -39.0
 1.300  0.4727 -135.7   2.935   86.3  0.1121   41.4  0.5773  -40.1
 1.400  0.4621 -142.1   2.769   82.7  0.1143   42.0  0.5626  -41.4
 1.500  0.4530 -148.2   2.624   79.4  0.1157   42.1  0.5512  -42.5
 1.600  0.4472 -153.8   2.484   76.0  0.1171   43.1  0.5428  -43.7
 1.700  0.4418 -159.5   2.371   73.2  0.1192   44.3  0.5316  -45.1
 1.800  0.4380 -164.9   2.271   70.2  0.1217   45.5  0.5234  -46.4
 1.900  0.4368 -170.0   2.176   67.5  0.1242   46.6  0.5163  -47.8
 2.000  0.4367 -174.8   2.086   64.5  0.1273   47.9  0.5110  -49.2
 2.100  0.4353 -179.4   2.007   62.0  0.1309   49.2  0.5066  -50.8
 2.200  0.4368  176.0   1.932   59.2  0.1345   50.5  0.5025  -52.4
 2.300  0.4393  172.1   1.863   56.8  0.1385   51.9  0.4994  -54.2
 2.400  0.4439  168.2   1.798   54.2  0.1426   53.2  0.4967  -56.0
 2.500  0.4461  164.5   1.737   52.0  0.1479   54.5  0.4947  -57.7
 2.600  0.4501  160.9   1.678   49.6  0.1532   55.7  0.4932  -59.5
 2.700  0.4532  157.4   1.628   47.5  0.1594   56.7  0.4927  -61.3
 2.800  0.4579  154.0   1.581   45.3  0.1656   57.6  0.4927  -63.1
 2.900  0.4618  150.8   1.538   43.2  0.1726   58.3  0.4919  -64.8
 3.000  0.4671  147.6   1.497   40.9  0.1796   59.0  0.4915  -66.5
 3.100  0.4694  144.7   1.458   39.2  0.1881   59.4  0.4906  -68.4
 3.200  0.4730  141.8   1.420   37.5  0.1965   59.8  0.4902  -70.3
 3.300  0.4778  138.9   1.384   35.6  0.2050   60.1  0.4903  -72.2
 3.400  0.4837  136.1   1.349   33.7  0.2135   60.4  0.4910  -74.1
 3.500  0.4907  133.4   1.316   31.6  0.2220   60.7  0.4922  -76.0
 3.600  0.4948  130.8   1.287   30.1  0.2321   60.4  0.4896  -78.1
 3.700  0.4998  128.3   1.260   28.5  0.2421   60.1  0.4876  -80.2
 3.800  0.5059  125.8   1.233   26.9  0.2522   59.8  0.4862  -82.3
 3.900  0.5128  123.4   1.207   25.2  0.2623   59.5  0.4855  -84.4
 4.000  0.5207  121.0   1.183   23.4  0.2724   59.3  0.4855  -86.5
 4.100  0.5247  118.9   1.160   22.0  0.2834   58.5  0.4811  -89.0
 4.200  0.5294  116.8   1.138   20.5  0.2944   57.8  0.4777  -91.5
 4.300  0.5348  114.7   1.116   19.0  0.3055   57.1  0.4751  -94.0
 4.400  0.5409  112.7   1.096   17.4  0.3166   56.5  0.4735  -96.5
 4.500  0.5477  110.7   1.076   15.8  0.3278   55.9  0.4728  -99.1
 4.600  0.5529  108.8   1.056   14.7  0.3391   54.9  0.4687 -102.0
 4.700  0.5587  106.9   1.036   13.5  0.3505   53.9  0.4659 -105.0
 4.800  0.5651  105.0   1.016   12.3  0.3620   53.0  0.4644 -108.0
 4.900  0.5721  103.2   0.997   11.0  0.3735   52.1  0.4641 -111.0
 5.000  0.5796  101.4   0.979    9.7  0.3852   51.3  0.4651 -114.0
 5.100  0.5822   99.7   0.964    8.7  0.3963   50.0  0.4647 -117.1
 5.200  0.5853   98.1   0.950    7.7  0.4075   48.8  0.4656 -120.2
 5.300  0.5889   96.4   0.936    6.7  0.4190   47.6  0.4678 -123.2
 5.400  0.5930   94.8   0.922    5.6  0.4306   46.5  0.4714 -126.2
 5.500  0.5975   93.2   0.909    4.5  0.4423   45.5  0.4762 -129.2
 5.600  0.5995   91.8   0.896    3.7  0.4524   44.2  0.4770 -132.0
 5.700  0.6019   90.4   0.882    3.0  0.4627   42.9  0.4789 -134.8
 5.800  0.6047   89.0   0.869    2.2  0.4732   41.7  0.4820 -137.5
 5.900  0.6078   87.6   0.857    1.3  0.4839   40.5  0.4861 -140.2
 6.000  0.6113   86.2   0.844    0.5  0.4948   39.4  0.4913 -142.9
!
!  f       NFmin   Gammaopt  rn/50
! GHz       dB    MAG  ANG    -
 0.450      0.85  0.50   30   0.26
 0.900      0.99  0.40   58   0.24
 1.900      1.74  0.30  142   0.14
 2.400      2.11  0.26  164   0.19
!
! (c) 2017  Infineon Technologies AG, Munich