! Infineon Technologies  Discrete & RF Semiconductors
! BFR182W
! VCE =  4.0 V,  IC =  12 mA
! Common Emitter S-Parameters:                            Jan 2017
# GHz  S  MA  R  50
!  f         S11            S21            S12            S22
! GHz     MAG   ANG      MAG   ANG      MAG   ANG      MAG   ANG
 0.010  0.6891   -4.6  28.146  176.5  0.0019   90.8  0.9934   -2.2
 0.020  0.6976   -8.9  28.337  173.5  0.0036   94.4  0.9866   -4.5
 0.030  0.6811  -13.1  27.874  170.5  0.0057   87.2  0.9767   -6.6
 0.040  0.6684  -17.4  27.492  167.3  0.0078   83.8  0.9681   -8.7
 0.050  0.6597  -21.9  27.195  164.1  0.0099   81.9  0.9608  -10.8
 0.060  0.6455  -25.7  26.582  161.5  0.0116   79.0  0.9441  -12.5
 0.070  0.6342  -29.7  26.025  158.8  0.0134   76.9  0.9282  -14.3
 0.080  0.6261  -33.7  25.528  156.0  0.0151   75.2  0.9132  -16.1
 0.090  0.6212  -37.9  25.095  153.1  0.0169   73.9  0.8992  -18.0
 0.100  0.6196  -42.1  24.729  150.1  0.0187   72.9  0.8862  -19.9
 0.110  0.6029  -45.2  24.073  148.0  0.0200   71.5  0.8672  -21.1
 0.120  0.5880  -48.6  23.451  145.8  0.0213   70.2  0.8486  -22.3
 0.130  0.5753  -52.0  22.866  143.5  0.0226   69.1  0.8304  -23.6
 0.140  0.5647  -55.7  22.320  141.1  0.0240   68.1  0.8127  -25.0
 0.150  0.5565  -59.4  21.816  138.5  0.0253   67.2  0.7954  -26.4
 0.200  0.5038  -74.1  19.085  129.3  0.0301   64.5  0.7145  -30.6
 0.250  0.4581  -86.4  16.769  121.9  0.0346   61.0  0.6462  -33.1
 0.300  0.4215  -96.9  14.783  116.4  0.0382   60.4  0.5891  -34.7
 0.350  0.3944 -105.0  13.302  112.5  0.0412   60.9  0.5499  -35.2
 0.400  0.3761 -114.0  11.897  107.7  0.0443   61.4  0.5108  -35.8
 0.450  0.3579 -120.4  10.861  104.9  0.0477   61.6  0.4851  -35.8
 0.500  0.3446 -127.4   9.855  101.6  0.0511   61.7  0.4595  -35.7
 0.600  0.3272 -138.4   8.412   96.5  0.0573   62.9  0.4252  -35.3
 0.700  0.3170 -147.9   7.304   92.4  0.0641   64.1  0.4008  -34.9
 0.800  0.3111 -155.7   6.467   88.7  0.0716   64.9  0.3831  -34.7
 0.900  0.3071 -162.3   5.780   85.4  0.0780   64.9  0.3696  -34.7
 1.000  0.3061 -168.6   5.253   82.4  0.0854   66.0  0.3582  -34.7
 1.100  0.3073 -174.1   4.806   79.8  0.0924   66.3  0.3510  -35.2
 1.200  0.3086 -179.2   4.429   77.0  0.0995   66.4  0.3430  -35.6
 1.300  0.3074  176.0   4.104   74.5  0.1063   66.4  0.3366  -36.4
 1.400  0.3112  172.2   3.837   72.2  0.1144   66.7  0.3300  -37.3
 1.500  0.3171  168.2   3.597   69.9  0.1215   66.4  0.3253  -38.4
 1.600  0.3193  164.7   3.389   67.5  0.1292   66.2  0.3220  -39.6
 1.700  0.3229  161.3   3.207   65.5  0.1366   66.1  0.3173  -41.0
 1.800  0.3271  158.2   3.053   63.3  0.1446   65.8  0.3129  -42.4
 1.900  0.3331  155.4   2.908   61.4  0.1519   65.5  0.3099  -44.1
 2.000  0.3362  152.5   2.774   59.2  0.1600   65.0  0.3067  -45.9
 2.100  0.3412  149.7   2.660   57.3  0.1676   64.5  0.3038  -47.8
 2.200  0.3470  146.9   2.549   55.2  0.1753   64.1  0.3012  -49.8
 2.300  0.3524  144.6   2.455   53.3  0.1833   63.6  0.2994  -51.9
 2.400  0.3583  142.4   2.364   51.3  0.1914   63.1  0.2981  -54.0
 2.500  0.3631  140.1   2.281   49.6  0.1994   62.5  0.2968  -56.1
 2.600  0.3684  137.9   2.201   47.7  0.2074   61.9  0.2960  -58.3
 2.700  0.3729  135.8   2.133   46.0  0.2153   61.2  0.2958  -60.5
 2.800  0.3780  133.7   2.067   44.1  0.2232   60.6  0.2960  -62.6
 2.900  0.3826  131.4   2.008   42.4  0.2312   59.9  0.2952  -64.6
 3.000  0.3878  129.2   1.951   40.6  0.2392   59.3  0.2947  -66.7
 3.100  0.3918  127.3   1.902   39.1  0.2474   58.5  0.2936  -68.7
 3.200  0.3963  125.3   1.853   37.6  0.2556   57.7  0.2929  -70.8
 3.300  0.4012  123.5   1.807   35.9  0.2638   57.0  0.2925  -72.8
 3.400  0.4065  121.7   1.761   34.2  0.2721   56.3  0.2925  -74.9
 3.500  0.4122  119.9   1.718   32.4  0.2804   55.7  0.2929  -76.9
 3.600  0.4174  118.2   1.682   31.0  0.2887   54.8  0.2901  -79.0
 3.700  0.4230  116.5   1.647   29.5  0.2971   53.9  0.2877  -81.1
 3.800  0.4289  114.8   1.614   28.0  0.3056   53.0  0.2858  -83.2
 3.900  0.4352  113.2   1.581   26.4  0.3141   52.2  0.2842  -85.4
 4.000  0.4418  111.7   1.550   24.8  0.3227   51.5  0.2830  -87.6
 4.100  0.4470  110.2   1.521   23.4  0.3308   50.5  0.2789  -90.2
 4.200  0.4524  108.8   1.494   22.0  0.3390   49.5  0.2753  -92.8
 4.300  0.4581  107.4   1.467   20.5  0.3473   48.6  0.2723  -95.5
 4.400  0.4641  106.0   1.442   19.0  0.3557   47.7  0.2699  -98.2
 4.500  0.4704  104.7   1.417   17.4  0.3642   46.9  0.2682 -101.0
 4.600  0.4773  103.3   1.392   16.2  0.3723   45.9  0.2652 -104.3
 4.700  0.4845  101.9   1.368   14.9  0.3806   44.9  0.2632 -107.7
 4.800  0.4920  100.5   1.344   13.6  0.3890   44.0  0.2620 -111.1
 4.900  0.4998   99.2   1.321   12.2  0.3974   43.1  0.2618 -114.5
 5.000  0.5078   97.9   1.299   10.8  0.4060   42.2  0.2625 -117.9
 5.100  0.5116   96.6   1.280    9.6  0.4139   41.1  0.2638 -121.4
 5.200  0.5157   95.4   1.263    8.5  0.4220   40.0  0.2660 -124.8
 5.300  0.5200   94.2   1.245    7.2  0.4301   39.0  0.2692 -128.1
 5.400  0.5245   93.0   1.228    6.0  0.4385   38.0  0.2733 -131.4
 5.500  0.5293   91.8   1.212    4.7  0.4469   37.1  0.2782 -134.5
 5.600  0.5323   90.7   1.194    3.7  0.4542   36.0  0.2811 -137.4
 5.700  0.5354   89.5   1.177    2.6  0.4617   35.0  0.2847 -140.3
 5.800  0.5388   88.4   1.160    1.6  0.4693   34.0  0.2890 -143.0
 5.900  0.5424   87.3   1.144    0.4  0.4771   33.0  0.2940 -145.7
 6.000  0.5462   86.2   1.128   -0.7  0.4850   32.1  0.2996 -148.3
!
!  f       NFmin   Gammaopt  rn/50
! GHz       dB    MAG  ANG    -
 0.450      1.14  0.05   71   0.15
 0.900      1.22  0.06  102   0.15
 1.900      1.71  0.21 -156   0.14
 2.400      1.97  0.20 -143   0.21
!
! (c) 2017  Infineon Technologies AG, Munich