! Infineon Technologies  Discrete & RF Semiconductors
! BFR182W
! VCE =  3.0 V,  IC =  40 mA
! Common Emitter S-Parameters:                            Jan 2017
# GHz  S  MA  R  50
!  f         S11            S21            S12            S22
! GHz     MAG   ANG      MAG   ANG      MAG   ANG      MAG   ANG
 0.010  0.3608  -17.3  41.049  172.6  0.0021   73.2  0.9023   -3.9
 0.020  0.3702  -33.4  40.726  165.8  0.0045   78.8  0.8937   -8.7
 0.030  0.3580  -47.2  38.439  160.3  0.0064   72.7  0.8574  -12.0
 0.040  0.3672  -61.1  36.555  154.1  0.0083   69.4  0.8241  -15.6
 0.050  0.3965  -73.7  35.140  147.3  0.0102   67.3  0.7943  -19.4
 0.060  0.3898  -82.0  32.996  144.2  0.0114   66.1  0.7608  -20.8
 0.070  0.3915  -90.5  30.963  140.7  0.0125   65.2  0.7278  -22.2
 0.080  0.4015  -98.6  29.064  136.7  0.0137   64.4  0.6954  -23.9
 0.090  0.4192 -106.3  27.325  132.1  0.0148   63.7  0.6635  -25.6
 0.100  0.4437 -113.2  25.781  127.0  0.0160   63.1  0.6324  -27.6
 0.110  0.4428 -117.5  24.437  125.1  0.0168   62.3  0.6114  -27.9
 0.120  0.4444 -121.8  23.122  123.1  0.0175   61.6  0.5905  -28.2
 0.130  0.4486 -126.1  21.841  120.7  0.0183   61.0  0.5695  -28.5
 0.140  0.4551 -130.3  20.600  118.1  0.0190   60.4  0.5486  -28.8
 0.150  0.4640 -134.3  19.407  115.2  0.0198   59.8  0.5277  -29.2
 0.200  0.4771 -146.4  15.316  107.8  0.0226   60.2  0.4691  -28.3
 0.250  0.4833 -155.1  12.593  102.4  0.0262   62.0  0.4334  -27.0
 0.300  0.4861 -161.3  10.648   98.7  0.0289   64.4  0.4098  -25.8
 0.350  0.4876 -165.5   9.387   96.1  0.0325   66.1  0.3968  -25.0
 0.400  0.4917 -169.7   8.152   92.7  0.0361   67.5  0.3838  -24.2
 0.450  0.4930 -172.8   7.359   90.7  0.0398   69.0  0.3766  -23.9
 0.500  0.4956 -175.8   6.576   88.3  0.0436   70.2  0.3694  -23.5
 0.600  0.4986  179.0   5.529   84.6  0.0509   70.8  0.3599  -23.4
 0.700  0.5018  175.1   4.760   81.4  0.0580   73.2  0.3539  -23.8
 0.800  0.5066  171.0   4.187   78.2  0.0666   73.4  0.3493  -24.7
 0.900  0.5075  167.6   3.728   75.4  0.0738   73.8  0.3453  -25.8
 1.000  0.5133  164.5   3.380   72.7  0.0820   74.1  0.3413  -27.0
 1.100  0.5178  161.4   3.088   70.2  0.0898   74.2  0.3381  -28.5
 1.200  0.5195  158.7   2.843   67.6  0.0977   74.0  0.3345  -29.9
 1.300  0.5223  155.8   2.634   65.2  0.1058   73.5  0.3317  -31.6
 1.400  0.5264  153.4   2.462   62.8  0.1145   73.8  0.3276  -33.5
 1.500  0.5321  150.9   2.307   60.5  0.1228   73.3  0.3246  -35.5
 1.600  0.5362  148.4   2.176   58.2  0.1312   72.9  0.3226  -37.5
 1.700  0.5384  146.0   2.061   56.0  0.1399   72.6  0.3189  -39.8
 1.800  0.5447  143.5   1.963   53.7  0.1488   71.9  0.3165  -42.1
 1.900  0.5485  141.4   1.869   51.8  0.1570   71.5  0.3135  -44.5
 2.000  0.5513  139.1   1.782   49.5  0.1665   70.8  0.3118  -47.2
 2.100  0.5553  136.8   1.708   47.5  0.1754   70.1  0.3095  -49.8
 2.200  0.5601  134.6   1.637   45.4  0.1844   69.5  0.3078  -52.5
 2.300  0.5648  132.7   1.577   43.6  0.1935   68.7  0.3061  -55.3
 2.400  0.5702  130.8   1.519   41.6  0.2027   68.0  0.3052  -58.2
 2.500  0.5735  128.8   1.466   39.8  0.2117   67.2  0.3047  -61.0
 2.600  0.5774  126.9   1.415   37.9  0.2207   66.4  0.3050  -63.8
 2.700  0.5811  124.9   1.371   36.2  0.2301   65.5  0.3050  -66.6
 2.800  0.5854  123.0   1.329   34.4  0.2395   64.7  0.3058  -69.3
 2.900  0.5888  121.1   1.291   32.7  0.2490   63.8  0.3057  -72.1
 3.000  0.5929  119.2   1.254   31.0  0.2585   62.9  0.3063  -74.8
 3.100  0.5949  117.3   1.222   29.7  0.2679   61.8  0.3050  -77.4
 3.200  0.5976  115.4   1.191   28.2  0.2773   60.8  0.3043  -80.0
 3.300  0.6008  113.6   1.161   26.7  0.2869   59.9  0.3043  -82.6
 3.400  0.6048  111.7   1.132   25.2  0.2965   59.0  0.3049  -85.2
 3.500  0.6093  109.9   1.103   23.5  0.3062   58.2  0.3061  -87.8
 3.600  0.6119  108.2   1.080   22.3  0.3157   57.0  0.3031  -90.4
 3.700  0.6151  106.5   1.057   21.0  0.3252   55.8  0.3007  -93.1
 3.800  0.6188  104.8   1.035   19.7  0.3350   54.8  0.2990  -95.9
 3.900  0.6230  103.1   1.014   18.3  0.3448   53.8  0.2980  -98.6
 4.000  0.6278  101.5   0.993   16.8  0.3547   52.8  0.2977 -101.4
 4.100  0.6294  100.0   0.975   15.7  0.3638   51.5  0.2938 -104.6
 4.200  0.6313   98.5   0.957   14.5  0.3731   50.3  0.2908 -107.9
 4.300  0.6337   97.0   0.940   13.3  0.3825   49.2  0.2888 -111.2
 4.400  0.6366   95.6   0.923   12.1  0.3921   48.1  0.2878 -114.6
 4.500  0.6398   94.1   0.907   10.8  0.4018   47.1  0.2878 -118.0
 4.600  0.6431   92.7   0.892    9.9  0.4103   45.8  0.2859 -121.7
 4.700  0.6468   91.4   0.877    9.0  0.4191   44.6  0.2853 -125.5
 4.800  0.6508   90.0   0.862    8.1  0.4280   43.5  0.2858 -129.2
 4.900  0.6552   88.7   0.848    7.1  0.4371   42.4  0.2876 -132.9
 5.000  0.6599   87.4   0.834    6.1  0.4463   41.3  0.2906 -136.6
 5.100  0.6605   86.1   0.824    5.3  0.4542   40.0  0.2931 -140.2
 5.200  0.6615   84.8   0.815    4.5  0.4623   38.7  0.2968 -143.7
 5.300  0.6627   83.5   0.805    3.7  0.4707   37.5  0.3015 -147.1
 5.400  0.6644   82.3   0.796    2.9  0.4792   36.3  0.3073 -150.3
 5.500  0.6663   81.0   0.787    2.0  0.4880   35.2  0.3140 -153.5
 5.600  0.6662   79.9   0.778    1.4  0.4949   34.0  0.3174 -156.3
 5.700  0.6664   78.8   0.770    0.8  0.5021   32.8  0.3216 -159.0
 5.800  0.6668   77.7   0.761    0.1  0.5095   31.6  0.3264 -161.7
 5.900  0.6675   76.6   0.752   -0.5  0.5170   30.5  0.3319 -164.2
 6.000  0.6684   75.5   0.744   -1.2  0.5248   29.4  0.3381 -166.7
!
!  f       NFmin   Gammaopt  rn/50
! GHz       dB    MAG  ANG    -
!
! noise parameter not available yet for this operation point!
!
! (c) 2017  Infineon Technologies AG, Munich