! Infineon Technologies  Discrete & RF Semiconductors
! BFR182W
! VCE =  8.0 V,  IC =  27 mA
! Common Emitter S-Parameters:                            Jan 2017
# GHz  S  MA  R  50
!  f         S11            S21            S12            S22
! GHz     MAG   ANG      MAG   ANG      MAG   ANG      MAG   ANG
 0.010  0.5400   -6.4  43.005  174.4  0.0015   81.1  0.9798   -2.6
 0.020  0.5463  -13.2  42.776  170.3  0.0032   81.9  0.9687   -5.9
 0.030  0.5264  -19.3  41.598  166.3  0.0049   79.2  0.9508   -8.6
 0.040  0.5128  -25.8  40.638  162.0  0.0067   78.0  0.9352  -11.5
 0.050  0.5061  -32.5  39.911  157.6  0.0084   77.2  0.9220  -14.4
 0.060  0.4873  -37.4  38.401  154.6  0.0097   75.5  0.8955  -16.2
 0.070  0.4723  -42.7  37.004  151.4  0.0110   74.3  0.8699  -18.0
 0.080  0.4616  -48.3  35.735  147.9  0.0123   73.3  0.8453  -20.0
 0.090  0.4555  -54.0  34.607  144.2  0.0137   72.5  0.8218  -22.1
 0.100  0.4540  -59.9  33.634  140.2  0.0150   71.8  0.7994  -24.3
 0.110  0.4377  -63.7  32.321  138.1  0.0159   70.4  0.7761  -25.2
 0.120  0.4235  -67.7  31.053  135.9  0.0168   69.2  0.7530  -26.2
 0.130  0.4115  -72.0  29.839  133.4  0.0177   68.1  0.7301  -27.3
 0.140  0.4020  -76.5  28.683  130.8  0.0186   67.1  0.7075  -28.4
 0.150  0.3950  -81.2  27.593  127.9  0.0195   66.2  0.6852  -29.6
 0.200  0.3565  -97.7  22.885  119.2  0.0230   67.7  0.6013  -31.7
 0.250  0.3308 -110.9  19.396  112.6  0.0271   66.4  0.5407  -32.2
 0.300  0.3105 -121.1  16.665  108.0  0.0299   67.4  0.4956  -32.0
 0.350  0.2981 -128.6  14.819  104.9  0.0337   68.2  0.4680  -31.4
 0.400  0.2911 -136.6  13.030  100.9  0.0375   68.9  0.4405  -30.8
 0.450  0.2847 -142.3  11.814   98.7  0.0407   69.6  0.4246  -30.3
 0.500  0.2812 -148.2  10.620   95.9  0.0440   70.2  0.4087  -29.7
 0.600  0.2775 -157.6   8.982   91.8  0.0517   70.7  0.3882  -28.7
 0.700  0.2749 -165.0   7.758   88.4  0.0588   72.2  0.3737  -28.1
 0.800  0.2775 -171.2   6.842   85.3  0.0669   72.5  0.3639  -28.0
 0.900  0.2759 -176.7   6.100   82.5  0.0740   72.5  0.3558  -28.1
 1.000  0.2804  178.5   5.531   79.9  0.0817   72.3  0.3494  -28.5
 1.100  0.2827  174.2   5.053   77.5  0.0891   72.3  0.3448  -29.0
 1.200  0.2863  169.9   4.650   75.1  0.0965   72.0  0.3398  -29.6
 1.300  0.2877  166.3   4.306   72.8  0.1042   71.9  0.3356  -30.5
 1.400  0.2920  163.1   4.024   70.7  0.1121   71.7  0.3307  -31.7
 1.500  0.2983  160.1   3.768   68.6  0.1202   71.2  0.3272  -32.9
 1.600  0.3022  156.7   3.549   66.4  0.1276   70.7  0.3249  -34.2
 1.700  0.3053  154.3   3.355   64.5  0.1360   70.2  0.3211  -35.8
 1.800  0.3107  151.5   3.193   62.5  0.1436   69.6  0.3177  -37.4
 1.900  0.3155  149.0   3.041   60.7  0.1516   69.2  0.3145  -38.9
 2.000  0.3202  146.8   2.898   58.7  0.1591   68.5  0.3122  -40.9
 2.100  0.3253  144.3   2.777   56.9  0.1673   67.8  0.3096  -42.8
 2.200  0.3309  141.9   2.660   54.9  0.1755   67.2  0.3073  -44.8
 2.300  0.3361  139.8   2.562   53.1  0.1836   66.5  0.3054  -47.0
 2.400  0.3417  137.8   2.466   51.2  0.1918   65.8  0.3039  -49.2
 2.500  0.3462  135.7   2.380   49.5  0.1996   65.1  0.3028  -51.4
 2.600  0.3512  133.7   2.297   47.7  0.2075   64.4  0.3021  -53.6
 2.700  0.3564  131.9   2.225   46.1  0.2155   63.6  0.3016  -55.7
 2.800  0.3619  130.2   2.155   44.3  0.2236   62.9  0.3016  -57.8
 2.900  0.3670  128.1   2.093   42.7  0.2317   62.1  0.3007  -59.9
 3.000  0.3726  126.1   2.033   41.0  0.2398   61.4  0.3002  -62.1
 3.100  0.3763  124.3   1.981   39.6  0.2479   60.5  0.2991  -64.1
 3.200  0.3804  122.5   1.931   38.0  0.2561   59.7  0.2983  -66.1
 3.300  0.3849  120.7   1.882   36.4  0.2644   58.9  0.2979  -68.1
 3.400  0.3897  119.0   1.835   34.8  0.2727   58.2  0.2979  -70.2
 3.500  0.3949  117.3   1.789   33.0  0.2810   57.5  0.2983  -72.2
 3.600  0.4002  115.8   1.752   31.6  0.2892   56.5  0.2953  -74.2
 3.700  0.4058  114.3   1.716   30.2  0.2975   55.5  0.2927  -76.3
 3.800  0.4117  112.8   1.681   28.7  0.3059   54.6  0.2904  -78.3
 3.900  0.4178  111.4   1.647   27.2  0.3144   53.7  0.2886  -80.5
 4.000  0.4242  110.0   1.614   25.6  0.3229   52.9  0.2871  -82.6
 4.100  0.4294  108.6   1.584   24.2  0.3309   51.9  0.2828  -85.1
 4.200  0.4349  107.3   1.555   22.8  0.3390   50.9  0.2789  -87.6
 4.300  0.4406  106.0   1.528   21.4  0.3472   49.9  0.2757  -90.2
 4.400  0.4465  104.7   1.501   19.9  0.3554   49.1  0.2731  -92.9
 4.500  0.4526  103.5   1.475   18.3  0.3638   48.2  0.2710  -95.6
 4.600  0.4596  102.1   1.449   17.1  0.3719   47.2  0.2675  -98.8
 4.700  0.4669  100.8   1.424   15.8  0.3800   46.2  0.2649 -102.0
 4.800  0.4743   99.5   1.400   14.5  0.3883   45.3  0.2631 -105.3
 4.900  0.4821   98.3   1.376   13.1  0.3967   44.4  0.2622 -108.7
 5.000  0.4900   97.1   1.353   11.7  0.4052   43.5  0.2622 -112.0
 5.100  0.4939   95.9   1.334   10.5  0.4130   42.4  0.2629 -115.5
 5.200  0.4980   94.7   1.315    9.4  0.4210   41.3  0.2645 -118.9
 5.300  0.5023   93.6   1.297    8.1  0.4291   40.3  0.2670 -122.3
 5.400  0.5069   92.4   1.280    6.9  0.4373   39.3  0.2705 -125.7
 5.500  0.5116   91.3   1.263    5.6  0.4457   38.4  0.2749 -128.9
 5.600  0.5152   90.2   1.245    4.6  0.4531   37.3  0.2773 -131.8
 5.700  0.5189   89.1   1.227    3.5  0.4607   36.3  0.2805 -134.7
 5.800  0.5229   88.0   1.210    2.4  0.4685   35.2  0.2843 -137.5
 5.900  0.5270   86.9   1.193    1.3  0.4764   34.3  0.2888 -140.2
 6.000  0.5313   85.9   1.177    0.1  0.4844   33.3  0.2939 -142.8
!
!  f       NFmin   Gammaopt  rn/50
! GHz       dB    MAG  ANG    -
!
! noise parameter not available yet for this operation point!
!
! (c) 2017  Infineon Technologies AG, Munich