! Infineon Technologies  Discrete & RF Semiconductors
! BFR182W
! VCE =  1.0 V,  IC =  40 mA
! Common Emitter S-Parameters:                            Jan 2017
# GHz  S  MA  R  50
!  f         S11            S21            S12            S22
! GHz     MAG   ANG      MAG   ANG      MAG   ANG      MAG   ANG
 0.010  0.2575  -51.4  33.773  166.9  0.0050   67.1  0.7019  -11.4
 0.020  0.3552  -82.4  31.782  155.1  0.0099   66.2  0.6590  -22.6
 0.030  0.3908 -101.4  28.236  148.5  0.0126   59.4  0.5906  -28.3
 0.040  0.4603 -115.9  25.167  140.2  0.0154   55.0  0.5294  -35.4
 0.050  0.5511 -126.1  22.768  129.8  0.0182   52.0  0.4783  -44.1
 0.060  0.5625 -131.9  20.845  127.3  0.0194   50.7  0.4412  -45.9
 0.070  0.5795 -137.4  18.971  124.3  0.0206   49.5  0.4047  -48.0
 0.080  0.6014 -142.6  17.160  120.6  0.0218   48.5  0.3688  -50.4
 0.090  0.6279 -147.4  15.436  116.1  0.0230   47.5  0.3337  -53.5
 0.100  0.6584 -151.7  13.831  110.5  0.0242   46.7  0.2998  -57.2
 0.110  0.6613 -154.0  12.975  109.2  0.0250   47.2  0.2833  -57.8
 0.120  0.6652 -156.2  12.127  107.6  0.0257   47.6  0.2668  -58.4
 0.130  0.6701 -158.5  11.290  105.8  0.0265   48.0  0.2503  -59.1
 0.140  0.6760 -160.7  10.465  103.8  0.0272   48.4  0.2339  -60.0
 0.150  0.6829 -162.8   9.655  101.4  0.0280   48.8  0.2176  -60.9
 0.200  0.6960 -168.9   7.360   95.6  0.0313   52.9  0.1766  -61.4
 0.250  0.7017 -173.4   5.945   91.2  0.0366   55.1  0.1511  -61.0
 0.300  0.7042 -176.8   4.973   88.0  0.0406   59.4  0.1345  -60.9
 0.350  0.7056 -179.3   4.366   85.6  0.0451   61.2  0.1253  -60.9
 0.400  0.7084  178.2   3.770   82.4  0.0497   62.7  0.1160  -60.9
 0.450  0.7087  176.1   3.397   80.4  0.0544   64.0  0.1110  -61.6
 0.500  0.7100  174.0   3.030   77.8  0.0592   65.1  0.1060  -62.4
 0.600  0.7143  170.6   2.544   73.7  0.0699   66.5  0.0996  -65.0
 0.700  0.7151  167.6   2.193   70.0  0.0798   68.1  0.0963  -68.0
 0.800  0.7173  164.6   1.930   66.1  0.0912   68.9  0.0948  -72.1
 0.900  0.7180  161.8   1.722   62.7  0.1014   68.6  0.0946  -76.9
 1.000  0.7234  159.0   1.565   59.4  0.1123   68.9  0.0936  -82.0
 1.100  0.7262  156.4   1.434   56.2  0.1232   68.5  0.0954  -87.2
 1.200  0.7279  153.8   1.324   53.1  0.1335   68.2  0.0960  -92.6
 1.300  0.7309  151.2   1.230   50.2  0.1446   67.4  0.0987  -98.3
 1.400  0.7340  148.8   1.155   47.4  0.1564   67.0  0.1015 -104.7
 1.500  0.7402  146.6   1.084   44.6  0.1668   66.3  0.1056 -110.0
 1.600  0.7428  144.1   1.026   42.0  0.1785   65.5  0.1111 -115.3
 1.700  0.7456  141.7   0.974   39.6  0.1898   64.7  0.1166 -121.0
 1.800  0.7507  139.1   0.930   37.1  0.2006   63.7  0.1231 -125.8
 1.900  0.7540  136.9   0.887   35.3  0.2124   62.9  0.1303 -130.4
 2.000  0.7549  134.6   0.846   32.9  0.2234   61.7  0.1384 -134.6
 2.100  0.7574  132.3   0.813   31.0  0.2345   60.5  0.1462 -138.8
 2.200  0.7612  130.0   0.780   29.0  0.2457   59.5  0.1547 -142.6
 2.300  0.7628  127.9   0.753   27.4  0.2566   58.2  0.1631 -146.1
 2.400  0.7654  125.8   0.726   25.7  0.2676   57.1  0.1721 -149.3
 2.500  0.7661  123.7   0.703   24.3  0.2781   55.9  0.1799 -152.2
 2.600  0.7678  121.6   0.680   22.9  0.2888   54.7  0.1882 -154.9
 2.700  0.7690  119.6   0.660   21.7  0.2991   53.4  0.1955 -157.5
 2.800  0.7711  117.6   0.641   20.5  0.3096   52.2  0.2032 -160.0
 2.900  0.7712  115.6   0.624   19.5  0.3195   50.9  0.2092 -162.7
 3.000  0.7722  113.6   0.608   18.5  0.3296   49.7  0.2157 -165.2
 3.100  0.7702  111.6   0.597   17.8  0.3386   48.3  0.2197 -168.0
 3.200  0.7692  109.6   0.585   17.1  0.3478   47.0  0.2241 -170.6
 3.300  0.7691  107.6   0.574   16.4  0.3572   45.7  0.2291 -173.2
 3.400  0.7699  105.6   0.563   15.7  0.3667   44.5  0.2344 -175.7
 3.500  0.7717  103.6   0.552   14.9  0.3764   43.4  0.2402 -178.0
 3.600  0.7702  101.9   0.546   14.5  0.3845   42.0  0.2434  179.1
 3.700  0.7693  100.2   0.540   14.1  0.3929   40.6  0.2473  176.3
 3.800  0.7692   98.4   0.533   13.6  0.4015   39.3  0.2517  173.6
 3.900  0.7698   96.7   0.527   13.2  0.4102   38.0  0.2566  170.9
 4.000  0.7710   95.0   0.521   12.7  0.4192   36.8  0.2621  168.4
 4.100  0.7678   93.5   0.518   12.3  0.4257   35.4  0.2664  165.5
 4.200  0.7652   91.9   0.515   11.9  0.4324   34.1  0.2714  162.7
 4.300  0.7631   90.3   0.512   11.5  0.4394   32.8  0.2770  160.0
 4.400  0.7616   88.8   0.509   11.1  0.4466   31.5  0.2832  157.4
 4.500  0.7607   87.2   0.506   10.7  0.4540   30.3  0.2900  154.9
 4.600  0.7599   85.9   0.505   10.4  0.4595   29.1  0.2960  152.6
 4.700  0.7595   84.6   0.504   10.2  0.4651   27.9  0.3025  150.4
 4.800  0.7595   83.4   0.504    9.9  0.4710   26.7  0.3095  148.3
 4.900  0.7599   82.1   0.503    9.7  0.4771   25.6  0.3168  146.2
 5.000  0.7606   80.8   0.502    9.4  0.4833   24.5  0.3245  144.3
 5.100  0.7573   79.6   0.504    9.0  0.4878   23.3  0.3305  142.8
 5.200  0.7544   78.4   0.506    8.5  0.4925   22.1  0.3368  141.3
 5.300  0.7518   77.2   0.509    8.1  0.4974   21.0  0.3432  139.9
 5.400  0.7496   75.9   0.511    7.6  0.5025   19.8  0.3499  138.6
 5.500  0.7477   74.7   0.513    7.2  0.5078   18.7  0.3567  137.3
 5.600  0.7449   73.7   0.515    6.7  0.5113   17.6  0.3596  136.1
 5.700  0.7423   72.7   0.516    6.3  0.5151   16.6  0.3627  135.0
 5.800  0.7399   71.7   0.518    5.8  0.5190   15.6  0.3659  133.9
 5.900  0.7377   70.7   0.520    5.4  0.5230   14.6  0.3693  132.8
 6.000  0.7358   69.7   0.522    4.9  0.5272   13.6  0.3728  131.7
!
!  f       NFmin   Gammaopt  rn/50
! GHz       dB    MAG  ANG    -
!
! noise parameter not available yet for this operation point!
!
! (c) 2017  Infineon Technologies AG, Munich