! Infineon Technologies  Discrete & RF Semiconductors
! BFR182W
! VCE =  2.0 V,  IC =  35 mA
! Common Emitter S-Parameters:                            Jan 2017
# GHz  S  MA  R  50
!  f         S11            S21            S12            S22
! GHz     MAG   ANG      MAG   ANG      MAG   ANG      MAG   ANG
 0.010  0.3618  -19.8  39.681  172.0  0.0024   74.6  0.8805   -4.7
 0.020  0.3777  -38.0  39.117  164.6  0.0050   78.4  0.8579  -10.1
 0.030  0.3656  -53.2  36.648  158.7  0.0071   70.8  0.8193  -13.8
 0.040  0.3798  -68.2  34.613  152.1  0.0092   66.7  0.7844  -17.8
 0.050  0.4175  -81.4  33.093  144.8  0.0114   64.1  0.7537  -22.1
 0.060  0.4134  -89.8  30.939  141.7  0.0126   62.7  0.7178  -23.5
 0.070  0.4183  -98.2  28.887  138.2  0.0139   61.5  0.6825  -25.0
 0.080  0.4318 -106.2  26.960  134.2  0.0151   60.5  0.6476  -26.7
 0.090  0.4532 -113.7  25.186  129.6  0.0164   59.6  0.6134  -28.6
 0.100  0.4815 -120.3  23.599  124.3  0.0176   58.9  0.5799  -30.7
 0.110  0.4818 -124.3  22.316  122.5  0.0184   58.4  0.5591  -30.9
 0.120  0.4844 -128.3  21.058  120.5  0.0192   58.0  0.5382  -31.2
 0.130  0.4893 -132.2  19.828  118.3  0.0200   57.5  0.5174  -31.4
 0.140  0.4965 -136.0  18.632  115.8  0.0208   57.2  0.4966  -31.7
 0.150  0.5058 -139.7  17.477  112.9  0.0216   56.8  0.4758  -32.0
 0.200  0.5207 -150.9  13.677  105.7  0.0244   59.0  0.4194  -30.9
 0.250  0.5295 -158.6  11.223  100.5  0.0279   60.7  0.3852  -29.4
 0.300  0.5310 -164.2   9.453   96.8  0.0309   62.8  0.3623  -28.0
 0.350  0.5322 -168.2   8.326   94.3  0.0345   64.4  0.3502  -27.1
 0.400  0.5360 -172.1   7.220   91.0  0.0381   65.7  0.3381  -26.2
 0.450  0.5371 -175.1   6.514   89.1  0.0422   66.9  0.3312  -25.9
 0.500  0.5397 -178.1   5.818   86.7  0.0463   67.9  0.3243  -25.5
 0.600  0.5453  177.3   4.886   82.9  0.0543   69.6  0.3154  -25.3
 0.700  0.5471  173.4   4.206   79.7  0.0613   71.6  0.3096  -25.9
 0.800  0.5500  169.8   3.698   76.4  0.0704   72.4  0.3048  -26.8
 0.900  0.5524  166.4   3.294   73.5  0.0780   72.2  0.3008  -27.9
 1.000  0.5553  163.4   2.987   70.7  0.0864   72.5  0.2968  -29.2
 1.100  0.5606  160.5   2.728   68.1  0.0950   72.8  0.2941  -30.9
 1.200  0.5630  157.7   2.513   65.4  0.1031   72.5  0.2905  -32.5
 1.300  0.5657  155.0   2.329   62.9  0.1112   72.5  0.2877  -34.4
 1.400  0.5709  152.5   2.178   60.5  0.1205   72.3  0.2835  -36.5
 1.500  0.5754  150.2   2.043   58.2  0.1293   71.9  0.2806  -38.7
 1.600  0.5799  147.7   1.927   55.7  0.1381   71.3  0.2785  -41.0
 1.700  0.5825  145.2   1.824   53.5  0.1469   70.9  0.2752  -43.7
 1.800  0.5891  143.0   1.738   51.1  0.1561   70.4  0.2720  -46.2
 1.900  0.5921  140.7   1.656   49.2  0.1650   69.7  0.2699  -48.9
 2.000  0.5934  138.5   1.578   46.8  0.1742   69.1  0.2680  -51.9
 2.100  0.5986  136.2   1.515   44.8  0.1835   68.4  0.2660  -54.9
 2.200  0.6047  133.9   1.453   42.7  0.1928   67.7  0.2647  -58.0
 2.300  0.6081  131.9   1.400   40.8  0.2022   66.9  0.2636  -61.1
 2.400  0.6123  130.0   1.348   38.7  0.2117   66.1  0.2632  -64.3
 2.500  0.6150  128.0   1.301   37.0  0.2210   65.3  0.2633  -67.4
 2.600  0.6185  126.0   1.256   35.1  0.2303   64.5  0.2641  -70.5
 2.700  0.6218  124.0   1.217   33.4  0.2399   63.6  0.2648  -73.6
 2.800  0.6258  122.1   1.180   31.6  0.2495   62.7  0.2662  -76.7
 2.900  0.6291  120.1   1.146   30.0  0.2591   61.7  0.2665  -79.7
 3.000  0.6332  118.1   1.113   28.3  0.2688   60.8  0.2675  -82.6
 3.100  0.6346  116.2   1.085   27.0  0.2782   59.7  0.2668  -85.5
 3.200  0.6368  114.3   1.058   25.6  0.2877   58.6  0.2667  -88.3
 3.300  0.6396  112.4   1.031   24.1  0.2973   57.7  0.2673  -91.2
 3.400  0.6431  110.5   1.005   22.5  0.3070   56.8  0.2685  -94.0
 3.500  0.6473  108.7   0.980   20.9  0.3168   55.9  0.2704  -96.8
 3.600  0.6494  107.0   0.960   19.8  0.3262   54.7  0.2680  -99.7
 3.700  0.6522  105.3   0.940   18.6  0.3357   53.5  0.2663 -102.7
 3.800  0.6555  103.6   0.920   17.3  0.3454   52.4  0.2653 -105.7
 3.900  0.6593  101.9   0.902   16.0  0.3552   51.4  0.2651 -108.8
 4.000  0.6637  100.3   0.883   14.7  0.3651   50.4  0.2656 -111.8
 4.100  0.6644   98.7   0.867   13.7  0.3739   49.1  0.2627 -115.3
 4.200  0.6657   97.2   0.852   12.7  0.3829   47.8  0.2608 -118.9
 4.300  0.6674   95.6   0.837   11.6  0.3921   46.6  0.2599 -122.5
 4.400  0.6696   94.0   0.822   10.5  0.4015   45.5  0.2601 -126.2
 4.500  0.6723   92.5   0.808    9.3  0.4110   44.4  0.2613 -129.8
 4.600  0.6749   91.2   0.795    8.5  0.4193   43.2  0.2611 -133.8
 4.700  0.6778   89.8   0.783    7.7  0.4277   42.0  0.2621 -137.7
 4.800  0.6811   88.5   0.770    6.9  0.4364   40.8  0.2644 -141.7
 4.900  0.6847   87.2   0.758    6.1  0.4451   39.8  0.2679 -145.5
 5.000  0.6887   85.9   0.746    5.2  0.4541   38.7  0.2726 -149.2
 5.100  0.6885   84.6   0.738    4.6  0.4616   37.4  0.2767 -152.7
 5.200  0.6886   83.3   0.730    3.9  0.4694   36.1  0.2819 -156.1
 5.300  0.6891   82.0   0.722    3.3  0.4773   34.9  0.2879 -159.3
 5.400  0.6900   80.7   0.715    2.6  0.4855   33.7  0.2949 -162.4
 5.500  0.6912   79.4   0.707    1.9  0.4939   32.6  0.3027 -165.4
 5.600  0.6901   78.3   0.700    1.4  0.5004   31.4  0.3068 -168.0
 5.700  0.6893   77.2   0.694    0.8  0.5071   30.2  0.3116 -170.6
 5.800  0.6888   76.1   0.687    0.3  0.5140   29.0  0.3169 -173.0
 5.900  0.6885   75.0   0.680   -0.3  0.5212   27.9  0.3228 -175.4
 6.000  0.6884   73.9   0.674   -0.9  0.5285   26.8  0.3293 -177.7
!
!  f       NFmin   Gammaopt  rn/50
! GHz       dB    MAG  ANG    -
!
! noise parameter not available yet for this operation point!
!
! (c) 2017  Infineon Technologies AG, Munich