! Infineon Technologies  Discrete & RF Semiconductors
! BFR182W
! VCE =  1.0 V,  IC =  8.0 mA
! Common Emitter S-Parameters:                            Jan 2017
# GHz  S  MA  R  50
!  f         S11            S21            S12            S22
! GHz     MAG   ANG      MAG   ANG      MAG   ANG      MAG   ANG
 0.010  0.7458   -4.5  22.091  177.1  0.0027   84.4  0.9921   -2.2
 0.020  0.7597   -8.8  22.378  174.1  0.0047   95.1  0.9866   -4.6
 0.030  0.7419  -12.8  22.042  171.2  0.0072   84.6  0.9772   -6.7
 0.040  0.7280  -17.0  21.764  168.2  0.0098   79.6  0.9692   -8.9
 0.050  0.7181  -21.4  21.546  165.2  0.0125   76.7  0.9626  -11.1
 0.060  0.7047  -25.2  21.122  162.7  0.0149   75.3  0.9469  -12.9
 0.070  0.6945  -29.2  20.740  160.1  0.0172   74.3  0.9322  -14.7
 0.080  0.6878  -33.2  20.402  157.4  0.0196   73.5  0.9185  -16.6
 0.090  0.6846  -37.4  20.110  154.6  0.0220   72.9  0.9059  -18.6
 0.100  0.6849  -41.5  19.867  151.8  0.0244   72.4  0.8943  -20.6
 0.110  0.6687  -44.7  19.389  149.7  0.0261   70.6  0.8756  -22.0
 0.120  0.6546  -48.1  18.938  147.5  0.0277   69.0  0.8573  -23.4
 0.130  0.6429  -51.6  18.516  145.3  0.0294   67.6  0.8397  -24.9
 0.140  0.6337  -55.2  18.124  142.9  0.0312   66.3  0.8226  -26.5
 0.150  0.6271  -58.9  17.765  140.4  0.0329   65.2  0.8062  -28.1
 0.200  0.5764  -74.1  15.727  131.1  0.0387   60.7  0.7243  -33.3
 0.250  0.5346  -86.9  13.933  123.6  0.0441   57.4  0.6524  -36.9
 0.300  0.4970  -97.9  12.364  117.7  0.0483   55.8  0.5909  -39.2
 0.350  0.4682 -106.1  11.169  113.6  0.0518   55.3  0.5465  -40.4
 0.400  0.4501 -115.1  10.044  108.6  0.0554   54.9  0.5024  -41.8
 0.450  0.4327 -121.8   9.179  105.6  0.0585   54.8  0.4723  -42.3
 0.500  0.4216 -129.0   8.346  101.9  0.0617   54.7  0.4422  -42.8
 0.600  0.4031 -140.1   7.138   96.5  0.0684   55.5  0.4007  -42.9
 0.700  0.3909 -148.9   6.209   92.1  0.0750   56.4  0.3711  -42.9
 0.800  0.3870 -156.7   5.503   88.1  0.0815   58.0  0.3491  -42.9
 0.900  0.3822 -163.4   4.923   84.5  0.0882   58.2  0.3325  -43.0
 1.000  0.3824 -169.5   4.479   81.3  0.0949   59.2  0.3179  -43.3
 1.100  0.3827 -174.9   4.100   78.4  0.1021   59.9  0.3078  -43.8
 1.200  0.3852 -179.7   3.779   75.5  0.1088   60.3  0.2981  -44.4
 1.300  0.3853  175.9   3.507   72.8  0.1161   60.7  0.2908  -45.2
 1.400  0.3891  171.9   3.282   70.2  0.1243   60.9  0.2827  -46.3
 1.500  0.3931  168.4   3.077   67.8  0.1316   60.8  0.2773  -47.6
 1.600  0.3945  164.8   2.903   65.3  0.1394   60.8  0.2731  -48.9
 1.700  0.3985  161.5   2.749   63.0  0.1466   61.2  0.2675  -50.7
 1.800  0.4035  158.1   2.618   60.7  0.1547   60.8  0.2631  -52.3
 1.900  0.4072  155.3   2.495   58.6  0.1624   60.6  0.2597  -54.2
 2.000  0.4118  152.4   2.382   56.3  0.1703   60.4  0.2567  -56.4
 2.100  0.4169  149.6   2.284   54.2  0.1784   60.0  0.2540  -58.7
 2.200  0.4230  146.8   2.190   52.0  0.1866   59.7  0.2517  -61.1
 2.300  0.4274  144.5   2.110   50.0  0.1948   59.2  0.2502  -63.5
 2.400  0.4324  142.3   2.033   47.9  0.2030   58.7  0.2492  -66.0
 2.500  0.4370  140.0   1.963   46.1  0.2109   58.2  0.2487  -68.4
 2.600  0.4423  137.8   1.895   44.1  0.2189   57.7  0.2486  -70.9
 2.700  0.4472  135.5   1.838   42.3  0.2272   57.1  0.2489  -73.4
 2.800  0.4527  133.3   1.782   40.4  0.2355   56.5  0.2496  -75.9
 2.900  0.4574  131.1   1.732   38.6  0.2438   55.8  0.2494  -78.3
 3.000  0.4627  129.0   1.683   36.7  0.2522   55.2  0.2496  -80.6
 3.100  0.4660  127.0   1.641   35.2  0.2606   54.4  0.2489  -82.9
 3.200  0.4699  125.0   1.599   33.6  0.2691   53.7  0.2487  -85.2
 3.300  0.4743  123.0   1.559   31.9  0.2776   53.0  0.2488  -87.6
 3.400  0.4793  121.1   1.521   30.2  0.2861   52.3  0.2493  -89.9
 3.500  0.4848  119.2   1.484   28.3  0.2947   51.7  0.2503  -92.2
 3.600  0.4894  117.4   1.453   26.9  0.3032   50.8  0.2481  -94.7
 3.700  0.4946  115.6   1.423   25.4  0.3117   49.9  0.2464  -97.2
 3.800  0.5002  113.9   1.394   23.9  0.3203   49.0  0.2452  -99.8
 3.900  0.5062  112.2   1.366   22.3  0.3290   48.3  0.2445 -102.3
 4.000  0.5127  110.5   1.339   20.6  0.3377   47.5  0.2443 -104.9
 4.100  0.5172  108.9   1.314   19.2  0.3460   46.4  0.2414 -108.0
 4.200  0.5221  107.4   1.290   17.8  0.3544   45.4  0.2392 -111.2
 4.300  0.5273  105.9   1.267   16.3  0.3628   44.5  0.2378 -114.5
 4.400  0.5329  104.4   1.244   14.8  0.3714   43.6  0.2371 -117.7
 4.500  0.5388  103.0   1.223   13.2  0.3801   42.7  0.2372 -121.0
 4.600  0.5443  101.5   1.201   12.0  0.3881   41.7  0.2366 -124.7
 4.700  0.5502  100.1   1.180   10.9  0.3962   40.7  0.2370 -128.4
 4.800  0.5564   98.6   1.160    9.6  0.4044   39.8  0.2384 -132.1
 4.900  0.5629   97.3   1.139    8.3  0.4128   38.9  0.2408 -135.8
 5.000  0.5698   95.9   1.120    7.0  0.4212   38.0  0.2441 -139.3
 5.100  0.5726   94.6   1.104    5.9  0.4288   36.9  0.2480 -142.8
 5.200  0.5758   93.3   1.089    4.8  0.4366   35.8  0.2527 -146.2
 5.300  0.5792   92.1   1.074    3.7  0.4445   34.8  0.2583 -149.4
 5.400  0.5828   90.8   1.060    2.5  0.4525   33.8  0.2648 -152.6
 5.500  0.5868   89.6   1.046    1.3  0.4607   32.8  0.2719 -155.5
 5.600  0.5894   88.4   1.031    0.4  0.4677   31.7  0.2764 -158.2
 5.700  0.5922   87.2   1.017   -0.6  0.4748   30.7  0.2814 -160.7
 5.800  0.5953   86.1   1.002   -1.6  0.4821   29.6  0.2870 -163.2
 5.900  0.5986   84.9   0.989   -2.6  0.4895   28.7  0.2931 -165.6
 6.000  0.6021   83.8   0.975   -3.7  0.4971   27.7  0.2997 -167.9
!
!  f       NFmin   Gammaopt  rn/50
! GHz       dB    MAG  ANG    -
 0.450      1.00  0.12   39   0.15
 0.900      1.08  0.12   69   0.15
 1.900      1.59  0.18 -174   0.13
 2.400      1.85  0.18 -169   0.19
!
! (c) 2017  Infineon Technologies AG, Munich