! Infineon Technologies  Discrete & RF Semiconductors
! BFR182W
! VCE =  11. V,  IC =  20 mA
! Common Emitter S-Parameters:                            Jan 2017
# GHz  S  MA  R  50
!  f         S11            S21            S12            S22
! GHz     MAG   ANG      MAG   ANG      MAG   ANG      MAG   ANG
 0.010  0.6271   -4.9  37.487  174.6  0.0014   76.2  0.9800   -2.3
 0.020  0.6387  -10.6  37.562  171.3  0.0032   88.6  0.9764   -5.1
 0.030  0.6189  -15.5  36.652  167.9  0.0051   80.7  0.9614   -7.5
 0.040  0.6039  -20.7  35.881  164.2  0.0070   77.1  0.9481   -9.9
 0.050  0.5941  -26.1  35.258  160.5  0.0090   75.1  0.9366  -12.4
 0.060  0.5762  -30.2  34.171  157.7  0.0104   73.4  0.9149  -14.1
 0.070  0.5616  -34.6  33.172  154.7  0.0118   72.2  0.8942  -15.9
 0.080  0.5503  -39.2  32.268  151.5  0.0132   71.2  0.8743  -17.8
 0.090  0.5428  -44.0  31.469  148.2  0.0146   70.4  0.8555  -19.8
 0.100  0.5390  -48.8  30.781  144.7  0.0160   69.7  0.8377  -21.9
 0.110  0.5210  -52.1  29.755  142.6  0.0171   68.6  0.8164  -22.9
 0.120  0.5048  -55.6  28.773  140.3  0.0181   67.7  0.7954  -24.0
 0.130  0.4906  -59.3  27.839  137.9  0.0192   66.8  0.7747  -25.2
 0.140  0.4786  -63.2  26.957  135.3  0.0202   66.1  0.7543  -26.4
 0.150  0.4689  -67.3  26.133  132.6  0.0213   65.4  0.7343  -27.7
 0.200  0.4170  -82.4  22.173  123.7  0.0248   65.7  0.6510  -30.8
 0.250  0.3758  -95.2  19.084  116.7  0.0290   64.0  0.5874  -32.1
 0.300  0.3456 -105.5  16.572  111.7  0.0318   64.4  0.5367  -32.6
 0.350  0.3226 -113.1  14.806  108.3  0.0354   65.2  0.5047  -32.4
 0.400  0.3061 -121.7  13.106  104.0  0.0391   65.8  0.4728  -32.2
 0.450  0.2939 -128.0  11.915  101.5  0.0424   66.0  0.4532  -31.8
 0.500  0.2855 -134.7  10.752   98.5  0.0458   66.2  0.4337  -31.3
 0.600  0.2728 -145.3   9.124   94.1  0.0530   67.4  0.4078  -30.5
 0.700  0.2649 -154.0   7.895   90.4  0.0600   68.9  0.3904  -29.8
 0.800  0.2643 -161.5   6.978   87.1  0.0671   70.3  0.3779  -29.6
 0.900  0.2615 -168.1   6.226   84.1  0.0743   70.5  0.3682  -29.6
 1.000  0.2625 -174.1   5.651   81.5  0.0816   70.2  0.3598  -29.9
 1.100  0.2642 -178.8   5.164   79.0  0.0889   70.6  0.3540  -30.2
 1.200  0.2670  176.4   4.753   76.5  0.0963   70.1  0.3482  -30.8
 1.300  0.2671  171.7   4.405   74.2  0.1036   69.9  0.3437  -31.6
 1.400  0.2721  168.1   4.115   72.0  0.1117   70.2  0.3386  -32.6
 1.500  0.2783  164.6   3.853   69.9  0.1190   69.6  0.3341  -33.7
 1.600  0.2802  161.1   3.631   67.7  0.1262   69.2  0.3323  -34.8
 1.700  0.2829  158.0   3.433   65.7  0.1340   68.9  0.3279  -36.4
 1.800  0.2879  155.1   3.265   63.7  0.1418   68.3  0.3244  -37.8
 1.900  0.2952  152.4   3.112   61.9  0.1493   68.0  0.3209  -39.3
 2.000  0.2969  149.6   2.965   59.8  0.1577   67.4  0.3185  -41.2
 2.100  0.3023  146.9   2.843   58.0  0.1653   66.8  0.3158  -43.0
 2.200  0.3083  144.3   2.724   56.0  0.1730   66.3  0.3135  -44.9
 2.300  0.3142  142.1   2.624   54.2  0.1808   65.6  0.3115  -46.9
 2.400  0.3206  140.0   2.526   52.3  0.1887   65.0  0.3098  -49.0
 2.500  0.3247  137.9   2.437   50.6  0.1966   64.3  0.3086  -51.1
 2.600  0.3292  135.9   2.350   48.8  0.2045   63.7  0.3079  -53.2
 2.700  0.3346  133.9   2.277   47.2  0.2123   63.0  0.3073  -55.2
 2.800  0.3405  131.9   2.207   45.4  0.2202   62.3  0.3071  -57.3
 2.900  0.3453  129.9   2.144   43.7  0.2281   61.5  0.3060  -59.3
 3.000  0.3506  127.9   2.082   42.0  0.2360   60.8  0.3052  -61.4
 3.100  0.3547  126.0   2.029   40.6  0.2440   60.0  0.3041  -63.3
 3.200  0.3591  124.1   1.978   39.1  0.2520   59.3  0.3034  -65.3
 3.300  0.3639  122.3   1.928   37.5  0.2601   58.6  0.3030  -67.2
 3.400  0.3691  120.5   1.880   35.8  0.2682   57.9  0.3029  -69.2
 3.500  0.3746  118.8   1.833   34.1  0.2763   57.3  0.3032  -71.1
 3.600  0.3798  117.2   1.795   32.7  0.2845   56.3  0.3002  -73.1
 3.700  0.3853  115.7   1.757   31.3  0.2927   55.4  0.2977  -75.0
 3.800  0.3910  114.2   1.721   29.8  0.3011   54.5  0.2954  -77.1
 3.900  0.3970  112.7   1.687   28.2  0.3094   53.7  0.2936  -79.1
 4.000  0.4033  111.3   1.653   26.6  0.3179   52.9  0.2921  -81.2
 4.100  0.4087  109.9   1.623   25.2  0.3259   51.9  0.2877  -83.6
 4.200  0.4144  108.5   1.594   23.8  0.3339   50.9  0.2839  -86.0
 4.300  0.4203  107.2   1.566   22.4  0.3421   49.9  0.2805  -88.5
 4.400  0.4265  105.9   1.539   20.9  0.3504   49.1  0.2777  -91.1
 4.500  0.4328  104.7   1.513   19.3  0.3587   48.2  0.2755  -93.7
 4.600  0.4401  103.3   1.487   18.1  0.3667   47.2  0.2718  -96.8
 4.700  0.4477  102.0   1.461   16.8  0.3748   46.2  0.2690  -99.9
 4.800  0.4555  100.7   1.436   15.4  0.3830   45.3  0.2669 -103.1
 4.900  0.4635   99.5   1.412   14.0  0.3912   44.4  0.2657 -106.3
 5.000  0.4717   98.3   1.389   12.6  0.3996   43.6  0.2654 -109.6
 5.100  0.4757   97.1   1.369   11.4  0.4074   42.5  0.2658 -113.0
 5.200  0.4800   95.9   1.350   10.3  0.4154   41.5  0.2672 -116.4
 5.300  0.4844   94.8   1.331    9.0  0.4235   40.5  0.2696 -119.8
 5.400  0.4891   93.6   1.313    7.8  0.4318   39.6  0.2728 -123.1
 5.500  0.4939   92.5   1.296    6.5  0.4401   38.7  0.2769 -126.3
 5.600  0.4976   91.4   1.277    5.4  0.4475   37.6  0.2792 -129.2
 5.700  0.5014   90.4   1.259    4.3  0.4550   36.6  0.2822 -132.1
 5.800  0.5054   89.3   1.241    3.2  0.4626   35.6  0.2858 -134.9
 5.900  0.5096   88.3   1.224    2.0  0.4704   34.6  0.2902 -137.7
 6.000  0.5139   87.3   1.207    0.8  0.4783   33.7  0.2952 -140.3
!
!  f       NFmin   Gammaopt  rn/50
! GHz       dB    MAG  ANG    -
 0.450      1.41  0.11 -176   0.15
 0.900      1.49  0.11 -171   0.15
 1.900      2.00  0.28 -142   0.16
 2.400      2.26  0.29 -128   0.26
!
! (c) 2017  Infineon Technologies AG, Munich