! Infineon Technologies  Discrete & RF Semiconductors
! BFR182W
! VCE =  10. V,  IC =  25 mA
! Common Emitter S-Parameters:                            Jan 2017
# GHz  S  MA  R  50
!  f         S11            S21            S12            S22
! GHz     MAG   ANG      MAG   ANG      MAG   ANG      MAG   ANG
 0.010  0.5776   -5.7  41.474  174.3  0.0015   83.9  0.9787   -2.5
 0.020  0.5848  -12.1  41.345  170.6  0.0032   99.4  0.9687   -5.7
 0.030  0.5643  -17.7  40.245  166.8  0.0048   86.8  0.9527   -8.3
 0.040  0.5496  -23.7  39.333  162.8  0.0065   80.7  0.9387  -11.0
 0.050  0.5413  -30.0  38.622  158.6  0.0083   77.2  0.9268  -13.7
 0.060  0.5227  -34.6  37.252  155.7  0.0097   75.4  0.9021  -15.4
 0.070  0.5077  -39.5  35.989  152.5  0.0110   74.1  0.8783  -17.3
 0.080  0.4966  -44.7  34.843  149.1  0.0124   73.1  0.8554  -19.2
 0.090  0.4898  -50.0  33.826  145.5  0.0137   72.3  0.8335  -21.3
 0.100  0.4873  -55.5  32.951  141.7  0.0151   71.6  0.8128  -23.4
 0.110  0.4699  -59.0  31.730  139.6  0.0160   70.5  0.7900  -24.4
 0.120  0.4544  -62.8  30.556  137.3  0.0170   69.6  0.7675  -25.4
 0.130  0.4410  -66.9  29.433  134.9  0.0179   68.7  0.7453  -26.6
 0.140  0.4300  -71.1  28.369  132.2  0.0189   68.0  0.7234  -27.7
 0.150  0.4214  -75.6  27.369  129.4  0.0198   67.3  0.7018  -29.0
 0.200  0.3763  -91.2  22.871  120.7  0.0232   67.1  0.6174  -31.3
 0.250  0.3435 -104.4  19.469  114.0  0.0275   65.7  0.5560  -32.1
 0.300  0.3191 -114.7  16.793  109.2  0.0307   65.5  0.5093  -32.1
 0.350  0.3027 -122.5  14.953  106.0  0.0341   66.8  0.4805  -31.6
 0.400  0.2924 -131.0  13.171  102.0  0.0375   67.9  0.4518  -31.1
 0.450  0.2828 -136.9  11.951   99.7  0.0413   68.4  0.4345  -30.5
 0.500  0.2765 -143.2  10.756   96.8  0.0452   68.9  0.4172  -29.9
 0.600  0.2695 -153.1   9.105   92.6  0.0516   70.0  0.3958  -29.0
 0.700  0.2677 -160.6   7.869   89.1  0.0590   71.2  0.3809  -28.4
 0.800  0.2650 -167.4   6.942   85.9  0.0667   71.7  0.3694  -28.3
 0.900  0.2656 -173.6   6.192   83.1  0.0737   71.5  0.3617  -28.4
 1.000  0.2661 -178.7   5.617   80.5  0.0812   72.0  0.3543  -28.6
 1.100  0.2706  176.7   5.131   78.1  0.0886   71.7  0.3493  -29.1
 1.200  0.2728  172.0   4.722   75.7  0.0966   71.1  0.3442  -29.7
 1.300  0.2753  168.2   4.376   73.4  0.1038   71.3  0.3401  -30.6
 1.400  0.2783  164.6   4.086   71.2  0.1119   71.1  0.3350  -31.6
 1.500  0.2857  161.8   3.826   69.2  0.1199   70.6  0.3313  -32.9
 1.600  0.2884  158.2   3.605   67.0  0.1274   70.4  0.3291  -34.1
 1.700  0.2920  155.5   3.408   65.1  0.1348   69.9  0.3246  -35.6
 1.800  0.2970  152.7   3.242   63.0  0.1431   69.2  0.3213  -37.2
 1.900  0.3031  150.1   3.088   61.3  0.1503   68.7  0.3183  -38.7
 2.000  0.3059  147.6   2.943   59.2  0.1582   68.3  0.3161  -40.6
 2.100  0.3112  145.1   2.821   57.4  0.1661   67.6  0.3135  -42.6
 2.200  0.3171  142.6   2.703   55.4  0.1741   66.9  0.3113  -44.6
 2.300  0.3228  140.7   2.603   53.7  0.1821   66.2  0.3092  -46.7
 2.400  0.3288  138.8   2.506   51.8  0.1902   65.6  0.3075  -48.8
 2.500  0.3330  136.6   2.418   50.1  0.1980   64.9  0.3064  -50.8
 2.600  0.3377  134.5   2.333   48.3  0.2059   64.2  0.3056  -52.9
 2.700  0.3429  132.6   2.261   46.7  0.2139   63.5  0.3050  -55.0
 2.800  0.3484  130.7   2.190   44.9  0.2219   62.8  0.3049  -57.2
 2.900  0.3534  128.6   2.127   43.2  0.2299   62.0  0.3041  -59.2
 3.000  0.3588  126.6   2.066   41.5  0.2379   61.3  0.3036  -61.3
 3.100  0.3630  124.8   2.014   40.1  0.2459   60.4  0.3024  -63.3
 3.200  0.3675  123.0   1.962   38.6  0.2540   59.6  0.3016  -65.2
 3.300  0.3723  121.3   1.913   37.0  0.2621   58.9  0.3011  -67.2
 3.400  0.3775  119.6   1.865   35.3  0.2703   58.2  0.3010  -69.2
 3.500  0.3830  118.0   1.818   33.6  0.2785   57.5  0.3012  -71.2
 3.600  0.3882  116.4   1.780   32.2  0.2867   56.5  0.2983  -73.2
 3.700  0.3936  114.9   1.743   30.8  0.2950   55.5  0.2957  -75.2
 3.800  0.3994  113.4   1.707   29.3  0.3034   54.7  0.2935  -77.2
 3.900  0.4054  112.0   1.672   27.8  0.3118   53.8  0.2916  -79.3
 4.000  0.4116  110.6   1.639   26.2  0.3203   53.0  0.2902  -81.4
 4.100  0.4170  109.2   1.609   24.8  0.3283   52.0  0.2859  -83.8
 4.200  0.4226  107.9   1.580   23.4  0.3364   51.0  0.2820  -86.3
 4.300  0.4284  106.5   1.552   21.9  0.3446   50.0  0.2787  -88.8
 4.400  0.4345  105.2   1.526   20.4  0.3528   49.2  0.2760  -91.4
 4.500  0.4408  104.0   1.500   18.8  0.3612   48.3  0.2738  -94.0
 4.600  0.4479  102.7   1.474   17.6  0.3692   47.3  0.2702  -97.1
 4.700  0.4552  101.4   1.449   16.3  0.3773   46.3  0.2674 -100.3
 4.800  0.4628  100.1   1.424   15.0  0.3855   45.4  0.2654 -103.5
 4.900  0.4706   98.9   1.400   13.6  0.3938   44.5  0.2643 -106.8
 5.000  0.4786   97.7   1.377   12.2  0.4022   43.6  0.2641 -110.1
 5.100  0.4826   96.5   1.357   11.0  0.4100   42.5  0.2645 -113.6
 5.200  0.4868   95.3   1.338    9.9  0.4179   41.5  0.2659 -117.1
 5.300  0.4912   94.2   1.319    8.6  0.4259   40.5  0.2682 -120.5
 5.400  0.4958   93.0   1.301    7.4  0.4340   39.5  0.2715 -123.8
 5.500  0.5006   91.9   1.284    6.1  0.4423   38.6  0.2757 -127.1
 5.600  0.5045   90.8   1.266    5.1  0.4497   37.5  0.2780 -130.0
 5.700  0.5085   89.8   1.248    4.0  0.4573   36.5  0.2811 -132.9
 5.800  0.5128   88.7   1.231    2.9  0.4650   35.5  0.2848 -135.7
 5.900  0.5171   87.7   1.214    1.8  0.4728   34.5  0.2892 -138.5
 6.000  0.5217   86.7   1.198    0.6  0.4808   33.6  0.2943 -141.1
!
!  f       NFmin   Gammaopt  rn/50
! GHz       dB    MAG  ANG    -
 0.450      1.56  0.16 -169   0.15
 0.900      1.65  0.17 -163   0.16
 1.900      2.18  0.33 -138   0.18
 2.400      2.46  0.34 -127   0.29
!
! (c) 2017  Infineon Technologies AG, Munich