! Infineon Technologies  Discrete & RF Semiconductors
! BFR182W
! VCE =  8.0 V,  IC =  23 mA
! Common Emitter S-Parameters:                            Jan 2017
# GHz  S  MA  R  50
!  f         S11            S21            S12            S22
! GHz     MAG   ANG      MAG   ANG      MAG   ANG      MAG   ANG
 0.010  0.5727   -5.7  40.438  174.7  0.0016   89.2  0.9838   -2.6
 0.020  0.5809  -12.0  40.418  170.9  0.0036  100.9  0.9739   -5.7
 0.030  0.5611  -17.6  39.364  167.1  0.0051   86.9  0.9575   -8.3
 0.040  0.5469  -23.5  38.491  163.1  0.0068   79.6  0.9431  -10.9
 0.050  0.5389  -29.7  37.811  159.0  0.0086   75.2  0.9308  -13.6
 0.060  0.5206  -34.3  36.498  156.1  0.0099   74.4  0.9063  -15.4
 0.070  0.5060  -39.2  35.288  152.9  0.0111   73.8  0.8826  -17.2
 0.080  0.4953  -44.4  34.193  149.5  0.0124   73.3  0.8600  -19.2
 0.090  0.4888  -49.8  33.223  146.0  0.0136   72.8  0.8384  -21.2
 0.100  0.4866  -55.2  32.389  142.2  0.0149   72.5  0.8179  -23.4
 0.110  0.4698  -58.8  31.206  140.1  0.0159   70.9  0.7952  -24.4
 0.120  0.4549  -62.6  30.070  137.8  0.0170   69.5  0.7728  -25.5
 0.130  0.4421  -66.7  28.984  135.4  0.0181   68.3  0.7507  -26.7
 0.140  0.4318  -70.9  27.955  132.7  0.0191   67.2  0.7289  -27.9
 0.150  0.4239  -75.4  26.990  129.9  0.0202   66.2  0.7074  -29.2
 0.200  0.3785  -91.3  22.603  121.1  0.0238   66.1  0.6223  -31.7
 0.250  0.3460 -104.3  19.284  114.3  0.0277   64.4  0.5597  -32.7
 0.300  0.3232 -115.0  16.639  109.5  0.0312   66.0  0.5119  -32.7
 0.350  0.3070 -122.7  14.823  106.3  0.0346   66.8  0.4819  -32.3
 0.400  0.2970 -131.1  13.066  102.2  0.0381   67.4  0.4520  -31.9
 0.450  0.2877 -137.1  11.861   99.9  0.0416   68.3  0.4340  -31.4
 0.500  0.2817 -143.4  10.681   97.0  0.0452   69.0  0.4161  -30.8
 0.600  0.2741 -152.9   9.040   92.7  0.0526   69.2  0.3927  -29.9
 0.700  0.2713 -160.7   7.811   89.2  0.0592   70.6  0.3772  -29.3
 0.800  0.2714 -167.7   6.896   86.0  0.0672   71.3  0.3657  -29.0
 0.900  0.2714 -173.4   6.151   83.1  0.0744   71.3  0.3574  -29.1
 1.000  0.2743 -179.1   5.579   80.5  0.0820   71.9  0.3498  -29.4
 1.100  0.2766  176.4   5.097   78.1  0.0895   71.7  0.3450  -29.9
 1.200  0.2799  172.2   4.692   75.7  0.0972   71.1  0.3392  -30.5
 1.300  0.2798  168.2   4.346   73.3  0.1047   71.0  0.3349  -31.3
 1.400  0.2858  165.0   4.061   71.2  0.1126   70.9  0.3295  -32.4
 1.500  0.2921  161.7   3.802   69.1  0.1200   70.4  0.3265  -33.6
 1.600  0.2940  158.1   3.582   66.9  0.1281   70.0  0.3239  -34.8
 1.700  0.2978  155.5   3.387   65.0  0.1356   69.6  0.3197  -36.3
 1.800  0.3029  152.6   3.223   62.9  0.1437   69.1  0.3161  -37.9
 1.900  0.3083  150.2   3.069   61.2  0.1516   68.7  0.3129  -39.6
 2.000  0.3133  147.6   2.925   59.1  0.1596   67.9  0.3107  -41.4
 2.100  0.3182  145.1   2.804   57.3  0.1674   67.2  0.3080  -43.3
 2.200  0.3237  142.7   2.686   55.3  0.1752   66.6  0.3057  -45.3
 2.300  0.3290  140.7   2.587   53.5  0.1833   66.0  0.3037  -47.4
 2.400  0.3348  138.7   2.491   51.6  0.1914   65.4  0.3022  -49.6
 2.500  0.3390  136.7   2.404   49.9  0.1991   64.7  0.3009  -51.7
 2.600  0.3436  134.8   2.319   48.1  0.2069   64.0  0.3001  -53.8
 2.700  0.3496  132.7   2.247   46.5  0.2149   63.2  0.2995  -55.9
 2.800  0.3560  130.6   2.176   44.7  0.2230   62.5  0.2994  -58.1
 2.900  0.3603  128.7   2.114   43.0  0.2310   61.7  0.2987  -60.2
 3.000  0.3650  126.8   2.053   41.3  0.2391   60.9  0.2985  -62.3
 3.100  0.3690  125.0   2.001   39.9  0.2471   60.1  0.2973  -64.3
 3.200  0.3733  123.1   1.950   38.4  0.2552   59.3  0.2965  -66.2
 3.300  0.3780  121.4   1.901   36.8  0.2634   58.5  0.2961  -68.2
 3.400  0.3831  119.7   1.853   35.1  0.2716   57.9  0.2959  -70.2
 3.500  0.3885  118.0   1.807   33.4  0.2798   57.2  0.2962  -72.2
 3.600  0.3935  116.4   1.769   32.0  0.2881   56.2  0.2932  -74.2
 3.700  0.3989  114.9   1.732   30.6  0.2964   55.2  0.2906  -76.3
 3.800  0.4045  113.4   1.696   29.1  0.3048   54.4  0.2884  -78.4
 3.900  0.4104  111.9   1.661   27.6  0.3133   53.5  0.2866  -80.5
 4.000  0.4165  110.5   1.628   26.0  0.3219   52.7  0.2852  -82.7
 4.100  0.4222  109.1   1.599   24.6  0.3299   51.7  0.2808  -85.1
 4.200  0.4280  107.7   1.570   23.2  0.3381   50.7  0.2770  -87.6
 4.300  0.4342  106.4   1.543   21.7  0.3463   49.7  0.2737  -90.2
 4.400  0.4405  105.1   1.516   20.2  0.3547   48.9  0.2710  -92.8
 4.500  0.4471  103.9   1.491   18.6  0.3631   48.0  0.2688  -95.5
 4.600  0.4540  102.5   1.465   17.4  0.3711   47.0  0.2653  -98.7
 4.700  0.4611  101.2   1.439   16.1  0.3791   46.0  0.2627 -101.9
 4.800  0.4684   99.9   1.414   14.8  0.3873   45.1  0.2609 -105.2
 4.900  0.4760   98.7   1.389   13.4  0.3956   44.2  0.2600 -108.6
 5.000  0.4838   97.5   1.366   12.0  0.4040   43.3  0.2600 -111.9
 5.100  0.4876   96.3   1.347   10.8  0.4117   42.2  0.2606 -115.4
 5.200  0.4917   95.1   1.328    9.7  0.4196   41.1  0.2621 -118.9
 5.300  0.4959   94.0   1.310    8.4  0.4276   40.1  0.2646 -122.3
 5.400  0.5004   92.8   1.293    7.2  0.4357   39.1  0.2681 -125.6
 5.500  0.5050   91.7   1.276    5.9  0.4440   38.2  0.2724 -128.9
 5.600  0.5088   90.6   1.258    4.9  0.4513   37.1  0.2749 -131.8
 5.700  0.5129   89.6   1.240    3.8  0.4588   36.1  0.2781 -134.7
 5.800  0.5171   88.6   1.222    2.7  0.4664   35.1  0.2820 -137.5
 5.900  0.5214   87.6   1.205    1.6  0.4742   34.1  0.2865 -140.2
 6.000  0.5259   86.6   1.189    0.4  0.4821   33.2  0.2917 -142.8
!
!  f       NFmin   Gammaopt  rn/50
! GHz       dB    MAG  ANG    -
 0.450      1.50  0.14 -170   0.15
 0.900      1.58  0.16 -165   0.16
 1.900      2.10  0.31 -139   0.17
 2.400      2.38  0.32 -127   0.27
!
! (c) 2017  Infineon Technologies AG, Munich