! Infineon Technologies  Discrete & RF Semiconductors
! BFR182W
! VCE =  8.0 V,  IC =  25 mA
! Common Emitter S-Parameters:                            Jan 2017
# GHz  S  MA  R  50
!  f         S11            S21            S12            S22
! GHz     MAG   ANG      MAG   ANG      MAG   ANG      MAG   ANG
 0.010  0.5557   -6.1  41.847  174.5  0.0013   79.2  0.9813   -2.5
 0.020  0.5618  -12.7  41.600  170.6  0.0037   90.3  0.9799   -5.8
 0.030  0.5420  -18.5  40.517  166.7  0.0053   84.5  0.9599   -8.4
 0.040  0.5283  -24.7  39.637  162.5  0.0069   81.4  0.9420  -11.2
 0.050  0.5210  -31.2  38.973  158.2  0.0085   79.5  0.9263  -14.0
 0.060  0.5023  -36.0  37.549  155.2  0.0098   77.3  0.9008  -15.8
 0.070  0.4875  -41.2  36.233  152.1  0.0112   75.6  0.8763  -17.7
 0.080  0.4767  -46.6  35.035  148.7  0.0126   74.2  0.8528  -19.7
 0.090  0.4705  -52.2  33.970  145.0  0.0139   73.2  0.8303  -21.8
 0.100  0.4688  -57.9  33.049  141.2  0.0153   72.3  0.8091  -24.0
 0.110  0.4524  -61.5  31.803  139.1  0.0162   70.8  0.7859  -25.0
 0.120  0.4380  -65.4  30.604  136.8  0.0171   69.4  0.7630  -26.0
 0.130  0.4258  -69.6  29.457  134.3  0.0180   68.2  0.7403  -27.0
 0.140  0.4159  -74.0  28.370  131.7  0.0190   67.1  0.7179  -28.2
 0.150  0.4085  -78.5  27.348  128.8  0.0199   66.1  0.6958  -29.4
 0.200  0.3674  -94.5  22.785  120.1  0.0232   66.9  0.6110  -31.8
 0.250  0.3363 -107.7  19.364  113.4  0.0275   65.4  0.5489  -32.5
 0.300  0.3162 -118.1  16.678  108.7  0.0304   66.5  0.5026  -32.5
 0.350  0.3025 -125.7  14.843  105.5  0.0341   67.4  0.4740  -32.0
 0.400  0.2945 -133.8  13.065  101.5  0.0378   68.2  0.4455  -31.4
 0.450  0.2859 -139.8  11.852   99.2  0.0412   68.6  0.4287  -30.9
 0.500  0.2806 -146.0  10.662   96.4  0.0446   69.0  0.4119  -30.3
 0.600  0.2742 -155.2   9.019   92.3  0.0523   70.2  0.3897  -29.3
 0.700  0.2720 -163.1   7.796   88.8  0.0591   71.7  0.3749  -28.6
 0.800  0.2742 -169.3   6.876   85.6  0.0672   72.2  0.3649  -28.5
 0.900  0.2729 -174.9   6.132   82.8  0.0747   71.7  0.3561  -28.6
 1.000  0.2772  179.7   5.560   80.2  0.0818   72.4  0.3493  -28.9
 1.100  0.2790  175.3   5.079   77.8  0.0894   72.3  0.3444  -29.4
 1.200  0.2826  171.2   4.674   75.4  0.0968   71.6  0.3391  -30.0
 1.300  0.2834  167.0   4.331   73.1  0.1044   71.4  0.3352  -30.9
 1.400  0.2891  163.9   4.046   70.9  0.1126   71.1  0.3298  -32.0
 1.500  0.2947  160.8   3.788   68.9  0.1202   71.0  0.3266  -33.3
 1.600  0.2980  157.8   3.568   66.7  0.1280   70.4  0.3241  -34.5
 1.700  0.3008  154.7   3.374   64.8  0.1356   69.9  0.3200  -36.0
 1.800  0.3070  152.0   3.210   62.7  0.1438   69.3  0.3166  -37.6
 1.900  0.3113  149.4   3.056   61.0  0.1515   68.7  0.3131  -39.2
 2.000  0.3149  147.3   2.914   58.9  0.1595   68.2  0.3108  -41.2
 2.100  0.3203  144.7   2.794   57.1  0.1674   67.5  0.3083  -43.1
 2.200  0.3264  142.2   2.677   55.1  0.1754   66.9  0.3061  -45.1
 2.300  0.3317  140.2   2.577   53.3  0.1835   66.2  0.3042  -47.2
 2.400  0.3373  138.3   2.480   51.4  0.1916   65.6  0.3028  -49.4
 2.500  0.3421  136.3   2.393   49.7  0.1994   64.9  0.3017  -51.5
 2.600  0.3473  134.3   2.309   47.9  0.2072   64.2  0.3010  -53.7
 2.700  0.3524  132.3   2.238   46.3  0.2152   63.4  0.3003  -55.8
 2.800  0.3579  130.4   2.168   44.5  0.2233   62.7  0.3000  -57.9
 2.900  0.3626  128.4   2.106   42.8  0.2314   61.9  0.2992  -60.0
 3.000  0.3678  126.5   2.045   41.1  0.2395   61.1  0.2989  -62.2
 3.100  0.3718  124.7   1.993   39.7  0.2476   60.2  0.2978  -64.2
 3.200  0.3763  122.9   1.942   38.2  0.2558   59.4  0.2970  -66.2
 3.300  0.3810  121.1   1.893   36.6  0.2640   58.7  0.2966  -68.2
 3.400  0.3862  119.5   1.845   34.9  0.2723   58.0  0.2966  -70.2
 3.500  0.3916  117.8   1.799   33.2  0.2806   57.3  0.2969  -72.2
 3.600  0.3968  116.2   1.762   31.8  0.2888   56.3  0.2939  -74.2
 3.700  0.4023  114.7   1.725   30.4  0.2971   55.4  0.2913  -76.3
 3.800  0.4081  113.2   1.690   28.9  0.3055   54.5  0.2891  -78.3
 3.900  0.4141  111.7   1.656   27.4  0.3139   53.7  0.2872  -80.5
 4.000  0.4204  110.3   1.623   25.8  0.3224   52.9  0.2858  -82.6
 4.100  0.4256  108.9   1.593   24.4  0.3304   51.8  0.2815  -85.1
 4.200  0.4311  107.6   1.564   23.0  0.3386   50.8  0.2776  -87.6
 4.300  0.4368  106.3   1.536   21.5  0.3468   49.9  0.2744  -90.2
 4.400  0.4428  105.0   1.509   20.0  0.3552   49.0  0.2717  -92.8
 4.500  0.4489  103.8   1.483   18.4  0.3636   48.1  0.2696  -95.5
 4.600  0.4558  102.5   1.457   17.2  0.3716   47.1  0.2661  -98.7
 4.700  0.4630  101.2   1.432   15.9  0.3798   46.1  0.2634 -101.9
 4.800  0.4704   99.9   1.408   14.6  0.3881   45.2  0.2617 -105.2
 4.900  0.4780   98.7   1.384   13.3  0.3964   44.3  0.2607 -108.6
 5.000  0.4858   97.5   1.361   11.9  0.4049   43.4  0.2607 -111.9
 5.100  0.4899   96.3   1.341   10.7  0.4126   42.3  0.2613 -115.4
 5.200  0.4943   95.1   1.322    9.6  0.4205   41.2  0.2628 -118.9
 5.300  0.4989   93.9   1.304    8.3  0.4284   40.2  0.2653 -122.3
 5.400  0.5036   92.7   1.286    7.1  0.4366   39.2  0.2688 -125.6
 5.500  0.5086   91.6   1.269    5.8  0.4448   38.3  0.2731 -128.9
 5.600  0.5122   90.5   1.251    4.7  0.4521   37.2  0.2756 -131.8
 5.700  0.5159   89.4   1.234    3.7  0.4595   36.2  0.2788 -134.7
 5.800  0.5199   88.4   1.217    2.5  0.4671   35.2  0.2827 -137.5
 5.900  0.5240   87.3   1.200    1.4  0.4748   34.2  0.2872 -140.3
 6.000  0.5283   86.3   1.184    0.2  0.4827   33.3  0.2924 -142.9
!
!  f       NFmin   Gammaopt  rn/50
! GHz       dB    MAG  ANG    -
 0.450      1.56  0.16 -169   0.15
 0.900      1.65  0.17 -163   0.16
 1.900      2.18  0.33 -138   0.18
 2.400      2.46  0.34 -127   0.29
!
! (c) 2017  Infineon Technologies AG, Munich