! Infineon Technologies  Discrete & RF Semiconductors
! BFR182W
! VCE =  4.0 V,  IC =  35 mA
! Common Emitter S-Parameters:                            Jan 2017
# GHz  S  MA  R  50
!  f         S11            S21            S12            S22
! GHz     MAG   ANG      MAG   ANG      MAG   ANG      MAG   ANG
 0.010  0.4394  -10.6  43.007  174.0  0.0017   82.8  0.9541   -3.1
 0.020  0.4435  -21.0  42.869  168.7  0.0035   95.9  0.9429   -7.1
 0.030  0.4242  -30.2  41.188  163.9  0.0053   83.0  0.9174  -10.1
 0.040  0.4167  -40.0  39.824  158.6  0.0072   76.8  0.8947  -13.3
 0.050  0.4215  -49.8  38.813  153.1  0.0092   73.2  0.8749  -16.7
 0.060  0.4056  -56.6  36.921  150.0  0.0104   71.7  0.8439  -18.3
 0.070  0.3959  -63.8  35.152  146.5  0.0116   70.5  0.8137  -20.1
 0.080  0.3927  -71.3  33.526  142.7  0.0128   69.5  0.7843  -22.0
 0.090  0.3962  -78.8  32.064  138.5  0.0140   68.7  0.7559  -24.0
 0.100  0.4063  -86.0  30.789  133.9  0.0152   68.0  0.7284  -26.2
 0.110  0.3975  -90.6  29.373  131.9  0.0160   67.0  0.7050  -26.8
 0.120  0.3915  -95.4  27.995  129.7  0.0169   66.1  0.6818  -27.5
 0.130  0.3882 -100.3  26.663  127.3  0.0177   65.3  0.6586  -28.3
 0.140  0.3879 -105.3  25.383  124.6  0.0186   64.6  0.6356  -29.1
 0.150  0.3904 -110.2  24.164  121.7  0.0194   63.9  0.6127  -29.9
 0.200  0.3856 -126.2  19.521  113.5  0.0223   64.1  0.5379  -30.5
 0.250  0.3829 -137.7  16.272  107.5  0.0262   64.7  0.4891  -29.9
 0.300  0.3783 -146.2  13.846  103.2  0.0291   65.8  0.4547  -29.0
 0.350  0.3761 -151.9  12.258  100.4  0.0327   67.6  0.4349  -28.2
 0.400  0.3778 -157.7  10.707   96.8  0.0364   69.0  0.4151  -27.3
 0.450  0.3785 -162.1   9.680   94.7  0.0399   69.5  0.4038  -26.8
 0.500  0.3814 -166.4   8.669   92.2  0.0435   70.0  0.3925  -26.2
 0.600  0.3833 -173.0   7.305   88.3  0.0509   71.1  0.3787  -25.7
 0.700  0.3847 -178.0   6.298   85.0  0.0575   72.9  0.3693  -25.5
 0.800  0.3883  177.5   5.547   81.9  0.0664   73.4  0.3623  -25.9
 0.900  0.3913  173.4   4.943   79.1  0.0731   73.3  0.3564  -26.5
 1.000  0.3962  169.5   4.480   76.5  0.0810   73.6  0.3517  -27.2
 1.100  0.3988  166.1   4.091   74.0  0.0885   73.5  0.3480  -28.2
 1.200  0.4025  162.9   3.766   71.5  0.0966   73.4  0.3442  -29.3
 1.300  0.4054  160.0   3.488   69.2  0.1039   73.1  0.3406  -30.6
 1.400  0.4098  157.4   3.259   67.0  0.1127   73.0  0.3362  -32.1
 1.500  0.4158  154.7   3.052   64.8  0.1203   72.5  0.3333  -33.7
 1.600  0.4187  151.9   2.877   62.5  0.1288   72.0  0.3313  -35.3
 1.700  0.4225  149.6   2.722   60.5  0.1371   71.8  0.3276  -37.2
 1.800  0.4273  147.0   2.590   58.3  0.1451   71.1  0.3243  -39.1
 1.900  0.4334  144.8   2.466   56.5  0.1534   70.7  0.3216  -41.1
 2.000  0.4370  142.6   2.352   54.3  0.1617   69.9  0.3192  -43.4
 2.100  0.4418  140.3   2.255   52.4  0.1703   69.3  0.3169  -45.7
 2.200  0.4473  138.1   2.160   50.3  0.1789   68.7  0.3152  -48.0
 2.300  0.4518  136.1   2.080   48.5  0.1873   68.0  0.3135  -50.5
 2.400  0.4569  134.2   2.003   46.5  0.1958   67.3  0.3124  -53.0
 2.500  0.4611  132.3   1.933   44.8  0.2043   66.6  0.3114  -55.4
 2.600  0.4658  130.4   1.865   42.9  0.2129   65.9  0.3110  -57.8
 2.700  0.4705  128.5   1.807   41.2  0.2215   65.1  0.3108  -60.3
 2.800  0.4757  126.6   1.750   39.4  0.2301   64.3  0.3112  -62.7
 2.900  0.4800  124.7   1.699   37.7  0.2390   63.4  0.3109  -65.0
 3.000  0.4849  122.8   1.650   35.9  0.2480   62.6  0.3111  -67.4
 3.100  0.4882  120.9   1.608   34.5  0.2567   61.6  0.3098  -69.7
 3.200  0.4919  119.1   1.567   32.9  0.2655   60.8  0.3091  -72.0
 3.300  0.4962  117.3   1.528   31.3  0.2743   59.9  0.3088  -74.4
 3.400  0.5010  115.5   1.489   29.7  0.2833   59.1  0.3090  -76.7
 3.500  0.5062  113.8   1.452   27.9  0.2922   58.4  0.3098  -79.0
 3.600  0.5104  112.2   1.421   26.6  0.3012   57.3  0.3068  -81.3
 3.700  0.5150  110.6   1.391   25.2  0.3104   56.3  0.3043  -83.7
 3.800  0.5200  109.0   1.362   23.7  0.3196   55.3  0.3023  -86.1
 3.900  0.5254  107.5   1.333   22.2  0.3289   54.4  0.3009  -88.5
 4.000  0.5311  106.0   1.306   20.6  0.3383   53.5  0.3000  -91.0
 4.100  0.5349  104.5   1.282   19.3  0.3470   52.4  0.2958  -93.8
 4.200  0.5390  103.0   1.258   18.0  0.3558   51.3  0.2923  -96.7
 4.300  0.5435  101.6   1.235   16.6  0.3647   50.2  0.2895  -99.7
 4.400  0.5483  100.2   1.213   15.1  0.3738   49.2  0.2876 -102.7
 4.500  0.5535   98.8   1.192   13.6  0.3829   48.3  0.2864 -105.7
 4.600  0.5590   97.5   1.171   12.5  0.3914   47.1  0.2836 -109.2
 4.700  0.5647   96.2   1.150   11.4  0.4000   46.0  0.2818 -112.7
 4.800  0.5708   94.9   1.129   10.2  0.4088   45.0  0.2811 -116.2
 4.900  0.5771   93.6   1.109    9.0  0.4177   44.0  0.2815 -119.8
 5.000  0.5837   92.4   1.090    7.7  0.4267   43.0  0.2829 -123.3
 5.100  0.5860   91.1   1.075    6.7  0.4348   41.8  0.2845 -126.9
 5.200  0.5886   89.9   1.060    5.6  0.4431   40.6  0.2871 -130.4
 5.300  0.5915   88.6   1.045    4.5  0.4516   39.5  0.2908 -133.8
 5.400  0.5947   87.4   1.031    3.4  0.4602   38.4  0.2956 -137.2
 5.500  0.5981   86.2   1.017    2.2  0.4690   37.4  0.3013 -140.4
 5.600  0.6002   85.1   1.003    1.3  0.4764   36.2  0.3043 -143.3
 5.700  0.6026   84.0   0.989    0.4  0.4839   35.1  0.3081 -146.1
 5.800  0.6052   82.9   0.975   -0.5  0.4916   34.0  0.3126 -148.9
 5.900  0.6080   81.8   0.962   -1.4  0.4995   32.9  0.3177 -151.5
 6.000  0.6110   80.7   0.949   -2.4  0.5076   31.9  0.3236 -154.1
!
!  f       NFmin   Gammaopt  rn/50
! GHz       dB    MAG  ANG    -
!
! noise parameter not available yet for this operation point!
!
! (c) 2017  Infineon Technologies AG, Munich