! Infineon Technologies  Discrete & RF Semiconductors
! BFR182W
! VCE =  1.0 V,  IC =  22 mA
! Common Emitter S-Parameters:                            Jan 2017
# GHz  S  MA  R  50
!  f         S11            S21            S12            S22
! GHz     MAG   ANG      MAG   ANG      MAG   ANG      MAG   ANG
 0.010  0.4810  -16.4  35.305  172.3  0.0035   76.4  0.8824   -5.5
 0.020  0.4908  -32.0  34.835  165.2  0.0071   79.1  0.8621  -11.4
 0.030  0.4663  -45.1  32.761  159.5  0.0096   72.6  0.8205  -15.6
 0.040  0.4679  -58.8  31.058  153.0  0.0122   68.8  0.7837  -20.2
 0.050  0.4953  -71.7  29.792  145.9  0.0148   66.3  0.7526  -25.3
 0.060  0.4816  -79.8  27.910  142.8  0.0164   63.5  0.7133  -27.2
 0.070  0.4781  -88.2  26.123  139.2  0.0181   61.3  0.6748  -29.2
 0.080  0.4849  -96.6  24.450  135.2  0.0198   59.4  0.6374  -31.6
 0.090  0.5017 -104.6  22.918  130.5  0.0215   57.8  0.6011  -34.2
 0.100  0.5274 -111.9  21.555  125.3  0.0232   56.5  0.5662  -37.1
 0.110  0.5238 -116.2  20.398  123.5  0.0241   55.7  0.5422  -37.7
 0.120  0.5232 -120.6  19.264  121.4  0.0249   54.9  0.5183  -38.4
 0.130  0.5257 -124.9  18.158  119.1  0.0258   54.1  0.4944  -39.1
 0.140  0.5310 -129.1  17.085  116.5  0.0266   53.4  0.4707  -39.9
 0.150  0.5393 -133.3  16.052  113.6  0.0275   52.8  0.4470  -40.8
 0.200  0.5463 -146.0  12.594  106.3  0.0303   52.9  0.3772  -40.8
 0.250  0.5532 -154.6  10.347  100.8  0.0344   54.8  0.3337  -39.9
 0.300  0.5514 -160.8   8.722   97.0  0.0376   56.2  0.3039  -38.6
 0.350  0.5526 -165.2   7.685   94.4  0.0415   58.4  0.2870  -37.5
 0.400  0.5571 -169.6   6.670   90.9  0.0455   60.3  0.2703  -36.3
 0.450  0.5580 -172.8   6.017   88.9  0.0494   61.5  0.2608  -35.7
 0.500  0.5606 -175.9   5.374   86.4  0.0533   62.5  0.2514  -35.1
 0.600  0.5633  179.0   4.517   82.5  0.0616   64.4  0.2392  -34.6
 0.700  0.5670  175.0   3.888   79.1  0.0693   65.8  0.2311  -34.4
 0.800  0.5689  171.1   3.422   75.7  0.0790   67.1  0.2252  -35.2
 0.900  0.5702  167.6   3.047   72.7  0.0876   67.5  0.2197  -36.2
 1.000  0.5745  164.4   2.764   69.8  0.0958   68.0  0.2149  -37.3
 1.100  0.5791  161.4   2.528   67.1  0.1049   68.1  0.2119  -38.9
 1.200  0.5820  158.4   2.329   64.3  0.1132   67.8  0.2076  -40.5
 1.300  0.5835  155.6   2.160   61.7  0.1225   67.7  0.2049  -42.8
 1.400  0.5873  153.2   2.023   59.2  0.1322   67.4  0.2005  -45.1
 1.500  0.5925  150.7   1.896   56.8  0.1408   67.2  0.1977  -47.7
 1.600  0.5956  148.1   1.791   54.3  0.1506   66.8  0.1961  -50.4
 1.700  0.5989  145.5   1.696   52.0  0.1594   66.2  0.1925  -53.5
 1.800  0.6053  143.2   1.619   49.6  0.1689   65.7  0.1903  -56.7
 1.900  0.6077  141.0   1.542   47.6  0.1782   65.1  0.1891  -60.0
 2.000  0.6108  138.7   1.472   45.2  0.1877   64.4  0.1877  -63.6
 2.100  0.6150  136.3   1.413   43.2  0.1971   63.6  0.1869  -67.3
 2.200  0.6203  134.0   1.356   41.0  0.2065   62.9  0.1869  -71.1
 2.300  0.6233  132.0   1.307   39.1  0.2161   62.1  0.1871  -75.0
 2.400  0.6271  130.1   1.260   37.0  0.2258   61.3  0.1881  -78.8
 2.500  0.6298  128.1   1.217   35.2  0.2349   60.4  0.1896  -82.4
 2.600  0.6333  126.1   1.176   33.3  0.2440   59.5  0.1919  -86.0
 2.700  0.6365  124.1   1.141   31.6  0.2535   58.6  0.1938  -89.5
 2.800  0.6405  122.2   1.107   29.8  0.2630   57.8  0.1965  -93.0
 2.900  0.6433  120.2   1.076   28.2  0.2724   56.8  0.1985  -96.3
 3.000  0.6469  118.2   1.045   26.6  0.2818   55.8  0.2011  -99.5
 3.100  0.6481  116.3   1.020   25.3  0.2910   54.7  0.2018 -102.7
 3.200  0.6501  114.4   0.995   23.9  0.3002   53.7  0.2030 -105.8
 3.300  0.6527  112.5   0.971   22.4  0.3096   52.7  0.2049 -108.9
 3.400  0.6561  110.6   0.948   20.8  0.3190   51.8  0.2074 -111.9
 3.500  0.6602  108.7   0.925   19.2  0.3285   51.0  0.2104 -114.9
 3.600  0.6619  107.0   0.906   18.1  0.3375   49.8  0.2097 -118.2
 3.700  0.6642  105.2   0.888   16.9  0.3465   48.6  0.2097 -121.5
 3.800  0.6672  103.5   0.870   15.7  0.3558   47.5  0.2104 -124.8
 3.900  0.6707  101.8   0.852   14.4  0.3651   46.5  0.2118 -128.1
 4.000  0.6748  100.1   0.835   13.1  0.3746   45.5  0.2139 -131.3
 4.100  0.6754   98.6   0.821   12.1  0.3828   44.3  0.2136 -135.3
 4.200  0.6764   97.0   0.807   11.1  0.3912   43.1  0.2143 -139.2
 4.300  0.6780   95.5   0.793   10.1  0.3998   41.9  0.2160 -143.1
 4.400  0.6800   94.0   0.779    9.0  0.4085   40.8  0.2187 -147.0
 4.500  0.6825   92.5   0.766    7.9  0.4174   39.8  0.2223 -150.7
 4.600  0.6849   91.1   0.755    7.2  0.4250   38.6  0.2253 -154.7
 4.700  0.6876   89.8   0.743    6.4  0.4328   37.4  0.2293 -158.5
 4.800  0.6907   88.4   0.732    5.6  0.4408   36.3  0.2343 -162.2
 4.900  0.6942   87.1   0.721    4.8  0.4489   35.2  0.2403 -165.8
 5.000  0.6981   85.8   0.710    4.0  0.4572   34.2  0.2471 -169.1
 5.100  0.6973   84.5   0.703    3.4  0.4639   32.9  0.2535 -172.2
 5.200  0.6969   83.2   0.697    2.8  0.4708   31.7  0.2605 -175.1
 5.300  0.6968   81.9   0.690    2.1  0.4780   30.6  0.2682 -177.8
 5.400  0.6971   80.6   0.683    1.5  0.4853   29.4  0.2764  179.6
 5.500  0.6978   79.3   0.677    0.8  0.4928   28.3  0.2852  177.2
 5.600  0.6970   78.2   0.671    0.3  0.4986   27.1  0.2907  175.1
 5.700  0.6965   77.1   0.664   -0.2  0.5046   26.0  0.2965  173.1
 5.800  0.6962   76.0   0.658   -0.7  0.5108   24.9  0.3027  171.1
 5.900  0.6962   74.9   0.652   -1.3  0.5172   23.8  0.3093  169.3
 6.000  0.6965   73.8   0.646   -1.8  0.5238   22.8  0.3161  167.5
!
!  f       NFmin   Gammaopt  rn/50
! GHz       dB    MAG  ANG    -
 0.450      1.47  0.13 -172   0.15
 0.900      1.55  0.14 -167   0.15
 1.900      2.06  0.29 -141   0.17
 2.400      2.34  0.31 -127   0.27
!
! (c) 2017  Infineon Technologies AG, Munich