! Infineon Technologies  Discrete & RF Semiconductors
! BFR182W
! VCE =  12. V,  IC =  18 mA
! Common Emitter S-Parameters:                            Jan 2017
# GHz  S  MA  R  50
!  f         S11            S21            S12            S22
! GHz     MAG   ANG      MAG   ANG      MAG   ANG      MAG   ANG
 0.010  0.6549   -4.7  35.611  174.7  0.0018   74.5  0.9773   -2.2
 0.020  0.6612   -9.8  35.362  171.7  0.0037   81.2  0.9725   -4.9
 0.030  0.6434  -14.5  34.657  168.4  0.0055   78.0  0.9592   -7.2
 0.040  0.6300  -19.3  34.073  164.9  0.0072   76.3  0.9474   -9.5
 0.050  0.6214  -24.4  33.615  161.4  0.0090   75.3  0.9373  -11.9
 0.060  0.6045  -28.4  32.662  158.6  0.0104   74.2  0.9174  -13.6
 0.070  0.5907  -32.6  31.788  155.7  0.0118   73.4  0.8984  -15.4
 0.080  0.5802  -36.9  31.001  152.7  0.0133   72.8  0.8803  -17.2
 0.090  0.5732  -41.4  30.307  149.5  0.0147   72.2  0.8631  -19.1
 0.100  0.5698  -46.0  29.713  146.1  0.0161   71.8  0.8469  -21.1
 0.110  0.5512  -49.2  28.780  144.0  0.0172   70.4  0.8263  -22.2
 0.120  0.5344  -52.6  27.888  141.8  0.0184   69.2  0.8060  -23.3
 0.130  0.5197  -56.2  27.042  139.4  0.0195   68.2  0.7860  -24.5
 0.140  0.5070  -59.9  26.244  136.9  0.0206   67.2  0.7664  -25.8
 0.150  0.4967  -63.9  25.501  134.2  0.0218   66.4  0.7472  -27.1
 0.200  0.4414  -78.7  21.816  125.2  0.0253   64.4  0.6649  -30.3
 0.250  0.3969  -90.9  18.876  118.1  0.0300   63.6  0.6003  -32.0
 0.300  0.3610 -101.4  16.447  112.9  0.0325   63.3  0.5494  -32.6
 0.350  0.3362 -108.9  14.714  109.4  0.0362   64.1  0.5162  -32.5
 0.400  0.3180 -117.4  13.051  105.0  0.0399   64.7  0.4830  -32.4
 0.450  0.3032 -123.8  11.879  102.5  0.0433   65.6  0.4620  -32.1
 0.500  0.2925 -130.8  10.735   99.4  0.0467   66.3  0.4411  -31.7
 0.600  0.2777 -141.6   9.124   94.9  0.0536   66.7  0.4144  -30.9
 0.700  0.2676 -151.0   7.902   91.1  0.0598   68.1  0.3957  -30.3
 0.800  0.2629 -158.6   6.981   87.6  0.0674   68.9  0.3824  -30.1
 0.900  0.2592 -165.2   6.234   84.7  0.0747   69.0  0.3721  -30.1
 1.000  0.2615 -171.4   5.661   81.9  0.0814   69.6  0.3637  -30.2
 1.100  0.2624 -176.9   5.172   79.5  0.0888   69.6  0.3576  -30.7
 1.200  0.2630  178.2   4.763   76.9  0.0959   69.4  0.3513  -31.2
 1.300  0.2644  173.6   4.414   74.5  0.1037   69.5  0.3463  -31.9
 1.400  0.2687  170.0   4.125   72.3  0.1112   69.3  0.3414  -32.9
 1.500  0.2743  166.1   3.864   70.2  0.1185   68.8  0.3370  -34.0
 1.600  0.2770  162.4   3.640   68.0  0.1262   68.8  0.3343  -35.1
 1.700  0.2799  159.1   3.441   66.0  0.1338   68.5  0.3297  -36.5
 1.800  0.2845  156.3   3.275   64.0  0.1416   68.0  0.3263  -38.0
 1.900  0.2903  153.5   3.120   62.2  0.1489   67.5  0.3231  -39.5
 2.000  0.2919  150.9   2.974   60.1  0.1563   67.0  0.3207  -41.3
 2.100  0.2975  148.1   2.851   58.3  0.1641   66.4  0.3180  -43.2
 2.200  0.3038  145.4   2.732   56.3  0.1720   65.9  0.3156  -45.1
 2.300  0.3092  143.2   2.631   54.5  0.1798   65.3  0.3135  -47.1
 2.400  0.3151  141.0   2.532   52.6  0.1876   64.8  0.3117  -49.1
 2.500  0.3200  138.8   2.444   50.9  0.1954   64.1  0.3105  -51.1
 2.600  0.3253  136.6   2.358   49.1  0.2032   63.5  0.3096  -53.1
 2.700  0.3306  134.6   2.285   47.5  0.2111   62.8  0.3090  -55.2
 2.800  0.3363  132.7   2.214   45.7  0.2190   62.2  0.3088  -57.3
 2.900  0.3419  130.5   2.150   44.0  0.2269   61.4  0.3080  -59.3
 3.000  0.3481  128.3   2.089   42.2  0.2348   60.7  0.3076  -61.3
 3.100  0.3518  126.4   2.036   40.8  0.2428   59.9  0.3064  -63.2
 3.200  0.3560  124.6   1.985   39.3  0.2508   59.1  0.3055  -65.1
 3.300  0.3604  122.8   1.934   37.7  0.2589   58.4  0.3050  -67.0
 3.400  0.3652  121.0   1.886   36.0  0.2670   57.7  0.3048  -69.0
 3.500  0.3704  119.3   1.839   34.3  0.2751   57.1  0.3050  -70.9
 3.600  0.3757  117.7   1.800   32.9  0.2832   56.1  0.3021  -72.8
 3.700  0.3813  116.1   1.763   31.5  0.2914   55.2  0.2995  -74.8
 3.800  0.3871  114.6   1.727   30.0  0.2997   54.4  0.2973  -76.8
 3.900  0.3932  113.1   1.692   28.4  0.3080   53.6  0.2955  -78.8
 4.000  0.3996  111.7   1.658   26.8  0.3164   52.8  0.2940  -80.9
 4.100  0.4052  110.3   1.628   25.4  0.3244   51.8  0.2896  -83.3
 4.200  0.4111  108.9   1.599   24.0  0.3325   50.9  0.2857  -85.7
 4.300  0.4172  107.6   1.571   22.5  0.3407   50.0  0.2824  -88.2
 4.400  0.4236  106.3   1.544   21.0  0.3490   49.1  0.2796  -90.7
 4.500  0.4301  105.0   1.518   19.4  0.3573   48.3  0.2773  -93.3
 4.600  0.4373  103.6   1.491   18.2  0.3653   47.3  0.2736  -96.3
 4.700  0.4447  102.3   1.466   16.9  0.3734   46.3  0.2708  -99.5
 4.800  0.4524  101.0   1.441   15.6  0.3816   45.4  0.2688 -102.6
 4.900  0.4603   99.7   1.416   14.2  0.3898   44.5  0.2676 -105.9
 5.000  0.4684   98.5   1.393   12.8  0.3982   43.7  0.2672 -109.1
 5.100  0.4726   97.3   1.373   11.6  0.4060   42.6  0.2675 -112.5
 5.200  0.4769   96.1   1.354   10.4  0.4140   41.6  0.2688 -115.9
 5.300  0.4815   95.0   1.335    9.2  0.4221   40.6  0.2710 -119.2
 5.400  0.4863   93.8   1.317    7.9  0.4304   39.6  0.2740 -122.5
 5.500  0.4912   92.7   1.300    6.6  0.4387   38.7  0.2780 -125.7
 5.600  0.4950   91.6   1.281    5.5  0.4460   37.7  0.2802 -128.6
 5.700  0.4990   90.5   1.263    4.5  0.4535   36.6  0.2831 -131.5
 5.800  0.5032   89.5   1.246    3.3  0.4611   35.7  0.2867 -134.3
 5.900  0.5076   88.4   1.229    2.2  0.4688   34.7  0.2910 -137.0
 6.000  0.5121   87.4   1.212    1.0  0.4767   33.8  0.2959 -139.6
!
!  f       NFmin   Gammaopt  rn/50
! GHz       dB    MAG  ANG    -
 0.450      1.34  0.07  174   0.15
 0.900      1.41  0.08  179   0.15
 1.900      1.93  0.27 -144   0.15
 2.400      2.18  0.27 -129   0.24
!
! (c) 2017  Infineon Technologies AG, Munich