! Infineon Technologies  Discrete & RF Semiconductors
! BFR182W
! VCE =  3.0 V,  IC =  33 mA
! Common Emitter S-Parameters:                            Jan 2017
# GHz  S  MA  R  50
!  f         S11            S21            S12            S22
! GHz     MAG   ANG      MAG   ANG      MAG   ANG      MAG   ANG
 0.010  0.4275  -12.2  41.880  173.7  0.0022   86.9  0.9417   -3.5
 0.020  0.4322  -23.8  41.930  167.9  0.0038   86.9  0.9267   -7.6
 0.030  0.4123  -34.2  40.041  162.9  0.0056   78.8  0.8989  -10.8
 0.040  0.4070  -45.3  38.490  157.4  0.0075   74.7  0.8741  -14.1
 0.050  0.4170  -56.2  37.319  151.5  0.0094   72.2  0.8525  -17.7
 0.060  0.4029  -63.6  35.360  148.4  0.0107   69.9  0.8201  -19.3
 0.070  0.3960  -71.4  33.519  144.8  0.0120   68.2  0.7884  -21.1
 0.080  0.3966  -79.3  31.818  141.0  0.0133   66.7  0.7575  -22.9
 0.090  0.4046  -87.1  30.281  136.6  0.0147   65.6  0.7275  -25.0
 0.100  0.4197  -94.4  28.932  131.9  0.0160   64.6  0.6985  -27.2
 0.110  0.4134  -99.0  27.548  129.9  0.0168   63.7  0.6754  -27.8
 0.120  0.4100 -103.8  26.200  127.7  0.0175   62.9  0.6525  -28.4
 0.130  0.4094 -108.6  24.895  125.3  0.0183   62.1  0.6295  -29.0
 0.140  0.4117 -113.4  23.638  122.7  0.0190   61.4  0.6067  -29.7
 0.150  0.4168 -118.1  22.438  119.7  0.0198   60.8  0.5840  -30.5
 0.200  0.4165 -133.1  17.985  111.7  0.0230   63.4  0.5128  -30.7
 0.250  0.4186 -143.7  14.933  105.8  0.0267   63.1  0.4665  -29.9
 0.300  0.4184 -151.2  12.673  101.8  0.0297   64.0  0.4346  -28.9
 0.350  0.4169 -156.6  11.204   99.1  0.0333   65.7  0.4167  -28.0
 0.400  0.4190 -161.9   9.768   95.5  0.0370   67.1  0.3990  -27.1
 0.450  0.4200 -165.8   8.827   93.4  0.0405   68.4  0.3886  -26.6
 0.500  0.4229 -169.7   7.901   90.9  0.0441   69.4  0.3783  -26.1
 0.600  0.4260 -175.7   6.650   87.0  0.0517   70.2  0.3654  -25.6
 0.700  0.4291  179.4   5.731   83.7  0.0588   72.4  0.3566  -25.6
 0.800  0.4323  175.3   5.044   80.6  0.0671   73.1  0.3505  -26.0
 0.900  0.4348  171.3   4.493   77.8  0.0742   73.1  0.3455  -26.8
 1.000  0.4371  167.9   4.074   75.1  0.0821   73.2  0.3402  -27.6
 1.100  0.4435  164.7   3.722   72.6  0.0901   73.2  0.3376  -28.8
 1.200  0.4459  161.6   3.425   70.1  0.0976   72.9  0.3337  -29.9
 1.300  0.4493  158.6   3.170   67.7  0.1054   72.8  0.3306  -31.4
 1.400  0.4532  156.0   2.964   65.4  0.1143   72.7  0.3261  -33.0
 1.500  0.4588  153.5   2.777   63.2  0.1220   72.3  0.3234  -34.7
 1.600  0.4624  150.8   2.617   60.9  0.1303   72.0  0.3211  -36.5
 1.700  0.4665  148.4   2.477   58.8  0.1390   71.5  0.3176  -38.6
 1.800  0.4712  145.9   2.356   56.6  0.1474   70.9  0.3149  -40.7
 1.900  0.4762  143.8   2.245   54.7  0.1557   70.4  0.3120  -42.8
 2.000  0.4779  141.5   2.140   52.5  0.1644   69.9  0.3098  -45.2
 2.100  0.4837  139.2   2.052   50.6  0.1730   69.2  0.3075  -47.7
 2.200  0.4903  137.0   1.966   48.5  0.1817   68.6  0.3057  -50.2
 2.300  0.4947  135.0   1.893   46.6  0.1905   67.8  0.3042  -52.8
 2.400  0.4997  133.1   1.823   44.5  0.1994   67.1  0.3034  -55.4
 2.500  0.5034  131.2   1.760   42.8  0.2080   66.4  0.3028  -58.0
 2.600  0.5076  129.3   1.698   40.9  0.2167   65.7  0.3028  -60.6
 2.700  0.5120  127.4   1.645   39.2  0.2255   64.8  0.3025  -63.1
 2.800  0.5169  125.5   1.594   37.4  0.2344   64.0  0.3028  -65.7
 2.900  0.5214  123.5   1.547   35.7  0.2436   63.2  0.3027  -68.3
 3.000  0.5266  121.6   1.502   33.9  0.2528   62.4  0.3031  -70.8
 3.100  0.5295  119.7   1.464   32.5  0.2618   61.4  0.3019  -73.2
 3.200  0.5330  117.9   1.427   31.0  0.2708   60.5  0.3012  -75.7
 3.300  0.5370  116.1   1.391   29.4  0.2800   59.6  0.3010  -78.1
 3.400  0.5415  114.3   1.356   27.7  0.2892   58.8  0.3014  -80.6
 3.500  0.5465  112.6   1.322   26.0  0.2984   58.0  0.3024  -83.0
 3.600  0.5500  110.9   1.294   24.7  0.3076   56.9  0.2996  -85.5
 3.700  0.5540  109.2   1.266   23.3  0.3169   55.8  0.2973  -88.0
 3.800  0.5584  107.6   1.240   21.9  0.3262   54.8  0.2957  -90.5
 3.900  0.5633  106.0   1.214   20.4  0.3357   53.8  0.2946  -93.1
 4.000  0.5686  104.4   1.189   18.8  0.3453   52.9  0.2941  -95.7
 4.100  0.5716  102.9   1.167   17.5  0.3541   51.7  0.2900  -98.7
 4.200  0.5749  101.5   1.145   16.2  0.3630   50.6  0.2868 -101.8
 4.300  0.5786  100.0   1.124   14.9  0.3720   49.5  0.2844 -105.0
 4.400  0.5827   98.6   1.104   13.5  0.3812   48.5  0.2829 -108.2
 4.500  0.5871   97.2   1.084   12.0  0.3905   47.5  0.2823 -111.4
 4.600  0.5918   95.8   1.065   11.0  0.3991   46.3  0.2800 -115.0
 4.700  0.5969   94.5   1.046    9.9  0.4078   45.2  0.2788 -118.6
 4.800  0.6022   93.2   1.028    8.8  0.4166   44.1  0.2787 -122.3
 4.900  0.6079   91.9   1.010    7.7  0.4257   43.1  0.2798 -125.9
 5.000  0.6139   90.6   0.992    6.5  0.4348   42.1  0.2820 -129.5
 5.100  0.6158   89.3   0.978    5.6  0.4428   40.9  0.2842 -133.1
 5.200  0.6180   88.1   0.965    4.6  0.4511   39.7  0.2875 -136.6
 5.300  0.6204   86.8   0.952    3.6  0.4595   38.5  0.2918 -140.0
 5.400  0.6232   85.5   0.939    2.6  0.4681   37.4  0.2972 -143.3
 5.500  0.6263   84.3   0.927    1.5  0.4769   36.3  0.3035 -146.5
 5.600  0.6277   83.2   0.915    0.7  0.4841   35.1  0.3069 -149.4
 5.700  0.6293   82.0   0.902   -0.1  0.4915   33.9  0.3110 -152.2
 5.800  0.6311   80.9   0.890   -1.0  0.4992   32.8  0.3158 -154.9
 5.900  0.6332   79.8   0.879   -1.8  0.5070   31.7  0.3213 -157.6
 6.000  0.6355   78.7   0.867   -2.7  0.5150   30.6  0.3275 -160.1
!
!  f       NFmin   Gammaopt  rn/50
! GHz       dB    MAG  ANG    -
!
! noise parameter not available yet for this operation point!
!
! (c) 2017  Infineon Technologies AG, Munich