! Infineon Technologies  Discrete & RF Semiconductors
! BFR182W
! VCE =  4.0 V,  IC =  43 mA
! Common Emitter S-Parameters:                            Jan 2017
# GHz  S  MA  R  50
!  f         S11            S21            S12            S22
! GHz     MAG   ANG      MAG   ANG      MAG   ANG      MAG   ANG
 0.010  0.3734  -15.0  42.024  173.0  0.0019   84.7  0.9184   -3.5
 0.020  0.3812  -29.5  41.916  166.7  0.0039   82.2  0.9084   -7.9
 0.030  0.3663  -41.9  39.742  161.3  0.0057   75.1  0.8763  -11.0
 0.040  0.3697  -54.8  37.954  155.4  0.0075   71.4  0.8470  -14.3
 0.050  0.3907  -66.8  36.607  149.0  0.0094   69.2  0.8207  -17.9
 0.060  0.3807  -75.0  34.498  145.9  0.0105   67.8  0.7886  -19.3
 0.070  0.3788  -83.4  32.504  142.4  0.0116   66.6  0.7570  -20.8
 0.080  0.3850  -91.7  30.649  138.4  0.0127   65.7  0.7259  -22.4
 0.090  0.3990  -99.6  28.958  134.0  0.0138   64.9  0.6955  -24.2
 0.100  0.4199 -106.8  27.462  129.0  0.0149   64.2  0.6658  -26.1
 0.110  0.4176 -111.2  26.078  127.1  0.0157   63.5  0.6447  -26.4
 0.120  0.4179 -115.7  24.725  125.0  0.0165   62.9  0.6236  -26.8
 0.130  0.4206 -120.1  23.410  122.7  0.0173   62.3  0.6026  -27.2
 0.140  0.4259 -124.5  22.139  120.0  0.0181   61.8  0.5816  -27.6
 0.150  0.4335 -128.7  20.919  117.1  0.0189   61.3  0.5606  -28.0
 0.200  0.4420 -142.1  16.601  109.5  0.0218   62.9  0.5002  -27.4
 0.250  0.4493 -151.3  13.710  103.9  0.0251   62.8  0.4628  -26.3
 0.300  0.4498 -157.9  11.608  100.0  0.0282   65.3  0.4369  -25.2
 0.350  0.4514 -162.6  10.244   97.4  0.0317   67.1  0.4232  -24.4
 0.400  0.4560 -167.3   8.908   94.0  0.0352   68.5  0.4096  -23.6
 0.450  0.4565 -170.7   8.045   92.0  0.0389   69.5  0.4015  -23.3
 0.500  0.4586 -174.0   7.194   89.6  0.0427   70.3  0.3935  -22.9
 0.600  0.4629 -179.2   6.049   85.9  0.0494   72.2  0.3839  -22.8
 0.700  0.4670  176.3   5.216   82.7  0.0568   73.4  0.3776  -23.1
 0.800  0.4677  172.2   4.588   79.6  0.0647   73.9  0.3717  -23.9
 0.900  0.4711  168.6   4.086   76.8  0.0717   74.2  0.3673  -24.9
 1.000  0.4747  165.4   3.705   74.2  0.0793   74.9  0.3638  -26.1
 1.100  0.4789  162.3   3.383   71.7  0.0879   74.6  0.3611  -27.4
 1.200  0.4835  159.4   3.116   69.2  0.0952   74.3  0.3570  -28.8
 1.300  0.4852  156.6   2.886   66.8  0.1028   74.5  0.3542  -30.4
 1.400  0.4882  154.1   2.700   64.5  0.1112   74.3  0.3503  -32.1
 1.500  0.4954  151.7   2.529   62.3  0.1193   74.0  0.3470  -34.0
 1.600  0.4981  148.9   2.384   59.9  0.1278   73.6  0.3451  -35.9
 1.700  0.5019  146.6   2.257   57.8  0.1363   73.1  0.3412  -38.0
 1.800  0.5074  144.3   2.149   55.6  0.1450   72.6  0.3386  -40.0
 1.900  0.5121  142.0   2.047   53.7  0.1531   72.2  0.3359  -42.4
 2.000  0.5145  139.8   1.952   51.5  0.1619   71.5  0.3338  -44.9
 2.100  0.5191  137.6   1.871   49.6  0.1707   70.9  0.3312  -47.3
 2.200  0.5244  135.4   1.793   47.5  0.1795   70.3  0.3293  -49.8
 2.300  0.5285  133.4   1.728   45.6  0.1886   69.5  0.3277  -52.4
 2.400  0.5332  131.4   1.664   43.6  0.1977   68.8  0.3268  -55.1
 2.500  0.5370  129.5   1.606   41.9  0.2065   68.0  0.3261  -57.7
 2.600  0.5414  127.6   1.549   40.0  0.2154   67.3  0.3260  -60.3
 2.700  0.5454  125.7   1.502   38.3  0.2245   66.5  0.3257  -62.9
 2.800  0.5500  123.8   1.456   36.5  0.2336   65.7  0.3260  -65.6
 2.900  0.5543  121.9   1.414   34.8  0.2428   64.8  0.3256  -68.1
 3.000  0.5592  120.0   1.373   33.0  0.2521   64.0  0.3259  -70.6
 3.100  0.5612  118.1   1.338   31.6  0.2614   62.9  0.3244  -73.0
 3.200  0.5638  116.3   1.304   30.2  0.2708   62.0  0.3235  -75.5
 3.300  0.5670  114.4   1.271   28.6  0.2802   61.1  0.3233  -78.0
 3.400  0.5708  112.6   1.239   27.0  0.2897   60.2  0.3236  -80.4
 3.500  0.5751  110.8   1.208   25.3  0.2993   59.4  0.3245  -82.9
 3.600  0.5785  109.1   1.183   24.0  0.3088   58.2  0.3213  -85.4
 3.700  0.5825  107.4   1.158   22.7  0.3184   57.1  0.3188  -88.0
 3.800  0.5869  105.8   1.134   21.3  0.3281   56.1  0.3169  -90.6
 3.900  0.5918  104.2   1.111   19.9  0.3379   55.1  0.3156  -93.2
 4.000  0.5971  102.6   1.088   18.4  0.3478   54.2  0.3150  -95.8
 4.100  0.5991  101.1   1.068   17.2  0.3568   52.9  0.3106  -98.8
 4.200  0.6016   99.6   1.049   16.0  0.3660   51.7  0.3071 -101.9
 4.300  0.6044   98.1   1.029   14.8  0.3753   50.6  0.3044 -105.0
 4.400  0.6077   96.7   1.011   13.5  0.3848   49.5  0.3028 -108.2
 4.500  0.6113   95.2   0.993   12.1  0.3944   48.5  0.3020 -111.4
 4.600  0.6155   93.9   0.976   11.1  0.4031   47.3  0.2994 -115.0
 4.700  0.6200   92.5   0.959   10.2  0.4120   46.1  0.2980 -118.6
 4.800  0.6249   91.2   0.943    9.1  0.4210   45.0  0.2977 -122.2
 4.900  0.6300   90.0   0.927    8.1  0.4302   43.9  0.2987 -125.8
 5.000  0.6355   88.7   0.911    7.0  0.4395   42.9  0.3008 -129.4
 5.100  0.6364   87.4   0.900    6.1  0.4476   41.6  0.3025 -132.9
 5.200  0.6377   86.2   0.888    5.2  0.4560   40.3  0.3053 -136.4
 5.300  0.6392   84.9   0.877    4.3  0.4646   39.1  0.3092 -139.9
 5.400  0.6410   83.6   0.867    3.3  0.4733   37.9  0.3143 -143.2
 5.500  0.6432   82.4   0.856    2.3  0.4823   36.8  0.3203 -146.4
 5.600  0.6438   81.3   0.846    1.6  0.4895   35.6  0.3233 -149.3
 5.700  0.6446   80.2   0.835    0.8  0.4970   34.4  0.3270 -152.1
 5.800  0.6456   79.1   0.825    0.1  0.5046   33.2  0.3315 -154.8
 5.900  0.6469   78.0   0.815   -0.7  0.5125   32.1  0.3368 -157.4
 6.000  0.6484   76.9   0.805   -1.5  0.5205   31.0  0.3427 -160.0
!
!  f       NFmin   Gammaopt  rn/50
! GHz       dB    MAG  ANG    -
!
! noise parameter not available yet for this operation point!
!
! (c) 2017  Infineon Technologies AG, Munich