! Infineon Technologies  Discrete & RF Semiconductors
! BFR182W
! VCE =  7.0 V,  IC =  28 mA
! Common Emitter S-Parameters:                            Jan 2017
# GHz  S  MA  R  50
!  f         S11            S21            S12            S22
! GHz     MAG   ANG      MAG   ANG      MAG   ANG      MAG   ANG
 0.010  0.5223   -6.7  43.523  174.4  0.0016   83.5  0.9784   -2.7
 0.020  0.5252  -13.9  43.272  170.2  0.0031   86.6  0.9757   -6.2
 0.030  0.5058  -20.3  42.036  166.0  0.0047   81.4  0.9543   -8.9
 0.040  0.4932  -27.2  41.033  161.7  0.0064   78.8  0.9351  -11.8
 0.050  0.4880  -34.3  40.281  157.1  0.0080   77.3  0.9183  -14.7
 0.060  0.4693  -39.4  38.692  154.1  0.0093   75.0  0.8911  -16.5
 0.070  0.4545  -44.9  37.220  150.8  0.0106   73.3  0.8648  -18.3
 0.080  0.4441  -50.6  35.878  147.3  0.0119   72.0  0.8394  -20.3
 0.090  0.4385  -56.6  34.681  143.5  0.0132   70.9  0.8152  -22.5
 0.100  0.4377  -62.7  33.645  139.5  0.0145   70.0  0.7921  -24.7
 0.110  0.4225  -66.6  32.309  137.4  0.0155   69.4  0.7685  -25.6
 0.120  0.4093  -70.7  31.020  135.1  0.0164   68.9  0.7452  -26.6
 0.130  0.3985  -75.1  29.784  132.7  0.0174   68.5  0.7221  -27.7
 0.140  0.3901  -79.7  28.608  130.0  0.0183   68.1  0.6993  -28.8
 0.150  0.3843  -84.5  27.499  127.1  0.0193   67.7  0.6767  -30.0
 0.200  0.3517 -101.1  22.730  118.5  0.0227   67.0  0.5926  -31.9
 0.250  0.3275 -114.4  19.225  112.0  0.0269   65.6  0.5328  -32.3
 0.300  0.3128 -124.5  16.510  107.4  0.0300   66.5  0.4889  -32.0
 0.350  0.3015 -132.0  14.667  104.3  0.0336   68.2  0.4622  -31.4
 0.400  0.2957 -140.0  12.878  100.4  0.0373   69.6  0.4356  -30.7
 0.450  0.2899 -145.4  11.674   98.2  0.0408   69.9  0.4197  -30.1
 0.500  0.2868 -151.0  10.492   95.5  0.0443   70.2  0.4038  -29.5
 0.600  0.2837 -160.0   8.866   91.4  0.0518   70.7  0.3845  -28.5
 0.700  0.2829 -167.0   7.656   88.1  0.0588   72.7  0.3709  -27.9
 0.800  0.2843 -172.9   6.753   84.9  0.0670   72.4  0.3607  -27.9
 0.900  0.2863 -178.1   6.021   82.1  0.0741   72.4  0.3531  -28.0
 1.000  0.2889  177.0   5.456   79.6  0.0821   72.9  0.3471  -28.4
 1.100  0.2920  172.9   4.984   77.2  0.0895   72.6  0.3423  -29.0
 1.200  0.2961  168.9   4.588   74.7  0.0972   72.0  0.3373  -29.6
 1.300  0.2982  165.3   4.250   72.5  0.1048   72.1  0.3333  -30.6
 1.400  0.3031  162.2   3.970   70.3  0.1128   71.8  0.3282  -31.8
 1.500  0.3073  159.2   3.717   68.3  0.1204   71.2  0.3255  -33.0
 1.600  0.3109  156.2   3.501   66.1  0.1284   70.8  0.3228  -34.4
 1.700  0.3148  153.3   3.310   64.1  0.1363   70.4  0.3188  -35.9
 1.800  0.3207  150.8   3.148   62.1  0.1443   69.7  0.3156  -37.5
 1.900  0.3263  148.6   2.998   60.3  0.1521   69.1  0.3125  -39.2
 2.000  0.3297  145.9   2.859   58.3  0.1603   68.6  0.3098  -41.2
 2.100  0.3346  143.6   2.741   56.5  0.1683   67.9  0.3073  -43.2
 2.200  0.3401  141.3   2.626   54.5  0.1763   67.3  0.3051  -45.2
 2.300  0.3454  139.3   2.528   52.7  0.1844   66.6  0.3032  -47.4
 2.400  0.3512  137.4   2.433   50.8  0.1926   65.9  0.3017  -49.6
 2.500  0.3561  135.4   2.348   49.1  0.2006   65.1  0.3007  -51.8
 2.600  0.3615  133.5   2.265   47.3  0.2086   64.4  0.3002  -54.0
 2.700  0.3666  131.6   2.195   45.7  0.2166   63.7  0.2997  -56.2
 2.800  0.3721  129.8   2.127   43.9  0.2246   63.0  0.2996  -58.4
 2.900  0.3771  127.8   2.066   42.2  0.2328   62.2  0.2989  -60.5
 3.000  0.3825  125.8   2.006   40.5  0.2410   61.4  0.2987  -62.7
 3.100  0.3863  124.0   1.955   39.1  0.2492   60.5  0.2975  -64.7
 3.200  0.3906  122.2   1.905   37.6  0.2574   59.7  0.2967  -66.8
 3.300  0.3951  120.5   1.857   36.0  0.2657   58.9  0.2962  -68.8
 3.400  0.4000  118.8   1.810   34.3  0.2740   58.2  0.2962  -70.9
 3.500  0.4053  117.2   1.765   32.6  0.2824   57.5  0.2965  -72.9
 3.600  0.4105  115.6   1.728   31.2  0.2907   56.5  0.2935  -75.0
 3.700  0.4159  114.1   1.692   29.8  0.2990   55.5  0.2910  -77.0
 3.800  0.4217  112.6   1.657   28.3  0.3075   54.6  0.2888  -79.2
 3.900  0.4277  111.2   1.623   26.7  0.3160   53.7  0.2870  -81.3
 4.000  0.4340  109.8   1.591   25.1  0.3246   52.9  0.2856  -83.5
 4.100  0.4388  108.4   1.562   23.7  0.3327   51.8  0.2812  -86.0
 4.200  0.4439  107.1   1.533   22.3  0.3408   50.8  0.2774  -88.6
 4.300  0.4493  105.7   1.506   20.9  0.3491   49.9  0.2742  -91.2
 4.400  0.4548  104.5   1.479   19.4  0.3575   49.0  0.2715  -93.9
 4.500  0.4606  103.2   1.454   17.8  0.3659   48.1  0.2695  -96.7
 4.600  0.4677  101.8   1.429   16.6  0.3740   47.1  0.2661  -99.9
 4.700  0.4751  100.5   1.404   15.3  0.3823   46.1  0.2636 -103.2
 4.800  0.4827   99.2   1.380   14.0  0.3907   45.2  0.2619 -106.5
 4.900  0.4905   98.0   1.357   12.7  0.3991   44.3  0.2612 -109.8
 5.000  0.4986   96.8   1.334   11.3  0.4077   43.4  0.2613 -113.2
 5.100  0.5026   95.6   1.315   10.1  0.4155   42.3  0.2621 -116.7
 5.200  0.5067   94.4   1.297    9.0  0.4235   41.2  0.2639 -120.2
 5.300  0.5111   93.3   1.279    7.7  0.4316   40.2  0.2667 -123.6
 5.400  0.5157   92.1   1.262    6.5  0.4398   39.2  0.2704 -127.0
 5.500  0.5205   91.0   1.245    5.2  0.4482   38.2  0.2750 -130.2
 5.600  0.5239   89.9   1.227    4.2  0.4555   37.1  0.2775 -133.2
 5.700  0.5275   88.8   1.210    3.1  0.4629   36.1  0.2808 -136.1
 5.800  0.5313   87.7   1.193    2.0  0.4705   35.0  0.2848 -138.9
 5.900  0.5352   86.6   1.176    0.9  0.4782   34.1  0.2894 -141.6
 6.000  0.5394   85.6   1.160   -0.3  0.4861   33.1  0.2947 -144.3
!
!  f       NFmin   Gammaopt  rn/50
! GHz       dB    MAG  ANG    -
!
! noise parameter not available yet for this operation point!
!
! (c) 2017  Infineon Technologies AG, Munich