! Infineon Technologies  Discrete & RF Semiconductors
! BFR182W
! VCE =  3.0 V,  IC =  13 mA
! Common Emitter S-Parameters:                            Jan 2017
# GHz  S  MA  R  50
!  f         S11            S21            S12            S22
! GHz     MAG   ANG      MAG   ANG      MAG   ANG      MAG   ANG
 0.010  0.6639   -5.0  29.688  176.3  0.0019   88.5  0.9914   -2.3
 0.020  0.6699   -9.9  29.756  173.1  0.0033   90.9  0.9841   -4.9
 0.030  0.6527  -14.4  29.262  169.8  0.0055   83.6  0.9729   -7.1
 0.040  0.6398  -19.2  28.866  166.5  0.0077   80.5  0.9631   -9.4
 0.050  0.6315  -24.1  28.573  163.0  0.0099   78.8  0.9549  -11.7
 0.060  0.6165  -28.2  27.853  160.3  0.0117   76.8  0.9361  -13.5
 0.070  0.6048  -32.5  27.198  157.5  0.0135   75.4  0.9182  -15.3
 0.080  0.5967  -37.0  26.613  154.5  0.0153   74.3  0.9013  -17.2
 0.090  0.5922  -41.5  26.103  151.4  0.0171   73.4  0.8854  -19.2
 0.100  0.5915  -46.1  25.671  148.2  0.0189   72.7  0.8707  -21.3
 0.110  0.5746  -49.4  24.926  146.1  0.0201   71.0  0.8503  -22.5
 0.120  0.5597  -52.8  24.217  143.8  0.0213   69.4  0.8303  -23.8
 0.130  0.5470  -56.5  23.548  141.5  0.0226   68.0  0.8107  -25.1
 0.140  0.5365  -60.3  22.921  138.9  0.0238   66.8  0.7916  -26.5
 0.150  0.5285  -64.2  22.341  136.3  0.0251   65.7  0.7730  -28.0
 0.200  0.4785  -79.6  19.329  127.2  0.0297   63.4  0.6880  -32.0
 0.250  0.4391  -92.5  16.860  119.9  0.0340   61.0  0.6190  -34.4
 0.300  0.4055 -103.4  14.777  114.5  0.0370   60.1  0.5621  -35.7
 0.350  0.3821 -111.5  13.265  110.8  0.0406   61.0  0.5240  -36.0
 0.400  0.3672 -120.4  11.824  106.1  0.0443   61.7  0.4859  -36.4
 0.450  0.3526 -126.8  10.768  103.4  0.0476   61.9  0.4618  -36.3
 0.500  0.3427 -133.6   9.741  100.1  0.0509   62.1  0.4378  -36.2
 0.600  0.3290 -144.3   8.296   95.2  0.0581   63.0  0.4048  -35.6
 0.700  0.3213 -152.9   7.188   91.2  0.0644   65.1  0.3819  -35.1
 0.800  0.3181 -160.4   6.361   87.6  0.0719   66.1  0.3658  -34.9
 0.900  0.3152 -167.0   5.682   84.4  0.0788   65.8  0.3533  -34.9
 1.000  0.3156 -172.4   5.162   81.5  0.0861   66.4  0.3430  -35.1
 1.100  0.3184 -177.9   4.720   78.8  0.0936   66.9  0.3357  -35.4
 1.200  0.3203  177.7   4.348   76.2  0.1008   67.2  0.3281  -35.9
 1.300  0.3215  173.2   4.030   73.7  0.1081   66.9  0.3227  -36.7
 1.400  0.3252  169.4   3.767   71.3  0.1165   67.0  0.3160  -37.7
 1.500  0.3289  166.0   3.531   69.1  0.1235   66.9  0.3117  -38.9
 1.600  0.3337  162.4   3.328   66.7  0.1315   66.6  0.3082  -40.1
 1.700  0.3365  159.6   3.148   64.7  0.1390   66.3  0.3037  -41.6
 1.800  0.3418  156.4   2.995   62.5  0.1467   65.9  0.2995  -43.1
 1.900  0.3466  153.6   2.854   60.6  0.1548   65.6  0.2963  -44.8
 2.000  0.3500  150.9   2.721   58.4  0.1629   65.1  0.2934  -46.8
 2.100  0.3547  148.2   2.609   56.5  0.1707   64.6  0.2908  -48.8
 2.200  0.3601  145.6   2.500   54.4  0.1786   64.1  0.2885  -50.8
 2.300  0.3658  143.3   2.408   52.5  0.1867   63.5  0.2866  -53.0
 2.400  0.3721  141.1   2.319   50.5  0.1949   62.9  0.2852  -55.2
 2.500  0.3767  138.9   2.238   48.8  0.2029   62.3  0.2840  -57.4
 2.600  0.3819  136.8   2.160   46.9  0.2109   61.7  0.2833  -59.7
 2.700  0.3870  134.7   2.094   45.2  0.2190   61.0  0.2830  -61.9
 2.800  0.3925  132.7   2.029   43.4  0.2272   60.4  0.2831  -64.1
 2.900  0.3974  130.6   1.971   41.7  0.2353   59.6  0.2824  -66.2
 3.000  0.4029  128.5   1.914   39.8  0.2435   58.9  0.2820  -68.4
 3.100  0.4066  126.5   1.866   38.3  0.2516   58.1  0.2810  -70.5
 3.200  0.4108  124.6   1.819   36.8  0.2598   57.3  0.2803  -72.6
 3.300  0.4154  122.7   1.773   35.2  0.2681   56.5  0.2801  -74.7
 3.400  0.4205  120.8   1.729   33.5  0.2764   55.9  0.2802  -76.8
 3.500  0.4260  119.0   1.686   31.7  0.2847   55.2  0.2807  -78.9
 3.600  0.4309  117.3   1.651   30.3  0.2931   54.2  0.2779  -81.1
 3.700  0.4362  115.7   1.617   28.8  0.3017   53.3  0.2756  -83.2
 3.800  0.4419  114.1   1.584   27.3  0.3102   52.5  0.2736  -85.5
 3.900  0.4479  112.5   1.552   25.7  0.3189   51.7  0.2721  -87.7
 4.000  0.4542  111.0   1.522   24.1  0.3276   50.9  0.2710  -90.0
 4.100  0.4594  109.6   1.493   22.7  0.3356   49.9  0.2670  -92.7
 4.200  0.4649  108.1   1.466   21.3  0.3438   48.9  0.2636  -95.4
 4.300  0.4707  106.8   1.439   19.8  0.3520   47.9  0.2608  -98.2
 4.400  0.4767  105.4   1.414   18.2  0.3604   47.1  0.2587 -101.1
 4.500  0.4830  104.1   1.389   16.6  0.3688   46.2  0.2572 -104.0
 4.600  0.4896  102.7   1.365   15.4  0.3769   45.2  0.2546 -107.4
 4.700  0.4965  101.3   1.341   14.1  0.3850   44.2  0.2529 -110.8
 4.800  0.5038   99.9   1.319   12.8  0.3933   43.3  0.2521 -114.3
 4.900  0.5112   98.6   1.296   11.5  0.4017   42.4  0.2522 -117.8
 5.000  0.5190   97.3   1.275   10.1  0.4102   41.5  0.2533 -121.3
 5.100  0.5226   96.0   1.257    9.0  0.4179   40.4  0.2550 -124.8
 5.200  0.5264   94.8   1.239    7.8  0.4259   39.3  0.2577 -128.3
 5.300  0.5305   93.6   1.222    6.6  0.4339   38.3  0.2613 -131.7
 5.400  0.5348   92.4   1.205    5.4  0.4421   37.3  0.2658 -135.0
 5.500  0.5393   91.2   1.189    4.1  0.4504   36.3  0.2711 -138.2
 5.600  0.5427   90.1   1.172    3.1  0.4577   35.2  0.2743 -141.1
 5.700  0.5463   89.0   1.155    2.0  0.4651   34.2  0.2782 -143.9
 5.800  0.5500   88.0   1.139    1.0  0.4727   33.2  0.2828 -146.6
 5.900  0.5540   86.9   1.123   -0.2  0.4804   32.2  0.2879 -149.3
 6.000  0.5581   85.9   1.107   -1.3  0.4882   31.3  0.2937 -151.8
!
!  f       NFmin   Gammaopt  rn/50
! GHz       dB    MAG  ANG    -
 0.450      1.17  0.04  108   0.14
 0.900      1.26  0.05  122   0.14
 1.900      1.73  0.23 -151   0.14
 2.400      2.00  0.22 -136   0.21
!
! (c) 2017  Infineon Technologies AG, Munich