! Infineon Technologies  Discrete & RF Semiconductors
! BFR182W
! VCE =  4.0 V,  IC =  27 mA
! Common Emitter S-Parameters:                            Jan 2017
# GHz  S  MA  R  50
!  f         S11            S21            S12            S22
! GHz     MAG   ANG      MAG   ANG      MAG   ANG      MAG   ANG
 0.010  0.5064   -7.8  41.178  174.8  0.0019   89.3  0.9767   -2.9
 0.020  0.5121  -15.5  41.131  170.3  0.0033   90.2  0.9668   -6.4
 0.030  0.4925  -22.3  39.917  166.0  0.0051   81.2  0.9465   -9.2
 0.040  0.4804  -29.7  38.938  161.5  0.0070   77.0  0.9286  -12.2
 0.050  0.4765  -37.2  38.212  156.8  0.0089   74.6  0.9133  -15.2
 0.060  0.4584  -42.8  36.668  153.7  0.0103   72.3  0.8848  -17.0
 0.070  0.4450  -48.7  35.236  150.4  0.0117   70.5  0.8573  -18.9
 0.080  0.4366  -55.0  33.933  146.9  0.0131   69.1  0.8308  -21.0
 0.090  0.4336  -61.4  32.771  143.0  0.0145   68.0  0.8055  -23.2
 0.100  0.4360  -67.8  31.768  138.9  0.0159   67.1  0.7814  -25.5
 0.110  0.4224  -72.0  30.480  136.8  0.0168   66.6  0.7579  -26.4
 0.120  0.4111  -76.4  29.236  134.5  0.0178   66.2  0.7345  -27.4
 0.130  0.4023  -81.0  28.042  132.1  0.0187   65.8  0.7114  -28.4
 0.140  0.3963  -85.8  26.905  129.4  0.0197   65.5  0.6886  -29.5
 0.150  0.3932  -90.7  25.831  126.5  0.0206   65.2  0.6660  -30.7
 0.200  0.3686 -107.7  21.300  117.8  0.0235   65.7  0.5812  -32.6
 0.250  0.3530 -120.9  17.973  111.4  0.0279   65.3  0.5219  -33.1
 0.300  0.3399 -130.5  15.418  106.8  0.0309   65.6  0.4778  -32.8
 0.350  0.3317 -137.7  13.697  103.7  0.0345   66.6  0.4514  -32.2
 0.400  0.3290 -145.1  12.026   99.8  0.0382   67.4  0.4250  -31.5
 0.450  0.3254 -150.4  10.893   97.6  0.0417   68.4  0.4091  -30.9
 0.500  0.3245 -155.7   9.781   94.8  0.0452   69.2  0.3933  -30.3
 0.600  0.3231 -163.8   8.261   90.7  0.0530   69.8  0.3738  -29.4
 0.700  0.3245 -170.1   7.134   87.3  0.0601   71.3  0.3605  -28.9
 0.800  0.3268 -176.0   6.288   84.0  0.0680   71.8  0.3507  -28.8
 0.900  0.3273  179.4   5.603   81.2  0.0753   71.6  0.3432  -29.1
 1.000  0.3322  174.8   5.083   78.6  0.0833   71.9  0.3367  -29.4
 1.100  0.3355  171.0   4.643   76.2  0.0911   72.0  0.3325  -30.1
 1.200  0.3394  167.4   4.271   73.7  0.0984   71.4  0.3269  -30.9
 1.300  0.3412  163.8   3.957   71.3  0.1061   71.6  0.3234  -31.9
 1.400  0.3464  160.8   3.698   69.1  0.1150   71.3  0.3183  -33.2
 1.500  0.3517  158.1   3.461   67.0  0.1224   70.9  0.3150  -34.5
 1.600  0.3562  155.2   3.262   64.8  0.1306   70.4  0.3127  -35.9
 1.700  0.3570  152.6   3.085   62.8  0.1384   70.1  0.3086  -37.6
 1.800  0.3639  150.0   2.936   60.7  0.1468   69.3  0.3057  -39.4
 1.900  0.3680  147.8   2.797   58.8  0.1546   69.0  0.3027  -41.1
 2.000  0.3727  145.4   2.664   56.7  0.1631   68.2  0.3000  -43.3
 2.100  0.3782  143.0   2.555   54.8  0.1714   67.6  0.2976  -45.4
 2.200  0.3844  140.6   2.448   52.8  0.1797   67.0  0.2956  -47.6
 2.300  0.3895  138.7   2.357   51.0  0.1879   66.3  0.2939  -49.9
 2.400  0.3951  136.8   2.269   49.1  0.1962   65.6  0.2926  -52.2
 2.500  0.3993  134.8   2.190   47.4  0.2043   64.9  0.2915  -54.5
 2.600  0.4039  132.9   2.114   45.5  0.2124   64.2  0.2909  -56.9
 2.700  0.4089  131.0   2.048   43.8  0.2207   63.4  0.2906  -59.2
 2.800  0.4144  129.1   1.984   42.0  0.2291   62.6  0.2907  -61.5
 2.900  0.4198  127.2   1.927   40.3  0.2374   61.8  0.2903  -63.7
 3.000  0.4256  125.3   1.871   38.5  0.2458   61.0  0.2903  -66.0
 3.100  0.4292  123.5   1.823   37.1  0.2542   60.1  0.2892  -68.2
 3.200  0.4333  121.7   1.777   35.5  0.2626   59.2  0.2885  -70.3
 3.300  0.4378  119.9   1.732   33.9  0.2711   58.4  0.2882  -72.5
 3.400  0.4426  118.2   1.688   32.3  0.2797   57.7  0.2883  -74.7
 3.500  0.4479  116.5   1.646   30.5  0.2883   57.0  0.2889  -76.9
 3.600  0.4525  114.8   1.611   29.1  0.2968   56.0  0.2860  -79.1
 3.700  0.4576  113.2   1.578   27.7  0.3053   55.0  0.2835  -81.3
 3.800  0.4629  111.6   1.545   26.2  0.3140   54.0  0.2814  -83.6
 3.900  0.4687  110.1   1.513   24.6  0.3227   53.1  0.2798  -85.9
 4.000  0.4747  108.6   1.483   23.0  0.3315   52.3  0.2786  -88.2
 4.100  0.4794  107.2   1.455   21.6  0.3398   51.2  0.2745  -90.9
 4.200  0.4843  105.8   1.429   20.2  0.3482   50.2  0.2710  -93.7
 4.300  0.4895  104.4   1.403   18.8  0.3567   49.2  0.2681  -96.5
 4.400  0.4950  103.1   1.378   17.3  0.3653   48.3  0.2659  -99.4
 4.500  0.5008  101.8   1.354   15.7  0.3740   47.4  0.2644 -102.3
 4.600  0.5072  100.5   1.330   14.5  0.3821   46.3  0.2615 -105.7
 4.700  0.5138   99.1   1.307   13.3  0.3904   45.3  0.2596 -109.2
 4.800  0.5207   97.9   1.284   12.1  0.3988   44.3  0.2587 -112.7
 4.900  0.5278   96.6   1.262   10.7  0.4073   43.3  0.2587 -116.2
 5.000  0.5352   95.4   1.240    9.4  0.4159   42.4  0.2597 -119.7
 5.100  0.5387   94.2   1.222    8.3  0.4238   41.3  0.2611 -123.3
 5.200  0.5424   92.9   1.205    7.1  0.4318   40.2  0.2636 -126.8
 5.300  0.5464   91.7   1.188    6.0  0.4399   39.1  0.2670 -130.2
 5.400  0.5506   90.6   1.172    4.7  0.4483   38.1  0.2714 -133.6
 5.500  0.5551   89.4   1.156    3.5  0.4567   37.1  0.2766 -136.8
 5.600  0.5582   88.3   1.139    2.5  0.4639   36.0  0.2796 -139.7
 5.700  0.5614   87.2   1.123    1.5  0.4713   34.9  0.2834 -142.6
 5.800  0.5649   86.1   1.107    0.4  0.4789   33.9  0.2878 -145.4
 5.900  0.5686   85.0   1.092   -0.7  0.4866   32.9  0.2929 -148.1
 6.000  0.5725   83.9   1.077   -1.8  0.4945   31.9  0.2986 -150.7
!
!  f       NFmin   Gammaopt  rn/50
! GHz       dB    MAG  ANG    -
!
! noise parameter not available yet for this operation point!
!
! (c) 2017  Infineon Technologies AG, Munich