! Infineon Technologies  Discrete & RF Semiconductors
! BFR182W
! VCE =  8.0 V,  IC =  18 mA
! Common Emitter S-Parameters:                            Jan 2017
# GHz  S  MA  R  50
!  f         S11            S21            S12            S22
! GHz     MAG   ANG      MAG   ANG      MAG   ANG      MAG   ANG
 0.010  0.6238   -5.2  36.130  175.2  0.0013   91.0  0.9879   -2.3
 0.020  0.6328  -10.6  36.264  171.8  0.0037  100.3  0.9813   -5.2
 0.030  0.6133  -15.5  35.433  168.3  0.0053   88.7  0.9674   -7.5
 0.040  0.5985  -20.6  34.736  164.7  0.0070   82.6  0.9551   -9.9
 0.050  0.5887  -26.0  34.182  161.0  0.0087   78.9  0.9446  -12.4
 0.060  0.5719  -30.2  33.174  158.2  0.0103   76.2  0.9230  -14.2
 0.070  0.5585  -34.7  32.250  155.2  0.0118   74.3  0.9022  -16.0
 0.080  0.5485  -39.3  31.419  152.1  0.0134   72.7  0.8825  -17.9
 0.090  0.5423  -44.1  30.687  148.8  0.0150   71.6  0.8637  -19.9
 0.100  0.5400  -49.0  30.062  145.3  0.0166   70.6  0.8461  -22.0
 0.110  0.5225  -52.3  29.077  143.2  0.0176   69.6  0.8249  -23.1
 0.120  0.5069  -55.8  28.134  140.9  0.0185   68.7  0.8040  -24.3
 0.130  0.4933  -59.6  27.238  138.5  0.0195   68.0  0.7834  -25.5
 0.140  0.4819  -63.5  26.393  135.9  0.0205   67.2  0.7632  -26.7
 0.150  0.4729  -67.6  25.605  133.2  0.0215   66.6  0.7434  -28.1
 0.200  0.4205  -82.8  21.797  124.2  0.0247   66.0  0.6586  -31.2
 0.250  0.3812  -95.6  18.789  117.2  0.0299   64.1  0.5920  -32.8
 0.300  0.3506 -106.1  16.342  112.1  0.0328   64.6  0.5410  -33.3
 0.350  0.3292 -113.8  14.605  108.7  0.0363   64.9  0.5077  -33.2
 0.400  0.3144 -122.4  12.934  104.3  0.0399   65.2  0.4744  -33.1
 0.450  0.3023 -128.7  11.763  101.8  0.0431   65.8  0.4537  -32.8
 0.500  0.2941 -135.5  10.620   98.7  0.0463   66.4  0.4331  -32.4
 0.600  0.2804 -146.0   9.012   94.2  0.0536   67.8  0.4064  -31.5
 0.700  0.2744 -154.3   7.802   90.5  0.0601   69.1  0.3878  -30.9
 0.800  0.2727 -162.3   6.891   87.1  0.0679   69.3  0.3749  -30.7
 0.900  0.2702 -168.4   6.153   84.2  0.0744   69.6  0.3641  -30.7
 1.000  0.2728 -174.3   5.586   81.5  0.0823   70.0  0.3560  -30.9
 1.100  0.2744 -179.4   5.103   79.0  0.0897   70.0  0.3501  -31.2
 1.200  0.2770  175.8   4.697   76.4  0.0968   69.9  0.3439  -31.7
 1.300  0.2769  171.5   4.353   74.1  0.1046   69.9  0.3392  -32.5
 1.400  0.2813  168.0   4.068   71.9  0.1122   69.8  0.3334  -33.5
 1.500  0.2866  164.6   3.810   69.8  0.1197   69.4  0.3297  -34.6
 1.600  0.2896  161.1   3.589   67.5  0.1274   68.9  0.3268  -35.8
 1.700  0.2926  157.6   3.394   65.5  0.1351   68.8  0.3223  -37.2
 1.800  0.2986  155.0   3.230   63.5  0.1430   68.2  0.3190  -38.8
 1.900  0.3035  152.1   3.077   61.7  0.1504   67.9  0.3155  -40.3
 2.000  0.3072  149.6   2.933   59.6  0.1584   67.4  0.3129  -42.2
 2.100  0.3121  147.0   2.811   57.8  0.1663   66.7  0.3102  -44.1
 2.200  0.3177  144.4   2.693   55.8  0.1742   66.0  0.3079  -46.0
 2.300  0.3232  142.2   2.594   54.0  0.1822   65.4  0.3060  -48.1
 2.400  0.3291  140.1   2.498   52.1  0.1902   64.9  0.3045  -50.2
 2.500  0.3338  138.0   2.410   50.4  0.1980   64.2  0.3032  -52.3
 2.600  0.3390  136.0   2.324   48.5  0.2058   63.5  0.3023  -54.4
 2.700  0.3441  133.9   2.253   46.9  0.2138   62.8  0.3018  -56.5
 2.800  0.3496  131.9   2.183   45.1  0.2218   62.2  0.3018  -58.6
 2.900  0.3548  129.8   2.120   43.5  0.2298   61.4  0.3009  -60.6
 3.000  0.3604  127.8   2.058   41.7  0.2378   60.6  0.3004  -62.6
 3.100  0.3645  125.9   2.006   40.3  0.2458   59.8  0.2992  -64.6
 3.200  0.3690  124.1   1.955   38.7  0.2539   59.0  0.2984  -66.5
 3.300  0.3739  122.3   1.906   37.1  0.2620   58.2  0.2980  -68.5
 3.400  0.3791  120.6   1.858   35.5  0.2701   57.6  0.2979  -70.5
 3.500  0.3846  118.9   1.812   33.7  0.2783   56.9  0.2982  -72.5
 3.600  0.3896  117.3   1.774   32.3  0.2865   55.9  0.2953  -74.5
 3.700  0.3948  115.6   1.738   30.9  0.2948   55.0  0.2927  -76.5
 3.800  0.4004  114.1   1.702   29.4  0.3032   54.2  0.2905  -78.6
 3.900  0.4063  112.6   1.668   27.9  0.3116   53.4  0.2887  -80.7
 4.000  0.4124  111.1   1.635   26.3  0.3201   52.6  0.2873  -82.8
 4.100  0.4180  109.7   1.605   24.9  0.3281   51.6  0.2830  -85.2
 4.200  0.4237  108.4   1.576   23.5  0.3362   50.6  0.2791  -87.7
 4.300  0.4297  107.1   1.548   22.0  0.3444   49.6  0.2759  -90.2
 4.400  0.4360  105.8   1.521   20.5  0.3527   48.8  0.2731  -92.8
 4.500  0.4424  104.6   1.495   18.9  0.3611   47.9  0.2710  -95.5
 4.600  0.4493  103.2   1.469   17.7  0.3691   46.9  0.2675  -98.7
 4.700  0.4565  101.9   1.444   16.4  0.3771   45.9  0.2649 -101.9
 4.800  0.4640  100.6   1.419   15.1  0.3853   45.0  0.2631 -105.2
 4.900  0.4716   99.3   1.395   13.7  0.3935   44.1  0.2621 -108.5
 5.000  0.4795   98.1   1.372   12.3  0.4019   43.3  0.2621 -111.8
 5.100  0.4835   96.9   1.352   11.1  0.4097   42.2  0.2627 -115.3
 5.200  0.4877   95.7   1.333    9.9  0.4176   41.2  0.2643 -118.7
 5.300  0.4920   94.6   1.315    8.7  0.4257   40.2  0.2668 -122.1
 5.400  0.4966   93.4   1.297    7.4  0.4339   39.2  0.2702 -125.4
 5.500  0.5014   92.3   1.280    6.1  0.4422   38.3  0.2745 -128.6
 5.600  0.5053   91.2   1.262    5.0  0.4495   37.2  0.2770 -131.5
 5.700  0.5093   90.1   1.244    4.0  0.4570   36.2  0.2801 -134.4
 5.800  0.5136   89.0   1.227    2.8  0.4646   35.2  0.2840 -137.2
 5.900  0.5180   87.9   1.210    1.7  0.4723   34.2  0.2885 -139.9
 6.000  0.5226   86.9   1.194    0.5  0.4802   33.3  0.2936 -142.5
!
!  f       NFmin   Gammaopt  rn/50
! GHz       dB    MAG  ANG    -
 0.450      1.34  0.07  174   0.15
 0.900      1.41  0.08  179   0.15
 1.900      1.93  0.27 -144   0.15
 2.400      2.18  0.27 -129   0.24
!
! (c) 2017  Infineon Technologies AG, Munich