! Infineon Technologies  Discrete & RF Semiconductors
! BFR182W
! VCE =  8.0 V,  IC =  13 mA
! Common Emitter S-Parameters:                            Jan 2017
# GHz  S  MA  R  50
!  f         S11            S21            S12            S22
! GHz     MAG   ANG      MAG   ANG      MAG   ANG      MAG   ANG
 0.010  0.6882   -4.3  30.174  175.9  0.0016   90.7  0.9919   -2.1
 0.020  0.6939   -8.7  30.129  173.1  0.0033   94.0  0.9864   -4.5
 0.030  0.6782  -12.8  29.655  170.1  0.0052   86.4  0.9759   -6.5
 0.040  0.6662  -17.2  29.267  166.9  0.0072   83.0  0.9667   -8.6
 0.050  0.6581  -21.6  28.970  163.7  0.0092   81.0  0.9588  -10.7
 0.060  0.6436  -25.4  28.302  161.1  0.0108   78.5  0.9416  -12.3
 0.070  0.6320  -29.3  27.696  158.4  0.0125   76.7  0.9253  -14.0
 0.080  0.6234  -33.3  27.153  155.6  0.0142   75.3  0.9097  -15.8
 0.090  0.6180  -37.4  26.680  152.6  0.0158   74.2  0.8951  -17.6
 0.100  0.6159  -41.6  26.279  149.6  0.0175   73.3  0.8814  -19.5
 0.110  0.5984  -44.6  25.562  147.5  0.0188   71.8  0.8628  -20.7
 0.120  0.5826  -47.8  24.881  145.3  0.0201   70.5  0.8446  -21.9
 0.130  0.5688  -51.1  24.238  143.0  0.0214   69.3  0.8267  -23.1
 0.140  0.5570  -54.7  23.637  140.6  0.0227   68.3  0.8093  -24.4
 0.150  0.5473  -58.3  23.081  138.0  0.0240   67.4  0.7923  -25.8
 0.200  0.4911  -72.6  20.133  128.8  0.0277   65.3  0.7119  -29.7
 0.250  0.4451  -84.7  17.677  121.6  0.0321   62.9  0.6456  -32.0
 0.300  0.4055  -94.8  15.553  116.1  0.0355   62.6  0.5903  -33.2
 0.350  0.3758 -102.5  13.984  112.3  0.0387   62.3  0.5528  -33.6
 0.400  0.3540 -111.4  12.491  107.6  0.0419   62.1  0.5154  -34.0
 0.450  0.3360 -117.8  11.398  104.8  0.0452   62.6  0.4908  -33.9
 0.500  0.3227 -124.8  10.337  101.5  0.0485   63.0  0.4662  -33.8
 0.600  0.3032 -136.1   8.819   96.6  0.0556   64.3  0.4339  -33.2
 0.700  0.2920 -145.7   7.653   92.6  0.0617   65.6  0.4111  -32.7
 0.800  0.2838 -153.8   6.776   88.9  0.0685   66.6  0.3953  -32.5
 0.900  0.2793 -160.6   6.058   85.7  0.0752   66.9  0.3821  -32.5
 1.000  0.2781 -167.2   5.502   82.9  0.0823   67.5  0.3718  -32.6
 1.100  0.2792 -172.9   5.032   80.2  0.0897   67.6  0.3649  -32.9
 1.200  0.2797 -178.2   4.636   77.6  0.0960   67.5  0.3575  -33.3
 1.300  0.2806  177.1   4.297   75.1  0.1034   67.9  0.3518  -34.1
 1.400  0.2843  173.0   4.018   72.8  0.1113   67.8  0.3454  -35.0
 1.500  0.2891  169.2   3.764   70.6  0.1183   67.9  0.3405  -36.2
 1.600  0.2922  165.4   3.547   68.3  0.1257   67.4  0.3382  -37.3
 1.700  0.2936  161.7   3.356   66.3  0.1335   67.4  0.3335  -38.6
 1.800  0.3002  158.5   3.194   64.1  0.1409   66.9  0.3294  -40.0
 1.900  0.3042  155.6   3.041   62.3  0.1483   66.6  0.3261  -41.5
 2.000  0.3069  152.7   2.900   60.1  0.1559   66.2  0.3229  -43.4
 2.100  0.3120  149.9   2.781   58.2  0.1639   65.7  0.3202  -45.2
 2.200  0.3179  147.2   2.665   56.2  0.1719   65.2  0.3178  -47.0
 2.300  0.3232  144.9   2.567   54.4  0.1795   64.6  0.3159  -49.0
 2.400  0.3290  142.6   2.472   52.4  0.1872   64.1  0.3144  -51.0
 2.500  0.3338  140.3   2.385   50.7  0.1947   63.5  0.3130  -53.0
 2.600  0.3392  138.0   2.301   48.8  0.2022   63.0  0.3120  -55.0
 2.700  0.3441  135.9   2.230   47.2  0.2100   62.3  0.3116  -57.0
 2.800  0.3495  133.8   2.161   45.4  0.2179   61.7  0.3116  -59.1
 2.900  0.3548  131.7   2.099   43.7  0.2261   61.0  0.3107  -61.1
 3.000  0.3605  129.6   2.039   41.8  0.2343   60.4  0.3102  -63.1
 3.100  0.3644  127.6   1.987   40.4  0.2423   59.6  0.3091  -65.0
 3.200  0.3688  125.6   1.937   38.8  0.2503   58.9  0.3083  -67.0
 3.300  0.3736  123.7   1.887   37.2  0.2584   58.2  0.3078  -68.9
 3.400  0.3788  121.8   1.840   35.6  0.2665   57.5  0.3077  -70.9
 3.500  0.3844  120.0   1.794   33.8  0.2747   56.9  0.3080  -72.8
 3.600  0.3897  118.3   1.757   32.4  0.2829   56.0  0.3052  -74.8
 3.700  0.3953  116.7   1.721   30.9  0.2912   55.1  0.3027  -76.8
 3.800  0.4013  115.1   1.686   29.4  0.2996   54.2  0.3006  -78.8
 3.900  0.4076  113.5   1.652   27.8  0.3080   53.4  0.2988  -80.8
 4.000  0.4141  112.0   1.620   26.2  0.3165   52.7  0.2975  -82.9
 4.100  0.4195  110.6   1.590   24.8  0.3247   51.7  0.2932  -85.3
 4.200  0.4252  109.2   1.561   23.4  0.3330   50.7  0.2894  -87.8
 4.300  0.4312  107.9   1.533   21.9  0.3414   49.8  0.2861  -90.4
 4.400  0.4373  106.6   1.507   20.4  0.3499   48.9  0.2835  -93.0
 4.500  0.4437  105.3   1.481   18.8  0.3584   48.1  0.2814  -95.6
 4.600  0.4506  103.9   1.455   17.6  0.3664   47.1  0.2780  -98.7
 4.700  0.4577  102.5   1.430   16.3  0.3746   46.2  0.2753 -101.8
 4.800  0.4651  101.2   1.406   15.0  0.3828   45.3  0.2736 -105.0
 4.900  0.4727   99.9   1.382   13.6  0.3912   44.4  0.2726 -108.3
 5.000  0.4806   98.6   1.359   12.2  0.3996   43.6  0.2726 -111.5
 5.100  0.4848   97.4   1.339   11.0  0.4076   42.5  0.2732 -114.9
 5.200  0.4893   96.1   1.320    9.8  0.4157   41.5  0.2747 -118.3
 5.300  0.4940   94.9   1.302    8.6  0.4239   40.5  0.2771 -121.6
 5.400  0.4989   93.8   1.284    7.3  0.4322   39.5  0.2805 -124.9
 5.500  0.5040   92.6   1.267    6.0  0.4407   38.6  0.2848 -128.1
 5.600  0.5076   91.5   1.249    5.0  0.4482   37.5  0.2871 -131.0
 5.700  0.5115   90.3   1.231    3.9  0.4558   36.5  0.2902 -133.9
 5.800  0.5155   89.2   1.214    2.8  0.4636   35.5  0.2940 -136.7
 5.900  0.5197   88.2   1.197    1.7  0.4715   34.5  0.2984 -139.4
 6.000  0.5241   87.1   1.181    0.5  0.4795   33.6  0.3035 -142.0
!
!  f       NFmin   Gammaopt  rn/50
! GHz       dB    MAG  ANG    -
 0.450      1.17  0.04  108   0.14
 0.900      1.26  0.05  122   0.14
 1.900      1.73  0.23 -151   0.14
 2.400      2.00  0.22 -136   0.21
!
! (c) 2017  Infineon Technologies AG, Munich