! Infineon Technologies  Discrete & RF Semiconductors
! BFR182W
! VCE =  7.0 V,  IC =  22 mA
! Common Emitter S-Parameters:                            Jan 2017
# GHz  S  MA  R  50
!  f         S11            S21            S12            S22
! GHz     MAG   ANG      MAG   ANG      MAG   ANG      MAG   ANG
 0.010  0.5722   -5.8  39.648  174.9  0.0015   87.9  0.9843   -2.5
 0.020  0.5785  -11.9  39.533  171.1  0.0033   91.9  0.9771   -5.7
 0.030  0.5598  -17.5  38.567  167.3  0.0051   82.9  0.9603   -8.3
 0.040  0.5467  -23.4  37.779  163.3  0.0069   78.7  0.9455  -10.9
 0.050  0.5398  -29.6  37.180  159.2  0.0088   76.2  0.9327  -13.6
 0.060  0.5217  -34.2  35.915  156.3  0.0102   75.2  0.9086  -15.4
 0.070  0.5072  -39.2  34.751  153.1  0.0116   74.5  0.8854  -17.3
 0.080  0.4967  -44.4  33.698  149.8  0.0131   73.9  0.8632  -19.2
 0.090  0.4905  -49.7  32.767  146.2  0.0145   73.5  0.8421  -21.3
 0.100  0.4886  -55.2  31.968  142.5  0.0159   73.1  0.8222  -23.5
 0.110  0.4719  -58.7  30.805  140.4  0.0168   71.4  0.7993  -24.5
 0.120  0.4571  -62.5  29.687  138.1  0.0177   69.9  0.7767  -25.6
 0.130  0.4444  -66.5  28.620  135.7  0.0187   68.5  0.7544  -26.8
 0.140  0.4340  -70.8  27.609  133.0  0.0196   67.2  0.7324  -28.0
 0.150  0.4261  -75.2  26.661  130.2  0.0206   66.1  0.7108  -29.3
 0.200  0.3841  -91.1  22.379  121.4  0.0243   66.7  0.6251  -32.0
 0.250  0.3521 -104.4  19.105  114.6  0.0278   64.2  0.5619  -33.0
 0.300  0.3277 -115.0  16.505  109.8  0.0312   66.7  0.5126  -33.2
 0.350  0.3117 -122.6  14.707  106.5  0.0350   66.9  0.4824  -32.8
 0.400  0.3018 -130.9  12.970  102.4  0.0389   67.0  0.4522  -32.4
 0.450  0.2926 -136.9  11.772  100.0  0.0421   67.8  0.4336  -31.9
 0.500  0.2867 -143.2  10.598   97.1  0.0453   68.4  0.4151  -31.4
 0.600  0.2781 -153.2   8.975   92.9  0.0524   69.2  0.3915  -30.4
 0.700  0.2784 -160.8   7.760   89.3  0.0594   70.2  0.3753  -29.7
 0.800  0.2777 -167.6   6.850   86.0  0.0679   71.0  0.3638  -29.6
 0.900  0.2755 -173.3   6.110   83.2  0.0748   70.8  0.3551  -29.6
 1.000  0.2805 -178.8   5.543   80.5  0.0821   71.4  0.3475  -29.9
 1.100  0.2812  176.6   5.064   78.1  0.0899   71.2  0.3421  -30.3
 1.200  0.2850  172.2   4.661   75.6  0.0972   71.1  0.3365  -30.9
 1.300  0.2848  168.1   4.317   73.3  0.1047   70.8  0.3323  -31.8
 1.400  0.2909  164.9   4.033   71.1  0.1134   70.7  0.3269  -32.9
 1.500  0.2955  161.6   3.778   69.0  0.1211   70.3  0.3231  -34.0
 1.600  0.2985  158.6   3.559   66.9  0.1283   69.7  0.3205  -35.3
 1.700  0.3022  155.6   3.364   64.9  0.1361   69.5  0.3166  -36.8
 1.800  0.3085  152.9   3.199   62.8  0.1441   68.9  0.3129  -38.3
 1.900  0.3134  150.3   3.049   61.1  0.1523   68.4  0.3100  -39.9
 2.000  0.3172  147.9   2.905   59.0  0.1601   67.8  0.3073  -41.9
 2.100  0.3220  145.4   2.785   57.2  0.1681   67.2  0.3048  -43.9
 2.200  0.3274  143.0   2.668   55.2  0.1761   66.6  0.3026  -45.9
 2.300  0.3331  140.8   2.570   53.4  0.1841   65.9  0.3005  -48.0
 2.400  0.3393  138.7   2.474   51.4  0.1922   65.2  0.2989  -50.2
 2.500  0.3438  136.7   2.387   49.8  0.2001   64.5  0.2979  -52.3
 2.600  0.3487  134.7   2.303   48.0  0.2080   63.8  0.2973  -54.4
 2.700  0.3542  132.7   2.232   46.4  0.2159   63.0  0.2966  -56.5
 2.800  0.3601  130.8   2.162   44.6  0.2238   62.3  0.2964  -58.7
 2.900  0.3648  128.8   2.100   42.9  0.2318   61.5  0.2958  -60.8
 3.000  0.3700  126.8   2.040   41.1  0.2399   60.8  0.2957  -63.0
 3.100  0.3740  125.0   1.988   39.7  0.2480   59.9  0.2945  -65.0
 3.200  0.3784  123.2   1.937   38.2  0.2562   59.1  0.2936  -67.0
 3.300  0.3832  121.4   1.888   36.6  0.2644   58.4  0.2931  -69.0
 3.400  0.3883  119.8   1.840   34.9  0.2727   57.7  0.2930  -71.0
 3.500  0.3937  118.1   1.794   33.2  0.2810   57.0  0.2932  -73.0
 3.600  0.3987  116.5   1.757   31.8  0.2893   56.0  0.2902  -75.0
 3.700  0.4040  114.9   1.721   30.4  0.2976   55.0  0.2876  -77.1
 3.800  0.4096  113.4   1.685   28.9  0.3060   54.2  0.2854  -79.2
 3.900  0.4154  111.9   1.652   27.3  0.3145   53.3  0.2835  -81.3
 4.000  0.4216  110.4   1.619   25.7  0.3231   52.5  0.2821  -83.5
 4.100  0.4270  109.1   1.590   24.3  0.3310   51.5  0.2778  -86.0
 4.200  0.4326  107.7   1.561   22.9  0.3391   50.5  0.2741  -88.5
 4.300  0.4384  106.5   1.534   21.5  0.3472   49.5  0.2709  -91.1
 4.400  0.4445  105.2   1.507   20.0  0.3554   48.7  0.2682  -93.8
 4.500  0.4507  104.0   1.482   18.4  0.3637   47.8  0.2662  -96.5
 4.600  0.4577  102.6   1.456   17.2  0.3718   46.8  0.2628  -99.7
 4.700  0.4650  101.3   1.430   15.9  0.3800   45.8  0.2602 -103.0
 4.800  0.4725  100.0   1.405   14.6  0.3883   44.9  0.2585 -106.3
 4.900  0.4803   98.7   1.381   13.2  0.3967   44.0  0.2577 -109.7
 5.000  0.4883   97.5   1.358   11.8  0.4052   43.1  0.2578 -113.1
 5.100  0.4921   96.3   1.339   10.7  0.4129   42.0  0.2586 -116.6
 5.200  0.4962   95.1   1.320    9.5  0.4208   40.9  0.2603 -120.1
 5.300  0.5005   94.0   1.302    8.3  0.4288   39.9  0.2629 -123.5
 5.400  0.5049   92.8   1.285    7.1  0.4369   38.9  0.2665 -126.8
 5.500  0.5096   91.7   1.268    5.8  0.4452   38.0  0.2709 -130.0
 5.600  0.5132   90.6   1.250    4.7  0.4524   36.9  0.2735 -132.9
 5.700  0.5170   89.5   1.232    3.7  0.4597   35.9  0.2768 -135.8
 5.800  0.5209   88.4   1.215    2.5  0.4672   34.9  0.2808 -138.6
 5.900  0.5251   87.3   1.198    1.4  0.4748   33.9  0.2855 -141.4
 6.000  0.5294   86.3   1.182    0.2  0.4825   33.0  0.2908 -144.0
!
!  f       NFmin   Gammaopt  rn/50
! GHz       dB    MAG  ANG    -
 0.450      1.47  0.13 -172   0.15
 0.900      1.55  0.14 -167   0.15
 1.900      2.06  0.29 -141   0.17
 2.400      2.34  0.31 -127   0.27
!
! (c) 2017  Infineon Technologies AG, Munich