! Infineon Technologies  Discrete & RF Semiconductors
! BFR182W
! VCE =  6.0 V,  IC =  2.0 mA
! Common Emitter S-Parameters:                            Jan 2017
# GHz  S  MA  R  50
!  f         S11            S21            S12            S22
! GHz     MAG   ANG      MAG   ANG      MAG   ANG      MAG   ANG
 0.010  0.9327   -1.7   6.800  178.9  0.0020   85.8  1.0000   -0.7
 0.020  0.9452   -3.1   6.877  178.0  0.0038   92.5  1.0000   -1.5
 0.030  0.9340   -4.5   6.850  176.8  0.0063   88.6  1.0000   -2.2
 0.040  0.9233   -6.0   6.825  175.5  0.0087   86.9  0.9990   -2.8
 0.050  0.9133   -7.5   6.804  174.3  0.0112   85.9  0.9961   -3.5
 0.060  0.9136   -9.1   6.783  173.2  0.0134   84.9  0.9938   -4.2
 0.070  0.9146  -10.7   6.764  172.0  0.0156   84.1  0.9917   -4.9
 0.080  0.9163  -12.3   6.748  170.8  0.0179   83.6  0.9897   -5.6
 0.090  0.9187  -13.8   6.735  169.7  0.0201   83.1  0.9878   -6.3
 0.100  0.9218  -15.4   6.725  168.5  0.0223   82.8  0.9861   -7.0
 0.110  0.9172  -16.8   6.696  167.3  0.0243   81.2  0.9832   -7.7
 0.120  0.9131  -18.3   6.670  166.2  0.0263   79.9  0.9805   -8.3
 0.130  0.9097  -19.7   6.646  165.0  0.0283   78.8  0.9779   -9.0
 0.140  0.9068  -21.2   6.626  163.8  0.0303   77.8  0.9754   -9.7
 0.150  0.9046  -22.7   6.608  162.6  0.0323   76.9  0.9731  -10.4
 0.200  0.8866  -30.3   6.465  156.8  0.0423   73.1  0.9547  -13.5
 0.250  0.8644  -37.4   6.322  151.2  0.0513   69.0  0.9335  -16.4
 0.300  0.8349  -44.2   6.107  146.1  0.0588   65.1  0.9069  -19.1
 0.350  0.8050  -50.4   5.885  141.5  0.0658   61.7  0.8810  -21.3
 0.400  0.7851  -56.9   5.703  136.6  0.0730   59.0  0.8566  -23.7
 0.450  0.7517  -62.6   5.462  132.6  0.0785   56.3  0.8306  -25.5
 0.500  0.7265  -68.8   5.250  128.3  0.0841   53.9  0.8054  -27.4
 0.600  0.6758  -79.7   4.842  120.7  0.0922   49.9  0.7585  -30.3
 0.700  0.6298  -89.6   4.445  114.1  0.0977   46.9  0.7168  -32.6
 0.800  0.5922  -98.9   4.110  108.1  0.1027   44.9  0.6816  -34.5
 0.900  0.5572 -107.4   3.796  102.8  0.1059   42.9  0.6510  -36.0
 1.000  0.5313 -115.5   3.532   98.0  0.1090   41.7  0.6249  -37.5
 1.100  0.5107 -123.2   3.295   93.7  0.1113   41.2  0.6039  -38.6
 1.200  0.4908 -130.4   3.081   89.5  0.1127   40.8  0.5842  -39.8
 1.300  0.4726 -137.0   2.893   85.6  0.1147   40.7  0.5687  -41.0
 1.400  0.4642 -143.5   2.732   82.1  0.1163   41.1  0.5537  -42.2
 1.500  0.4586 -149.6   2.587   78.8  0.1180   41.9  0.5421  -43.4
 1.600  0.4499 -155.4   2.450   75.4  0.1196   42.6  0.5331  -44.6
 1.700  0.4455 -160.7   2.336   72.5  0.1215   43.8  0.5225  -46.0
 1.800  0.4434 -166.4   2.240   69.5  0.1243   44.8  0.5145  -47.4
 1.900  0.4432 -171.2   2.144   66.8  0.1267   46.2  0.5074  -48.8
 2.000  0.4410 -175.9   2.058   63.8  0.1300   47.2  0.5020  -50.2
 2.100  0.4411  179.5   1.979   61.3  0.1334   48.5  0.4976  -51.8
 2.200  0.4440  174.9   1.904   58.5  0.1369   49.8  0.4936  -53.5
 2.300  0.4460  171.1   1.836   56.1  0.1413   51.1  0.4903  -55.3
 2.400  0.4500  167.3   1.772   53.5  0.1458   52.4  0.4876  -57.2
 2.500  0.4536  163.7   1.712   51.3  0.1508   53.6  0.4856  -58.9
 2.600  0.4590  160.1   1.655   48.9  0.1559   54.8  0.4840  -60.7
 2.700  0.4617  156.7   1.606   46.8  0.1621   55.8  0.4834  -62.5
 2.800  0.4661  153.3   1.559   44.5  0.1684   56.7  0.4833  -64.4
 2.900  0.4696  150.1   1.516   42.4  0.1754   57.3  0.4824  -66.1
 3.000  0.4746  147.0   1.476   40.1  0.1824   57.9  0.4820  -67.9
 3.100  0.4769  144.1   1.437   38.4  0.1909   58.3  0.4811  -69.8
 3.200  0.4804  141.2   1.400   36.7  0.1994   58.7  0.4807  -71.8
 3.300  0.4851  138.3   1.364   34.9  0.2079   59.1  0.4808  -73.7
 3.400  0.4911  135.5   1.330   32.9  0.2165   59.4  0.4815  -75.7
 3.500  0.4981  132.8   1.297   30.9  0.2250   59.7  0.4828  -77.6
 3.600  0.5022  130.3   1.269   29.4  0.2351   59.3  0.4802  -79.7
 3.700  0.5072  127.8   1.242   27.8  0.2453   59.0  0.4783  -81.8
 3.800  0.5131  125.4   1.216   26.2  0.2554   58.7  0.4770  -83.9
 3.900  0.5200  123.0   1.191   24.5  0.2655   58.5  0.4764  -86.1
 4.000  0.5277  120.7   1.167   22.7  0.2757   58.2  0.4765  -88.2
 4.100  0.5315  118.5   1.144   21.3  0.2866   57.4  0.4720  -90.7
 4.200  0.5360  116.4   1.122   19.8  0.2975   56.7  0.4685  -93.3
 4.300  0.5413  114.3   1.101   18.3  0.3085   56.0  0.4659  -95.9
 4.400  0.5472  112.2   1.081   16.7  0.3195   55.4  0.4643  -98.6
 4.500  0.5539  110.2   1.061   15.1  0.3305   54.8  0.4637 -101.2
 4.600  0.5590  108.3   1.041   14.0  0.3418   53.8  0.4599 -104.2
 4.700  0.5648  106.4   1.021   12.8  0.3533   52.8  0.4573 -107.2
 4.800  0.5712  104.6   1.002   11.6  0.3648   51.9  0.4560 -110.2
 4.900  0.5781  102.8   0.983   10.3  0.3764   51.0  0.4560 -113.3
 5.000  0.5856  101.0   0.965    9.0  0.3881   50.2  0.4573 -116.3
 5.100  0.5883   99.3   0.951    8.1  0.3990   48.9  0.4570 -119.4
 5.200  0.5915   97.7   0.937    7.1  0.4101   47.7  0.4581 -122.5
 5.300  0.5951   96.1   0.923    6.1  0.4213   46.5  0.4605 -125.6
 5.400  0.5992   94.5   0.910    5.1  0.4327   45.4  0.4642 -128.6
 5.500  0.6038   92.9   0.897    4.0  0.4443   44.4  0.4692 -131.6
 5.600  0.6056   91.5   0.884    3.2  0.4543   43.1  0.4702 -134.4
 5.700  0.6077   90.1   0.871    2.5  0.4646   41.8  0.4723 -137.2
 5.800  0.6102   88.7   0.859    1.7  0.4750   40.6  0.4755 -139.9
 5.900  0.6130   87.4   0.846    0.8  0.4857   39.4  0.4798 -142.6
 6.000  0.6162   86.0   0.834    0.0  0.4966   38.3  0.4851 -145.3
!
!  f       NFmin   Gammaopt  rn/50
! GHz       dB    MAG  ANG    -
 0.450      0.85  0.50   30   0.26
 0.900      0.99  0.40   58   0.24
 1.900      1.74  0.30  142   0.14
 2.400      2.11  0.26  164   0.19
!
! (c) 2017  Infineon Technologies AG, Munich