! Infineon Technologies  Discrete & RF Semiconductors
! BFR182W
! VCE =  5.0 V,  IC =  32 mA
! Common Emitter S-Parameters:                            Jan 2017
# GHz  S  MA  R  50
!  f         S11            S21            S12            S22
! GHz     MAG   ANG      MAG   ANG      MAG   ANG      MAG   ANG
 0.010  0.4827   -8.3  43.202  174.5  0.0016   89.5  0.9716   -2.8
 0.020  0.4870  -16.6  43.226  169.8  0.0032   90.3  0.9635   -6.5
 0.030  0.4668  -23.9  41.786  165.4  0.0050   81.9  0.9413   -9.4
 0.040  0.4549  -31.7  40.613  160.7  0.0068   78.0  0.9215  -12.4
 0.050  0.4517  -39.8  39.730  155.7  0.0087   75.7  0.9044  -15.5
 0.060  0.4341  -45.7  38.026  152.6  0.0099   74.0  0.8755  -17.2
 0.070  0.4215  -52.0  36.442  149.3  0.0112   72.7  0.8475  -19.1
 0.080  0.4141  -58.6  34.994  145.6  0.0125   71.7  0.8205  -21.1
 0.090  0.4125  -65.3  33.701  141.6  0.0137   70.8  0.7945  -23.2
 0.100  0.4165  -72.0  32.581  137.4  0.0150   70.1  0.7697  -25.5
 0.110  0.4038  -76.3  31.204  135.3  0.0159   68.8  0.7458  -26.3
 0.120  0.3935  -80.7  29.872  133.1  0.0168   67.6  0.7221  -27.2
 0.130  0.3857  -85.5  28.590  130.6  0.0177   66.5  0.6986  -28.1
 0.140  0.3806  -90.3  27.366  127.9  0.0187   65.6  0.6753  -29.1
 0.150  0.3783  -95.3  26.208  125.0  0.0196   64.7  0.6522  -30.2
 0.200  0.3584 -112.2  21.467  116.5  0.0228   66.6  0.5709  -31.6
 0.250  0.3455 -125.0  18.041  110.2  0.0265   65.1  0.5149  -31.7
 0.300  0.3362 -134.6  15.437  105.8  0.0300   67.5  0.4739  -31.1
 0.350  0.3285 -141.4  13.698  102.8  0.0335   68.2  0.4499  -30.4
 0.400  0.3257 -148.5  12.007   99.0  0.0370   68.7  0.4259  -29.6
 0.450  0.3239 -153.3  10.871   96.8  0.0405   69.7  0.4118  -29.1
 0.500  0.3245 -158.2   9.755   94.1  0.0440   70.6  0.3978  -28.5
 0.600  0.3245 -166.2   8.231   90.2  0.0514   71.4  0.3802  -27.6
 0.700  0.3245 -172.2   7.105   86.8  0.0588   72.2  0.3685  -27.2
 0.800  0.3283 -177.6   6.263   83.6  0.0668   72.8  0.3594  -27.2
 0.900  0.3290  177.8   5.579   80.9  0.0743   72.8  0.3527  -27.5
 1.000  0.3345  173.4   5.059   78.3  0.0813   73.0  0.3467  -28.0
 1.100  0.3379  169.7   4.620   75.9  0.0900   72.8  0.3429  -28.7
 1.200  0.3415  166.3   4.249   73.4  0.0973   72.5  0.3382  -29.6
 1.300  0.3442  162.8   3.939   71.1  0.1047   72.4  0.3343  -30.8
 1.400  0.3481  160.0   3.679   68.9  0.1132   72.0  0.3297  -32.0
 1.500  0.3532  157.1   3.445   66.8  0.1210   71.6  0.3267  -33.4
 1.600  0.3576  154.3   3.247   64.6  0.1292   71.3  0.3244  -34.8
 1.700  0.3611  151.6   3.070   62.6  0.1369   70.9  0.3202  -36.5
 1.800  0.3656  149.3   2.921   60.5  0.1448   70.1  0.3175  -38.2
 1.900  0.3707  146.8   2.781   58.7  0.1529   69.7  0.3145  -40.1
 2.000  0.3745  144.7   2.651   56.6  0.1612   69.1  0.3122  -42.2
 2.100  0.3797  142.4   2.542   54.7  0.1695   68.4  0.3096  -44.3
 2.200  0.3854  140.2   2.435   52.7  0.1778   67.8  0.3075  -46.5
 2.300  0.3908  138.1   2.345   50.9  0.1861   67.1  0.3058  -48.8
 2.400  0.3968  136.0   2.257   48.9  0.1944   66.4  0.3045  -51.1
 2.500  0.4011  134.1   2.178   47.2  0.2024   65.6  0.3035  -53.4
 2.600  0.4058  132.3   2.101   45.4  0.2105   64.9  0.3029  -55.7
 2.700  0.4110  130.4   2.036   43.7  0.2190   64.1  0.3026  -57.9
 2.800  0.4166  128.6   1.973   41.9  0.2276   63.4  0.3027  -60.2
 2.900  0.4220  126.6   1.916   40.2  0.2358   62.6  0.3021  -62.5
 3.000  0.4278  124.7   1.861   38.5  0.2441   61.8  0.3019  -64.8
 3.100  0.4312  122.9   1.814   37.1  0.2526   60.9  0.3008  -66.9
 3.200  0.4350  121.1   1.767   35.5  0.2611   60.0  0.3000  -69.1
 3.300  0.4392  119.3   1.722   33.9  0.2697   59.2  0.2997  -71.2
 3.400  0.4438  117.6   1.679   32.3  0.2783   58.4  0.2999  -73.4
 3.500  0.4488  115.9   1.637   30.5  0.2870   57.7  0.3004  -75.5
 3.600  0.4536  114.3   1.602   29.1  0.2956   56.7  0.2974  -77.7
 3.700  0.4587  112.8   1.569   27.7  0.3042   55.7  0.2949  -79.9
 3.800  0.4642  111.2   1.536   26.2  0.3129   54.8  0.2928  -82.2
 3.900  0.4699  109.7   1.504   24.6  0.3217   53.9  0.2912  -84.5
 4.000  0.4760  108.3   1.474   23.0  0.3306   53.1  0.2900  -86.8
 4.100  0.4809  106.9   1.447   21.7  0.3389   52.0  0.2858  -89.4
 4.200  0.4860  105.5   1.420   20.3  0.3473   51.0  0.2822  -92.1
 4.300  0.4915  104.2   1.395   18.8  0.3558   50.0  0.2792  -94.9
 4.400  0.4972  102.9   1.370   17.3  0.3645   49.0  0.2769  -97.7
 4.500  0.5031  101.6   1.346   15.8  0.3732   48.1  0.2753 -100.6
 4.600  0.5092  100.2   1.322   14.6  0.3815   47.0  0.2722 -104.0
 4.700  0.5156   98.9   1.299   13.4  0.3899   46.0  0.2700 -107.4
 4.800  0.5223   97.6   1.276   12.2  0.3984   45.0  0.2689 -110.8
 4.900  0.5292   96.3   1.254   10.8  0.4071   44.1  0.2687 -114.3
 5.000  0.5364   95.1   1.233    9.5  0.4158   43.2  0.2695 -117.8
 5.100  0.5399   93.9   1.215    8.4  0.4237   42.0  0.2706 -121.4
 5.200  0.5436   92.6   1.198    7.2  0.4318   40.9  0.2728 -124.9
 5.300  0.5475   91.4   1.182    6.0  0.4401   39.8  0.2759 -128.3
 5.400  0.5517   90.3   1.166    4.8  0.4485   38.8  0.2800 -131.7
 5.500  0.5561   89.1   1.150    3.5  0.4570   37.8  0.2851 -134.9
 5.600  0.5588   88.0   1.133    2.5  0.4644   36.7  0.2880 -137.8
 5.700  0.5616   86.9   1.117    1.5  0.4719   35.6  0.2916 -140.7
 5.800  0.5646   85.9   1.101    0.5  0.4797   34.5  0.2958 -143.4
 5.900  0.5679   84.8   1.085   -0.5  0.4876   33.5  0.3008 -146.1
 6.000  0.5713   83.8   1.070   -1.6  0.4956   32.5  0.3064 -148.7
!
!  f       NFmin   Gammaopt  rn/50
! GHz       dB    MAG  ANG    -
!
! noise parameter not available yet for this operation point!
!
! (c) 2017  Infineon Technologies AG, Munich