! Infineon Technologies  Discrete & RF Semiconductors
! BFR182W
! VCE =  2.0 V,  IC =  32 mA
! Common Emitter S-Parameters:                            Jan 2017
# GHz  S  MA  R  50
!  f         S11            S21            S12            S22
! GHz     MAG   ANG      MAG   ANG      MAG   ANG      MAG   ANG
 0.010  0.3956  -16.6  39.972  172.6  0.0025   86.9  0.9021   -4.4
 0.020  0.4056  -32.3  39.533  165.8  0.0048   82.0  0.8856   -9.4
 0.030  0.3885  -45.7  37.315  160.2  0.0070   74.4  0.8491  -12.9
 0.040  0.3938  -59.5  35.498  153.9  0.0094   70.5  0.8161  -16.8
 0.050  0.4206  -72.2  34.146  147.1  0.0117   68.1  0.7870  -20.9
 0.060  0.4121  -80.5  32.056  144.0  0.0128   66.2  0.7514  -22.4
 0.070  0.4125  -89.0  30.075  140.4  0.0140   64.5  0.7163  -24.0
 0.080  0.4218  -97.3  28.226  136.4  0.0151   63.1  0.6819  -25.9
 0.090  0.4395 -105.0  26.538  131.8  0.0162   61.9  0.6482  -27.9
 0.100  0.4645 -112.1  25.041  126.6  0.0174   60.9  0.6154  -30.1
 0.110  0.4629 -116.4  23.726  124.8  0.0182   60.2  0.5936  -30.4
 0.120  0.4638 -120.7  22.439  122.7  0.0190   59.6  0.5719  -30.8
 0.130  0.4674 -125.0  21.183  120.4  0.0197   59.1  0.5502  -31.2
 0.140  0.4735 -129.2  19.967  117.8  0.0205   58.6  0.5285  -31.6
 0.150  0.4821 -133.2  18.796  114.9  0.0213   58.1  0.5069  -32.1
 0.200  0.4922 -145.9  14.803  107.5  0.0249   59.1  0.4439  -31.4
 0.250  0.4987 -154.3  12.178  102.1  0.0281   60.3  0.4060  -30.2
 0.300  0.5018 -160.6  10.287   98.3  0.0311   62.3  0.3803  -28.8
 0.350  0.5020 -165.0   9.069   95.7  0.0348   64.3  0.3663  -27.9
 0.400  0.5052 -169.3   7.875   92.3  0.0386   65.9  0.3525  -26.9
 0.450  0.5066 -172.5   7.107   90.3  0.0422   67.1  0.3444  -26.5
 0.500  0.5095 -175.6   6.349   87.9  0.0458   68.1  0.3363  -26.1
 0.600  0.5136  179.4   5.337   84.1  0.0540   69.7  0.3261  -25.9
 0.700  0.5162  175.2   4.594   80.8  0.0613   71.1  0.3196  -26.1
 0.800  0.5208  171.3   4.040   77.6  0.0693   72.3  0.3142  -26.8
 0.900  0.5210  167.9   3.599   74.7  0.0771   72.1  0.3099  -27.9
 1.000  0.5249  164.7   3.264   72.0  0.0854   72.3  0.3058  -29.0
 1.100  0.5308  161.6   2.981   69.4  0.0940   72.5  0.3032  -30.5
 1.200  0.5333  158.7   2.745   66.8  0.1019   72.2  0.2990  -32.0
 1.300  0.5350  156.0   2.544   64.3  0.1105   72.4  0.2962  -33.8
 1.400  0.5400  153.5   2.379   61.9  0.1192   72.2  0.2919  -35.7
 1.500  0.5445  151.0   2.227   59.6  0.1277   71.7  0.2890  -37.8
 1.600  0.5483  148.6   2.102   57.2  0.1363   71.5  0.2874  -39.9
 1.700  0.5533  146.1   1.990   55.0  0.1449   70.8  0.2835  -42.4
 1.800  0.5586  143.7   1.895   52.6  0.1540   70.0  0.2809  -44.8
 1.900  0.5621  141.5   1.806   50.7  0.1631   69.8  0.2783  -47.3
 2.000  0.5650  139.3   1.722   48.4  0.1721   69.0  0.2762  -50.2
 2.100  0.5693  137.1   1.651   46.4  0.1811   68.3  0.2742  -53.0
 2.200  0.5744  134.9   1.583   44.2  0.1902   67.6  0.2728  -55.9
 2.300  0.5786  132.9   1.525   42.3  0.1995   66.8  0.2716  -58.9
 2.400  0.5836  130.9   1.469   40.3  0.2089   66.1  0.2712  -62.0
 2.500  0.5861  128.9   1.418   38.6  0.2179   65.3  0.2710  -65.0
 2.600  0.5893  127.0   1.369   36.7  0.2269   64.5  0.2716  -67.9
 2.700  0.5935  125.0   1.327   35.0  0.2363   63.6  0.2721  -70.9
 2.800  0.5984  123.1   1.286   33.1  0.2458   62.8  0.2733  -73.8
 2.900  0.6015  121.1   1.249   31.4  0.2551   61.9  0.2734  -76.7
 3.000  0.6053  119.2   1.213   29.7  0.2645   61.0  0.2743  -79.6
 3.100  0.6071  117.3   1.182   28.3  0.2739   59.9  0.2734  -82.3
 3.200  0.6096  115.4   1.153   26.9  0.2834   58.9  0.2732  -85.1
 3.300  0.6128  113.5   1.124   25.4  0.2930   58.0  0.2736  -87.8
 3.400  0.6166  111.6   1.095   23.8  0.3026   57.1  0.2746  -90.5
 3.500  0.6211  109.8   1.068   22.1  0.3123   56.3  0.2762  -93.2
 3.600  0.6236  108.1   1.046   20.9  0.3217   55.1  0.2737  -96.0
 3.700  0.6267  106.4   1.024   19.6  0.3311   54.0  0.2719  -98.9
 3.800  0.6303  104.7   1.002   18.3  0.3407   52.9  0.2707 -101.8
 3.900  0.6345  103.0   0.981   16.9  0.3505   51.9  0.2703 -104.8
 4.000  0.6392  101.4   0.961   15.5  0.3603   50.9  0.2706 -107.7
 4.100  0.6409   99.9   0.943   14.4  0.3691   49.6  0.2674 -111.1
 4.200  0.6431   98.3   0.926   13.3  0.3781   48.4  0.2652 -114.6
 4.300  0.6458   96.8   0.909   12.1  0.3873   47.3  0.2640 -118.1
 4.400  0.6489   95.3   0.893   10.9  0.3966   46.2  0.2638 -121.7
 4.500  0.6524   93.8   0.877    9.6  0.4060   45.1  0.2646 -125.2
 4.600  0.6551   92.4   0.863    8.8  0.4144   43.9  0.2639 -129.1
 4.700  0.6582   91.1   0.848    7.9  0.4229   42.7  0.2644 -133.0
 4.800  0.6617   89.7   0.834    7.0  0.4316   41.5  0.2661 -136.8
 4.900  0.6655   88.4   0.821    6.1  0.4405   40.4  0.2690 -140.6
 5.000  0.6697   87.1   0.807    5.1  0.4495   39.4  0.2730 -144.3
 5.100  0.6701   85.8   0.798    4.4  0.4572   38.1  0.2767 -147.8
 5.200  0.6709   84.6   0.788    3.6  0.4652   36.9  0.2815 -151.3
 5.300  0.6720   83.3   0.779    2.8  0.4733   35.7  0.2873 -154.6
 5.400  0.6735   82.1   0.770    2.0  0.4817   34.5  0.2940 -157.8
 5.500  0.6752   80.8   0.761    1.2  0.4902   33.4  0.3015 -160.8
 5.600  0.6749   79.7   0.753    0.6  0.4968   32.2  0.3056 -163.5
 5.700  0.6748   78.6   0.744    0.0  0.5036   31.0  0.3103 -166.1
 5.800  0.6750   77.5   0.736   -0.6  0.5105   29.9  0.3157 -168.7
 5.900  0.6754   76.4   0.728   -1.3  0.5177   28.8  0.3217 -171.1
 6.000  0.6761   75.3   0.720   -1.9  0.5251   27.7  0.3282 -173.5
!
!  f       NFmin   Gammaopt  rn/50
! GHz       dB    MAG  ANG    -
!
! noise parameter not available yet for this operation point!
!
! (c) 2017  Infineon Technologies AG, Munich