! Infineon Technologies  Discrete & RF Semiconductors
! BFR182W
! VCE =  7.0 V,  IC =  10 mA
! Common Emitter S-Parameters:                            Jan 2017
# GHz  S  MA  R  50
!  f         S11            S21            S12            S22
! GHz     MAG   ANG      MAG   ANG      MAG   ANG      MAG   ANG
 0.010  0.7335   -3.8  25.539  176.6  0.0016   85.2  0.9947   -1.9
 0.020  0.7427   -7.7  25.656  174.0  0.0038   99.4  0.9876   -4.0
 0.030  0.7271  -11.3  25.304  171.3  0.0056   89.9  0.9803   -5.8
 0.040  0.7146  -15.1  25.009  168.5  0.0074   85.0  0.9740   -7.6
 0.050  0.7053  -19.0  24.774  165.7  0.0093   82.1  0.9687   -9.4
 0.060  0.6932  -22.4  24.314  163.3  0.0111   79.5  0.9551  -11.0
 0.070  0.6837  -25.8  23.898  160.8  0.0129   77.6  0.9422  -12.6
 0.080  0.6766  -29.4  23.530  158.2  0.0147   76.2  0.9300  -14.2
 0.090  0.6722  -33.0  23.211  155.5  0.0165   75.1  0.9187  -15.9
 0.100  0.6705  -36.6  22.943  152.8  0.0183   74.2  0.9081  -17.6
 0.110  0.6547  -39.4  22.424  150.8  0.0197   72.7  0.8917  -18.8
 0.120  0.6405  -42.4  21.934  148.7  0.0211   71.3  0.8757  -20.0
 0.130  0.6280  -45.4  21.475  146.5  0.0225   70.2  0.8600  -21.2
 0.140  0.6175  -48.6  21.049  144.2  0.0239   69.1  0.8448  -22.5
 0.150  0.6089  -51.9  20.658  141.8  0.0253   68.2  0.8301  -23.9
 0.200  0.5528  -65.5  18.383  132.8  0.0296   64.3  0.7552  -28.1
 0.250  0.5018  -77.3  16.376  125.4  0.0354   62.1  0.6899  -30.9
 0.300  0.4591  -87.2  14.575  119.6  0.0385   60.7  0.6334  -32.7
 0.350  0.4254  -94.9  13.184  115.6  0.0418   60.1  0.5932  -33.4
 0.400  0.4006 -103.8  11.874  110.6  0.0452   59.5  0.5532  -34.3
 0.450  0.3772 -110.3  10.878  107.6  0.0483   59.9  0.5257  -34.5
 0.500  0.3593 -117.6   9.918  104.0  0.0514   60.3  0.4982  -34.7
 0.600  0.3334 -128.7   8.501   98.7  0.0578   61.0  0.4612  -34.5
 0.700  0.3165 -138.7   7.402   94.3  0.0633   62.4  0.4341  -34.2
 0.800  0.3059 -147.3   6.572   90.5  0.0705   63.5  0.4149  -34.1
 0.900  0.2988 -154.8   5.881   87.1  0.0766   63.6  0.3998  -34.1
 1.000  0.2962 -161.7   5.350   84.0  0.0833   64.5  0.3880  -34.3
 1.100  0.2931 -167.8   4.896   81.2  0.0901   65.3  0.3792  -34.6
 1.200  0.2932 -173.5   4.512   78.4  0.0966   65.3  0.3702  -35.0
 1.300  0.2932 -178.5   4.186   75.9  0.1035   65.7  0.3643  -35.7
 1.400  0.2950  177.1   3.915   73.5  0.1104   65.8  0.3571  -36.6
 1.500  0.2994  173.1   3.670   71.2  0.1175   66.0  0.3521  -37.6
 1.600  0.3021  168.7   3.459   68.8  0.1246   65.8  0.3481  -38.6
 1.700  0.3043  165.2   3.272   66.7  0.1318   65.8  0.3429  -39.9
 1.800  0.3090  161.6   3.115   64.5  0.1391   65.4  0.3393  -41.4
 1.900  0.3140  158.6   2.970   62.6  0.1469   65.2  0.3357  -42.8
 2.000  0.3158  155.7   2.832   60.4  0.1544   65.0  0.3325  -44.6
 2.100  0.3214  152.5   2.716   58.4  0.1618   64.6  0.3296  -46.4
 2.200  0.3280  149.5   2.603   56.3  0.1693   64.3  0.3270  -48.2
 2.300  0.3330  147.0   2.507   54.4  0.1769   63.8  0.3251  -50.2
 2.400  0.3387  144.6   2.414   52.4  0.1846   63.3  0.3235  -52.2
 2.500  0.3432  142.3   2.330   50.7  0.1921   62.8  0.3223  -54.2
 2.600  0.3483  140.1   2.248   48.8  0.1997   62.4  0.3214  -56.2
 2.700  0.3530  137.8   2.178   47.1  0.2076   61.8  0.3209  -58.2
 2.800  0.3583  135.6   2.110   45.2  0.2156   61.3  0.3208  -60.2
 2.900  0.3643  133.3   2.051   43.5  0.2235   60.7  0.3199  -62.1
 3.000  0.3709  131.0   1.993   41.7  0.2314   60.2  0.3194  -64.1
 3.100  0.3745  128.9   1.942   40.2  0.2395   59.5  0.3183  -66.0
 3.200  0.3786  126.9   1.893   38.7  0.2476   58.7  0.3176  -67.9
 3.300  0.3832  125.0   1.845   37.0  0.2557   58.1  0.3172  -69.8
 3.400  0.3882  123.1   1.799   35.3  0.2639   57.5  0.3172  -71.8
 3.500  0.3936  121.2   1.754   33.5  0.2721   56.9  0.3176  -73.7
 3.600  0.3987  119.4   1.718   32.1  0.2804   56.0  0.3147  -75.7
 3.700  0.4042  117.7   1.682   30.6  0.2888   55.1  0.3123  -77.7
 3.800  0.4101  116.1   1.648   29.1  0.2973   54.3  0.3102  -79.7
 3.900  0.4163  114.5   1.615   27.5  0.3058   53.5  0.3085  -81.8
 4.000  0.4228  112.9   1.583   25.9  0.3144   52.8  0.3072  -83.9
 4.100  0.4283  111.4   1.554   24.5  0.3226   51.8  0.3030  -86.3
 4.200  0.4341  110.0   1.526   23.1  0.3309   50.9  0.2994  -88.8
 4.300  0.4401  108.6   1.498   21.6  0.3394   50.0  0.2963  -91.3
 4.400  0.4464  107.2   1.472   20.0  0.3478   49.1  0.2939  -93.9
 4.500  0.4530  105.9   1.447   18.4  0.3564   48.3  0.2920  -96.5
 4.600  0.4599  104.4   1.422   17.2  0.3647   47.3  0.2886  -99.6
 4.700  0.4670  103.0   1.397   15.9  0.3731   46.4  0.2861 -102.7
 4.800  0.4744  101.6   1.373   14.5  0.3816   45.5  0.2844 -105.9
 4.900  0.4821  100.3   1.349   13.1  0.3902   44.6  0.2837 -109.2
 5.000  0.4901   99.0   1.327   11.7  0.3989   43.8  0.2838 -112.4
 5.100  0.4941   97.7   1.308   10.5  0.4071   42.7  0.2845 -115.8
 5.200  0.4983   96.4   1.289    9.3  0.4154   41.7  0.2861 -119.1
 5.300  0.5028   95.1   1.271    8.1  0.4238   40.7  0.2888 -122.4
 5.400  0.5075   93.8   1.253    6.8  0.4324   39.7  0.2923 -125.7
 5.500  0.5125   92.6   1.236    5.5  0.4411   38.8  0.2968 -128.8
 5.600  0.5164   91.5   1.218    4.5  0.4487   37.7  0.2992 -131.7
 5.700  0.5204   90.4   1.201    3.4  0.4564   36.7  0.3023 -134.5
 5.800  0.5247   89.3   1.184    2.3  0.4643   35.6  0.3062 -137.3
 5.900  0.5291   88.2   1.168    1.2  0.4723   34.7  0.3108 -140.0
 6.000  0.5337   87.2   1.152    0.0  0.4805   33.7  0.3160 -142.6
!
!  f       NFmin   Gammaopt  rn/50
! GHz       dB    MAG  ANG    -
 0.450      1.07  0.08   50   0.15
 0.900      1.15  0.07   86   0.15
 1.900      1.65  0.19 -164   0.13
 2.400      1.90  0.18 -156   0.20
!
! (c) 2017  Infineon Technologies AG, Munich