! Infineon Technologies  Discrete & RF Semiconductors
! BFR182W
! VCE =  10. V,  IC =  20 mA
! Common Emitter S-Parameters:                            Jan 2017
# GHz  S  MA  R  50
!  f         S11            S21            S12            S22
! GHz     MAG   ANG      MAG   ANG      MAG   ANG      MAG   ANG
 0.010  0.6187   -5.0  37.717  174.7  0.0015   77.4  0.9838   -2.3
 0.020  0.6258  -10.5  37.489  171.4  0.0033   88.8  0.9748   -5.2
 0.030  0.6070  -15.5  36.668  167.9  0.0051   83.1  0.9608   -7.6
 0.040  0.5930  -20.8  35.992  164.2  0.0070   80.4  0.9486  -10.1
 0.050  0.5844  -26.3  35.470  160.4  0.0089   78.8  0.9381  -12.6
 0.060  0.5668  -30.6  34.371  157.6  0.0102   76.9  0.9164  -14.3
 0.070  0.5525  -35.1  33.360  154.6  0.0115   75.4  0.8956  -16.1
 0.080  0.5419  -39.8  32.448  151.4  0.0128   74.2  0.8757  -18.0
 0.090  0.5350  -44.7  31.641  148.0  0.0142   73.3  0.8569  -20.0
 0.100  0.5322  -49.7  30.948  144.5  0.0155   72.5  0.8391  -22.1
 0.110  0.5143  -53.0  29.906  142.4  0.0166   71.2  0.8172  -23.2
 0.120  0.4983  -56.5  28.908  140.1  0.0177   70.0  0.7956  -24.3
 0.130  0.4842  -60.3  27.958  137.7  0.0188   68.9  0.7743  -25.5
 0.140  0.4724  -64.3  27.063  135.1  0.0199   68.0  0.7533  -26.8
 0.150  0.4629  -68.4  26.227  132.3  0.0210   67.2  0.7328  -28.1
 0.200  0.4115  -83.6  22.227  123.4  0.0250   65.8  0.6489  -31.1
 0.250  0.3727  -96.4  19.111  116.4  0.0289   65.1  0.5838  -32.4
 0.300  0.3417 -106.9  16.587  111.4  0.0321   64.5  0.5339  -32.8
 0.350  0.3207 -114.5  14.811  108.0  0.0355   65.5  0.5022  -32.6
 0.400  0.3060 -122.9  13.100  103.8  0.0390   66.3  0.4705  -32.3
 0.450  0.2944 -129.3  11.908  101.3  0.0424   66.9  0.4505  -31.9
 0.500  0.2868 -136.1  10.744   98.3  0.0458   67.4  0.4305  -31.5
 0.600  0.2716 -146.6   9.112   94.0  0.0525   68.0  0.4052  -30.6
 0.700  0.2667 -155.0   7.883   90.3  0.0592   69.8  0.3880  -30.0
 0.800  0.2649 -162.4   6.963   86.9  0.0673   70.2  0.3756  -29.8
 0.900  0.2648 -169.2   6.218   84.0  0.0747   70.2  0.3661  -29.7
 1.000  0.2652 -174.7   5.640   81.3  0.0816   70.3  0.3578  -29.9
 1.100  0.2663 -179.9   5.154   78.9  0.0890   70.7  0.3530  -30.4
 1.200  0.2690  175.5   4.746   76.4  0.0970   70.4  0.3463  -30.9
 1.300  0.2692  171.3   4.396   74.0  0.1035   70.2  0.3414  -31.7
 1.400  0.2738  167.6   4.108   71.9  0.1117   70.0  0.3362  -32.7
 1.500  0.2801  164.4   3.847   69.8  0.1193   69.6  0.3323  -33.8
 1.600  0.2825  160.6   3.623   67.6  0.1266   69.6  0.3298  -35.0
 1.700  0.2856  157.5   3.426   65.6  0.1343   69.0  0.3256  -36.4
 1.800  0.2919  154.6   3.261   63.5  0.1422   68.6  0.3223  -37.9
 1.900  0.2966  152.1   3.104   61.8  0.1500   68.1  0.3190  -39.5
 2.000  0.3000  149.3   2.961   59.7  0.1578   67.5  0.3164  -41.4
 2.100  0.3050  146.7   2.839   57.9  0.1656   66.9  0.3136  -43.3
 2.200  0.3106  144.2   2.720   55.9  0.1735   66.3  0.3111  -45.2
 2.300  0.3159  142.0   2.619   54.1  0.1814   65.7  0.3092  -47.2
 2.400  0.3217  139.9   2.521   52.2  0.1893   65.1  0.3077  -49.3
 2.500  0.3270  137.8   2.432   50.5  0.1970   64.4  0.3065  -51.4
 2.600  0.3328  135.7   2.346   48.7  0.2048   63.7  0.3057  -53.5
 2.700  0.3374  133.7   2.274   47.1  0.2128   63.0  0.3052  -55.5
 2.800  0.3425  131.7   2.204   45.3  0.2209   62.3  0.3051  -57.6
 2.900  0.3477  129.7   2.140   43.7  0.2287   61.6  0.3042  -59.6
 3.000  0.3533  127.7   2.077   41.9  0.2366   60.9  0.3037  -61.7
 3.100  0.3574  125.8   2.025   40.5  0.2447   60.1  0.3025  -63.6
 3.200  0.3619  124.0   1.973   39.0  0.2528   59.3  0.3017  -65.6
 3.300  0.3668  122.2   1.924   37.4  0.2609   58.5  0.3012  -67.5
 3.400  0.3720  120.5   1.876   35.7  0.2691   57.9  0.3011  -69.5
 3.500  0.3775  118.8   1.829   34.0  0.2773   57.2  0.3013  -71.4
 3.600  0.3826  117.2   1.791   32.6  0.2855   56.2  0.2983  -73.4
 3.700  0.3879  115.7   1.754   31.2  0.2937   55.3  0.2957  -75.4
 3.800  0.3936  114.2   1.718   29.7  0.3021   54.4  0.2935  -77.4
 3.900  0.3995  112.7   1.683   28.1  0.3104   53.6  0.2916  -79.5
 4.000  0.4056  111.3   1.650   26.5  0.3189   52.8  0.2901  -81.6
 4.100  0.4113  109.9   1.620   25.1  0.3268   51.8  0.2858  -84.0
 4.200  0.4173  108.5   1.591   23.7  0.3348   50.8  0.2820  -86.5
 4.300  0.4235  107.2   1.562   22.3  0.3429   49.9  0.2787  -89.0
 4.400  0.4300  105.9   1.535   20.8  0.3511   49.0  0.2760  -91.6
 4.500  0.4366  104.6   1.509   19.2  0.3593   48.2  0.2738  -94.2
 4.600  0.4435  103.3   1.482   18.0  0.3673   47.2  0.2702  -97.3
 4.700  0.4507  102.0   1.457   16.7  0.3755   46.2  0.2674 -100.4
 4.800  0.4581  100.7   1.432   15.3  0.3837   45.3  0.2654 -103.6
 4.900  0.4658   99.5   1.407   13.9  0.3921   44.4  0.2643 -106.8
 5.000  0.4736   98.3   1.384   12.5  0.4005   43.6  0.2640 -110.1
 5.100  0.4777   97.1   1.365   11.3  0.4083   42.5  0.2644 -113.6
 5.200  0.4821   95.8   1.346   10.2  0.4162   41.5  0.2659 -117.0
 5.300  0.4866   94.6   1.328    8.9  0.4243   40.5  0.2682 -120.4
 5.400  0.4914   93.5   1.310    7.7  0.4325   39.5  0.2715 -123.8
 5.500  0.4964   92.3   1.293    6.4  0.4408   38.6  0.2757 -127.0
 5.600  0.5001   91.2   1.275    5.3  0.4481   37.5  0.2780 -129.9
 5.700  0.5040   90.2   1.257    4.3  0.4556   36.5  0.2810 -132.8
 5.800  0.5080   89.2   1.239    3.1  0.4632   35.4  0.2846 -135.6
 5.900  0.5122   88.2   1.222    2.0  0.4709   34.5  0.2889 -138.3
 6.000  0.5165   87.2   1.206    0.8  0.4788   33.5  0.2939 -140.9
!
!  f       NFmin   Gammaopt  rn/50
! GHz       dB    MAG  ANG    -
 0.450      1.41  0.11 -176   0.15
 0.900      1.49  0.11 -171   0.15
 1.900      2.00  0.28 -142   0.16
 2.400      2.26  0.29 -128   0.26
!
! (c) 2017  Infineon Technologies AG, Munich