! Infineon Technologies  Discrete & RF Semiconductors
! BFR182W
! VCE =  5.0 V,  IC =  35 mA
! Common Emitter S-Parameters:                            Jan 2017
# GHz  S  MA  R  50
!  f         S11            S21            S12            S22
! GHz     MAG   ANG      MAG   ANG      MAG   ANG      MAG   ANG
 0.010  0.4593   -9.1  43.819  174.2  0.0015   86.8  0.9646   -2.9
 0.020  0.4635  -18.2  43.711  169.3  0.0034   94.6  0.9513   -6.7
 0.030  0.4433  -26.4  42.155  164.7  0.0049   84.0  0.9290   -9.6
 0.040  0.4329  -35.1  40.894  159.7  0.0065   78.5  0.9092  -12.7
 0.050  0.4330  -44.1  39.956  154.5  0.0081   75.2  0.8922  -15.9
 0.060  0.4158  -50.3  38.124  151.4  0.0094   72.9  0.8624  -17.6
 0.070  0.4038  -56.9  36.415  148.0  0.0108   71.2  0.8334  -19.4
 0.080  0.3975  -63.9  34.848  144.3  0.0122   69.9  0.8053  -21.4
 0.090  0.3972  -70.9  33.441  140.2  0.0135   68.9  0.7783  -23.5
 0.100  0.4029  -77.9  32.217  135.8  0.0149   68.0  0.7523  -25.7
 0.110  0.3922  -82.4  30.809  133.8  0.0158   67.1  0.7287  -26.4
 0.120  0.3839  -87.1  29.443  131.5  0.0166   66.3  0.7052  -27.2
 0.130  0.3784  -91.9  28.125  129.1  0.0175   65.6  0.6819  -28.0
 0.140  0.3756  -96.9  26.864  126.4  0.0183   64.9  0.6587  -28.9
 0.150  0.3757 -101.9  25.667  123.5  0.0192   64.3  0.6357  -29.8
 0.200  0.3625 -118.5  20.864  115.1  0.0228   64.8  0.5574  -30.8
 0.250  0.3557 -130.8  17.487  109.0  0.0258   65.9  0.5051  -30.6
 0.300  0.3471 -140.1  14.913  104.6  0.0290   66.3  0.4677  -29.8
 0.350  0.3437 -146.3  13.219  101.7  0.0327   68.3  0.4458  -29.0
 0.400  0.3445 -152.6  11.568   98.0  0.0365   69.8  0.4239  -28.2
 0.450  0.3424 -157.3  10.468   95.9  0.0398   70.5  0.4113  -27.7
 0.500  0.3426 -162.1   9.386   93.3  0.0432   71.0  0.3988  -27.1
 0.600  0.3430 -169.5   7.913   89.4  0.0510   71.5  0.3830  -26.3
 0.700  0.3445 -174.9   6.826   86.1  0.0582   72.9  0.3726  -26.0
 0.800  0.3470  179.8   6.013   82.9  0.0662   73.9  0.3649  -26.2
 0.900  0.3491  175.7   5.356   80.2  0.0734   73.5  0.3586  -26.6
 1.000  0.3554  171.5   4.859   77.6  0.0814   73.7  0.3534  -27.2
 1.100  0.3586  167.8   4.435   75.2  0.0888   73.3  0.3491  -28.1
 1.200  0.3617  164.5   4.084   72.8  0.0964   73.2  0.3454  -29.0
 1.300  0.3644  161.3   3.783   70.4  0.1040   73.0  0.3417  -30.2
 1.400  0.3695  158.7   3.534   68.3  0.1123   72.7  0.3371  -31.6
 1.500  0.3751  155.9   3.309   66.1  0.1202   72.3  0.3343  -33.1
 1.600  0.3778  153.2   3.120   63.9  0.1281   71.9  0.3319  -34.6
 1.700  0.3815  150.7   2.950   61.9  0.1362   71.5  0.3280  -36.4
 1.800  0.3872  148.1   2.806   59.8  0.1443   70.8  0.3252  -38.2
 1.900  0.3927  145.9   2.674   58.0  0.1523   70.3  0.3221  -40.1
 2.000  0.3963  143.8   2.548   55.9  0.1606   69.7  0.3198  -42.2
 2.100  0.4009  141.4   2.443   54.0  0.1689   69.1  0.3174  -44.4
 2.200  0.4061  139.1   2.340   52.0  0.1773   68.5  0.3155  -46.6
 2.300  0.4115  137.2   2.254   50.2  0.1858   67.8  0.3137  -48.9
 2.400  0.4173  135.3   2.170   48.2  0.1944   67.1  0.3125  -51.3
 2.500  0.4219  133.4   2.094   46.5  0.2025   66.3  0.3114  -53.6
 2.600  0.4270  131.5   2.021   44.6  0.2107   65.6  0.3108  -56.0
 2.700  0.4312  129.6   1.958   43.0  0.2191   64.8  0.3105  -58.3
 2.800  0.4358  127.8   1.896   41.2  0.2276   64.1  0.3107  -60.6
 2.900  0.4411  125.9   1.841   39.5  0.2360   63.2  0.3102  -62.9
 3.000  0.4468  124.0   1.788   37.6  0.2445   62.4  0.3102  -65.2
 3.100  0.4503  122.2   1.743   36.2  0.2531   61.5  0.3089  -67.4
 3.200  0.4543  120.3   1.698   34.7  0.2617   60.6  0.3081  -69.5
 3.300  0.4587  118.6   1.655   33.1  0.2704   59.8  0.3078  -71.7
 3.400  0.4635  116.8   1.613   31.4  0.2792   59.0  0.3079  -73.9
 3.500  0.4688  115.1   1.573   29.7  0.2880   58.3  0.3084  -76.1
 3.600  0.4732  113.5   1.540   28.3  0.2967   57.2  0.3054  -78.3
 3.700  0.4780  111.9   1.508   26.9  0.3055   56.3  0.3029  -80.6
 3.800  0.4831  110.4   1.476   25.4  0.3144   55.3  0.3009  -82.9
 3.900  0.4886  108.9   1.446   23.9  0.3234   54.4  0.2994  -85.2
 4.000  0.4944  107.4   1.417   22.3  0.3324   53.6  0.2984  -87.6
 4.100  0.4990  106.0   1.391   21.0  0.3409   52.5  0.2942  -90.3
 4.200  0.5039  104.6   1.365   19.6  0.3494   51.4  0.2906  -93.0
 4.300  0.5091  103.2   1.340   18.1  0.3582   50.3  0.2877  -95.8
 4.400  0.5146  101.9   1.316   16.6  0.3670   49.3  0.2855  -98.7
 4.500  0.5203  100.6   1.293   15.1  0.3759   48.4  0.2840 -101.6
 4.600  0.5262   99.2   1.270   13.9  0.3844   47.3  0.2808 -105.0
 4.700  0.5323   97.9   1.248   12.8  0.3929   46.3  0.2786 -108.4
 4.800  0.5388   96.6   1.226   11.5  0.4016   45.3  0.2774 -111.8
 4.900  0.5455   95.3   1.205   10.2  0.4105   44.3  0.2772 -115.3
 5.000  0.5525   94.1   1.184    8.9  0.4194   43.4  0.2781 -118.8
 5.100  0.5555   92.9   1.167    7.8  0.4274   42.2  0.2792 -122.3
 5.200  0.5588   91.7   1.151    6.7  0.4355   41.1  0.2814 -125.8
 5.300  0.5623   90.5   1.135    5.5  0.4439   40.0  0.2846 -129.2
 5.400  0.5661   89.3   1.119    4.3  0.4524   38.9  0.2888 -132.6
 5.500  0.5701   88.1   1.104    3.1  0.4610   37.9  0.2940 -135.8
 5.600  0.5729   87.0   1.088    2.2  0.4685   36.7  0.2968 -138.7
 5.700  0.5758   85.9   1.073    1.2  0.4761   35.6  0.3004 -141.6
 5.800  0.5790   84.8   1.057    0.2  0.4839   34.6  0.3046 -144.4
 5.900  0.5824   83.8   1.043   -0.8  0.4919   33.5  0.3096 -147.1
 6.000  0.5860   82.7   1.028   -1.8  0.5000   32.5  0.3153 -149.7
!
!  f       NFmin   Gammaopt  rn/50
! GHz       dB    MAG  ANG    -
!
! noise parameter not available yet for this operation point!
!
! (c) 2017  Infineon Technologies AG, Munich