! Infineon Technologies  Discrete & RF Semiconductors
! BFR182W
! VCE =  7.0 V,  IC =  12 mA
! Common Emitter S-Parameters:                            Jan 2017
# GHz  S  MA  R  50
!  f         S11            S21            S12            S22
! GHz     MAG   ANG      MAG   ANG      MAG   ANG      MAG   ANG
 0.010  0.6990   -4.2  28.728  176.2  0.0015   90.5  0.9936   -2.0
 0.020  0.7065   -8.5  28.790  173.3  0.0038   91.9  0.9948   -4.4
 0.030  0.6905  -12.4  28.342  170.4  0.0056   85.9  0.9827   -6.4
 0.040  0.6779  -16.5  27.969  167.4  0.0074   82.8  0.9718   -8.4
 0.050  0.6688  -20.7  27.675  164.3  0.0093   81.0  0.9621  -10.4
 0.060  0.6550  -24.4  27.065  161.8  0.0110   78.8  0.9458  -12.0
 0.070  0.6440  -28.2  26.510  159.1  0.0127   77.1  0.9302  -13.7
 0.080  0.6360  -32.2  26.016  156.3  0.0144   75.9  0.9154  -15.4
 0.090  0.6311  -36.2  25.584  153.5  0.0161   74.9  0.9015  -17.2
 0.100  0.6294  -40.3  25.218  150.5  0.0178   74.1  0.8885  -19.0
 0.110  0.6122  -43.3  24.567  148.4  0.0190   72.4  0.8705  -20.2
 0.120  0.5967  -46.4  23.951  146.2  0.0202   70.9  0.8529  -21.4
 0.130  0.5832  -49.8  23.371  143.9  0.0215   69.5  0.8356  -22.7
 0.140  0.5717  -53.2  22.831  141.5  0.0227   68.4  0.8188  -24.0
 0.150  0.5623  -56.8  22.333  139.0  0.0240   67.3  0.8025  -25.4
 0.200  0.5079  -70.9  19.593  129.9  0.0284   66.1  0.7240  -29.4
 0.250  0.4608  -83.0  17.257  122.5  0.0331   61.7  0.6568  -31.9
 0.300  0.4210  -93.3  15.225  116.9  0.0368   61.5  0.6008  -33.3
 0.350  0.3900 -101.0  13.720  113.1  0.0401   61.2  0.5625  -33.8
 0.400  0.3672 -109.8  12.292  108.3  0.0434   60.9  0.5242  -34.3
 0.450  0.3474 -116.4  11.222  105.5  0.0465   61.5  0.4987  -34.3
 0.500  0.3328 -123.7  10.184  102.1  0.0497   62.1  0.4731  -34.3
 0.600  0.3123 -134.6   8.694   97.1  0.0562   63.0  0.4390  -33.8
 0.700  0.3009 -144.0   7.554   93.0  0.0619   64.5  0.4155  -33.4
 0.800  0.2920 -152.5   6.690   89.2  0.0694   66.2  0.3982  -33.2
 0.900  0.2866 -159.8   5.983   86.0  0.0758   65.7  0.3846  -33.1
 1.000  0.2865 -166.1   5.436   83.1  0.0827   66.5  0.3738  -33.3
 1.100  0.2850 -171.9   4.972   80.4  0.0902   66.8  0.3660  -33.7
 1.200  0.2877 -177.2   4.582   77.7  0.0970   66.9  0.3584  -34.1
 1.300  0.2865  178.0   4.249   75.2  0.1038   67.0  0.3530  -34.8
 1.400  0.2902  173.9   3.971   72.9  0.1112   67.2  0.3459  -35.7
 1.500  0.2955  169.9   3.722   70.7  0.1187   67.2  0.3419  -36.8
 1.600  0.2977  166.0   3.508   68.3  0.1258   66.9  0.3384  -37.9
 1.700  0.3010  162.6   3.318   66.3  0.1329   66.8  0.3331  -39.3
 1.800  0.3043  159.2   3.158   64.1  0.1413   66.4  0.3292  -40.6
 1.900  0.3092  156.3   3.008   62.3  0.1483   66.1  0.3261  -42.2
 2.000  0.3126  153.4   2.870   60.1  0.1560   65.8  0.3230  -44.0
 2.100  0.3179  150.5   2.752   58.2  0.1637   65.3  0.3201  -45.8
 2.200  0.3239  147.7   2.638   56.1  0.1715   64.9  0.3176  -47.6
 2.300  0.3296  145.3   2.540   54.3  0.1792   64.3  0.3157  -49.6
 2.400  0.3359  143.0   2.445   52.3  0.1870   63.8  0.3143  -51.7
 2.500  0.3400  140.7   2.360   50.6  0.1948   63.3  0.3129  -53.7
 2.600  0.3446  138.5   2.277   48.7  0.2026   62.8  0.3120  -55.8
 2.700  0.3498  136.3   2.206   47.0  0.2104   62.1  0.3116  -57.8
 2.800  0.3555  134.1   2.138   45.2  0.2183   61.5  0.3116  -59.8
 2.900  0.3610  132.0   2.077   43.5  0.2264   60.9  0.3108  -61.8
 3.000  0.3670  129.9   2.017   41.7  0.2345   60.3  0.3103  -63.8
 3.100  0.3709  127.9   1.966   40.2  0.2425   59.5  0.3092  -65.7
 3.200  0.3752  126.0   1.916   38.7  0.2506   58.8  0.3085  -67.7
 3.300  0.3800  124.1   1.868   37.1  0.2587   58.1  0.3082  -69.7
 3.400  0.3851  122.2   1.821   35.4  0.2668   57.4  0.3082  -71.6
 3.500  0.3907  120.4   1.776   33.6  0.2750   56.8  0.3086  -73.6
 3.600  0.3959  118.7   1.739   32.2  0.2833   55.9  0.3057  -75.6
 3.700  0.4014  117.0   1.703   30.7  0.2916   55.0  0.3031  -77.6
 3.800  0.4073  115.4   1.668   29.2  0.3000   54.1  0.3009  -79.6
 3.900  0.4135  113.8   1.634   27.6  0.3085   53.3  0.2991  -81.6
 4.000  0.4200  112.3   1.602   26.0  0.3170   52.6  0.2977  -83.7
 4.100  0.4252  110.8   1.573   24.6  0.3251   51.6  0.2935  -86.1
 4.200  0.4307  109.4   1.544   23.2  0.3334   50.6  0.2899  -88.7
 4.300  0.4365  108.1   1.517   21.7  0.3417   49.7  0.2868  -91.2
 4.400  0.4425  106.7   1.490   20.1  0.3501   48.8  0.2844  -93.8
 4.500  0.4487  105.4   1.465   18.5  0.3586   48.0  0.2825  -96.5
 4.600  0.4560  103.9   1.439   17.3  0.3668   47.0  0.2791  -99.6
 4.700  0.4635  102.5   1.414   16.0  0.3751   46.1  0.2765 -102.8
 4.800  0.4714  101.2   1.390   14.7  0.3835   45.2  0.2747 -106.0
 4.900  0.4795   99.9   1.366   13.3  0.3920   44.3  0.2739 -109.2
 5.000  0.4878   98.6   1.343   11.9  0.4006   43.5  0.2739 -112.5
 5.100  0.4916   97.3   1.324   10.7  0.4085   42.4  0.2745 -115.9
 5.200  0.4956   96.1   1.306    9.6  0.4166   41.3  0.2762 -119.4
 5.300  0.4999   94.9   1.288    8.3  0.4248   40.3  0.2787 -122.7
 5.400  0.5044   93.7   1.271    7.1  0.4331   39.3  0.2823 -126.0
 5.500  0.5091   92.5   1.254    5.8  0.4416   38.4  0.2867 -129.2
 5.600  0.5126   91.4   1.236    4.7  0.4491   37.3  0.2891 -132.1
 5.700  0.5163   90.3   1.218    3.7  0.4568   36.3  0.2923 -134.9
 5.800  0.5202   89.3   1.201    2.5  0.4646   35.3  0.2961 -137.6
 5.900  0.5243   88.2   1.184    1.4  0.4726   34.3  0.3007 -140.3
 6.000  0.5285   87.2   1.168    0.2  0.4807   33.4  0.3058 -142.9
!
!  f       NFmin   Gammaopt  rn/50
! GHz       dB    MAG  ANG    -
 0.450      1.14  0.05   71   0.15
 0.900      1.22  0.06  102   0.15
 1.900      1.71  0.21 -156   0.14
 2.400      1.97  0.20 -143   0.21
!
! (c) 2017  Infineon Technologies AG, Munich