! Infineon Technologies  Discrete & RF Semiconductors
! BFR182W
! VCE =  1.0 V,  IC =  23 mA
! Common Emitter S-Parameters:                            Jan 2017
# GHz  S  MA  R  50
!  f         S11            S21            S12            S22
! GHz     MAG   ANG      MAG   ANG      MAG   ANG      MAG   ANG
 0.010  0.4651  -17.8  35.436  172.0  0.0037   80.3  0.8716   -5.9
 0.020  0.4779  -34.3  34.883  164.5  0.0067   78.2  0.8508  -12.1
 0.030  0.4540  -48.2  32.668  158.6  0.0094   69.9  0.8061  -16.4
 0.040  0.4587  -62.6  30.843  152.0  0.0122   65.3  0.7664  -21.2
 0.050  0.4910  -76.0  29.482  144.6  0.0151   62.5  0.7326  -26.4
 0.060  0.4796  -84.2  27.548  141.5  0.0166   60.3  0.6929  -28.2
 0.070  0.4785  -92.7  25.708  137.9  0.0182   58.5  0.6540  -30.2
 0.080  0.4877 -101.0  23.981  133.9  0.0197   56.9  0.6160  -32.5
 0.090  0.5067 -108.8  22.394  129.2  0.0213   55.6  0.5791  -35.1
 0.100  0.5344 -116.0  20.980  123.8  0.0229   54.5  0.5435  -38.0
 0.110  0.5318 -120.1  19.833  122.0  0.0238   53.8  0.5200  -38.6
 0.120  0.5321 -124.3  18.707  120.1  0.0247   53.1  0.4965  -39.2
 0.130  0.5351 -128.5  17.606  117.9  0.0257   52.4  0.4732  -39.8
 0.140  0.5409 -132.5  16.534  115.4  0.0266   51.9  0.4498  -40.6
 0.150  0.5494 -136.5  15.499  112.5  0.0275   51.3  0.4266  -41.4
 0.200  0.5589 -148.7  12.136  105.2  0.0303   53.3  0.3596  -41.3
 0.250  0.5653 -156.8   9.938   99.9  0.0350   54.9  0.3177  -40.2
 0.300  0.5657 -162.8   8.367   96.2  0.0379   56.0  0.2904  -38.9
 0.350  0.5670 -166.9   7.367   93.6  0.0417   58.2  0.2745  -37.8
 0.400  0.5711 -170.9   6.387   90.2  0.0456   60.0  0.2587  -36.6
 0.450  0.5714 -174.0   5.763   88.2  0.0494   61.4  0.2498  -36.0
 0.500  0.5733 -177.1   5.147   85.7  0.0533   62.6  0.2410  -35.3
 0.600  0.5786  177.9   4.323   81.8  0.0619   64.6  0.2291  -34.7
 0.700  0.5802  174.0   3.721   78.4  0.0701   66.1  0.2211  -34.8
 0.800  0.5823  170.4   3.275   75.0  0.0790   67.4  0.2155  -35.5
 0.900  0.5841  166.8   2.917   72.0  0.0878   67.6  0.2108  -36.7
 1.000  0.5882  163.7   2.647   69.1  0.0966   68.1  0.2065  -37.9
 1.100  0.5930  160.7   2.420   66.4  0.1057   68.0  0.2033  -39.7
 1.200  0.5947  157.9   2.231   63.6  0.1147   67.9  0.1994  -41.4
 1.300  0.5975  155.2   2.070   61.0  0.1240   67.9  0.1961  -43.8
 1.400  0.6000  152.7   1.937   58.4  0.1334   67.6  0.1918  -46.3
 1.500  0.6060  150.2   1.817   56.0  0.1426   67.1  0.1890  -49.0
 1.600  0.6103  147.6   1.715   53.5  0.1518   66.7  0.1875  -51.8
 1.700  0.6130  145.2   1.627   51.2  0.1609   66.1  0.1845  -55.1
 1.800  0.6184  142.6   1.550   48.8  0.1710   65.5  0.1820  -58.4
 1.900  0.6222  140.6   1.478   46.8  0.1797   65.0  0.1806  -61.8
 2.000  0.6241  138.3   1.412   44.4  0.1897   64.3  0.1803  -65.7
 2.100  0.6282  136.0   1.355   42.3  0.1991   63.5  0.1796  -69.6
 2.200  0.6334  133.7   1.300   40.1  0.2085   62.7  0.1798  -73.5
 2.300  0.6362  131.7   1.253   38.2  0.2182   61.9  0.1803  -77.5
 2.400  0.6397  129.7   1.208   36.2  0.2280   61.1  0.1816  -81.5
 2.500  0.6427  127.7   1.168   34.4  0.2373   60.2  0.1833  -85.3
 2.600  0.6465  125.7   1.129   32.5  0.2467   59.3  0.1858  -89.0
 2.700  0.6493  123.7   1.095   30.9  0.2561   58.4  0.1883  -92.6
 2.800  0.6528  121.7   1.062   29.1  0.2655   57.5  0.1915  -96.0
 2.900  0.6554  119.7   1.032   27.5  0.2750   56.5  0.1935  -99.4
 3.000  0.6588  117.7   1.002   25.8  0.2845   55.5  0.1962 -102.7
 3.100  0.6599  115.8   0.978   24.5  0.2937   54.4  0.1971 -105.9
 3.200  0.6617  113.8   0.954   23.2  0.3029   53.4  0.1986 -109.1
 3.300  0.6642  111.9   0.931   21.7  0.3123   52.4  0.2007 -112.3
 3.400  0.6676  110.0   0.909   20.3  0.3218   51.5  0.2034 -115.3
 3.500  0.6716  108.1   0.887   18.7  0.3313   50.6  0.2067 -118.3
 3.600  0.6731  106.4   0.869   17.6  0.3403   49.4  0.2063 -121.7
 3.700  0.6752  104.7   0.852   16.4  0.3494   48.2  0.2066 -125.1
 3.800  0.6779  103.0   0.835   15.2  0.3587   47.1  0.2077 -128.4
 3.900  0.6812  101.4   0.819   14.0  0.3681   46.0  0.2095 -131.7
 4.000  0.6850   99.7   0.803   12.7  0.3776   45.0  0.2119 -135.0
 4.100  0.6855   98.1   0.790   11.8  0.3857   43.8  0.2120 -139.0
 4.200  0.6864   96.6   0.776   10.8  0.3939   42.6  0.2130 -142.9
 4.300  0.6879   95.0   0.763    9.9  0.4023   41.4  0.2151 -146.8
 4.400  0.6899   93.4   0.751    8.8  0.4109   40.3  0.2181 -150.6
 4.500  0.6924   91.9   0.738    7.8  0.4196   39.3  0.2221 -154.3
 4.600  0.6941   90.5   0.727    7.1  0.4272   38.1  0.2255 -158.2
 4.700  0.6962   89.2   0.716    6.4  0.4350   36.9  0.2299 -162.0
 4.800  0.6986   87.9   0.706    5.6  0.4429   35.8  0.2352 -165.7
 4.900  0.7015   86.5   0.695    4.9  0.4510   34.7  0.2415 -169.1
 5.000  0.7047   85.2   0.685    4.1  0.4593   33.6  0.2486 -172.4
 5.100  0.7038   83.9   0.679    3.5  0.4659   32.3  0.2552 -175.3
 5.200  0.7033   82.6   0.673    2.9  0.4728   31.1  0.2624 -178.1
 5.300  0.7031   81.4   0.667    2.3  0.4798   30.0  0.2703  179.2
 5.400  0.7033   80.1   0.662    1.7  0.4871   28.8  0.2786  176.7
 5.500  0.7038   78.8   0.656    1.1  0.4945   27.7  0.2875  174.4
 5.600  0.7030   77.7   0.651    0.7  0.5003   26.5  0.2929  172.4
 5.700  0.7025   76.6   0.645    0.2  0.5062   25.4  0.2987  170.4
 5.800  0.7023   75.6   0.640   -0.3  0.5124   24.3  0.3048  168.5
 5.900  0.7023   74.5   0.635   -0.7  0.5187   23.2  0.3113  166.7
 6.000  0.7025   73.4   0.630   -1.2  0.5252   22.2  0.3180  165.0
!
!  f       NFmin   Gammaopt  rn/50
! GHz       dB    MAG  ANG    -
 0.450      1.50  0.14 -170   0.15
 0.900      1.58  0.16 -165   0.16
 1.900      2.10  0.31 -139   0.17
 2.400      2.38  0.32 -127   0.27
!
! (c) 2017  Infineon Technologies AG, Munich