! Infineon Technologies  Discrete & RF Semiconductors
! BFR182W
! VCE =  1.0 V,  IC =  47 mA
! Common Emitter S-Parameters:                            Jan 2017
# GHz  S  MA  R  50
!  f         S11            S21            S12            S22
! GHz     MAG   ANG      MAG   ANG      MAG   ANG      MAG   ANG
 0.010  0.2153  -73.6  32.135  165.5  0.0058   62.3  0.6476  -13.6
 0.020  0.3568 -100.6  29.805  152.6  0.0106   59.9  0.5994  -26.7
 0.030  0.4120 -116.7  26.157  146.0  0.0134   54.4  0.5288  -33.0
 0.040  0.4912 -128.3  22.960  137.5  0.0163   50.8  0.4665  -41.0
 0.050  0.5847 -136.4  20.428  126.5  0.0192   48.3  0.4160  -51.3
 0.060  0.5986 -141.2  18.645  124.1  0.0201   47.7  0.3814  -53.4
 0.070  0.6165 -145.8  16.901  121.3  0.0211   47.2  0.3475  -56.0
 0.080  0.6381 -150.1  15.208  117.8  0.0220   46.7  0.3144  -59.1
 0.090  0.6631 -154.1  13.586  113.4  0.0230   46.2  0.2824  -62.9
 0.100  0.6910 -157.8  12.064  107.9  0.0239   45.8  0.2520  -67.6
 0.110  0.6949 -159.7  11.307  106.6  0.0248   46.5  0.2375  -68.6
 0.120  0.6995 -161.5  10.557  105.2  0.0258   47.1  0.2231  -69.8
 0.130  0.7049 -163.3   9.814  103.5  0.0267   47.7  0.2087  -71.1
 0.140  0.7109 -165.1   9.081  101.6  0.0277   48.2  0.1945  -72.6
 0.150  0.7176 -166.8   8.360   99.3  0.0286   48.7  0.1805  -74.4
 0.200  0.7255 -172.2   6.352   93.7  0.0321   53.5  0.1444  -77.8
 0.250  0.7321 -176.0   5.122   89.3  0.0372   56.4  0.1224  -80.2
 0.300  0.7332 -178.8   4.282   86.1  0.0417   59.4  0.1080  -82.4
 0.350  0.7335  178.8   3.758   83.6  0.0469   61.8  0.1007  -84.3
 0.400  0.7351  176.5   3.243   80.3  0.0521   63.7  0.0935  -86.4
 0.450  0.7364  174.6   2.923   78.2  0.0571   65.1  0.0901  -88.7
 0.500  0.7386  172.7   2.608   75.6  0.0622   66.3  0.0868  -91.2
 0.600  0.7439  169.5   2.191   71.2  0.0731   67.1  0.0849  -96.3
 0.700  0.7436  166.6   1.889   67.3  0.0836   68.5  0.0847 -100.7
 0.800  0.7474  163.7   1.662   63.2  0.0953   69.3  0.0879 -105.7
 0.900  0.7477  160.9   1.485   59.7  0.1065   68.9  0.0914 -111.1
 1.000  0.7526  158.3   1.350   56.3  0.1182   68.9  0.0951 -116.1
 1.100  0.7564  155.6   1.239   52.9  0.1295   68.6  0.1014 -120.9
 1.200  0.7577  153.0   1.144   49.7  0.1408   68.0  0.1063 -125.4
 1.300  0.7596  150.6   1.064   46.9  0.1522   67.2  0.1138 -129.9
 1.400  0.7643  148.2   0.998   43.9  0.1651   66.7  0.1212 -134.9
 1.500  0.7677  145.8   0.937   41.2  0.1769   65.8  0.1293 -138.9
 1.600  0.7715  143.4   0.887   38.6  0.1886   64.9  0.1378 -142.4
 1.700  0.7738  140.9   0.842   36.2  0.2006   64.0  0.1468 -146.5
 1.800  0.7793  138.4   0.804   33.8  0.2124   62.8  0.1564 -150.0
 1.900  0.7814  136.2   0.768   32.0  0.2241   61.7  0.1662 -153.1
 2.000  0.7809  133.9   0.733   29.8  0.2359   60.6  0.1767 -156.0
 2.100  0.7834  131.5   0.705   28.1  0.2475   59.3  0.1864 -159.1
 2.200  0.7873  129.1   0.677   26.3  0.2593   58.1  0.1966 -161.9
 2.300  0.7875  127.0   0.654   24.9  0.2708   56.7  0.2060 -164.5
 2.400  0.7887  124.9   0.631   23.4  0.2824   55.5  0.2157 -166.9
 2.500  0.7895  122.8   0.611   22.4  0.2932   54.2  0.2241 -169.3
 2.600  0.7914  120.7   0.592   21.3  0.3042   52.9  0.2328 -171.5
 2.700  0.7913  118.6   0.576   20.5  0.3146   51.5  0.2402 -173.8
 2.800  0.7923  116.6   0.561   19.6  0.3251   50.2  0.2479 -175.9
 2.900  0.7916  114.6   0.548   18.9  0.3351   48.8  0.2542 -178.2
 3.000  0.7918  112.6   0.536   18.2  0.3452   47.5  0.2608  179.6
 3.100  0.7890  110.6   0.529   17.8  0.3539   46.0  0.2646  177.2
 3.200  0.7871  108.7   0.521   17.3  0.3628   44.6  0.2689  174.8
 3.300  0.7862  106.7   0.514   16.9  0.3719   43.2  0.2736  172.6
 3.400  0.7862  104.7   0.506   16.4  0.3813   41.9  0.2788  170.4
 3.500  0.7872  102.7   0.499   15.9  0.3908   40.7  0.2843  168.3
 3.600  0.7849  101.0   0.496   15.6  0.3984   39.3  0.2875  165.8
 3.700  0.7833   99.2   0.493   15.3  0.4062   37.9  0.2913  163.3
 3.800  0.7824   97.5   0.490   15.0  0.4143   36.5  0.2957  160.9
 3.900  0.7823   95.7   0.487   14.7  0.4225   35.2  0.3005  158.6
 4.000  0.7829   94.0   0.484   14.4  0.4310   34.0  0.3058  156.3
 4.100  0.7790   92.5   0.484   14.0  0.4369   32.6  0.3101  153.8
 4.200  0.7757   91.0   0.484   13.6  0.4431   31.3  0.3149  151.3
 4.300  0.7729   89.5   0.483   13.3  0.4495   30.0  0.3203  149.0
 4.400  0.7706   88.0   0.483   12.9  0.4561   28.7  0.3263  146.7
 4.500  0.7689   86.5   0.483   12.5  0.4629   27.5  0.3327  144.5
 4.600  0.7676   85.3   0.484   12.2  0.4677   26.3  0.3382  142.5
 4.700  0.7667   84.0   0.485   11.8  0.4727   25.1  0.3441  140.6
 4.800  0.7661   82.8   0.485   11.5  0.4778   24.0  0.3503  138.8
 4.900  0.7659   81.5   0.486   11.1  0.4832   22.9  0.3569  137.0
 5.000  0.7661   80.3   0.487   10.8  0.4887   21.8  0.3638  135.3
 5.100  0.7628   79.1   0.490   10.2  0.4926   20.6  0.3688  134.0
 5.200  0.7597   77.9   0.494    9.7  0.4967   19.5  0.3739  132.8
 5.300  0.7571   76.7   0.497    9.2  0.5010   18.3  0.3793  131.5
 5.400  0.7547   75.5   0.501    8.6  0.5055   17.2  0.3847  130.4
 5.500  0.7527   74.3   0.504    8.1  0.5102   16.1  0.3904  129.2
 5.600  0.7498   73.4   0.506    7.5  0.5132   15.1  0.3922  128.2
 5.700  0.7472   72.4   0.508    7.0  0.5164   14.1  0.3941  127.1
 5.800  0.7448   71.4   0.510    6.4  0.5197   13.1  0.3961  126.1
 5.900  0.7425   70.5   0.512    5.9  0.5232   12.1  0.3983  125.1
 6.000  0.7405   69.5   0.514    5.3  0.5269   11.1  0.4006  124.1
!
!  f       NFmin   Gammaopt  rn/50
! GHz       dB    MAG  ANG    -
!
! noise parameter not available yet for this operation point!
!
! (c) 2017  Infineon Technologies AG, Munich