! Infineon Technologies  Discrete & RF Semiconductors
! BFR182W
! VCE =  4.0 V,  IC =  17 mA
! Common Emitter S-Parameters:                            Jan 2017
# GHz  S  MA  R  50
!  f         S11            S21            S12            S22
! GHz     MAG   ANG      MAG   ANG      MAG   ANG      MAG   ANG
 0.010  0.6137   -5.6  34.131  175.8  0.0019   87.1  0.9885   -2.4
 0.020  0.6217  -11.2  34.392  172.2  0.0033   89.9  0.9815   -5.3
 0.030  0.6033  -16.2  33.624  168.7  0.0055   81.9  0.9674   -7.7
 0.040  0.5897  -21.5  32.988  165.0  0.0077   78.4  0.9552  -10.2
 0.050  0.5814  -27.0  32.493  161.2  0.0099   76.5  0.9448  -12.8
 0.060  0.5648  -31.5  31.530  158.4  0.0113   74.9  0.9228  -14.6
 0.070  0.5519  -36.1  30.648  155.4  0.0128   73.7  0.9018  -16.5
 0.080  0.5427  -41.0  29.854  152.2  0.0142   72.7  0.8818  -18.4
 0.090  0.5377  -46.0  29.157  148.9  0.0157   71.9  0.8629  -20.5
 0.100  0.5368  -51.1  28.563  145.4  0.0171   71.2  0.8451  -22.6
 0.110  0.5197  -54.6  27.631  143.3  0.0183   69.8  0.8235  -23.7
 0.120  0.5047  -58.2  26.740  141.0  0.0195   68.6  0.8022  -25.0
 0.130  0.4918  -62.1  25.895  138.6  0.0207   67.5  0.7813  -26.2
 0.140  0.4814  -66.2  25.099  136.0  0.0219   66.6  0.7608  -27.6
 0.150  0.4734  -70.4  24.358  133.2  0.0231   65.7  0.7408  -29.0
 0.200  0.4286  -86.2  20.742  124.2  0.0271   64.5  0.6544  -32.5
 0.250  0.3938  -99.3  17.881  117.1  0.0311   62.5  0.5869  -34.2
 0.300  0.3673 -110.3  15.556  112.0  0.0345   63.2  0.5337  -35.0
 0.350  0.3477 -118.1  13.901  108.5  0.0378   63.5  0.4991  -35.0
 0.400  0.3352 -126.7  12.312  104.1  0.0412   63.7  0.4646  -34.9
 0.450  0.3243 -132.9  11.197  101.6  0.0447   64.3  0.4430  -34.6
 0.500  0.3175 -139.4  10.109   98.5  0.0483   64.9  0.4215  -34.2
 0.600  0.3079 -149.7   8.581   93.9  0.0557   66.1  0.3935  -33.4
 0.700  0.3035 -158.1   7.427   90.1  0.0621   67.8  0.3738  -32.8
 0.800  0.3019 -164.6   6.560   86.6  0.0698   68.5  0.3600  -32.6
 0.900  0.3009 -171.1   5.857   83.6  0.0767   68.7  0.3494  -32.6
 1.000  0.3027 -176.3   5.316   80.9  0.0846   69.0  0.3399  -32.7
 1.100  0.3053  179.1   4.858   78.3  0.0926   69.0  0.3342  -33.1
 1.200  0.3075  174.7   4.472   75.7  0.0996   68.8  0.3273  -33.7
 1.300  0.3089  170.6   4.145   73.3  0.1069   68.8  0.3228  -34.5
 1.400  0.3143  167.0   3.873   71.1  0.1155   68.8  0.3167  -35.6
 1.500  0.3181  163.6   3.630   68.9  0.1232   68.6  0.3125  -36.8
 1.600  0.3220  160.0   3.418   66.6  0.1305   68.0  0.3099  -38.0
 1.700  0.3250  157.1   3.234   64.6  0.1385   68.0  0.3055  -39.5
 1.800  0.3312  154.3   3.077   62.5  0.1462   67.3  0.3018  -41.1
 1.900  0.3362  151.7   2.931   60.6  0.1545   66.9  0.2985  -42.7
 2.000  0.3379  149.1   2.794   58.5  0.1623   66.4  0.2961  -44.7
 2.100  0.3432  146.5   2.679   56.6  0.1704   65.8  0.2932  -46.7
 2.200  0.3493  143.9   2.568   54.6  0.1786   65.2  0.2907  -48.8
 2.300  0.3552  141.8   2.473   52.8  0.1865   64.5  0.2889  -51.0
 2.400  0.3616  139.7   2.381   50.8  0.1945   63.9  0.2875  -53.2
 2.500  0.3664  137.7   2.297   49.1  0.2024   63.2  0.2863  -55.4
 2.600  0.3716  135.7   2.216   47.2  0.2104   62.6  0.2856  -57.6
 2.700  0.3765  133.6   2.147   45.5  0.2186   61.8  0.2852  -59.8
 2.800  0.3819  131.6   2.081   43.7  0.2269   61.1  0.2853  -62.0
 2.900  0.3866  129.5   2.021   42.0  0.2350   60.4  0.2846  -64.1
 3.000  0.3918  127.5   1.963   40.3  0.2431   59.7  0.2844  -66.3
 3.100  0.3957  125.6   1.913   38.8  0.2513   58.8  0.2833  -68.4
 3.200  0.4000  123.8   1.865   37.3  0.2596   58.0  0.2826  -70.4
 3.300  0.4047  122.0   1.818   35.7  0.2680   57.3  0.2823  -72.5
 3.400  0.4098  120.2   1.772   34.0  0.2764   56.6  0.2823  -74.6
 3.500  0.4153  118.5   1.728   32.2  0.2848   55.9  0.2827  -76.7
 3.600  0.4205  116.8   1.692   30.8  0.2931   54.9  0.2798  -78.8
 3.700  0.4260  115.2   1.657   29.4  0.3014   54.0  0.2772  -81.0
 3.800  0.4319  113.6   1.623   27.9  0.3098   53.1  0.2751  -83.1
 3.900  0.4381  112.1   1.590   26.3  0.3183   52.3  0.2733  -85.4
 4.000  0.4446  110.6   1.559   24.7  0.3268   51.5  0.2720  -87.6
 4.100  0.4494  109.2   1.530   23.3  0.3349   50.4  0.2679  -90.2
 4.200  0.4545  107.8   1.502   21.9  0.3431   49.4  0.2644  -92.9
 4.300  0.4598  106.4   1.475   20.4  0.3514   48.5  0.2615  -95.6
 4.400  0.4654  105.1   1.449   18.9  0.3597   47.6  0.2593  -98.5
 4.500  0.4712  103.8   1.424   17.3  0.3682   46.7  0.2576 -101.3
 4.600  0.4780  102.4   1.399   16.1  0.3762   45.7  0.2546 -104.6
 4.700  0.4851  101.0   1.375   14.8  0.3843   44.7  0.2526 -108.0
 4.800  0.4924   99.7   1.351   13.5  0.3925   43.8  0.2514 -111.5
 4.900  0.5000   98.4   1.328   12.1  0.4008   42.9  0.2511 -114.9
 5.000  0.5078   97.2   1.306   10.7  0.4092   42.0  0.2518 -118.4
 5.100  0.5116   96.0   1.288    9.6  0.4169   40.9  0.2531 -121.9
 5.200  0.5157   94.8   1.270    8.4  0.4248   39.8  0.2554 -125.4
 5.300  0.5200   93.6   1.253    7.2  0.4328   38.8  0.2586 -128.9
 5.400  0.5245   92.4   1.236    6.0  0.4409   37.8  0.2627 -132.2
 5.500  0.5292   91.3   1.220    4.7  0.4492   36.9  0.2677 -135.4
 5.600  0.5326   90.2   1.202    3.7  0.4563   35.8  0.2707 -138.3
 5.700  0.5362   89.1   1.185    2.6  0.4636   34.8  0.2744 -141.2
 5.800  0.5400   88.0   1.168    1.6  0.4711   33.7  0.2788 -144.0
 5.900  0.5439   86.9   1.152    0.4  0.4787   32.8  0.2839 -146.7
 6.000  0.5481   85.9   1.136   -0.7  0.4864   31.8  0.2895 -149.3
!
!  f       NFmin   Gammaopt  rn/50
! GHz       dB    MAG  ANG    -
 0.450      1.32  0.06  165   0.15
 0.900      1.38  0.07  166   0.15
 1.900      1.89  0.25 -146   0.15
 2.400      2.15  0.25 -131   0.24
!
! (c) 2017  Infineon Technologies AG, Munich