! Infineon Technologies  Discrete & RF Semiconductors
! BFR182W
! VCE =  1.0 V,  IC =  32 mA
! Common Emitter S-Parameters:                            Jan 2017
# GHz  S  MA  R  50
!  f         S11            S21            S12            S22
! GHz     MAG   ANG      MAG   ANG      MAG   ANG      MAG   ANG
 0.010  0.3408  -32.4  35.224  169.0  0.0043   68.9  0.7739   -8.8
 0.020  0.3879  -59.2  33.810  158.9  0.0080   72.2  0.7384  -17.7
 0.030  0.3917  -78.3  30.640  152.4  0.0110   64.1  0.6778  -22.8
 0.040  0.4358  -95.3  27.956  144.5  0.0141   59.5  0.6236  -28.9
 0.050  0.5098 -108.2  25.908  135.1  0.0172   56.6  0.5777  -36.0
 0.060  0.5141 -115.5  23.860  132.4  0.0184   54.7  0.5380  -37.6
 0.070  0.5264 -122.5  21.877  129.1  0.0197   53.0  0.4987  -39.5
 0.080  0.5463 -129.1  19.977  125.3  0.0209   51.5  0.4602  -41.7
 0.090  0.5729 -135.2  18.186  120.6  0.0222   50.2  0.4224  -44.3
 0.100  0.6054 -140.7  16.541  115.0  0.0235   49.0  0.3856  -47.4
 0.110  0.6079 -143.6  15.554  113.5  0.0243   49.0  0.3666  -47.7
 0.120  0.6120 -146.5  14.579  111.8  0.0251   49.0  0.3475  -48.1
 0.130  0.6176 -149.4  13.618  109.9  0.0258   48.9  0.3285  -48.6
 0.140  0.6247 -152.2  12.676  107.7  0.0266   48.9  0.3096  -49.1
 0.150  0.6333 -154.9  11.755  105.1  0.0274   48.9  0.2906  -49.6
 0.200  0.6462 -163.1   9.022   98.8  0.0310   52.1  0.2405  -48.8
 0.250  0.6527 -168.6   7.313   94.2  0.0351   54.9  0.2111  -47.2
 0.300  0.6546 -172.6   6.125   90.9  0.0387   57.7  0.1903  -45.8
 0.350  0.6562 -175.7   5.381   88.5  0.0430   60.0  0.1798  -44.9
 0.400  0.6597 -178.7   4.649   85.3  0.0474   61.9  0.1694  -43.8
 0.450  0.6598  179.0   4.190   83.3  0.0519   63.3  0.1631  -43.6
 0.500  0.6610  176.7   3.738   80.9  0.0565   64.5  0.1568  -43.3
 0.600  0.6652  172.9   3.136   77.0  0.0658   65.9  0.1489  -43.7
 0.700  0.6664  169.6   2.702   73.5  0.0748   67.7  0.1433  -44.6
 0.800  0.6708  166.3   2.378   69.9  0.0856   68.6  0.1393  -46.7
 0.900  0.6708  163.3   2.119   66.6  0.0944   68.4  0.1357  -49.2
 1.000  0.6751  160.4   1.927   63.5  0.1053   68.6  0.1320  -51.8
 1.100  0.6791  157.7   1.761   60.6  0.1151   68.5  0.1303  -55.3
 1.200  0.6816  155.1   1.626   57.6  0.1246   68.2  0.1279  -58.3
 1.300  0.6849  152.5   1.510   54.8  0.1349   67.7  0.1261  -62.7
 1.400  0.6890  150.1   1.416   52.1  0.1456   67.5  0.1239  -67.3
 1.500  0.6932  147.8   1.328   49.5  0.1552   66.7  0.1232  -71.9
 1.600  0.6974  145.2   1.256   46.9  0.1662   66.2  0.1240  -76.4
 1.700  0.6984  142.8   1.193   44.5  0.1763   65.5  0.1237  -81.9
 1.800  0.7050  140.4   1.138   42.0  0.1866   64.7  0.1247  -87.2
 1.900  0.7070  138.3   1.085   39.9  0.1970   63.9  0.1268  -92.3
 2.000  0.7086  135.9   1.037   37.5  0.2072   62.9  0.1304  -97.7
 2.100  0.7119  133.6   0.995   35.5  0.2177   62.0  0.1335 -102.9
 2.200  0.7164  131.3   0.955   33.3  0.2282   61.1  0.1377 -107.8
 2.300  0.7188  129.2   0.922   31.5  0.2386   60.0  0.1426 -112.6
 2.400  0.7221  127.2   0.889   29.6  0.2490   59.0  0.1485 -117.0
 2.500  0.7240  125.1   0.860   28.0  0.2591   57.9  0.1540 -121.0
 2.600  0.7269  123.0   0.831   26.3  0.2693   56.9  0.1602 -124.8
 2.700  0.7287  121.0   0.806   24.9  0.2794   55.8  0.1657 -128.3
 2.800  0.7313  119.0   0.782   23.4  0.2896   54.7  0.1718 -131.5
 2.900  0.7328  117.0   0.760   22.1  0.2994   53.6  0.1768 -134.8
 3.000  0.7351  115.0   0.739   20.7  0.3093   52.5  0.1823 -138.0
 3.100  0.7343  113.0   0.722   19.7  0.3185   51.2  0.1853 -141.3
 3.200  0.7343  111.1   0.706   18.7  0.3279   50.0  0.1888 -144.4
 3.300  0.7352  109.1   0.690   17.6  0.3375   48.9  0.1929 -147.4
 3.400  0.7370  107.1   0.674   16.5  0.3471   47.8  0.1975 -150.3
 3.500  0.7396  105.2   0.658   15.3  0.3569   46.8  0.2026 -153.1
 3.600  0.7394  103.5   0.647   14.6  0.3655   45.4  0.2047 -156.5
 3.700  0.7399  101.7   0.636   13.9  0.3742   44.1  0.2076 -159.9
 3.800  0.7411  100.0   0.626   13.1  0.3831   42.9  0.2112 -163.2
 3.900  0.7430   98.2   0.615   12.3  0.3922   41.7  0.2154 -166.3
 4.000  0.7455   96.5   0.605   11.5  0.4015   40.6  0.2202 -169.3
 4.100  0.7436   94.9   0.598   10.9  0.4089   39.2  0.2235 -172.9
 4.200  0.7422   93.4   0.591   10.4  0.4165   37.9  0.2276 -176.4
 4.300  0.7413   91.8   0.584    9.8  0.4244   36.7  0.2325 -179.8
 4.400  0.7410   90.3   0.577    9.2  0.4324   35.5  0.2382  177.0
 4.500  0.7413   88.7   0.570    8.6  0.4406   34.3  0.2446  174.0
 4.600  0.7415   87.4   0.566    8.3  0.4470   33.1  0.2505  171.0
 4.700  0.7420   86.1   0.561    7.9  0.4536   31.9  0.2570  168.2
 4.800  0.7430   84.7   0.557    7.6  0.4604   30.7  0.2641  165.5
 4.900  0.7444   83.4   0.552    7.3  0.4674   29.6  0.2717  162.9
 5.000  0.7461   82.1   0.548    6.9  0.4746   28.5  0.2799  160.5
 5.100  0.7432   80.9   0.547    6.5  0.4801   27.3  0.2869  158.5
 5.200  0.7407   79.6   0.546    6.1  0.4857   26.1  0.2943  156.6
 5.300  0.7385   78.3   0.546    5.8  0.4916   24.9  0.3020  154.8
 5.400  0.7367   77.1   0.545    5.4  0.4977   23.7  0.3100  153.0
 5.500  0.7352   75.8   0.544    5.0  0.5040   22.6  0.3182  151.4
 5.600  0.7331   74.8   0.544    4.6  0.5083   21.5  0.3226  149.9
 5.700  0.7313   73.7   0.544    4.2  0.5128   20.4  0.3271  148.5
 5.800  0.7297   72.7   0.543    3.9  0.5176   19.3  0.3319  147.1
 5.900  0.7283   71.6   0.543    3.5  0.5224   18.2  0.3369  145.8
 6.000  0.7272   70.6   0.543    3.1  0.5275   17.2  0.3420  144.5
!
!  f       NFmin   Gammaopt  rn/50
! GHz       dB    MAG  ANG    -
!
! noise parameter not available yet for this operation point!
!
! (c) 2017  Infineon Technologies AG, Munich