! Infineon Technologies  Discrete & RF Semiconductors
! BFR182W
! VCE =  5.0 V,  IC =  47 mA
! Common Emitter S-Parameters:                            Jan 2017
# GHz  S  MA  R  50
!  f         S11            S21            S12            S22
! GHz     MAG   ANG      MAG   ANG      MAG   ANG      MAG   ANG
 0.010  0.3600  -15.2  43.313  172.9  0.0017   72.1  0.9183   -3.3
 0.020  0.3681  -30.1  42.832  166.6  0.0040   85.7  0.9116   -7.7
 0.030  0.3532  -42.7  40.681  161.2  0.0056   78.9  0.8791  -10.7
 0.040  0.3563  -55.6  38.931  155.2  0.0072   75.2  0.8492  -13.9
 0.050  0.3768  -67.8  37.637  148.8  0.0089   72.8  0.8222  -17.4
 0.060  0.3681  -76.0  35.461  145.7  0.0100   70.5  0.7906  -18.7
 0.070  0.3671  -84.3  33.404  142.2  0.0111   68.6  0.7594  -20.1
 0.080  0.3739  -92.6  31.489  138.2  0.0122   67.1  0.7287  -21.7
 0.090  0.3880 -100.4  29.743  133.8  0.0133   65.9  0.6986  -23.4
 0.100  0.4088 -107.5  28.197  128.8  0.0144   64.8  0.6691  -25.2
 0.110  0.4067 -111.9  26.767  126.9  0.0151   64.0  0.6487  -25.5
 0.120  0.4071 -116.4  25.369  124.8  0.0158   63.3  0.6283  -25.8
 0.130  0.4099 -120.8  24.008  122.5  0.0164   62.7  0.6079  -26.1
 0.140  0.4151 -125.1  22.692  119.9  0.0171   62.1  0.5875  -26.4
 0.150  0.4226 -129.3  21.428  117.0  0.0178   61.5  0.5672  -26.8
 0.200  0.4319 -142.7  16.990  109.4  0.0207   64.0  0.5094  -26.1
 0.250  0.4374 -151.9  14.025  103.9  0.0241   64.0  0.4735  -24.9
 0.300  0.4390 -158.4  11.861  100.2  0.0273   65.2  0.4489  -23.9
 0.350  0.4399 -163.0  10.473   97.6  0.0306   67.9  0.4361  -23.2
 0.400  0.4437 -167.6   9.114   94.2  0.0339   70.0  0.4233  -22.4
 0.450  0.4445 -171.0   8.231   92.3  0.0375   70.7  0.4156  -22.2
 0.500  0.4468 -174.4   7.360   89.9  0.0412   71.2  0.4080  -21.9
 0.600  0.4512 -179.7   6.193   86.2  0.0483   73.4  0.3988  -21.9
 0.700  0.4558  175.8   5.339   83.1  0.0552   74.7  0.3924  -22.3
 0.800  0.4571  172.0   4.700   80.1  0.0633   75.1  0.3873  -23.1
 0.900  0.4601  168.5   4.187   77.3  0.0707   75.0  0.3832  -24.2
 1.000  0.4646  165.1   3.795   74.7  0.0779   75.5  0.3792  -25.3
 1.100  0.4665  162.0   3.468   72.3  0.0862   75.7  0.3763  -26.6
 1.200  0.4713  159.1   3.193   69.8  0.0930   75.5  0.3723  -28.0
 1.300  0.4731  156.1   2.960   67.5  0.1012   75.4  0.3693  -29.7
 1.400  0.4773  153.8   2.769   65.2  0.1095   75.1  0.3656  -31.3
 1.500  0.4834  151.4   2.593   63.0  0.1178   74.7  0.3622  -33.2
 1.600  0.4859  148.7   2.447   60.7  0.1257   74.3  0.3599  -35.0
 1.700  0.4886  146.4   2.316   58.6  0.1339   74.1  0.3565  -37.1
 1.800  0.4952  143.9   2.205   56.4  0.1425   73.6  0.3535  -39.2
 1.900  0.5002  141.8   2.101   54.5  0.1509   73.0  0.3509  -41.4
 2.000  0.5026  139.8   2.003   52.3  0.1595   72.4  0.3487  -43.7
 2.100  0.5066  137.5   1.922   50.4  0.1683   71.7  0.3461  -46.1
 2.200  0.5114  135.3   1.843   48.3  0.1771   71.1  0.3441  -48.6
 2.300  0.5157  133.3   1.776   46.5  0.1859   70.3  0.3425  -51.1
 2.400  0.5205  131.4   1.710   44.5  0.1947   69.6  0.3415  -53.7
 2.500  0.5244  129.4   1.650   42.8  0.2036   68.8  0.3405  -56.2
 2.600  0.5289  127.5   1.592   40.9  0.2126   68.1  0.3401  -58.8
 2.700  0.5324  125.6   1.543   39.2  0.2216   67.3  0.3399  -61.3
 2.800  0.5365  123.8   1.495   37.4  0.2307   66.5  0.3403  -63.8
 2.900  0.5408  121.8   1.452   35.7  0.2399   65.6  0.3396  -66.3
 3.000  0.5457  119.9   1.411   34.0  0.2492   64.8  0.3395  -68.8
 3.100  0.5481  118.0   1.375   32.6  0.2585   63.8  0.3380  -71.2
 3.200  0.5511  116.2   1.341   31.1  0.2680   62.8  0.3371  -73.6
 3.300  0.5546  114.4   1.307   29.6  0.2774   61.9  0.3368  -76.0
 3.400  0.5587  112.6   1.274   27.9  0.2870   61.1  0.3370  -78.4
 3.500  0.5633  110.8   1.242   26.2  0.2966   60.3  0.3379  -80.8
 3.600  0.5666  109.1   1.216   24.9  0.3060   59.1  0.3345  -83.2
 3.700  0.5703  107.5   1.190   23.6  0.3156   58.0  0.3318  -85.7
 3.800  0.5745  105.9   1.166   22.2  0.3252   57.0  0.3297  -88.3
 3.900  0.5791  104.3   1.141   20.8  0.3350   56.0  0.3283  -90.8
 4.000  0.5842  102.7   1.118   19.3  0.3448   55.1  0.3275  -93.4
 4.100  0.5868  101.2   1.098   18.1  0.3539   53.8  0.3229  -96.3
 4.200  0.5898   99.8   1.078   16.8  0.3631   52.6  0.3192  -99.3
 4.300  0.5931   98.3   1.059   15.5  0.3725   51.5  0.3163 -102.3
 4.400  0.5968   96.9   1.040   14.2  0.3820   50.4  0.3143 -105.4
 4.500  0.6009   95.5   1.022   12.8  0.3917   49.4  0.3133 -108.5
 4.600  0.6051   94.2   1.004   11.8  0.4005   48.2  0.3102 -112.0
 4.700  0.6097   92.8   0.987   10.8  0.4095   47.0  0.3083 -115.5
 4.800  0.6146   91.5   0.970    9.7  0.4187   45.8  0.3076 -119.0
 4.900  0.6198   90.3   0.953    8.6  0.4280   44.7  0.3080 -122.6
 5.000  0.6253   89.0   0.937    7.5  0.4375   43.7  0.3096 -126.1
 5.100  0.6266   87.7   0.925    6.6  0.4457   42.4  0.3109 -129.6
 5.200  0.6282   86.5   0.913    5.7  0.4541   41.2  0.3133 -133.1
 5.300  0.6301   85.2   0.902    4.8  0.4627   40.0  0.3169 -136.5
 5.400  0.6323   83.9   0.891    3.8  0.4715   38.9  0.3216 -139.9
 5.500  0.6348   82.7   0.880    2.8  0.4805   37.8  0.3273 -143.1
 5.600  0.6357   81.6   0.869    2.1  0.4880   36.5  0.3300 -146.0
 5.700  0.6368   80.5   0.858    1.3  0.4957   35.3  0.3335 -148.8
 5.800  0.6382   79.4   0.847    0.5  0.5036   34.1  0.3377 -151.5
 5.900  0.6398   78.3   0.836   -0.3  0.5117   33.0  0.3427 -154.2
 6.000  0.6416   77.2   0.826   -1.1  0.5200   31.9  0.3485 -156.8
!
!  f       NFmin   Gammaopt  rn/50
! GHz       dB    MAG  ANG    -
!
! noise parameter not available yet for this operation point!
!
! (c) 2017  Infineon Technologies AG, Munich