! Infineon Technologies  Discrete & RF Semiconductors
! BFR182W
! VCE =  9.0 V,  IC =  7.0 mA
! Common Emitter S-Parameters:                            Jan 2017
# GHz  S  MA  R  50
!  f         S11            S21            S12            S22
! GHz     MAG   ANG      MAG   ANG      MAG   ANG      MAG   ANG
 0.010  0.8005   -3.1  19.839  177.1  0.0017   96.4  0.9976   -1.4
 0.020  0.8117   -6.0  19.942  175.1  0.0036   97.1  0.9936   -3.2
 0.030  0.7976   -8.9  19.741  172.9  0.0057   87.8  0.9882   -4.6
 0.040  0.7855  -11.8  19.570  170.7  0.0078   83.5  0.9834   -6.1
 0.050  0.7756  -14.9  19.429  168.4  0.0100   81.1  0.9792   -7.5
 0.060  0.7674  -17.7  19.182  166.3  0.0119   79.0  0.9696   -8.8
 0.070  0.7610  -20.6  18.962  164.2  0.0137   77.5  0.9606  -10.2
 0.080  0.7565  -23.4  18.767  162.1  0.0156   76.4  0.9521  -11.6
 0.090  0.7540  -26.4  18.600  159.8  0.0175   75.5  0.9442  -13.0
 0.100  0.7535  -29.3  18.461  157.6  0.0194   74.8  0.9369  -14.4
 0.110  0.7401  -31.8  18.155  155.7  0.0209   73.6  0.9250  -15.5
 0.120  0.7282  -34.4  17.869  153.8  0.0225   72.6  0.9135  -16.6
 0.130  0.7179  -37.1  17.603  151.8  0.0240   71.7  0.9023  -17.7
 0.140  0.7091  -39.8  17.359  149.8  0.0255   70.9  0.8914  -18.9
 0.150  0.7020  -42.6  17.138  147.7  0.0271   70.2  0.8810  -20.1
 0.200  0.6500  -54.4  15.721  139.2  0.0326   66.5  0.8208  -24.5
 0.250  0.6004  -65.2  14.387  131.7  0.0383   62.6  0.7626  -27.8
 0.300  0.5515  -74.5  13.062  125.8  0.0423   59.9  0.7084  -30.1
 0.350  0.5107  -81.8  11.974  121.4  0.0458   59.0  0.6665  -31.5
 0.400  0.4796  -90.3  10.971  116.1  0.0494   58.2  0.6251  -33.0
 0.450  0.4493  -96.7  10.115  112.8  0.0524   57.6  0.5942  -33.6
 0.500  0.4254 -103.9   9.300  108.8  0.0555   57.1  0.5634  -34.3
 0.600  0.3863 -115.4   8.055  102.9  0.0616   57.0  0.5192  -34.8
 0.700  0.3593 -125.6   7.068   98.0  0.0664   57.8  0.4871  -34.9
 0.800  0.3413 -134.8   6.302   93.7  0.0726   59.0  0.4628  -35.1
 0.900  0.3256 -142.7   5.661   89.9  0.0779   59.3  0.4443  -35.3
 1.000  0.3186 -150.4   5.164   86.5  0.0834   60.2  0.4288  -35.5
 1.100  0.3123 -157.1   4.734   83.5  0.0896   60.8  0.4177  -35.9
 1.200  0.3106 -163.5   4.370   80.5  0.0955   61.2  0.4073  -36.2
 1.300  0.3059 -168.9   4.058   77.7  0.1013   62.0  0.3992  -37.0
 1.400  0.3059 -174.3   3.800   75.1  0.1080   62.6  0.3907  -37.8
 1.500  0.3092 -178.9   3.565   72.7  0.1142   62.6  0.3849  -38.7
 1.600  0.3091  176.8   3.362   70.2  0.1204   63.1  0.3807  -39.7
 1.700  0.3107  172.4   3.183   68.0  0.1271   63.3  0.3743  -41.0
 1.800  0.3147  168.2   3.033   65.6  0.1341   63.2  0.3698  -42.3
 1.900  0.3189  164.9   2.890   63.6  0.1408   63.3  0.3656  -43.6
 2.000  0.3205  161.4   2.759   61.3  0.1481   63.1  0.3627  -45.2
 2.100  0.3253  158.0   2.647   59.3  0.1551   63.0  0.3596  -46.9
 2.200  0.3313  154.7   2.538   57.1  0.1622   62.9  0.3568  -48.7
 2.300  0.3363  151.9   2.444   55.1  0.1696   62.7  0.3547  -50.5
 2.400  0.3422  149.1   2.354   53.0  0.1770   62.5  0.3530  -52.4
 2.500  0.3464  146.5   2.273   51.2  0.1842   62.2  0.3518  -54.2
 2.600  0.3513  144.0   2.194   49.3  0.1915   61.9  0.3509  -56.1
 2.700  0.3566  141.4   2.127   47.5  0.1991   61.5  0.3504  -58.0
 2.800  0.3626  138.9   2.062   45.6  0.2068   61.1  0.3503  -60.0
 2.900  0.3670  136.5   2.003   43.8  0.2146   60.6  0.3493  -61.8
 3.000  0.3721  134.2   1.946   41.9  0.2225   60.2  0.3486  -63.6
 3.100  0.3761  132.0   1.896   40.4  0.2305   59.6  0.3476  -65.5
 3.200  0.3806  129.8   1.848   38.8  0.2386   59.0  0.3470  -67.4
 3.300  0.3857  127.7   1.801   37.2  0.2466   58.5  0.3468  -69.2
 3.400  0.3912  125.6   1.756   35.4  0.2547   58.0  0.3470  -71.1
 3.500  0.3973  123.6   1.712   33.6  0.2628   57.5  0.3475  -73.0
 3.600  0.4025  121.7   1.676   32.2  0.2714   56.7  0.3448  -74.9
 3.700  0.4082  119.9   1.642   30.7  0.2800   55.9  0.3425  -76.9
 3.800  0.4142  118.1   1.608   29.1  0.2886   55.1  0.3406  -78.9
 3.900  0.4207  116.4   1.576   27.5  0.2973   54.5  0.3391  -80.9
 4.000  0.4275  114.7   1.545   25.8  0.3061   53.8  0.3380  -82.9
 4.100  0.4331  113.1   1.516   24.4  0.3146   52.9  0.3337  -85.3
 4.200  0.4390  111.5   1.489   23.0  0.3232   52.0  0.3301  -87.7
 4.300  0.4452  110.0   1.462   21.5  0.3319   51.1  0.3270  -90.1
 4.400  0.4517  108.5   1.437   19.9  0.3406   50.4  0.3245  -92.7
 4.500  0.4585  107.1   1.412   18.3  0.3494   49.6  0.3227  -95.2
 4.600  0.4653  105.6   1.387   17.0  0.3581   48.6  0.3191  -98.2
 4.700  0.4725  104.1   1.363   15.7  0.3669   47.7  0.3165 -101.2
 4.800  0.4799  102.6   1.339   14.4  0.3757   46.8  0.3147 -104.2
 4.900  0.4877  101.3   1.316   13.0  0.3847   46.0  0.3138 -107.3
 5.000  0.4957   99.9   1.294   11.5  0.3937   45.2  0.3138 -110.4
 5.100  0.4996   98.6   1.275   10.3  0.4022   44.1  0.3142 -113.7
 5.200  0.5037   97.2   1.256    9.2  0.4108   43.1  0.3156 -116.9
 5.300  0.5081   95.9   1.238    7.9  0.4196   42.1  0.3181 -120.2
 5.400  0.5128   94.7   1.221    6.7  0.4285   41.1  0.3215 -123.3
 5.500  0.5177   93.4   1.204    5.4  0.4375   40.2  0.3259 -126.4
 5.600  0.5214   92.2   1.186    4.4  0.4456   39.1  0.3281 -129.3
 5.700  0.5253   91.0   1.169    3.3  0.4538   38.0  0.3311 -132.1
 5.800  0.5294   89.8   1.152    2.2  0.4622   37.0  0.3348 -134.8
 5.900  0.5337   88.6   1.136    1.1  0.4707   36.0  0.3394 -137.5
 6.000  0.5383   87.5   1.120   -0.1  0.4794   35.0  0.3446 -140.1
!
!  f       NFmin   Gammaopt  rn/50
! GHz       dB    MAG  ANG    -
 0.450      0.95  0.17   35   0.16
 0.900      1.04  0.15   63   0.15
 1.900      1.57  0.18  174   0.13
 2.400      1.84  0.19 -178   0.18
!
! (c) 2017  Infineon Technologies AG, Munich