! Infineon Technologies  Discrete & RF Semiconductors
! BFR182W
! VCE =  6.0 V,  IC =  3.0 mA
! Common Emitter S-Parameters:                            Jan 2017
# GHz  S  MA  R  50
!  f         S11            S21            S12            S22
! GHz     MAG   ANG      MAG   ANG      MAG   ANG      MAG   ANG
 0.010  0.8991   -2.0   9.906  178.5  0.0016   89.2  1.0000   -0.9
 0.020  0.9158   -3.9  10.040  177.2  0.0038   91.8  1.0000   -2.0
 0.030  0.9026   -5.7   9.976  175.8  0.0063   87.1  0.9995   -2.9
 0.040  0.8902   -7.5   9.919  174.3  0.0087   85.0  0.9961   -3.7
 0.050  0.8787   -9.3   9.868  172.8  0.0112   83.9  0.9929   -4.6
 0.060  0.8769  -11.2   9.817  171.4  0.0133   82.9  0.9897   -5.5
 0.070  0.8762  -13.2   9.771  170.0  0.0154   82.1  0.9867   -6.3
 0.080  0.8765  -15.1   9.732  168.6  0.0174   81.5  0.9840   -7.2
 0.090  0.8777  -17.1   9.698  167.1  0.0195   81.1  0.9815   -8.1
 0.100  0.8800  -19.0   9.671  165.7  0.0216   80.7  0.9792   -9.0
 0.110  0.8734  -20.8   9.605  164.3  0.0236   78.9  0.9737   -9.8
 0.120  0.8677  -22.5   9.545  162.9  0.0256   77.4  0.9685  -10.6
 0.130  0.8628  -24.3   9.491  161.5  0.0276   76.1  0.9634  -11.4
 0.140  0.8588  -26.2   9.442  160.1  0.0297   75.0  0.9586  -12.3
 0.150  0.8557  -28.0   9.399  158.7  0.0317   74.0  0.9539  -13.1
 0.200  0.8271  -36.9   9.059  151.9  0.0396   70.1  0.9249  -16.8
 0.250  0.7958  -45.3   8.710  145.5  0.0484   66.3  0.8920  -20.1
 0.300  0.7557  -53.0   8.276  139.9  0.0544   62.4  0.8554  -23.0
 0.350  0.7181  -59.8   7.844  135.1  0.0602   59.6  0.8210  -25.2
 0.400  0.6916  -67.2   7.473  129.8  0.0662   57.3  0.7879  -27.6
 0.450  0.6554  -73.2   7.060  125.9  0.0703   55.1  0.7569  -29.2
 0.500  0.6272  -79.8   6.684  121.5  0.0745   53.2  0.7266  -31.0
 0.600  0.5737  -91.3   6.017  114.2  0.0809   50.2  0.6752  -33.2
 0.700  0.5309 -101.3   5.420  108.0  0.0855   48.6  0.6328  -34.9
 0.800  0.4974 -110.8   4.936  102.5  0.0904   47.7  0.5989  -36.2
 0.900  0.4668 -119.6   4.501   97.7  0.0938   46.7  0.5704  -37.3
 1.000  0.4480 -127.4   4.148   93.5  0.0973   46.9  0.5467  -38.2
 1.100  0.4308 -135.0   3.839   89.6  0.1003   47.1  0.5288  -39.0
 1.200  0.4170 -142.0   3.570   85.8  0.1035   47.2  0.5114  -39.9
 1.300  0.4049 -148.4   3.332   82.3  0.1068   48.0  0.4983  -40.7
 1.400  0.3999 -154.3   3.134   79.2  0.1105   49.0  0.4857  -41.8
 1.500  0.3971 -160.3   2.955   76.2  0.1141   49.9  0.4758  -42.8
 1.600  0.3937 -165.7   2.793   73.1  0.1177   50.6  0.4688  -43.8
 1.700  0.3914 -170.7   2.655   70.5  0.1218   51.8  0.4599  -45.2
 1.800  0.3913 -175.6   2.536   67.8  0.1262   52.7  0.4531  -46.5
 1.900  0.3933  179.8   2.424   65.3  0.1306   53.5  0.4470  -47.8
 2.000  0.3943  175.6   2.320   62.6  0.1355   54.3  0.4426  -49.3
 2.100  0.3957  171.5   2.228   60.3  0.1411   55.1  0.4387  -50.9
 2.200  0.3992  167.4   2.140   57.8  0.1468   55.9  0.4352  -52.5
 2.300  0.4032  163.9   2.063   55.5  0.1525   56.5  0.4325  -54.3
 2.400  0.4086  160.5   1.989   53.1  0.1583   57.1  0.4303  -56.1
 2.500  0.4120  157.2   1.921   51.0  0.1646   57.6  0.4286  -57.9
 2.600  0.4167  154.0   1.856   48.8  0.1710   58.0  0.4274  -59.8
 2.700  0.4206  150.9   1.800   46.8  0.1780   58.3  0.4268  -61.6
 2.800  0.4257  147.9   1.746   44.7  0.1850   58.5  0.4267  -63.4
 2.900  0.4300  145.0   1.698   42.7  0.1923   58.7  0.4260  -65.1
 3.000  0.4353  142.2   1.652   40.6  0.1997   58.8  0.4257  -66.9
 3.100  0.4386  139.5   1.609   39.0  0.2080   58.7  0.4248  -68.8
 3.200  0.4428  136.9   1.568   37.3  0.2164   58.6  0.4243  -70.7
 3.300  0.4479  134.3   1.528   35.5  0.2247   58.5  0.4244  -72.6
 3.400  0.4539  131.8   1.490   33.6  0.2331   58.5  0.4248  -74.5
 3.500  0.4608  129.4   1.453   31.6  0.2414   58.4  0.4258  -76.4
 3.600  0.4656  127.1   1.422   30.1  0.2508   57.8  0.4232  -78.4
 3.700  0.4712  124.9   1.392   28.6  0.2602   57.3  0.4212  -80.5
 3.800  0.4774  122.7   1.363   26.9  0.2696   56.9  0.4197  -82.5
 3.900  0.4843  120.6   1.336   25.3  0.2790   56.4  0.4188  -84.6
 4.000  0.4919  118.5   1.309   23.5  0.2885   56.0  0.4184  -86.7
 4.100  0.4964  116.6   1.284   22.1  0.2983   55.2  0.4142  -89.2
 4.200  0.5015  114.7   1.260   20.6  0.3082   54.4  0.4108  -91.7
 4.300  0.5071  112.8   1.236   19.1  0.3182   53.6  0.4082  -94.3
 4.400  0.5132  111.0   1.214   17.5  0.3282   53.0  0.4065  -96.9
 4.500  0.5198  109.2   1.192   15.8  0.3382   52.3  0.4056  -99.5
 4.600  0.5257  107.4   1.170   14.6  0.3484   51.3  0.4022 -102.4
 4.700  0.5322  105.6   1.148   13.3  0.3587   50.4  0.3998 -105.4
 4.800  0.5391  103.9   1.127   12.0  0.3690   49.5  0.3986 -108.5
 4.900  0.5465  102.2   1.107   10.6  0.3795   48.7  0.3984 -111.5
 5.000  0.5544  100.6   1.087    9.2  0.3900   47.9  0.3994 -114.5
 5.100  0.5576   99.1   1.071    8.1  0.3999   46.7  0.3997 -117.7
 5.200  0.5611   97.6   1.055    7.1  0.4100   45.6  0.4012 -120.8
 5.300  0.5650   96.1   1.039    5.9  0.4202   44.5  0.4039 -123.9
 5.400  0.5693   94.6   1.024    4.8  0.4306   43.5  0.4078 -127.0
 5.500  0.5740   93.2   1.009    3.6  0.4411   42.5  0.4128 -130.0
 5.600  0.5767   91.9   0.994    2.7  0.4503   41.3  0.4145 -132.8
 5.700  0.5797   90.5   0.979    1.8  0.4598   40.1  0.4171 -135.6
 5.800  0.5830   89.2   0.964    0.9  0.4694   39.0  0.4208 -138.3
 5.900  0.5867   87.9   0.949   -0.1  0.4792   37.9  0.4253 -141.0
 6.000  0.5906   86.6   0.935   -1.1  0.4891   36.9  0.4308 -143.6
!
!  f       NFmin   Gammaopt  rn/50
! GHz       dB    MAG  ANG    -
 0.450      0.82  0.39   31   0.20
 0.900      0.95  0.30   57   0.20
 1.900      1.60  0.25  149   0.12
 2.400      1.92  0.23  170   0.17
!
! (c) 2017  Infineon Technologies AG, Munich