! Infineon Technologies  Discrete & RF Semiconductors
! BFR182W
! VCE =  3.0 V,  IC =  18 mA
! Common Emitter S-Parameters:                            Jan 2017
# GHz  S  MA  R  50
!  f         S11            S21            S12            S22
! GHz     MAG   ANG      MAG   ANG      MAG   ANG      MAG   ANG
 0.010  0.5882   -6.1  35.281  175.6  0.0016   87.3  0.9860   -2.6
 0.020  0.5927  -12.4  35.277  171.8  0.0037   93.5  0.9745   -5.6
 0.030  0.5750  -18.0  34.499  168.0  0.0057   83.9  0.9599   -8.2
 0.040  0.5630  -23.9  33.879  164.1  0.0077   79.3  0.9474  -10.9
 0.050  0.5573  -30.0  33.424  160.0  0.0098   76.7  0.9371  -13.7
 0.060  0.5398  -34.8  32.333  157.1  0.0113   74.7  0.9130  -15.5
 0.070  0.5262  -39.8  31.332  154.0  0.0129   73.2  0.8898  -17.5
 0.080  0.5169  -45.0  30.429  150.7  0.0144   72.0  0.8678  -19.5
 0.090  0.5120  -50.4  29.634  147.2  0.0159   71.1  0.8469  -21.7
 0.100  0.5118  -55.9  28.954  143.5  0.0175   70.3  0.8272  -23.9
 0.110  0.4952  -59.6  27.946  141.4  0.0186   69.1  0.8046  -25.0
 0.120  0.4809  -63.6  26.979  139.1  0.0198   68.0  0.7823  -26.2
 0.130  0.4690  -67.7  26.058  136.6  0.0209   67.0  0.7603  -27.5
 0.140  0.4597  -72.1  25.189  134.0  0.0220   66.1  0.7387  -28.8
 0.150  0.4531  -76.6  24.376  131.2  0.0232   65.3  0.7176  -30.2
 0.200  0.4148  -92.9  20.551  122.3  0.0267   63.5  0.6291  -33.5
 0.250  0.3854 -106.3  17.617  115.3  0.0308   62.3  0.5628  -34.9
 0.300  0.3635 -117.0  15.245  110.3  0.0343   63.4  0.5109  -35.4
 0.350  0.3484 -124.7  13.602  107.0  0.0377   64.0  0.4781  -35.3
 0.400  0.3401 -133.0  12.018  102.7  0.0411   64.5  0.4453  -35.2
 0.450  0.3319 -139.0  10.912  100.2  0.0448   65.3  0.4251  -34.7
 0.500  0.3275 -145.3   9.830   97.2  0.0485   65.9  0.4050  -34.2
 0.600  0.3230 -154.7   8.332   92.8  0.0557   66.5  0.3785  -33.3
 0.700  0.3190 -162.4   7.207   89.1  0.0624   67.8  0.3605  -32.7
 0.800  0.3191 -168.8   6.359   85.6  0.0703   68.7  0.3474  -32.5
 0.900  0.3189 -174.4   5.674   82.7  0.0777   68.9  0.3374  -32.5
 1.000  0.3218 -179.5   5.149   79.9  0.0848   69.4  0.3291  -32.8
 1.100  0.3238  176.2   4.706   77.4  0.0930   69.5  0.3236  -33.3
 1.200  0.3280  171.8   4.332   74.8  0.1005   69.2  0.3174  -33.8
 1.300  0.3287  167.9   4.013   72.4  0.1084   69.2  0.3126  -34.8
 1.400  0.3338  164.8   3.750   70.1  0.1168   69.1  0.3068  -35.9
 1.500  0.3407  161.7   3.513   68.0  0.1244   68.7  0.3030  -37.1
 1.600  0.3433  158.4   3.311   65.7  0.1326   68.5  0.3005  -38.5
 1.700  0.3458  155.6   3.131   63.7  0.1402   68.0  0.2955  -40.1
 1.800  0.3522  152.8   2.980   61.5  0.1485   67.4  0.2926  -41.7
 1.900  0.3573  150.2   2.838   59.7  0.1564   67.0  0.2894  -43.5
 2.000  0.3599  147.8   2.705   57.5  0.1648   66.5  0.2867  -45.6
 2.100  0.3656  145.3   2.594   55.6  0.1729   65.8  0.2841  -47.7
 2.200  0.3719  142.8   2.486   53.6  0.1811   65.2  0.2818  -49.8
 2.300  0.3771  140.7   2.395   51.8  0.1892   64.6  0.2800  -52.1
 2.400  0.3827  138.7   2.306   49.8  0.1973   64.0  0.2786  -54.5
 2.500  0.3876  136.6   2.225   48.1  0.2054   63.2  0.2777  -56.8
 2.600  0.3929  134.6   2.146   46.2  0.2136   62.5  0.2772  -59.1
 2.700  0.3978  132.7   2.080   44.5  0.2217   61.7  0.2770  -61.4
 2.800  0.4032  130.8   2.016   42.7  0.2298   61.0  0.2772  -63.6
 2.900  0.4084  128.7   1.958   41.0  0.2383   60.2  0.2765  -65.8
 3.000  0.4141  126.6   1.901   39.2  0.2469   59.5  0.2762  -68.1
 3.100  0.4175  124.8   1.853   37.7  0.2551   58.6  0.2751  -70.2
 3.200  0.4214  122.9   1.806   36.2  0.2634   57.8  0.2744  -72.4
 3.300  0.4257  121.2   1.760   34.6  0.2718   57.1  0.2741  -74.6
 3.400  0.4303  119.4   1.716   32.9  0.2802   56.4  0.2742  -76.7
 3.500  0.4354  117.7   1.674   31.1  0.2886   55.7  0.2747  -78.9
 3.600  0.4402  116.0   1.639   29.7  0.2969   54.7  0.2719  -81.1
 3.700  0.4455  114.4   1.605   28.2  0.3053   53.7  0.2696  -83.3
 3.800  0.4510  112.8   1.572   26.7  0.3138   52.8  0.2676  -85.6
 3.900  0.4569  111.3   1.540   25.1  0.3224   51.9  0.2661  -87.9
 4.000  0.4631  109.8   1.510   23.5  0.3310   51.1  0.2650  -90.2
 4.100  0.4683  108.4   1.482   22.1  0.3392   50.0  0.2610  -92.9
 4.200  0.4738  107.0   1.455   20.7  0.3474   49.0  0.2577  -95.7
 4.300  0.4796  105.6   1.429   19.3  0.3558   48.1  0.2550  -98.6
 4.400  0.4856  104.3   1.403   17.8  0.3642   47.2  0.2529 -101.5
 4.500  0.4919  103.0   1.379   16.2  0.3728   46.3  0.2515 -104.5
 4.600  0.4981  101.6   1.354   15.0  0.3808   45.3  0.2489 -108.0
 4.700  0.5046  100.3   1.331   13.7  0.3890   44.3  0.2472 -111.5
 4.800  0.5114   99.0   1.307   12.4  0.3973   43.3  0.2465 -115.0
 4.900  0.5184   97.7   1.285   11.1  0.4056   42.4  0.2467 -118.6
 5.000  0.5257   96.5   1.263    9.7  0.4141   41.5  0.2479 -122.1
 5.100  0.5294   95.2   1.245    8.6  0.4219   40.4  0.2497 -125.7
 5.200  0.5334   94.0   1.228    7.4  0.4298   39.3  0.2525 -129.3
 5.300  0.5377   92.7   1.211    6.2  0.4378   38.2  0.2562 -132.7
 5.400  0.5422   91.5   1.195    5.0  0.4461   37.2  0.2609 -136.1
 5.500  0.5469   90.3   1.179    3.7  0.4544   36.2  0.2664 -139.3
 5.600  0.5499   89.2   1.162    2.7  0.4615   35.1  0.2697 -142.2
 5.700  0.5531   88.1   1.145    1.7  0.4687   34.1  0.2737 -145.0
 5.800  0.5565   87.1   1.129    0.6  0.4761   33.0  0.2783 -147.7
 5.900  0.5600   86.0   1.113   -0.5  0.4836   32.1  0.2835 -150.3
 6.000  0.5638   85.0   1.098   -1.6  0.4913   31.1  0.2893 -152.8
!
!  f       NFmin   Gammaopt  rn/50
! GHz       dB    MAG  ANG    -
 0.450      1.34  0.07  174   0.15
 0.900      1.41  0.08  179   0.15
 1.900      1.93  0.27 -144   0.15
 2.400      2.18  0.27 -129   0.24
!
! (c) 2017  Infineon Technologies AG, Munich