! Infineon Technologies  Discrete & RF Semiconductors
! BFR182W
! VCE =  12. V,  IC =  17 mA
! Common Emitter S-Parameters:                            Jan 2017
# GHz  S  MA  R  50
!  f         S11            S21            S12            S22
! GHz     MAG   ANG      MAG   ANG      MAG   ANG      MAG   ANG
 0.010  0.6641   -4.5  34.609  174.9  0.0016   72.1  0.9787   -2.2
 0.020  0.6727   -9.4  34.582  171.9  0.0036   86.1  0.9695   -4.8
 0.030  0.6542  -13.9  33.866  168.7  0.0054   79.5  0.9583   -7.0
 0.040  0.6400  -18.7  33.260  165.4  0.0073   76.3  0.9485   -9.3
 0.050  0.6304  -23.6  32.771  161.9  0.0092   74.4  0.9403  -11.6
 0.060  0.6139  -27.6  31.877  159.2  0.0106   73.6  0.9210  -13.3
 0.070  0.6005  -31.8  31.059  156.3  0.0120   73.0  0.9025  -15.0
 0.080  0.5904  -36.1  30.322  153.3  0.0135   72.5  0.8849  -16.8
 0.090  0.5839  -40.6  29.672  150.2  0.0149   72.1  0.8682  -18.7
 0.100  0.5809  -45.1  29.116  146.9  0.0163   71.8  0.8525  -20.7
 0.110  0.5624  -48.2  28.226  144.8  0.0174   70.5  0.8324  -21.8
 0.120  0.5457  -51.5  27.378  142.5  0.0185   69.4  0.8125  -23.0
 0.130  0.5310  -55.0  26.574  140.1  0.0196   68.4  0.7931  -24.2
 0.140  0.5183  -58.7  25.820  137.6  0.0207   67.5  0.7740  -25.5
 0.150  0.5079  -62.6  25.120  134.9  0.0218   66.7  0.7553  -26.8
 0.200  0.4523  -77.0  21.577  125.9  0.0260   65.2  0.6738  -30.1
 0.250  0.4070  -89.4  18.720  118.8  0.0297   62.8  0.6090  -31.9
 0.300  0.3686  -99.6  16.340  113.5  0.0333   63.4  0.5567  -32.6
 0.350  0.3431 -107.2  14.638  110.0  0.0368   64.1  0.5228  -32.6
 0.400  0.3245 -115.8  13.006  105.5  0.0403   64.6  0.4889  -32.6
 0.450  0.3082 -122.3  11.842  102.9  0.0435   64.9  0.4674  -32.3
 0.500  0.2963 -129.4  10.707   99.8  0.0468   65.2  0.4459  -32.0
 0.600  0.2792 -140.2   9.102   95.2  0.0541   66.3  0.4183  -31.2
 0.700  0.2702 -149.4   7.888   91.4  0.0598   67.8  0.3987  -30.7
 0.800  0.2655 -157.1   6.971   87.9  0.0675   68.6  0.3851  -30.4
 0.900  0.2592 -164.0   6.226   84.9  0.0744   68.9  0.3747  -30.4
 1.000  0.2606 -170.3   5.651   82.2  0.0817   69.1  0.3652  -30.6
 1.100  0.2626 -175.7   5.169   79.7  0.0890   69.5  0.3597  -30.9
 1.200  0.2628  179.1   4.757   77.1  0.0962   69.1  0.3532  -31.5
 1.300  0.2648  174.6   4.410   74.7  0.1033   69.2  0.3482  -32.2
 1.400  0.2683  170.7   4.120   72.5  0.1111   69.2  0.3425  -33.2
 1.500  0.2727  167.0   3.862   70.4  0.1180   68.9  0.3386  -34.2
 1.600  0.2756  163.1   3.638   68.1  0.1259   68.4  0.3354  -35.3
 1.700  0.2789  160.0   3.439   66.2  0.1331   68.4  0.3310  -36.8
 1.800  0.2843  156.6   3.272   64.1  0.1409   67.8  0.3276  -38.2
 1.900  0.2884  154.1   3.117   62.3  0.1482   67.4  0.3242  -39.7
 2.000  0.2926  151.3   2.971   60.2  0.1562   67.0  0.3218  -41.5
 2.100  0.2983  148.4   2.849   58.4  0.1641   66.4  0.3191  -43.3
 2.200  0.3047  145.6   2.730   56.4  0.1720   65.9  0.3168  -45.2
 2.300  0.3092  143.4   2.629   54.6  0.1798   65.2  0.3146  -47.2
 2.400  0.3142  141.3   2.531   52.6  0.1876   64.6  0.3128  -49.3
 2.500  0.3194  139.2   2.443   50.9  0.1951   64.0  0.3115  -51.3
 2.600  0.3250  137.1   2.357   49.1  0.2027   63.4  0.3106  -53.3
 2.700  0.3297  135.0   2.284   47.5  0.2107   62.7  0.3101  -55.3
 2.800  0.3349  132.9   2.213   45.7  0.2187   62.1  0.3099  -57.3
 2.900  0.3402  130.8   2.150   44.0  0.2266   61.4  0.3091  -59.3
 3.000  0.3460  128.8   2.088   42.3  0.2346   60.7  0.3086  -61.4
 3.100  0.3501  126.8   2.035   40.9  0.2426   59.9  0.3074  -63.3
 3.200  0.3545  124.9   1.983   39.3  0.2506   59.1  0.3065  -65.2
 3.300  0.3594  123.1   1.932   37.7  0.2587   58.4  0.3059  -67.1
 3.400  0.3646  121.3   1.883   36.1  0.2668   57.7  0.3057  -69.0
 3.500  0.3702  119.5   1.836   34.3  0.2749   57.1  0.3058  -70.9
 3.600  0.3755  117.9   1.798   32.9  0.2829   56.1  0.3030  -72.8
 3.700  0.3810  116.3   1.761   31.5  0.2911   55.2  0.3005  -74.8
 3.800  0.3869  114.7   1.726   30.0  0.2992   54.4  0.2983  -76.8
 3.900  0.3930  113.2   1.691   28.5  0.3075   53.6  0.2966  -78.8
 4.000  0.3994  111.8   1.658   26.9  0.3158   52.8  0.2952  -80.9
 4.100  0.4051  110.4   1.628   25.5  0.3238   51.8  0.2908  -83.3
 4.200  0.4111  109.0   1.598   24.1  0.3320   50.9  0.2868  -85.7
 4.300  0.4173  107.7   1.570   22.6  0.3402   50.0  0.2834  -88.2
 4.400  0.4238  106.4   1.542   21.1  0.3485   49.1  0.2806  -90.7
 4.500  0.4304  105.1   1.516   19.5  0.3569   48.3  0.2783  -93.3
 4.600  0.4374  103.7   1.490   18.3  0.3649   47.3  0.2747  -96.3
 4.700  0.4446  102.4   1.464   17.0  0.3730   46.4  0.2719  -99.4
 4.800  0.4520  101.1   1.439   15.6  0.3812   45.5  0.2700 -102.6
 4.900  0.4597   99.8   1.415   14.2  0.3895   44.6  0.2688 -105.8
 5.000  0.4676   98.6   1.392   12.8  0.3979   43.8  0.2685 -109.0
 5.100  0.4718   97.4   1.372   11.6  0.4057   42.7  0.2688 -112.4
 5.200  0.4762   96.2   1.353   10.4  0.4136   41.7  0.2700 -115.8
 5.300  0.4808   95.1   1.334    9.2  0.4217   40.7  0.2721 -119.2
 5.400  0.4855   93.9   1.316    7.9  0.4299   39.7  0.2752 -122.5
 5.500  0.4905   92.8   1.299    6.6  0.4382   38.8  0.2792 -125.7
 5.600  0.4944   91.7   1.280    5.5  0.4456   37.7  0.2813 -128.6
 5.700  0.4984   90.6   1.262    4.5  0.4531   36.7  0.2842 -131.5
 5.800  0.5026   89.6   1.245    3.3  0.4608   35.7  0.2877 -134.3
 5.900  0.5070   88.5   1.228    2.2  0.4686   34.7  0.2920 -137.0
 6.000  0.5115   87.5   1.211    1.0  0.4766   33.8  0.2968 -139.6
!
!  f       NFmin   Gammaopt  rn/50
! GHz       dB    MAG  ANG    -
 0.450      1.32  0.06  165   0.15
 0.900      1.38  0.07  166   0.15
 1.900      1.89  0.25 -146   0.15
 2.400      2.15  0.25 -131   0.24
!
! (c) 2017  Infineon Technologies AG, Munich