! Infineon Technologies  Discrete & RF Semiconductors
! BFR182W
! VCE =  4.0 V,  IC =  15 mA
! Common Emitter S-Parameters:                            Jan 2017
# GHz  S  MA  R  50
!  f         S11            S21            S12            S22
! GHz     MAG   ANG      MAG   ANG      MAG   ANG      MAG   ANG
 0.010  0.6416   -5.2  31.965  176.0  0.0018   91.1  0.9903   -2.3
 0.020  0.6515  -10.4  32.254  172.6  0.0038   90.0  0.9795   -5.0
 0.030  0.6328  -15.1  31.598  169.3  0.0058   82.9  0.9684   -7.3
 0.040  0.6187  -20.1  31.055  165.8  0.0078   79.5  0.9590   -9.6
 0.050  0.6093  -25.2  30.629  162.2  0.0099   77.5  0.9511  -12.0
 0.060  0.5936  -29.4  29.799  159.5  0.0115   75.6  0.9311  -13.8
 0.070  0.5811  -33.7  29.040  156.6  0.0131   74.2  0.9120  -15.6
 0.080  0.5722  -38.3  28.358  153.6  0.0147   73.0  0.8940  -17.6
 0.090  0.5669  -42.9  27.759  150.4  0.0163   72.1  0.8770  -19.6
 0.100  0.5654  -47.6  27.249  147.1  0.0179   71.4  0.8611  -21.7
 0.110  0.5483  -50.9  26.423  145.0  0.0191   70.3  0.8401  -22.9
 0.120  0.5332  -54.5  25.635  142.7  0.0203   69.4  0.8195  -24.1
 0.130  0.5202  -58.2  24.890  140.3  0.0215   68.5  0.7992  -25.4
 0.140  0.5096  -62.1  24.191  137.8  0.0228   67.8  0.7794  -26.8
 0.150  0.5014  -66.2  23.542  135.1  0.0240   67.1  0.7601  -28.2
 0.200  0.4527  -81.7  20.229  125.9  0.0281   64.3  0.6754  -31.9
 0.250  0.4158  -94.6  17.564  118.8  0.0324   61.9  0.6071  -34.0
 0.300  0.3845 -105.4  15.327  113.5  0.0353   62.0  0.5519  -35.0
 0.350  0.3625 -113.3  13.731  109.9  0.0389   62.4  0.5159  -35.1
 0.400  0.3482 -122.0  12.204  105.3  0.0425   62.8  0.4799  -35.3
 0.450  0.3339 -128.3  11.112  102.7  0.0458   63.6  0.4566  -35.1
 0.500  0.3239 -135.1  10.049   99.5  0.0492   64.2  0.4334  -34.9
 0.600  0.3115 -145.6   8.544   94.8  0.0560   64.7  0.4033  -34.2
 0.700  0.3070 -154.5   7.404   90.9  0.0627   66.3  0.3822  -33.6
 0.800  0.3022 -161.4   6.546   87.3  0.0705   67.4  0.3671  -33.5
 0.900  0.3007 -168.0   5.847   84.2  0.0776   67.5  0.3556  -33.4
 1.000  0.3014 -173.7   5.308   81.4  0.0847   67.9  0.3458  -33.6
 1.100  0.3044 -178.9   4.852   78.8  0.0923   68.3  0.3392  -33.9
 1.200  0.3060  176.6   4.469   76.2  0.0997   68.2  0.3317  -34.4
 1.300  0.3066  172.3   4.141   73.7  0.1072   68.0  0.3267  -35.2
 1.400  0.3115  168.8   3.870   71.4  0.1145   68.1  0.3207  -36.2
 1.500  0.3168  165.1   3.625   69.3  0.1227   67.8  0.3162  -37.3
 1.600  0.3197  161.5   3.418   67.0  0.1299   67.5  0.3131  -38.5
 1.700  0.3222  158.4   3.231   64.9  0.1379   67.4  0.3085  -40.1
 1.800  0.3284  155.7   3.075   62.8  0.1460   66.8  0.3048  -41.5
 1.900  0.3333  152.9   2.929   61.0  0.1540   66.5  0.3012  -43.2
 2.000  0.3368  150.3   2.794   58.8  0.1616   66.0  0.2989  -45.2
 2.100  0.3417  147.7   2.679   56.9  0.1696   65.4  0.2960  -47.2
 2.200  0.3474  145.1   2.567   54.8  0.1776   64.9  0.2934  -49.2
 2.300  0.3528  142.9   2.472   53.0  0.1856   64.2  0.2917  -51.3
 2.400  0.3587  140.7   2.380   51.0  0.1937   63.6  0.2904  -53.5
 2.500  0.3638  138.5   2.297   49.3  0.2016   63.0  0.2892  -55.7
 2.600  0.3694  136.4   2.217   47.4  0.2095   62.4  0.2885  -57.9
 2.700  0.3740  134.3   2.148   45.7  0.2175   61.7  0.2881  -60.0
 2.800  0.3792  132.2   2.082   43.9  0.2256   61.0  0.2881  -62.2
 2.900  0.3843  130.2   2.022   42.2  0.2336   60.2  0.2873  -64.3
 3.000  0.3899  128.3   1.964   40.4  0.2417   59.5  0.2869  -66.5
 3.100  0.3936  126.3   1.914   39.0  0.2499   58.7  0.2858  -68.5
 3.200  0.3978  124.4   1.866   37.4  0.2582   57.9  0.2851  -70.6
 3.300  0.4024  122.5   1.819   35.8  0.2665   57.1  0.2847  -72.7
 3.400  0.4075  120.7   1.773   34.2  0.2748   56.5  0.2847  -74.7
 3.500  0.4129  118.9   1.729   32.4  0.2832   55.8  0.2851  -76.8
 3.600  0.4181  117.3   1.693   31.0  0.2916   54.8  0.2823  -78.9
 3.700  0.4236  115.7   1.657   29.5  0.3000   53.9  0.2798  -81.0
 3.800  0.4294  114.1   1.623   28.0  0.3085   53.0  0.2777  -83.2
 3.900  0.4356  112.6   1.591   26.4  0.3171   52.2  0.2761  -85.4
 4.000  0.4420  111.1   1.559   24.7  0.3257   51.4  0.2748  -87.6
 4.100  0.4470  109.6   1.530   23.3  0.3337   50.4  0.2706  -90.2
 4.200  0.4523  108.2   1.503   21.9  0.3419   49.4  0.2671  -92.9
 4.300  0.4579  106.8   1.476   20.5  0.3501   48.4  0.2641  -95.6
 4.400  0.4637  105.4   1.450   19.0  0.3584   47.6  0.2617  -98.4
 4.500  0.4698  104.1   1.425   17.4  0.3668   46.7  0.2600 -101.3
 4.600  0.4768  102.7   1.400   16.2  0.3748   45.7  0.2571 -104.6
 4.700  0.4840  101.3   1.376   14.9  0.3830   44.7  0.2551 -108.0
 4.800  0.4915  100.0   1.352   13.6  0.3912   43.8  0.2540 -111.4
 4.900  0.4993   98.7   1.329   12.2  0.3996   42.9  0.2537 -114.8
 5.000  0.5073   97.5   1.307   10.8  0.4080   42.0  0.2544 -118.2
 5.100  0.5109   96.2   1.288    9.6  0.4158   40.9  0.2557 -121.8
 5.200  0.5149   95.0   1.270    8.5  0.4237   39.8  0.2580 -125.3
 5.300  0.5190   93.7   1.253    7.2  0.4318   38.8  0.2613 -128.7
 5.400  0.5234   92.5   1.236    6.0  0.4400   37.8  0.2655 -132.1
 5.500  0.5280   91.3   1.220    4.7  0.4483   36.9  0.2705 -135.3
 5.600  0.5313   90.3   1.202    3.7  0.4556   35.8  0.2735 -138.2
 5.700  0.5347   89.2   1.185    2.6  0.4630   34.8  0.2772 -141.0
 5.800  0.5384   88.2   1.168    1.6  0.4706   33.8  0.2816 -143.7
 5.900  0.5421   87.2   1.152    0.4  0.4783   32.8  0.2865 -146.4
 6.000  0.5461   86.2   1.136   -0.7  0.4861   31.9  0.2921 -148.9
!
!  f       NFmin   Gammaopt  rn/50
! GHz       dB    MAG  ANG    -
 0.450      1.25  0.04  146   0.15
 0.900      1.33  0.05  146   0.15
 1.900      1.82  0.24 -148   0.15
 2.400      2.07  0.24 -133   0.22
!
! (c) 2017  Infineon Technologies AG, Munich