! Infineon Technologies  Discrete & RF Semiconductors
! BFR182W
! VCE =  6.0 V,  IC =  17 mA
! Common Emitter S-Parameters:                            Jan 2017
# GHz  S  MA  R  50
!  f         S11            S21            S12            S22
! GHz     MAG   ANG      MAG   ANG      MAG   ANG      MAG   ANG
 0.010  0.6231   -5.3  34.863  175.6  0.0017   92.1  0.9888   -2.4
 0.020  0.6306  -10.5  35.039  172.2  0.0035   90.9  0.9800   -5.1
 0.030  0.6121  -15.4  34.270  168.7  0.0053   84.1  0.9669   -7.5
 0.040  0.5983  -20.5  33.634  165.1  0.0072   80.8  0.9555   -9.9
 0.050  0.5894  -25.8  33.138  161.3  0.0091   78.9  0.9458  -12.4
 0.060  0.5730  -30.1  32.182  158.5  0.0106   76.4  0.9247  -14.2
 0.070  0.5599  -34.6  31.308  155.5  0.0122   74.5  0.9044  -16.0
 0.080  0.5505  -39.3  30.522  152.4  0.0138   73.0  0.8852  -17.9
 0.090  0.5450  -44.2  29.831  149.1  0.0153   71.8  0.8669  -19.9
 0.100  0.5434  -49.1  29.243  145.7  0.0169   70.9  0.8498  -22.0
 0.110  0.5258  -52.4  28.296  143.6  0.0180   69.9  0.8285  -23.1
 0.120  0.5100  -56.0  27.391  141.3  0.0192   69.0  0.8075  -24.3
 0.130  0.4963  -59.7  26.531  138.9  0.0203   68.2  0.7869  -25.5
 0.140  0.4849  -63.7  25.721  136.3  0.0215   67.5  0.7666  -26.8
 0.150  0.4759  -67.8  24.967  133.6  0.0226   66.9  0.7468  -28.2
 0.200  0.4278  -83.3  21.295  124.6  0.0261   65.5  0.6612  -31.6
 0.250  0.3899  -96.1  18.391  117.5  0.0303   63.4  0.5951  -33.3
 0.300  0.3604 -106.9  16.012  112.4  0.0337   63.3  0.5426  -34.0
 0.350  0.3388 -114.7  14.315  108.9  0.0369   63.9  0.5084  -34.0
 0.400  0.3242 -123.4  12.686  104.5  0.0402   64.4  0.4742  -33.9
 0.450  0.3113 -129.6  11.540  102.0  0.0437   65.0  0.4528  -33.6
 0.500  0.3023 -136.2  10.422   98.9  0.0473   65.6  0.4314  -33.2
 0.600  0.2924 -146.9   8.850   94.3  0.0543   66.1  0.4033  -32.4
 0.700  0.2861 -155.1   7.663   90.5  0.0610   68.3  0.3843  -31.8
 0.800  0.2851 -162.5   6.771   87.1  0.0691   68.9  0.3702  -31.7
 0.900  0.2824 -168.9   6.044   84.1  0.0759   68.9  0.3599  -31.5
 1.000  0.2836 -174.7   5.487   81.3  0.0837   69.5  0.3510  -31.7
 1.100  0.2861 -179.5   5.016   78.8  0.0904   69.6  0.3450  -32.1
 1.200  0.2877  175.6   4.616   76.3  0.0978   69.6  0.3383  -32.7
 1.300  0.2884  171.4   4.277   73.9  0.1054   69.1  0.3334  -33.4
 1.400  0.2939  168.0   3.997   71.7  0.1134   69.3  0.3279  -34.4
 1.500  0.2984  164.3   3.744   69.5  0.1210   68.9  0.3236  -35.6
 1.600  0.3011  160.9   3.529   67.3  0.1286   68.4  0.3210  -36.8
 1.700  0.3038  157.9   3.337   65.3  0.1359   68.3  0.3161  -38.2
 1.800  0.3093  154.9   3.173   63.2  0.1441   67.8  0.3127  -39.7
 1.900  0.3152  152.2   3.023   61.4  0.1516   67.4  0.3097  -41.3
 2.000  0.3192  149.6   2.882   59.3  0.1600   66.8  0.3068  -43.3
 2.100  0.3242  147.0   2.764   57.4  0.1678   66.2  0.3040  -45.2
 2.200  0.3299  144.5   2.649   55.4  0.1756   65.7  0.3016  -47.2
 2.300  0.3355  142.4   2.551   53.6  0.1836   65.1  0.2996  -49.3
 2.400  0.3415  140.3   2.455   51.6  0.1916   64.5  0.2981  -51.4
 2.500  0.3459  138.1   2.369   49.9  0.1995   63.8  0.2971  -53.5
 2.600  0.3509  135.9   2.286   48.1  0.2075   63.2  0.2965  -55.7
 2.700  0.3559  133.9   2.215   46.4  0.2155   62.4  0.2961  -57.8
 2.800  0.3614  132.0   2.146   44.6  0.2236   61.7  0.2960  -59.9
 2.900  0.3662  129.9   2.084   42.9  0.2316   61.0  0.2951  -62.0
 3.000  0.3715  127.8   2.024   41.2  0.2396   60.4  0.2946  -64.1
 3.100  0.3756  125.9   1.973   39.8  0.2477   59.5  0.2935  -66.1
 3.200  0.3801  124.1   1.923   38.2  0.2558   58.7  0.2928  -68.1
 3.300  0.3850  122.3   1.874   36.6  0.2639   57.9  0.2925  -70.1
 3.400  0.3902  120.5   1.827   35.0  0.2721   57.2  0.2925  -72.1
 3.500  0.3958  118.8   1.782   33.2  0.2804   56.5  0.2929  -74.1
 3.600  0.4008  117.2   1.745   31.8  0.2887   55.5  0.2899  -76.1
 3.700  0.4062  115.6   1.709   30.4  0.2970   54.6  0.2873  -78.2
 3.800  0.4118  114.1   1.674   28.9  0.3054   53.7  0.2851  -80.3
 3.900  0.4178  112.6   1.640   27.3  0.3139   52.9  0.2832  -82.4
 4.000  0.4240  111.1   1.608   25.7  0.3224   52.1  0.2818  -84.6
 4.100  0.4293  109.7   1.579   24.3  0.3305   51.1  0.2776  -87.1
 4.200  0.4348  108.3   1.550   22.9  0.3386   50.1  0.2739  -89.7
 4.300  0.4406  107.0   1.523   21.5  0.3469   49.2  0.2707  -92.3
 4.400  0.4467  105.7   1.496   20.0  0.3552   48.3  0.2682  -95.0
 4.500  0.4529  104.4   1.471   18.4  0.3636   47.5  0.2662  -97.7
 4.600  0.4599  103.0   1.445   17.2  0.3716   46.5  0.2630 -100.9
 4.700  0.4672  101.6   1.420   15.9  0.3798   45.5  0.2606 -104.2
 4.800  0.4747  100.3   1.396   14.5  0.3881   44.6  0.2591 -107.6
 4.900  0.4825   99.0   1.373   13.1  0.3964   43.7  0.2584 -110.9
 5.000  0.4905   97.8   1.350   11.7  0.4049   42.8  0.2587 -114.3
 5.100  0.4944   96.6   1.330   10.5  0.4127   41.7  0.2595 -117.8
 5.200  0.4985   95.4   1.311    9.4  0.4205   40.7  0.2613 -121.3
 5.300  0.5029   94.2   1.293    8.1  0.4286   39.7  0.2640 -124.7
 5.400  0.5074   93.0   1.275    6.9  0.4367   38.7  0.2676 -128.0
 5.500  0.5122   91.9   1.258    5.6  0.4450   37.8  0.2721 -131.2
 5.600  0.5157   90.8   1.240    4.6  0.4524   36.7  0.2747 -134.1
 5.700  0.5194   89.7   1.223    3.5  0.4599   35.7  0.2781 -137.0
 5.800  0.5233   88.7   1.206    2.4  0.4675   34.6  0.2821 -139.8
 5.900  0.5274   87.6   1.189    1.3  0.4754   33.7  0.2868 -142.5
 6.000  0.5316   86.6   1.173    0.1  0.4833   32.7  0.2921 -145.1
!
!  f       NFmin   Gammaopt  rn/50
! GHz       dB    MAG  ANG    -
 0.450      1.32  0.06  165   0.15
 0.900      1.38  0.07  166   0.15
 1.900      1.89  0.25 -146   0.15
 2.400      2.15  0.25 -131   0.24
!
! (c) 2017  Infineon Technologies AG, Munich