! Infineon Technologies  Discrete & RF Semiconductors
! BFR182W
! VCE =  2.0 V,  IC =  3.0 mA
! Common Emitter S-Parameters:                            Jan 2017
# GHz  S  MA  R  50
!  f         S11            S21            S12            S22
! GHz     MAG   ANG      MAG   ANG      MAG   ANG      MAG   ANG
 0.010  0.8929   -2.2   9.942  178.6  0.0019   87.6  1.0000   -1.0
 0.020  0.9030   -4.2  10.014  177.3  0.0048   93.2  1.0000   -2.3
 0.030  0.8925   -6.2   9.976  175.7  0.0073   88.4  0.9995   -3.2
 0.040  0.8831   -8.2   9.945  174.0  0.0099   86.2  0.9954   -4.2
 0.050  0.8749  -10.3   9.923  172.4  0.0125   84.8  0.9915   -5.1
 0.060  0.8721  -12.3   9.865  170.9  0.0150   83.1  0.9871   -6.1
 0.070  0.8704  -14.4   9.815  169.4  0.0174   81.8  0.9831   -7.1
 0.080  0.8699  -16.5   9.771  167.9  0.0199   80.9  0.9793   -8.1
 0.090  0.8705  -18.5   9.734  166.3  0.0224   80.2  0.9759   -9.1
 0.100  0.8722  -20.6   9.704  164.8  0.0249   79.6  0.9727  -10.1
 0.110  0.8650  -22.5   9.630  163.4  0.0270   78.0  0.9670  -11.0
 0.120  0.8587  -24.4   9.561  161.9  0.0292   76.7  0.9615  -11.9
 0.130  0.8535  -26.4   9.499  160.4  0.0313   75.6  0.9563  -12.9
 0.140  0.8492  -28.3   9.444  158.9  0.0335   74.6  0.9514  -13.8
 0.150  0.8459  -30.3   9.395  157.4  0.0357   73.7  0.9467  -14.8
 0.200  0.8149  -39.9   9.017  150.3  0.0451   69.5  0.9130  -18.8
 0.250  0.7826  -48.8   8.627  143.7  0.0538   64.3  0.8754  -22.5
 0.300  0.7408  -57.1   8.157  137.9  0.0610   60.8  0.8344  -25.7
 0.350  0.7030  -64.3   7.699  133.0  0.0667   57.6  0.7970  -28.0
 0.400  0.6774  -72.1   7.304  127.6  0.0726   55.0  0.7610  -30.6
 0.450  0.6427  -78.4   6.877  123.6  0.0770   52.8  0.7277  -32.3
 0.500  0.6166  -85.3   6.486  119.2  0.0815   50.9  0.6951  -34.2
 0.600  0.5663  -97.1   5.806  112.0  0.0886   48.1  0.6406  -36.6
 0.700  0.5256 -107.5   5.204  105.8  0.0928   46.4  0.5963  -38.3
 0.800  0.4966 -116.9   4.724  100.4  0.0974   45.7  0.5608  -39.7
 0.900  0.4705 -125.7   4.300   95.6  0.1010   45.0  0.5316  -40.8
 1.000  0.4544 -133.6   3.956   91.3  0.1047   45.2  0.5076  -41.8
 1.100  0.4407 -140.8   3.656   87.5  0.1083   45.4  0.4890  -42.6
 1.200  0.4303 -147.7   3.395   83.7  0.1113   45.4  0.4714  -43.5
 1.300  0.4203 -154.0   3.168   80.3  0.1148   46.2  0.4580  -44.5
 1.400  0.4170 -159.8   2.978   77.1  0.1189   47.1  0.4455  -45.6
 1.500  0.4156 -165.2   2.806   74.1  0.1226   47.9  0.4349  -46.7
 1.600  0.4142 -170.5   2.652   71.1  0.1269   48.6  0.4277  -47.9
 1.700  0.4112 -175.1   2.520   68.5  0.1306   49.7  0.4182  -49.3
 1.800  0.4139  180.0   2.408   65.7  0.1355   50.4  0.4114  -50.7
 1.900  0.4178  175.9   2.300   63.3  0.1403   51.3  0.4054  -52.1
 2.000  0.4180  171.7   2.201   60.6  0.1456   52.0  0.4010  -53.8
 2.100  0.4207  167.8   2.114   58.2  0.1512   52.6  0.3969  -55.5
 2.200  0.4253  164.0   2.031   55.6  0.1568   53.2  0.3931  -57.3
 2.300  0.4289  160.7   1.958   53.4  0.1628   53.7  0.3908  -59.3
 2.400  0.4338  157.5   1.888   51.0  0.1688   54.2  0.3889  -61.3
 2.500  0.4379  154.4   1.824   48.9  0.1752   54.7  0.3872  -63.2
 2.600  0.4433  151.3   1.762   46.7  0.1817   55.1  0.3860  -65.2
 2.700  0.4470  148.4   1.708   44.7  0.1888   55.4  0.3855  -67.1
 2.800  0.4519  145.5   1.657   42.5  0.1960   55.6  0.3855  -69.1
 2.900  0.4567  142.7   1.612   40.5  0.2037   55.6  0.3847  -71.0
 3.000  0.4625  139.9   1.569   38.4  0.2113   55.6  0.3843  -72.9
 3.100  0.4659  137.4   1.529   36.8  0.2197   55.5  0.3835  -74.9
 3.200  0.4701  134.9   1.490   35.1  0.2280   55.3  0.3831  -76.9
 3.300  0.4752  132.4   1.452   33.3  0.2364   55.2  0.3832  -79.0
 3.400  0.4812  130.0   1.416   31.5  0.2447   55.1  0.3838  -81.0
 3.500  0.4880  127.7   1.381   29.5  0.2531   55.0  0.3849  -83.0
 3.600  0.4924  125.5   1.352   28.0  0.2624   54.4  0.3824  -85.2
 3.700  0.4976  123.3   1.323   26.5  0.2717   53.9  0.3804  -87.4
 3.800  0.5035  121.1   1.296   24.8  0.2811   53.4  0.3790  -89.6
 3.900  0.5101  119.0   1.270   23.2  0.2904   52.9  0.3782  -91.9
 4.000  0.5173  117.0   1.245   21.4  0.2998   52.5  0.3780  -94.1
 4.100  0.5216  115.1   1.221   20.0  0.3094   51.6  0.3741  -96.8
 4.200  0.5265  113.2   1.198   18.5  0.3191   50.8  0.3710  -99.5
 4.300  0.5319  111.4   1.176   17.0  0.3289   50.0  0.3687 -102.3
 4.400  0.5378  109.6   1.154   15.4  0.3387   49.3  0.3674 -105.1
 4.500  0.5443  107.8   1.134   13.8  0.3486   48.6  0.3669 -107.9
 4.600  0.5498  106.1   1.113   12.6  0.3584   47.6  0.3642 -111.1
 4.700  0.5558  104.4   1.092   11.4  0.3683   46.7  0.3627 -114.3
 4.800  0.5623  102.7   1.072   10.2  0.3783   45.9  0.3623 -117.5
 4.900  0.5692  101.1   1.052    8.9  0.3884   45.1  0.3631 -120.7
 5.000  0.5766   99.5   1.033    7.5  0.3985   44.3  0.3650 -123.9
 5.100  0.5795   98.0   1.018    6.5  0.4080   43.1  0.3665 -127.2
 5.200  0.5829   96.4   1.003    5.4  0.4178   42.0  0.3692 -130.4
 5.300  0.5867   94.9   0.988    4.3  0.4276   40.9  0.3731 -133.6
 5.400  0.5908   93.5   0.974    3.2  0.4377   39.9  0.3780 -136.7
 5.500  0.5954   92.0   0.960    2.0  0.4478   38.9  0.3841 -139.7
 5.600  0.5976   90.7   0.946    1.2  0.4566   37.7  0.3866 -142.5
 5.700  0.6002   89.4   0.932    0.3  0.4656   36.6  0.3901 -145.2
 5.800  0.6030   88.1   0.919   -0.6  0.4748   35.5  0.3944 -147.9
 5.900  0.6062   86.9   0.905   -1.5  0.4841   34.5  0.3995 -150.5
 6.000  0.6096   85.6   0.892   -2.5  0.4936   33.5  0.4055 -153.1
!
!  f       NFmin   Gammaopt  rn/50
! GHz       dB    MAG  ANG    -
 0.450      0.82  0.39   31   0.20
 0.900      0.95  0.30   57   0.20
 1.900      1.60  0.25  149   0.12
 2.400      1.92  0.23  170   0.17
!
! (c) 2017  Infineon Technologies AG, Munich