! Infineon Technologies  Discrete & RF Semiconductors
! BFR182W
! VCE =  3.0 V,  IC =  48 mA
! Common Emitter S-Parameters:                            Jan 2017
# GHz  S  MA  R  50
!  f         S11            S21            S12            S22
! GHz     MAG   ANG      MAG   ANG      MAG   ANG      MAG   ANG
 0.010  0.2887  -25.0  39.244  171.5  0.0024   74.0  0.8603   -4.5
 0.020  0.3135  -47.3  38.690  163.6  0.0045   75.2  0.8429   -9.8
 0.030  0.3154  -64.6  36.020  157.7  0.0065   68.2  0.8027  -13.2
 0.040  0.3444  -80.4  33.797  150.8  0.0086   64.6  0.7656  -17.0
 0.050  0.3946  -92.9  32.114  143.2  0.0107   62.4  0.7322  -21.1
 0.060  0.3986 -101.2  29.940  140.2  0.0118   61.3  0.6987  -22.2
 0.070  0.4107 -109.1  27.863  136.7  0.0129   60.3  0.6654  -23.4
 0.080  0.4301 -116.5  25.906  132.6  0.0139   59.5  0.6325  -24.8
 0.090  0.4561 -123.1  24.098  128.0  0.0150   58.8  0.6000  -26.2
 0.100  0.4874 -129.0  22.474  122.6  0.0161   58.2  0.5679  -27.9
 0.110  0.4904 -132.6  21.225  120.9  0.0169   58.0  0.5495  -28.0
 0.120  0.4952 -136.1  19.998  119.0  0.0177   57.7  0.5311  -28.0
 0.130  0.5019 -139.5  18.796  116.8  0.0184   57.5  0.5126  -28.1
 0.140  0.5104 -142.9  17.626  114.3  0.0192   57.4  0.4942  -28.1
 0.150  0.5205 -146.1  16.492  111.5  0.0200   57.2  0.4758  -28.2
 0.200  0.5371 -156.0  12.857  104.6  0.0223   59.9  0.4277  -26.7
 0.250  0.5493 -162.8  10.528   99.5  0.0264   61.6  0.4005  -25.1
 0.300  0.5521 -167.6   8.857   96.0  0.0292   63.2  0.3816  -24.0
 0.350  0.5531 -171.3   7.797   93.5  0.0328   65.6  0.3723  -23.3
 0.400  0.5564 -174.9   6.756   90.3  0.0365   67.6  0.3631  -22.6
 0.450  0.5579 -177.6   6.094   88.4  0.0402   68.9  0.3573  -22.5
 0.500  0.5607  179.7   5.441   86.1  0.0440   69.9  0.3515  -22.3
 0.600  0.5656  175.3   4.569   82.4  0.0519   71.5  0.3446  -22.6
 0.700  0.5671  171.8   3.932   79.1  0.0588   73.2  0.3395  -23.3
 0.800  0.5721  168.4   3.460   75.9  0.0677   74.1  0.3356  -24.5
 0.900  0.5723  165.2   3.082   73.0  0.0750   73.8  0.3321  -25.9
 1.000  0.5781  162.1   2.794   70.2  0.0828   74.7  0.3286  -27.5
 1.100  0.5810  159.2   2.553   67.6  0.0913   74.4  0.3259  -29.1
 1.200  0.5848  156.7   2.352   64.9  0.0993   74.5  0.3227  -30.8
 1.300  0.5875  153.9   2.179   62.4  0.1074   74.3  0.3199  -32.8
 1.400  0.5921  151.5   2.040   60.0  0.1167   74.0  0.3156  -35.0
 1.500  0.5962  149.1   1.911   57.6  0.1250   73.6  0.3129  -37.2
 1.600  0.6004  146.7   1.803   55.2  0.1342   73.2  0.3108  -39.6
 1.700  0.6027  144.4   1.710   52.9  0.1427   72.9  0.3066  -42.1
 1.800  0.6083  141.9   1.627   50.6  0.1522   72.3  0.3043  -44.7
 1.900  0.6131  139.8   1.551   48.6  0.1611   71.7  0.3015  -47.3
 2.000  0.6136  137.5   1.479   46.3  0.1702   71.1  0.2996  -50.3
 2.100  0.6185  135.3   1.419   44.3  0.1798   70.4  0.2973  -53.2
 2.200  0.6243  133.1   1.361   42.2  0.1894   69.7  0.2958  -56.2
 2.300  0.6272  131.0   1.311   40.3  0.1987   68.9  0.2944  -59.3
 2.400  0.6309  129.0   1.263   38.3  0.2081   68.1  0.2939  -62.4
 2.500  0.6338  127.0   1.219   36.6  0.2177   67.2  0.2936  -65.5
 2.600  0.6374  125.0   1.176   34.7  0.2274   66.3  0.2941  -68.5
 2.700  0.6405  123.0   1.139   33.1  0.2371   65.4  0.2942  -71.5
 2.800  0.6444  121.1   1.104   31.3  0.2469   64.6  0.2951  -74.4
 2.900  0.6472  119.1   1.073   29.7  0.2565   63.6  0.2952  -77.3
 3.000  0.6508  117.2   1.042   28.1  0.2661   62.7  0.2961  -80.2
 3.100  0.6520  115.3   1.016   26.8  0.2758   61.5  0.2947  -83.0
 3.200  0.6540  113.4   0.990   25.5  0.2857   60.4  0.2941  -85.8
 3.300  0.6567  111.5   0.965   24.1  0.2957   59.4  0.2942  -88.7
 3.400  0.6601  109.6   0.941   22.6  0.3057   58.5  0.2950  -91.5
 3.500  0.6642  107.7   0.917   21.0  0.3158   57.6  0.2965  -94.3
 3.600  0.6658  106.0   0.898   19.9  0.3254   56.3  0.2934  -97.2
 3.700  0.6680  104.2   0.880   18.8  0.3352   55.1  0.2911 -100.1
 3.800  0.6709  102.5   0.862   17.6  0.3451   54.0  0.2896 -103.0
 3.900  0.6743  100.8   0.845   16.4  0.3551   52.9  0.2888 -106.0
 4.000  0.6783   99.1   0.828   15.1  0.3653   51.9  0.2888 -109.0
 4.100  0.6785   97.6   0.814   14.2  0.3743   50.5  0.2852 -112.4
 4.200  0.6792   96.0   0.800   13.2  0.3836   49.2  0.2826 -116.0
 4.300  0.6804   94.5   0.786   12.3  0.3930   48.0  0.2810 -119.5
 4.400  0.6821   93.0   0.772   11.2  0.4026   46.8  0.2806 -123.1
 4.500  0.6842   91.5   0.759   10.2  0.4124   45.7  0.2813 -126.7
 4.600  0.6861   90.1   0.748    9.5  0.4208   44.4  0.2802 -130.6
 4.700  0.6885   88.7   0.737    8.8  0.4294   43.2  0.2803 -134.4
 4.800  0.6912   87.4   0.726    8.1  0.4382   42.0  0.2818 -138.3
 4.900  0.6943   86.0   0.716    7.4  0.4472   40.9  0.2845 -142.1
 5.000  0.6978   84.7   0.705    6.6  0.4563   39.8  0.2884 -145.8
 5.100  0.6972   83.4   0.698    6.0  0.4640   38.5  0.2916 -149.3
 5.200  0.6969   82.1   0.692    5.4  0.4719   37.2  0.2959 -152.7
 5.300  0.6969   80.9   0.686    4.8  0.4800   36.0  0.3012 -156.1
 5.400  0.6973   79.6   0.679    4.2  0.4883   34.8  0.3074 -159.2
 5.500  0.6981   78.3   0.673    3.6  0.4969   33.6  0.3146 -162.3
 5.600  0.6972   77.2   0.668    3.1  0.5033   32.3  0.3182 -165.0
 5.700  0.6966   76.1   0.662    2.6  0.5100   31.1  0.3225 -167.6
 5.800  0.6962   75.0   0.657    2.1  0.5169   29.9  0.3275 -170.1
 5.900  0.6961   73.9   0.652    1.6  0.5240   28.7  0.3330 -172.5
 6.000  0.6963   72.8   0.647    1.1  0.5313   27.6  0.3392 -174.9
!
!  f       NFmin   Gammaopt  rn/50
! GHz       dB    MAG  ANG    -
!
! noise parameter not available yet for this operation point!
!
! (c) 2017  Infineon Technologies AG, Munich