! Infineon Technologies  Discrete & RF Semiconductors
! BFR182W
! VCE =  3.0 V,  IC =  35 mA
! Common Emitter S-Parameters:                            Jan 2017
# GHz  S  MA  R  50
!  f         S11            S21            S12            S22
! GHz     MAG   ANG      MAG   ANG      MAG   ANG      MAG   ANG
 0.010  0.4075  -13.5  41.820  173.4  0.0019   82.7  0.9309   -3.6
 0.020  0.4139  -26.4  41.799  167.3  0.0037   77.9  0.9168   -7.9
 0.030  0.3955  -37.7  39.769  162.1  0.0056   74.4  0.8870  -11.1
 0.040  0.3934  -49.5  38.102  156.4  0.0076   72.6  0.8602  -14.6
 0.050  0.4080  -61.0  36.846  150.2  0.0095   71.6  0.8367  -18.2
 0.060  0.3956  -68.7  34.811  147.1  0.0107   69.5  0.8035  -19.7
 0.070  0.3907  -76.8  32.892  143.6  0.0120   67.8  0.7709  -21.4
 0.080  0.3937  -84.9  31.112  139.6  0.0133   66.5  0.7390  -23.2
 0.090  0.4043  -92.7  29.495  135.3  0.0145   65.3  0.7080  -25.2
 0.100  0.4220 -100.0  28.070  130.4  0.0158   64.4  0.6778  -27.3
 0.110  0.4176 -104.6  26.692  128.5  0.0166   63.7  0.6554  -27.8
 0.120  0.4160 -109.3  25.347  126.3  0.0175   63.1  0.6330  -28.3
 0.130  0.4172 -114.0  24.043  123.9  0.0183   62.5  0.6107  -28.9
 0.140  0.4212 -118.7  22.784  121.3  0.0192   62.0  0.5884  -29.5
 0.150  0.4279 -123.2  21.581  118.3  0.0200   61.5  0.5662  -30.1
 0.200  0.4325 -137.5  17.203  110.5  0.0225   62.9  0.4994  -29.9
 0.250  0.4372 -147.5  14.236  104.7  0.0266   63.3  0.4560  -29.0
 0.300  0.4378 -154.7  12.075  100.8  0.0294   64.0  0.4274  -27.9
 0.350  0.4372 -159.8  10.663   98.1  0.0330   66.4  0.4111  -27.0
 0.400  0.4400 -164.8   9.282   94.6  0.0367   68.4  0.3949  -26.0
 0.450  0.4414 -168.4   8.385   92.6  0.0403   69.1  0.3857  -25.6
 0.500  0.4445 -171.9   7.500   90.1  0.0439   69.6  0.3765  -25.1
 0.600  0.4481 -177.5   6.307   86.3  0.0517   71.1  0.3646  -24.7
 0.700  0.4511  177.9   5.436   83.0  0.0582   72.4  0.3571  -24.9
 0.800  0.4554  173.8   4.784   79.9  0.0665   72.7  0.3515  -25.5
 0.900  0.4561  170.1   4.259   77.0  0.0740   73.4  0.3467  -26.3
 1.000  0.4609  166.7   3.860   74.4  0.0818   73.5  0.3419  -27.3
 1.100  0.4653  163.6   3.527   71.9  0.0898   73.7  0.3393  -28.6
 1.200  0.4670  160.5   3.245   69.4  0.0977   73.3  0.3354  -29.8
 1.300  0.4709  157.6   3.007   66.9  0.1056   73.3  0.3324  -31.4
 1.400  0.4750  155.1   2.811   64.6  0.1145   73.2  0.3280  -33.1
 1.500  0.4808  152.7   2.633   62.4  0.1225   72.7  0.3250  -34.9
 1.600  0.4849  149.9   2.483   60.1  0.1307   72.5  0.3230  -36.7
 1.700  0.4883  147.6   2.350   58.0  0.1388   71.9  0.3195  -38.8
 1.800  0.4955  145.1   2.235   55.7  0.1474   71.4  0.3165  -41.0
 1.900  0.4975  143.0   2.130   53.9  0.1560   70.9  0.3143  -43.2
 2.000  0.5009  140.8   2.030   51.6  0.1646   70.2  0.3119  -45.7
 2.100  0.5058  138.5   1.946   49.7  0.1732   69.5  0.3096  -48.2
 2.200  0.5115  136.3   1.865   47.6  0.1819   68.9  0.3079  -50.7
 2.300  0.5158  134.3   1.796   45.7  0.1909   68.2  0.3063  -53.4
 2.400  0.5207  132.4   1.730   43.7  0.1999   67.6  0.3054  -56.1
 2.500  0.5243  130.4   1.670   41.9  0.2088   66.8  0.3048  -58.7
 2.600  0.5285  128.5   1.611   40.0  0.2177   66.0  0.3048  -61.4
 2.700  0.5330  126.5   1.561   38.3  0.2267   65.2  0.3047  -64.1
 2.800  0.5381  124.6   1.512   36.5  0.2357   64.4  0.3053  -66.7
 2.900  0.5425  122.7   1.469   34.8  0.2448   63.5  0.3052  -69.3
 3.000  0.5475  120.9   1.427   33.0  0.2540   62.7  0.3057  -71.8
 3.100  0.5499  119.0   1.391   31.6  0.2632   61.7  0.3045  -74.3
 3.200  0.5530  117.2   1.355   30.1  0.2724   60.7  0.3038  -76.8
 3.300  0.5566  115.3   1.321   28.6  0.2818   59.8  0.3037  -79.2
 3.400  0.5608  113.5   1.287   26.9  0.2912   59.0  0.3042  -81.7
 3.500  0.5655  111.7   1.255   25.2  0.3006   58.2  0.3053  -84.2
 3.600  0.5689  110.0   1.228   23.9  0.3098   57.0  0.3023  -86.7
 3.700  0.5727  108.3   1.202   22.6  0.3192   55.9  0.2999  -89.3
 3.800  0.5770  106.7   1.177   21.2  0.3286   54.9  0.2981  -92.0
 3.900  0.5818  105.1   1.152   19.7  0.3382   53.9  0.2970  -94.6
 4.000  0.5871  103.5   1.128   18.2  0.3478   53.0  0.2965  -97.3
 4.100  0.5897  102.0   1.107   17.0  0.3567   51.8  0.2925 -100.3
 4.200  0.5926  100.5   1.087   15.7  0.3657   50.6  0.2893 -103.5
 4.300  0.5960   99.1   1.067   14.4  0.3749   49.5  0.2871 -106.6
 4.400  0.5997   97.6   1.048   13.0  0.3843   48.5  0.2857 -109.9
 4.500  0.6038   96.2   1.030   11.6  0.3937   47.5  0.2852 -113.1
 4.600  0.6081   94.8   1.012   10.6  0.4023   46.3  0.2830 -116.7
 4.700  0.6127   93.5   0.994    9.6  0.4111   45.1  0.2820 -120.4
 4.800  0.6176   92.2   0.977    8.5  0.4200   44.0  0.2821 -124.1
 4.900  0.6228   90.9   0.960    7.4  0.4291   42.9  0.2834 -127.8
 5.000  0.6284   89.6   0.943    6.3  0.4383   41.9  0.2858 -131.4
 5.100  0.6300   88.3   0.931    5.4  0.4463   40.7  0.2881 -135.0
 5.200  0.6318   87.1   0.919    4.5  0.4545   39.5  0.2914 -138.5
 5.300  0.6340   85.8   0.907    3.6  0.4629   38.3  0.2958 -141.9
 5.400  0.6365   84.5   0.895    2.6  0.4715   37.2  0.3013 -145.2
 5.500  0.6393   83.3   0.884    1.6  0.4803   36.1  0.3077 -148.4
 5.600  0.6401   82.2   0.872    0.8  0.4875   34.9  0.3111 -151.3
 5.700  0.6412   81.1   0.861    0.1  0.4948   33.7  0.3152 -154.0
 5.800  0.6425   80.0   0.849   -0.7  0.5024   32.6  0.3200 -156.7
 5.900  0.6440   79.0   0.838   -1.6  0.5102   31.5  0.3255 -159.4
 6.000  0.6458   77.9   0.827   -2.4  0.5181   30.4  0.3317 -161.9
!
!  f       NFmin   Gammaopt  rn/50
! GHz       dB    MAG  ANG    -
!
! noise parameter not available yet for this operation point!
!
! (c) 2017  Infineon Technologies AG, Munich