! Infineon Technologies  Discrete & RF Semiconductors
! BFR182W
! VCE =  4.0 V,  IC =  50 mA
! Common Emitter S-Parameters:                            Jan 2017
# GHz  S  MA  R  50
!  f         S11            S21            S12            S22
! GHz     MAG   ANG      MAG   ANG      MAG   ANG      MAG   ANG
 0.010  0.3157  -20.3  40.285  172.2  0.0021   76.7  0.8854   -3.8
 0.020  0.3321  -39.0  39.642  165.1  0.0042   77.9  0.8698   -8.5
 0.030  0.3256  -54.6  37.294  159.3  0.0061   70.2  0.8346  -11.7
 0.040  0.3433  -69.8  35.370  152.9  0.0080   66.1  0.8021  -15.2
 0.050  0.3818  -82.6  33.942  145.8  0.0099   63.6  0.7729  -18.9
 0.060  0.3808  -91.0  31.778  142.7  0.0109   63.0  0.7408  -20.1
 0.070  0.3880  -99.3  29.720  139.2  0.0119   62.5  0.7090  -21.3
 0.080  0.4029 -107.1  27.791  135.2  0.0130   62.1  0.6776  -22.7
 0.090  0.4246 -114.2  26.019  130.5  0.0140   61.8  0.6467  -24.2
 0.100  0.4523 -120.6  24.440  125.3  0.0150   61.5  0.6162  -25.9
 0.110  0.4537 -124.7  23.139  123.5  0.0158   61.6  0.5973  -26.0
 0.120  0.4573 -128.7  21.864  121.5  0.0165   61.6  0.5784  -26.2
 0.130  0.4632 -132.7  20.618  119.3  0.0173   61.7  0.5594  -26.3
 0.140  0.4712 -136.5  19.408  116.8  0.0180   61.8  0.5405  -26.4
 0.150  0.4812 -140.2  18.241  113.9  0.0188   61.8  0.5216  -26.6
 0.200  0.4960 -151.3  14.327  106.7  0.0210   61.8  0.4717  -25.4
 0.250  0.5059 -158.9  11.772  101.4  0.0249   62.2  0.4415  -24.0
 0.300  0.5085 -164.5   9.919   97.8  0.0274   64.9  0.4212  -22.9
 0.350  0.5107 -168.4   8.742   95.3  0.0309   66.7  0.4108  -22.3
 0.400  0.5152 -172.2   7.588   92.0  0.0344   68.1  0.4005  -21.6
 0.450  0.5162 -175.2   6.848   90.1  0.0378   69.7  0.3943  -21.5
 0.500  0.5186 -178.2   6.117   87.8  0.0412   71.0  0.3882  -21.4
 0.600  0.5236  177.1   5.140   84.1  0.0497   72.1  0.3808  -21.6
 0.700  0.5255  173.3   4.426   80.9  0.0565   74.1  0.3754  -22.2
 0.800  0.5300  169.7   3.896   77.8  0.0647   74.7  0.3712  -23.3
 0.900  0.5314  166.2   3.469   74.9  0.0715   75.1  0.3671  -24.5
 1.000  0.5340  163.3   3.146   72.3  0.0794   75.1  0.3639  -25.9
 1.100  0.5404  160.2   2.877   69.7  0.0873   75.3  0.3608  -27.5
 1.200  0.5426  157.5   2.649   67.1  0.0954   75.2  0.3574  -29.1
 1.300  0.5442  154.8   2.454   64.7  0.1034   75.1  0.3544  -31.0
 1.400  0.5496  152.2   2.296   62.3  0.1118   75.0  0.3505  -32.8
 1.500  0.5545  149.8   2.153   60.1  0.1203   74.7  0.3477  -34.9
 1.600  0.5581  147.3   2.030   57.7  0.1286   74.2  0.3454  -37.0
 1.700  0.5596  144.9   1.920   55.5  0.1373   73.9  0.3419  -39.3
 1.800  0.5657  142.6   1.831   53.2  0.1460   73.4  0.3390  -41.6
 1.900  0.5701  140.4   1.744   51.3  0.1548   73.0  0.3366  -44.0
 2.000  0.5719  138.2   1.663   49.1  0.1640   72.3  0.3338  -46.6
 2.100  0.5765  135.9   1.595   47.1  0.1730   71.6  0.3315  -49.2
 2.200  0.5820  133.6   1.529   45.0  0.1820   71.0  0.3300  -51.9
 2.300  0.5860  131.7   1.474   43.1  0.1912   70.2  0.3283  -54.7
 2.400  0.5906  129.8   1.420   41.0  0.2005   69.4  0.3274  -57.6
 2.500  0.5934  127.7   1.371   39.3  0.2097   68.6  0.3268  -60.3
 2.600  0.5970  125.7   1.323   37.5  0.2190   67.9  0.3270  -63.1
 2.700  0.6003  123.8   1.282   35.9  0.2286   67.0  0.3268  -65.9
 2.800  0.6043  122.0   1.242   34.1  0.2382   66.2  0.3273  -68.7
 2.900  0.6077  120.1   1.206   32.4  0.2477   65.2  0.3269  -71.4
 3.000  0.6118  118.2   1.172   30.7  0.2573   64.3  0.3272  -74.1
 3.100  0.6133  116.3   1.143   29.4  0.2670   63.2  0.3256  -76.7
 3.200  0.6154  114.3   1.114   28.0  0.2768   62.2  0.3247  -79.2
 3.300  0.6182  112.4   1.086   26.5  0.2866   61.2  0.3244  -81.8
 3.400  0.6217  110.6   1.058   24.9  0.2966   60.3  0.3248  -84.4
 3.500  0.6259  108.7   1.032   23.3  0.3066   59.5  0.3259  -87.0
 3.600  0.6281  107.0   1.011   22.2  0.3162   58.2  0.3224  -89.7
 3.700  0.6309  105.3   0.990   21.0  0.3259   57.1  0.3197  -92.4
 3.800  0.6342  103.6   0.969   19.7  0.3358   55.9  0.3177  -95.1
 3.900  0.6380  101.9   0.949   18.4  0.3458   54.9  0.3164  -97.9
 4.000  0.6424  100.3   0.930   17.1  0.3559   53.9  0.3159 -100.7
 4.100  0.6437   98.8   0.914   16.0  0.3651   52.6  0.3116 -103.9
 4.200  0.6455   97.2   0.898   14.9  0.3745   51.3  0.3082 -107.1
 4.300  0.6477   95.7   0.882   13.8  0.3840   50.1  0.3058 -110.4
 4.400  0.6504   94.2   0.867   12.6  0.3937   49.0  0.3045 -113.7
 4.500  0.6535   92.7   0.852   11.4  0.4036   47.9  0.3042 -117.1
 4.600  0.6563   91.4   0.838   10.6  0.4123   46.6  0.3018 -120.8
 4.700  0.6594   90.0   0.825    9.7  0.4212   45.4  0.3006 -124.4
 4.800  0.6629   88.7   0.812    8.8  0.4303   44.3  0.3006 -128.2
 4.900  0.6668   87.4   0.799    7.9  0.4396   43.2  0.3019 -131.9
 5.000  0.6710   86.1   0.786    7.0  0.4490   42.1  0.3045 -135.5
 5.100  0.6709   84.8   0.778    6.3  0.4570   40.7  0.3066 -139.0
 5.200  0.6712   83.5   0.769    5.6  0.4652   39.4  0.3098 -142.5
 5.300  0.6717   82.3   0.761    4.8  0.4736   38.2  0.3141 -145.9
 5.400  0.6727   81.0   0.753    4.1  0.4823   37.0  0.3196 -149.2
 5.500  0.6739   79.7   0.745    3.3  0.4912   35.8  0.3260 -152.4
 5.600  0.6737   78.6   0.738    2.7  0.4980   34.5  0.3290 -155.2
 5.700  0.6738   77.5   0.730    2.2  0.5051   33.3  0.3328 -157.9
 5.800  0.6741   76.5   0.723    1.6  0.5124   32.1  0.3373 -160.6
 5.900  0.6746   75.4   0.716    1.0  0.5200   30.9  0.3426 -163.2
 6.000  0.6754   74.3   0.709    0.4  0.5277   29.8  0.3485 -165.7
!
!  f       NFmin   Gammaopt  rn/50
! GHz       dB    MAG  ANG    -
!
! noise parameter not available yet for this operation point!
!
! (c) 2017  Infineon Technologies AG, Munich