! Infineon Technologies  Discrete & RF Semiconductors
! BFR182W
! VCE =  2.0 V,  IC =  25 mA
! Common Emitter S-Parameters:                            Jan 2017
# GHz  S  MA  R  50
!  f         S11            S21            S12            S22
! GHz     MAG   ANG      MAG   ANG      MAG   ANG      MAG   ANG
 0.010  0.4784  -10.9  39.487  174.1  0.0021   87.2  0.9497   -3.6
 0.020  0.4836  -21.2  39.489  168.6  0.0042   86.4  0.9383   -7.7
 0.030  0.4620  -30.6  37.890  163.7  0.0064   80.3  0.9110  -10.9
 0.040  0.4537  -40.6  36.586  158.5  0.0086   77.4  0.8868  -14.3
 0.050  0.4595  -50.6  35.610  152.9  0.0108   75.6  0.8659  -17.9
 0.060  0.4421  -57.5  33.855  149.7  0.0122   72.5  0.8334  -19.7
 0.070  0.4316  -64.9  32.212  146.3  0.0136   70.0  0.8018  -21.6
 0.080  0.4286  -72.5  30.702  142.4  0.0150   68.0  0.7711  -23.6
 0.090  0.4331  -80.1  29.344  138.2  0.0164   66.4  0.7416  -25.9
 0.100  0.4450  -87.4  28.159  133.6  0.0179   65.0  0.7132  -28.3
 0.110  0.4360  -92.0  26.861  131.6  0.0187   63.7  0.6889  -29.0
 0.120  0.4300  -96.8  25.600  129.4  0.0196   62.5  0.6648  -29.8
 0.130  0.4270 -101.7  24.381  126.9  0.0204   61.4  0.6408  -30.7
 0.140  0.4272 -106.6  23.210  124.3  0.0212   60.4  0.6170  -31.6
 0.150  0.4305 -111.5  22.096  121.3  0.0221   59.5  0.5933  -32.6
 0.200  0.4258 -127.4  17.836  113.1  0.0246   61.1  0.5154  -33.5
 0.250  0.4240 -138.9  14.848  107.0  0.0289   61.6  0.4631  -33.2
 0.300  0.4210 -147.1  12.640  102.7  0.0321   62.2  0.4267  -32.3
 0.350  0.4190 -152.9  11.183   99.9  0.0357   63.8  0.4056  -31.4
 0.400  0.4214 -158.7   9.762   96.2  0.0394   65.1  0.3846  -30.5
 0.450  0.4207 -162.8   8.825   94.1  0.0431   66.2  0.3725  -29.9
 0.500  0.4221 -166.8   7.903   91.4  0.0468   67.1  0.3605  -29.3
 0.600  0.4249 -173.3   6.659   87.4  0.0544   68.1  0.3450  -28.6
 0.700  0.4287 -178.4   5.741   84.0  0.0612   70.5  0.3346  -28.4
 0.800  0.4308  177.0   5.056   80.8  0.0700   70.9  0.3269  -28.6
 0.900  0.4334  173.0   4.501   77.9  0.0772   71.1  0.3212  -29.2
 1.000  0.4383  169.4   4.083   75.2  0.0848   71.5  0.3156  -30.0
 1.100  0.4414  165.9   3.729   72.7  0.0931   71.7  0.3124  -31.1
 1.200  0.4438  162.7   3.432   70.1  0.1008   71.5  0.3079  -32.1
 1.300  0.4481  159.7   3.179   67.7  0.1089   71.1  0.3041  -33.6
 1.400  0.4532  157.1   2.972   65.4  0.1182   71.1  0.2997  -35.1
 1.500  0.4586  154.5   2.782   63.1  0.1258   70.6  0.2968  -36.9
 1.600  0.4622  151.8   2.624   60.8  0.1345   70.3  0.2947  -38.7
 1.700  0.4656  149.3   2.483   58.6  0.1426   69.9  0.2908  -40.7
 1.800  0.4714  146.9   2.363   56.4  0.1513   69.3  0.2879  -42.8
 1.900  0.4759  144.7   2.252   54.5  0.1603   68.8  0.2851  -45.1
 2.000  0.4781  142.4   2.145   52.2  0.1687   68.2  0.2832  -47.6
 2.100  0.4834  140.0   2.057   50.3  0.1773   67.5  0.2809  -50.1
 2.200  0.4896  137.7   1.972   48.2  0.1859   66.9  0.2792  -52.6
 2.300  0.4944  135.8   1.899   46.3  0.1946   66.2  0.2779  -55.3
 2.400  0.4997  133.9   1.829   44.2  0.2034   65.5  0.2772  -58.0
 2.500  0.5037  132.0   1.765   42.5  0.2119   64.7  0.2766  -60.7
 2.600  0.5082  130.1   1.703   40.6  0.2204   64.0  0.2767  -63.4
 2.700  0.5124  128.2   1.650   38.9  0.2295   63.1  0.2768  -66.1
 2.800  0.5172  126.3   1.599   37.0  0.2386   62.3  0.2775  -68.8
 2.900  0.5213  124.3   1.553   35.3  0.2475   61.5  0.2776  -71.4
 3.000  0.5260  122.3   1.508   33.4  0.2564   60.7  0.2782  -74.0
 3.100  0.5288  120.4   1.470   32.0  0.2654   59.7  0.2773  -76.5
 3.200  0.5321  118.5   1.432   30.4  0.2744   58.8  0.2769  -79.0
 3.300  0.5360  116.7   1.396   28.8  0.2836   57.9  0.2771  -81.5
 3.400  0.5404  114.9   1.361   27.2  0.2928   57.1  0.2777  -83.9
 3.500  0.5454  113.1   1.327   25.4  0.3020   56.3  0.2789  -86.4
 3.600  0.5495  111.4   1.299   24.1  0.3110   55.2  0.2763  -89.0
 3.700  0.5540  109.8   1.271   22.7  0.3201   54.1  0.2743  -91.6
 3.800  0.5589  108.2   1.245   21.3  0.3294   53.1  0.2728  -94.2
 3.900  0.5643  106.6   1.219   19.8  0.3387   52.2  0.2719  -96.8
 4.000  0.5701  105.1   1.194   18.2  0.3481   51.3  0.2716  -99.5
 4.100  0.5735  103.6   1.171   16.9  0.3567   50.1  0.2680 -102.6
 4.200  0.5773  102.1   1.149   15.6  0.3655   49.0  0.2653 -105.9
 4.300  0.5815  100.7   1.128   14.3  0.3744   48.0  0.2634 -109.2
 4.400  0.5860   99.2   1.107   12.9  0.3835   47.0  0.2624 -112.5
 4.500  0.5909   97.8   1.087   11.4  0.3926   46.0  0.2623 -115.8
 4.600  0.5953   96.4   1.068   10.3  0.4009   44.8  0.2608 -119.5
 4.700  0.6001   95.0   1.049    9.2  0.4094   43.7  0.2604 -123.3
 4.800  0.6052   93.7   1.031    8.1  0.4180   42.6  0.2611 -127.1
 4.900  0.6106   92.3   1.013    6.9  0.4268   41.6  0.2629 -130.8
 5.000  0.6164   91.0   0.996    5.7  0.4357   40.6  0.2659 -134.5
 5.100  0.6183   89.7   0.982    4.8  0.4435   39.4  0.2689 -138.1
 5.200  0.6204   88.5   0.969    3.8  0.4516   38.2  0.2729 -141.6
 5.300  0.6229   87.3   0.956    2.8  0.4598   37.1  0.2779 -145.0
 5.400  0.6257   86.0   0.943    1.8  0.4682   36.0  0.2839 -148.3
 5.500  0.6287   84.8   0.930    0.7  0.4768   34.9  0.2907 -151.4
 5.600  0.6301   83.7   0.917   -0.1  0.4838   33.7  0.2946 -154.2
 5.700  0.6316   82.6   0.905   -1.0  0.4910   32.6  0.2992 -156.9
 5.800  0.6335   81.5   0.893   -1.8  0.4985   31.5  0.3045 -159.5
 5.900  0.6355   80.4   0.881   -2.7  0.5060   30.4  0.3103 -162.1
 6.000  0.6378   79.3   0.869   -3.6  0.5138   29.4  0.3168 -164.5
!
!  f       NFmin   Gammaopt  rn/50
! GHz       dB    MAG  ANG    -
 0.450      1.56  0.16 -169   0.15
 0.900      1.65  0.17 -163   0.16
 1.900      2.18  0.33 -138   0.18
 2.400      2.46  0.34 -127   0.29
!
! (c) 2017  Infineon Technologies AG, Munich