! Infineon Technologies  Discrete & RF Semiconductors
! BFR182W
! VCE =  5.0 V,  IC =  43 mA
! Common Emitter S-Parameters:                            Jan 2017
# GHz  S  MA  R  50
!  f         S11            S21            S12            S22
! GHz     MAG   ANG      MAG   ANG      MAG   ANG      MAG   ANG
 0.010  0.3931  -12.7  43.997  173.4  0.0017   70.6  0.9357   -3.1
 0.020  0.3997  -25.0  43.716  167.5  0.0034   88.5  0.9242   -7.3
 0.030  0.3813  -35.9  41.731  162.3  0.0049   78.2  0.8958  -10.3
 0.040  0.3778  -47.5  40.115  156.7  0.0065   72.8  0.8701  -13.6
 0.050  0.3896  -58.8  38.915  150.7  0.0082   69.6  0.8473  -17.0
 0.060  0.3768  -66.4  36.813  147.6  0.0094   68.4  0.8158  -18.4
 0.070  0.3710  -74.4  34.834  144.1  0.0106   67.5  0.7848  -20.0
 0.080  0.3726  -82.5  33.002  140.1  0.0118   66.8  0.7545  -21.7
 0.090  0.3816  -90.4  31.340  135.8  0.0130   66.2  0.7248  -23.5
 0.100  0.3973  -97.8  29.878  131.0  0.0142   65.7  0.6960  -25.5
 0.110  0.3921 -102.4  28.422  129.1  0.0151   65.1  0.6744  -25.9
 0.120  0.3895 -107.1  27.002  126.9  0.0159   64.6  0.6528  -26.4
 0.130  0.3895 -111.9  25.623  124.6  0.0168   64.2  0.6312  -26.8
 0.140  0.3922 -116.6  24.294  121.9  0.0176   63.8  0.6097  -27.4
 0.150  0.3975 -121.2  23.021  119.0  0.0185   63.4  0.5883  -27.9
 0.200  0.4042 -135.8  18.398  111.2  0.0215   64.0  0.5233  -27.7
 0.250  0.4057 -146.1  15.243  105.5  0.0250   65.2  0.4823  -26.7
 0.300  0.4055 -153.3  12.922  101.5  0.0279   66.0  0.4540  -25.6
 0.350  0.4052 -158.5  11.421   98.8  0.0311   67.8  0.4388  -24.9
 0.400  0.4083 -163.7   9.951   95.4  0.0343   69.2  0.4236  -24.1
 0.450  0.4083 -167.4   8.993   93.4  0.0380   70.4  0.4144  -23.7
 0.500  0.4100 -171.1   8.048   91.0  0.0417   71.4  0.4053  -23.3
 0.600  0.4149 -177.1   6.776   87.3  0.0491   72.2  0.3949  -23.0
 0.700  0.4158  178.4   5.839   84.1  0.0561   74.0  0.3874  -23.2
 0.800  0.4206  174.1   5.143   81.0  0.0640   74.6  0.3814  -23.9
 0.900  0.4220  170.3   4.581   78.3  0.0712   74.5  0.3770  -24.7
 1.000  0.4252  166.8   4.155   75.7  0.0785   75.0  0.3724  -25.7
 1.100  0.4301  163.6   3.794   73.3  0.0863   74.9  0.3691  -26.9
 1.200  0.4332  160.6   3.494   70.8  0.0939   74.5  0.3650  -28.1
 1.300  0.4377  157.7   3.237   68.5  0.1020   74.6  0.3624  -29.6
 1.400  0.4411  155.3   3.026   66.2  0.1103   74.4  0.3582  -31.3
 1.500  0.4464  152.7   2.835   64.1  0.1180   74.1  0.3550  -32.9
 1.600  0.4492  150.1   2.673   61.8  0.1263   73.8  0.3528  -34.7
 1.700  0.4526  147.7   2.530   59.8  0.1342   73.3  0.3491  -36.7
 1.800  0.4586  145.2   2.408   57.6  0.1427   72.7  0.3462  -38.7
 1.900  0.4633  143.1   2.293   55.8  0.1511   72.2  0.3435  -40.8
 2.000  0.4671  140.8   2.187   53.6  0.1593   71.6  0.3410  -43.1
 2.100  0.4713  138.6   2.097   51.7  0.1679   71.0  0.3386  -45.4
 2.200  0.4762  136.4   2.010   49.6  0.1766   70.4  0.3368  -47.7
 2.300  0.4804  134.4   1.937   47.8  0.1855   69.7  0.3351  -50.2
 2.400  0.4851  132.5   1.866   45.8  0.1944   69.0  0.3340  -52.7
 2.500  0.4890  130.6   1.801   44.1  0.2029   68.2  0.3331  -55.1
 2.600  0.4934  128.7   1.737   42.2  0.2115   67.4  0.3328  -57.6
 2.700  0.4978  126.8   1.684   40.5  0.2205   66.6  0.3324  -60.0
 2.800  0.5028  125.0   1.632   38.7  0.2295   65.8  0.3326  -62.5
 2.900  0.5070  123.0   1.584   37.0  0.2383   64.9  0.3322  -64.9
 3.000  0.5118  121.1   1.538   35.2  0.2472   64.1  0.3324  -67.4
 3.100  0.5148  119.3   1.499   33.8  0.2563   63.1  0.3310  -69.7
 3.200  0.5182  117.5   1.461   32.3  0.2654   62.2  0.3301  -72.0
 3.300  0.5222  115.7   1.424   30.7  0.2746   61.3  0.3297  -74.3
 3.400  0.5267  114.0   1.389   29.0  0.2839   60.5  0.3299  -76.7
 3.500  0.5316  112.3   1.354   27.3  0.2932   59.8  0.3306  -79.0
 3.600  0.5354  110.6   1.325   26.0  0.3024   58.7  0.3274  -81.4
 3.700  0.5396  109.0   1.298   24.6  0.3117   57.6  0.3247  -83.8
 3.800  0.5442  107.4   1.271   23.2  0.3211   56.6  0.3226  -86.2
 3.900  0.5493  105.8   1.244   21.7  0.3306   55.6  0.3212  -88.7
 4.000  0.5548  104.2   1.219   20.1  0.3402   54.7  0.3203  -91.2
 4.100  0.5579  102.8   1.197   18.9  0.3491   53.5  0.3158  -94.0
 4.200  0.5614  101.3   1.175   17.6  0.3581   52.4  0.3120  -96.9
 4.300  0.5652   99.9   1.153   16.2  0.3673   51.3  0.3091  -99.9
 4.400  0.5693   98.6   1.133   14.8  0.3766   50.3  0.3070 -102.9
 4.500  0.5738   97.2   1.113   13.4  0.3860   49.3  0.3058 -105.9
 4.600  0.5787   95.8   1.093   12.4  0.3948   48.1  0.3027 -109.3
 4.700  0.5840   94.5   1.074   11.3  0.4037   47.0  0.3007 -112.8
 4.800  0.5895   93.2   1.055   10.2  0.4128   45.9  0.2998 -116.4
 4.900  0.5954   91.9   1.037    9.0  0.4220   44.8  0.3001 -119.9
 5.000  0.6016   90.6   1.019    7.8  0.4314   43.8  0.3015 -123.4
 5.100  0.6033   89.4   1.005    6.8  0.4396   42.6  0.3027 -126.9
 5.200  0.6053   88.1   0.992    5.8  0.4480   41.3  0.3051 -130.4
 5.300  0.6075   86.9   0.978    4.8  0.4566   40.2  0.3085 -133.8
 5.400  0.6100   85.7   0.966    3.7  0.4654   39.1  0.3131 -137.1
 5.500  0.6128   84.5   0.953    2.6  0.4744   38.0  0.3186 -140.3
 5.600  0.6146   83.4   0.940    1.8  0.4818   36.8  0.3212 -143.2
 5.700  0.6166   82.3   0.927    1.0  0.4894   35.6  0.3247 -146.0
 5.800  0.6189   81.2   0.915    0.1  0.4973   34.5  0.3289 -148.8
 5.900  0.6214   80.1   0.902   -0.8  0.5053   33.4  0.3338 -151.5
 6.000  0.6241   79.0   0.890   -1.7  0.5135   32.3  0.3395 -154.1
!
!  f       NFmin   Gammaopt  rn/50
! GHz       dB    MAG  ANG    -
!
! noise parameter not available yet for this operation point!
!
! (c) 2017  Infineon Technologies AG, Munich