! Infineon Technologies  Discrete & RF Semiconductors
! BFR182W
! VCE =  9.0 V,  IC =  27 mA
! Common Emitter S-Parameters:                            Jan 2017
# GHz  S  MA  R  50
!  f         S11            S21            S12            S22
! GHz     MAG   ANG      MAG   ANG      MAG   ANG      MAG   ANG
 0.010  0.5520   -6.1  42.855  174.3  0.0012   85.7  0.9790   -2.5
 0.020  0.5618  -12.8  42.942  170.3  0.0034   93.2  0.9692   -5.8
 0.030  0.5404  -18.8  41.667  166.4  0.0052   84.0  0.9515   -8.5
 0.040  0.5253  -25.1  40.602  162.2  0.0071   79.6  0.9361  -11.3
 0.050  0.5171  -31.8  39.764  157.8  0.0090   77.1  0.9229  -14.2
 0.060  0.4980  -36.6  38.270  154.8  0.0102   75.2  0.8967  -15.9
 0.070  0.4827  -41.8  36.889  151.6  0.0113   73.7  0.8713  -17.8
 0.080  0.4716  -47.3  35.634  148.1  0.0125   72.5  0.8469  -19.7
 0.090  0.4650  -52.9  34.517  144.4  0.0137   71.5  0.8236  -21.8
 0.100  0.4630  -58.7  33.554  140.5  0.0149   70.6  0.8014  -24.0
 0.110  0.4465  -62.3  32.264  138.4  0.0158   69.6  0.7785  -24.9
 0.120  0.4320  -66.3  31.021  136.1  0.0167   68.7  0.7558  -25.9
 0.130  0.4196  -70.4  29.829  133.7  0.0176   67.9  0.7333  -27.0
 0.140  0.4095  -74.8  28.697  131.1  0.0185   67.2  0.7111  -28.1
 0.150  0.4020  -79.4  27.631  128.2  0.0194   66.5  0.6892  -29.3
 0.200  0.3611  -95.7  22.944  119.5  0.0233   68.0  0.6057  -31.5
 0.250  0.3329 -108.9  19.467  112.9  0.0271   66.7  0.5446  -32.1
 0.300  0.3125 -119.3  16.744  108.3  0.0303   66.8  0.4995  -31.9
 0.350  0.2985 -126.8  14.890  105.2  0.0337   67.6  0.4720  -31.3
 0.400  0.2900 -134.8  13.093  101.2  0.0371   68.3  0.4446  -30.7
 0.450  0.2827 -140.6  11.876   98.9  0.0407   69.3  0.4281  -30.1
 0.500  0.2784 -146.7  10.682   96.1  0.0444   70.2  0.4116  -29.4
 0.600  0.2719 -156.1   9.035   92.0  0.0518   70.8  0.3910  -28.6
 0.700  0.2707 -163.8   7.806   88.6  0.0582   71.9  0.3769  -28.0
 0.800  0.2701 -170.2   6.884   85.4  0.0664   72.7  0.3671  -27.9
 0.900  0.2702 -175.7   6.139   82.6  0.0737   72.0  0.3588  -27.9
 1.000  0.2745  179.0   5.565   80.1  0.0814   72.5  0.3517  -28.3
 1.100  0.2777  175.0   5.086   77.7  0.0888   72.2  0.3479  -28.8
 1.200  0.2812  170.4   4.679   75.3  0.0962   72.0  0.3426  -29.4
 1.300  0.2834  166.9   4.335   73.0  0.1042   71.6  0.3387  -30.4
 1.400  0.2871  163.5   4.050   70.8  0.1120   71.6  0.3335  -31.5
 1.500  0.2927  160.5   3.793   68.8  0.1196   71.0  0.3303  -32.7
 1.600  0.2957  157.2   3.573   66.7  0.1277   70.5  0.3278  -34.0
 1.700  0.2993  154.4   3.378   64.7  0.1350   70.2  0.3238  -35.5
 1.800  0.3057  151.8   3.212   62.6  0.1432   69.4  0.3209  -37.1
 1.900  0.3102  149.3   3.060   60.9  0.1509   69.1  0.3178  -38.7
 2.000  0.3136  146.9   2.916   58.8  0.1588   68.4  0.3153  -40.6
 2.100  0.3192  144.5   2.795   57.0  0.1669   67.8  0.3125  -42.6
 2.200  0.3253  142.1   2.677   55.1  0.1750   67.2  0.3101  -44.6
 2.300  0.3306  140.0   2.579   53.3  0.1828   66.5  0.3083  -46.7
 2.400  0.3363  138.0   2.483   51.4  0.1907   65.9  0.3069  -48.9
 2.500  0.3411  136.0   2.396   49.7  0.1987   65.1  0.3057  -51.0
 2.600  0.3463  134.0   2.311   47.9  0.2067   64.4  0.3049  -53.1
 2.700  0.3508  132.1   2.240   46.3  0.2148   63.6  0.3044  -55.2
 2.800  0.3557  130.3   2.170   44.6  0.2229   62.9  0.3043  -57.4
 2.900  0.3610  128.3   2.108   42.9  0.2308   62.1  0.3036  -59.5
 3.000  0.3667  126.4   2.047   41.2  0.2388   61.4  0.3034  -61.6
 3.100  0.3707  124.6   1.995   39.8  0.2470   60.5  0.3022  -63.6
 3.200  0.3751  122.7   1.944   38.2  0.2552   59.7  0.3013  -65.5
 3.300  0.3799  121.0   1.894   36.6  0.2634   58.9  0.3008  -67.5
 3.400  0.3850  119.3   1.846   35.0  0.2717   58.2  0.3007  -69.5
 3.500  0.3905  117.6   1.800   33.2  0.2801   57.5  0.3009  -71.5
 3.600  0.3956  116.0   1.763   31.8  0.2882   56.5  0.2978  -73.5
 3.700  0.4009  114.5   1.727   30.4  0.2965   55.5  0.2952  -75.6
 3.800  0.4066  113.0   1.692   28.9  0.3048   54.7  0.2929  -77.7
 3.900  0.4125  111.5   1.658   27.4  0.3132   53.8  0.2910  -79.8
 4.000  0.4187  110.1   1.625   25.8  0.3216   53.0  0.2895  -82.0
 4.100  0.4243  108.7   1.595   24.4  0.3297   52.0  0.2852  -84.4
 4.200  0.4301  107.4   1.566   23.0  0.3378   51.0  0.2814  -86.9
 4.300  0.4361  106.2   1.539   21.6  0.3461   50.1  0.2781  -89.4
 4.400  0.4424  104.9   1.512   20.1  0.3544   49.2  0.2754  -92.1
 4.500  0.4488  103.7   1.486   18.5  0.3628   48.4  0.2733  -94.7
 4.600  0.4557  102.3   1.460   17.3  0.3708   47.4  0.2697  -97.8
 4.700  0.4629  101.0   1.434   16.0  0.3789   46.4  0.2669 -101.1
 4.800  0.4703   99.7   1.409   14.7  0.3872   45.5  0.2650 -104.4
 4.900  0.4779   98.5   1.385   13.3  0.3955   44.6  0.2639 -107.7
 5.000  0.4858   97.3   1.362   11.9  0.4039   43.7  0.2638 -111.0
 5.100  0.4896   96.1   1.343   10.7  0.4117   42.6  0.2644 -114.5
 5.200  0.4935   94.9   1.324    9.6  0.4197   41.5  0.2659 -117.9
 5.300  0.4977   93.8   1.306    8.3  0.4278   40.5  0.2684 -121.3
 5.400  0.5021   92.6   1.289    7.1  0.4360   39.5  0.2719 -124.7
 5.500  0.5067   91.5   1.272    5.8  0.4444   38.6  0.2762 -127.9
 5.600  0.5104   90.5   1.253    4.7  0.4517   37.5  0.2786 -130.8
 5.700  0.5143   89.5   1.235    3.7  0.4591   36.4  0.2816 -133.7
 5.800  0.5183   88.5   1.218    2.5  0.4667   35.4  0.2854 -136.5
 5.900  0.5225   87.5   1.201    1.4  0.4745   34.4  0.2898 -139.3
 6.000  0.5268   86.5   1.184    0.2  0.4824   33.4  0.2949 -141.9
!
!  f       NFmin   Gammaopt  rn/50
! GHz       dB    MAG  ANG    -
!
! noise parameter not available yet for this operation point!
!
! (c) 2017  Infineon Technologies AG, Munich