! Infineon Technologies  Discrete & RF Semiconductors
! BFR182W
! VCE =  5.0 V,  IC =  50 mA
! Common Emitter S-Parameters:                            Jan 2017
# GHz  S  MA  R  50
!  f         S11            S21            S12            S22
! GHz     MAG   ANG      MAG   ANG      MAG   ANG      MAG   ANG
 0.010  0.3334  -17.3  42.681  172.6  0.0019   72.8  0.9044   -3.4
 0.020  0.3452  -34.1  42.279  165.9  0.0038   78.7  0.8926   -7.9
 0.030  0.3337  -48.1  39.934  160.3  0.0054   73.5  0.8598  -10.9
 0.040  0.3427  -62.2  38.009  154.2  0.0071   70.7  0.8297  -14.2
 0.050  0.3707  -74.8  36.571  147.4  0.0088   69.0  0.8024  -17.7
 0.060  0.3655  -83.2  34.360  144.3  0.0099   67.3  0.7708  -18.9
 0.070  0.3682  -91.7  32.263  140.8  0.0110   65.9  0.7395  -20.2
 0.080  0.3789  -99.9  30.304  136.8  0.0121   64.8  0.7087  -21.6
 0.090  0.3967 -107.5  28.512  132.3  0.0132   63.9  0.6784  -23.2
 0.100  0.4209 -114.3  26.919  127.2  0.0143   63.1  0.6486  -24.9
 0.110  0.4208 -118.5  25.513  125.4  0.0150   63.0  0.6292  -25.1
 0.120  0.4230 -122.8  24.137  123.3  0.0157   62.9  0.6097  -25.3
 0.130  0.4275 -126.9  22.795  121.0  0.0163   62.8  0.5903  -25.5
 0.140  0.4341 -131.0  21.495  118.4  0.0170   62.7  0.5709  -25.8
 0.150  0.4429 -134.9  20.244  115.5  0.0177   62.6  0.5515  -26.0
 0.200  0.4549 -147.1  15.975  108.2  0.0205   63.2  0.4984  -25.0
 0.250  0.4624 -155.3  13.156  102.8  0.0240   64.4  0.4668  -23.7
 0.300  0.4644 -161.6  11.116   99.2  0.0267   67.2  0.4445  -22.6
 0.350  0.4657 -165.8   9.805   96.7  0.0301   68.6  0.4331  -22.0
 0.400  0.4696 -170.0   8.519   93.4  0.0336   69.7  0.4218  -21.4
 0.450  0.4711 -173.2   7.691   91.5  0.0372   70.9  0.4152  -21.2
 0.500  0.4741 -176.4   6.874   89.1  0.0409   71.8  0.4087  -21.0
 0.600  0.4786  178.6   5.782   85.5  0.0480   73.4  0.4002  -21.2
 0.700  0.4813  174.4   4.983   82.4  0.0546   74.9  0.3950  -21.8
 0.800  0.4859  170.7   4.386   79.3  0.0630   75.7  0.3902  -22.7
 0.900  0.4849  167.0   3.909   76.6  0.0695   75.7  0.3864  -23.8
 1.000  0.4902  164.0   3.545   74.0  0.0775   75.6  0.3821  -25.1
 1.100  0.4947  161.0   3.239   71.5  0.0856   76.1  0.3795  -26.5
 1.200  0.4969  158.2   2.984   69.0  0.0929   75.9  0.3760  -28.0
 1.300  0.5000  155.3   2.766   66.6  0.1008   75.8  0.3730  -29.7
 1.400  0.5052  152.9   2.587   64.3  0.1092   75.7  0.3688  -31.5
 1.500  0.5096  150.5   2.423   62.2  0.1173   75.3  0.3657  -33.4
 1.600  0.5125  147.8   2.288   59.8  0.1256   75.0  0.3640  -35.3
 1.700  0.5154  145.6   2.166   57.7  0.1339   74.5  0.3602  -37.5
 1.800  0.5206  143.2   2.062   55.5  0.1426   74.0  0.3572  -39.6
 1.900  0.5240  141.1   1.964   53.6  0.1512   73.6  0.3541  -41.9
 2.000  0.5269  138.9   1.874   51.4  0.1599   72.9  0.3517  -44.4
 2.100  0.5315  136.7   1.798   49.5  0.1687   72.2  0.3493  -46.8
 2.200  0.5369  134.5   1.724   47.4  0.1775   71.5  0.3476  -49.3
 2.300  0.5407  132.5   1.661   45.5  0.1867   70.8  0.3458  -51.9
 2.400  0.5451  130.5   1.599   43.5  0.1959   70.1  0.3448  -54.6
 2.500  0.5491  128.6   1.544   41.8  0.2047   69.4  0.3440  -57.1
 2.600  0.5536  126.8   1.490   39.9  0.2136   68.7  0.3439  -59.7
 2.700  0.5568  124.8   1.444   38.2  0.2228   67.8  0.3436  -62.3
 2.800  0.5607  122.9   1.400   36.4  0.2321   67.0  0.3441  -64.9
 2.900  0.5649  120.9   1.360   34.7  0.2416   66.1  0.3433  -67.4
 3.000  0.5698  119.0   1.321   33.0  0.2512   65.2  0.3431  -70.0
 3.100  0.5718  117.1   1.288   31.6  0.2606   64.1  0.3415  -72.4
 3.200  0.5745  115.3   1.256   30.2  0.2701   63.2  0.3405  -74.9
 3.300  0.5777  113.5   1.224   28.7  0.2797   62.3  0.3401  -77.4
 3.400  0.5815  111.7   1.194   27.1  0.2894   61.4  0.3404  -79.8
 3.500  0.5859  109.9   1.164   25.4  0.2991   60.6  0.3413  -82.3
 3.600  0.5889  108.2   1.140   24.2  0.3087   59.4  0.3379  -84.8
 3.700  0.5924  106.5   1.116   22.9  0.3185   58.2  0.3352  -87.3
 3.800  0.5964  104.9   1.093   21.5  0.3283   57.1  0.3331  -89.9
 3.900  0.6009  103.2   1.070   20.2  0.3383   56.1  0.3317  -92.5
 4.000  0.6059  101.6   1.048   18.7  0.3484   55.1  0.3310  -95.1
 4.100  0.6078  100.1   1.029   17.5  0.3575   53.8  0.3263  -98.1
 4.200  0.6102   98.7   1.011   16.4  0.3668   52.6  0.3225 -101.1
 4.300  0.6129   97.2   0.993   15.1  0.3762   51.5  0.3196 -104.2
 4.400  0.6160   95.8   0.975   13.8  0.3858   50.4  0.3177 -107.4
 4.500  0.6195   94.4   0.958   12.5  0.3955   49.4  0.3168 -110.6
 4.600  0.6233   93.0   0.942   11.6  0.4044   48.1  0.3138 -114.1
 4.700  0.6275   91.7   0.926   10.6  0.4135   46.9  0.3119 -117.7
 4.800  0.6320   90.3   0.911    9.6  0.4228   45.8  0.3113 -121.3
 4.900  0.6369   89.0   0.896    8.6  0.4323   44.7  0.3119 -124.8
 5.000  0.6421   87.7   0.881    7.5  0.4419   43.6  0.3137 -128.4
 5.100  0.6427   86.5   0.870    6.7  0.4501   42.3  0.3151 -131.9
 5.200  0.6436   85.2   0.860    5.8  0.4585   41.0  0.3176 -135.4
 5.300  0.6447   84.0   0.850    4.9  0.4671   39.8  0.3213 -138.8
 5.400  0.6462   82.7   0.840    4.0  0.4760   38.6  0.3261 -142.1
 5.500  0.6480   81.5   0.830    3.1  0.4850   37.5  0.3320 -145.3
 5.600  0.6482   80.4   0.820    2.4  0.4923   36.2  0.3346 -148.1
 5.700  0.6487   79.3   0.810    1.7  0.4998   35.0  0.3380 -150.9
 5.800  0.6494   78.2   0.801    1.0  0.5075   33.9  0.3422 -153.7
 5.900  0.6504   77.1   0.791    0.3  0.5154   32.7  0.3472 -156.3
 6.000  0.6516   76.0   0.782   -0.5  0.5235   31.6  0.3529 -158.9
!
!  f       NFmin   Gammaopt  rn/50
! GHz       dB    MAG  ANG    -
!
! noise parameter not available yet for this operation point!
!
! (c) 2017  Infineon Technologies AG, Munich