! Infineon Technologies  Discrete & RF Semiconductors
! BFR182W
! VCE =  8.0 V,  IC =  3.0 mA
! Common Emitter S-Parameters:                            Jan 2017
# GHz  S  MA  R  50
!  f         S11            S21            S12            S22
! GHz     MAG   ANG      MAG   ANG      MAG   ANG      MAG   ANG
 0.010  0.9002   -2.0   9.925  178.4  0.0020   93.1  1.0000   -0.9
 0.020  0.9112   -3.8   9.988  177.3  0.0036   98.7  0.9963   -1.9
 0.030  0.9001   -5.6   9.946  175.8  0.0058   89.6  0.9948   -2.8
 0.040  0.8899   -7.4   9.909  174.4  0.0080   85.5  0.9936   -3.6
 0.050  0.8807   -9.3   9.880  172.9  0.0103   83.2  0.9926   -4.5
 0.060  0.8792  -11.2   9.828  171.5  0.0125   81.7  0.9891   -5.3
 0.070  0.8786  -13.1   9.783  170.1  0.0146   80.6  0.9858   -6.2
 0.080  0.8790  -14.9   9.742  168.7  0.0168   79.8  0.9827   -7.1
 0.090  0.8803  -16.8   9.708  167.3  0.0189   79.2  0.9798   -7.9
 0.100  0.8826  -18.7   9.680  165.9  0.0211   78.7  0.9772   -8.8
 0.110  0.8758  -20.4   9.616  164.5  0.0230   77.9  0.9724   -9.6
 0.120  0.8699  -22.2   9.557  163.1  0.0249   77.2  0.9678  -10.4
 0.130  0.8647  -24.0   9.503  161.7  0.0268   76.6  0.9633  -11.2
 0.140  0.8604  -25.8   9.456  160.3  0.0287   76.1  0.9591  -12.1
 0.150  0.8570  -27.6   9.414  158.9  0.0306   75.6  0.9551  -12.9
 0.200  0.8299  -36.3   9.085  152.2  0.0391   71.1  0.9267  -16.4
 0.250  0.7983  -44.6   8.743  145.8  0.0473   67.0  0.8948  -19.7
 0.300  0.7587  -52.3   8.310  140.2  0.0538   63.5  0.8586  -22.6
 0.350  0.7211  -58.9   7.885  135.5  0.0590   60.2  0.8250  -24.8
 0.400  0.6942  -66.2   7.520  130.2  0.0644   57.5  0.7927  -27.1
 0.450  0.6577  -72.2   7.107  126.3  0.0689   55.2  0.7620  -28.7
 0.500  0.6292  -78.8   6.731  121.9  0.0736   53.1  0.7320  -30.4
 0.600  0.5779  -90.0   6.066  114.6  0.0799   50.3  0.6814  -32.6
 0.700  0.5312 -100.2   5.468  108.4  0.0838   48.9  0.6394  -34.3
 0.800  0.4969 -109.7   4.984  103.0  0.0887   48.0  0.6051  -35.6
 0.900  0.4683 -118.0   4.549   98.2  0.0920   47.2  0.5771  -36.6
 1.000  0.4453 -125.9   4.192   93.9  0.0955   47.3  0.5539  -37.6
 1.100  0.4288 -133.7   3.880   90.0  0.0986   47.6  0.5357  -38.4
 1.200  0.4137 -140.8   3.609   86.2  0.1018   47.8  0.5187  -39.2
 1.300  0.4023 -147.2   3.370   82.8  0.1052   48.4  0.5055  -40.1
 1.400  0.3966 -153.0   3.168   79.6  0.1087   49.6  0.4926  -41.1
 1.500  0.3929 -159.0   2.989   76.6  0.1118   50.1  0.4831  -42.1
 1.600  0.3885 -164.5   2.823   73.6  0.1163   51.0  0.4757  -43.2
 1.700  0.3857 -169.6   2.686   71.0  0.1203   52.1  0.4670  -44.5
 1.800  0.3856 -174.6   2.566   68.2  0.1244   53.0  0.4600  -45.7
 1.900  0.3871 -179.1   2.450   65.8  0.1288   54.0  0.4542  -47.0
 2.000  0.3868  176.5   2.346   63.1  0.1342   54.6  0.4500  -48.5
 2.100  0.3891  172.3   2.253   60.7  0.1394   55.4  0.4460  -50.1
 2.200  0.3934  168.1   2.165   58.2  0.1447   56.2  0.4423  -51.7
 2.300  0.3968  164.6   2.087   56.0  0.1505   56.9  0.4398  -53.4
 2.400  0.4016  161.2   2.012   53.6  0.1563   57.5  0.4377  -55.2
 2.500  0.4053  157.9   1.943   51.5  0.1625   58.0  0.4360  -56.9
 2.600  0.4104  154.7   1.877   49.3  0.1687   58.5  0.4348  -58.7
 2.700  0.4143  151.5   1.820   47.3  0.1756   58.9  0.4342  -60.5
 2.800  0.4195  148.4   1.766   45.2  0.1826   59.2  0.4340  -62.3
 2.900  0.4237  145.4   1.717   43.2  0.1900   59.3  0.4332  -64.0
 3.000  0.4290  142.5   1.671   41.1  0.1975   59.4  0.4329  -65.8
 3.100  0.4322  139.9   1.628   39.5  0.2058   59.3  0.4320  -67.7
 3.200  0.4363  137.3   1.586   37.8  0.2141   59.2  0.4315  -69.6
 3.300  0.4412  134.7   1.545   36.0  0.2224   59.1  0.4315  -71.4
 3.400  0.4471  132.2   1.506   34.1  0.2307   59.1  0.4320  -73.3
 3.500  0.4537  129.8   1.469   32.1  0.2390   59.0  0.4329  -75.2
 3.600  0.4584  127.5   1.438   30.6  0.2483   58.5  0.4304  -77.2
 3.700  0.4639  125.2   1.407   29.0  0.2577   58.0  0.4285  -79.2
 3.800  0.4700  123.0   1.378   27.4  0.2671   57.5  0.4271  -81.2
 3.900  0.4769  120.8   1.350   25.7  0.2765   57.1  0.4262  -83.3
 4.000  0.4844  118.7   1.323   23.9  0.2859   56.7  0.4259  -85.3
 4.100  0.4892  116.7   1.298   22.5  0.2958   55.9  0.4216  -87.7
 4.200  0.4945  114.8   1.274   21.0  0.3057   55.1  0.4181  -90.2
 4.300  0.5004  112.9   1.250   19.5  0.3157   54.3  0.4154  -92.7
 4.400  0.5068  111.1   1.228   17.9  0.3258   53.6  0.4135  -95.2
 4.500  0.5137  109.3   1.206   16.3  0.3359   53.0  0.4124  -97.8
 4.600  0.5198  107.5   1.183   15.1  0.3462   52.0  0.4088 -100.7
 4.700  0.5264  105.8   1.161   13.8  0.3565   51.1  0.4064 -103.7
 4.800  0.5334  104.1   1.140   12.5  0.3670   50.3  0.4050 -106.7
 4.900  0.5409  102.5   1.119   11.1  0.3775   49.5  0.4047 -109.7
 5.000  0.5488  100.9   1.099    9.7  0.3881   48.7  0.4056 -112.7
 5.100  0.5522   99.4   1.082    8.6  0.3980   47.5  0.4057 -115.8
 5.200  0.5559   97.9   1.066    7.5  0.4081   46.4  0.4069 -118.9
 5.300  0.5600   96.4   1.050    6.4  0.4183   45.3  0.4094 -122.0
 5.400  0.5645   94.9   1.035    5.2  0.4286   44.3  0.4130 -125.0
 5.500  0.5694   93.5   1.020    4.0  0.4391   43.3  0.4177 -128.0
 5.600  0.5722   92.1   1.005    3.1  0.4485   42.1  0.4193 -130.8
 5.700  0.5754   90.8   0.990    2.2  0.4581   40.9  0.4219 -133.6
 5.800  0.5788   89.4   0.975    1.2  0.4678   39.7  0.4255 -136.4
 5.900  0.5826   88.1   0.960    0.2  0.4778   38.6  0.4300 -139.1
 6.000  0.5867   86.8   0.946   -0.8  0.4879   37.6  0.4355 -141.7
!
!  f       NFmin   Gammaopt  rn/50
! GHz       dB    MAG  ANG    -
 0.450      0.82  0.39   31   0.20
 0.900      0.95  0.30   57   0.20
 1.900      1.60  0.25  149   0.12
 2.400      1.92  0.23  170   0.17
!
! (c) 2017  Infineon Technologies AG, Munich