! Infineon Technologies  Discrete & RF Semiconductors
! BFR182W
! VCE =  5.0 V,  IC =  40 mA
! Common Emitter S-Parameters:                            Jan 2017
# GHz  S  MA  R  50
!  f         S11            S21            S12            S22
! GHz     MAG   ANG      MAG   ANG      MAG   ANG      MAG   ANG
 0.010  0.4195  -11.3  44.174  173.7  0.0016   86.1  0.9478   -3.1
 0.020  0.4240  -22.3  44.022  168.2  0.0034   84.1  0.9428   -7.1
 0.030  0.4050  -31.9  42.182  163.3  0.0049   80.0  0.9146  -10.1
 0.040  0.3983  -42.2  40.684  157.9  0.0065   77.8  0.8891  -13.3
 0.050  0.4047  -52.5  39.565  152.2  0.0080   76.5  0.8664  -16.6
 0.060  0.3895  -59.7  37.554  149.1  0.0093   73.0  0.8352  -18.2
 0.070  0.3808  -67.3  35.669  145.6  0.0106   70.4  0.8047  -19.8
 0.080  0.3791  -75.1  33.930  141.7  0.0119   68.4  0.7749  -21.6
 0.090  0.3845  -82.9  32.361  137.5  0.0133   66.7  0.7459  -23.6
 0.100  0.3967  -90.3  30.988  132.8  0.0146   65.4  0.7179  -25.7
 0.110  0.3894  -94.9  29.533  130.8  0.0153   65.1  0.6953  -26.2
 0.120  0.3846  -99.6  28.117  128.7  0.0160   64.9  0.6728  -26.8
 0.130  0.3826 -104.4  26.745  126.3  0.0167   64.6  0.6503  -27.4
 0.140  0.3832 -109.2  25.424  123.6  0.0174   64.4  0.6279  -28.1
 0.150  0.3865 -114.0  24.164  120.7  0.0181   64.2  0.6056  -28.8
 0.200  0.3811 -129.6  19.422  112.6  0.0215   64.9  0.5360  -28.9
 0.250  0.3833 -140.6  16.157  106.8  0.0250   65.1  0.4909  -28.2
 0.300  0.3801 -148.6  13.727  102.7  0.0283   65.1  0.4588  -27.2
 0.350  0.3792 -154.2  12.146  100.0  0.0316   67.6  0.4410  -26.4
 0.400  0.3820 -159.8  10.601   96.4  0.0350   69.6  0.4232  -25.6
 0.450  0.3818 -163.9   9.584   94.3  0.0386   70.3  0.4133  -25.1
 0.500  0.3835 -168.0   8.582   91.8  0.0422   70.8  0.4035  -24.6
 0.600  0.3865 -174.4   7.228   88.1  0.0499   72.0  0.3900  -24.1
 0.700  0.3886 -179.5   6.233   84.8  0.0563   73.5  0.3821  -24.2
 0.800  0.3915  176.0   5.487   81.7  0.0647   74.5  0.3758  -24.6
 0.900  0.3938  172.2   4.887   79.0  0.0716   74.1  0.3706  -25.3
 1.000  0.3980  168.4   4.433   76.4  0.0796   74.4  0.3655  -26.2
 1.100  0.4013  165.2   4.047   74.1  0.0872   74.4  0.3623  -27.3
 1.200  0.4051  162.0   3.726   71.6  0.0948   74.3  0.3583  -28.4
 1.300  0.4079  159.0   3.452   69.2  0.1027   74.2  0.3552  -29.7
 1.400  0.4115  156.4   3.227   67.0  0.1105   73.7  0.3506  -31.2
 1.500  0.4184  153.9   3.022   64.9  0.1192   73.4  0.3479  -32.9
 1.600  0.4216  151.2   2.850   62.7  0.1268   73.0  0.3454  -34.6
 1.700  0.4260  148.7   2.696   60.6  0.1352   72.7  0.3421  -36.4
 1.800  0.4299  146.1   2.565   58.5  0.1432   72.1  0.3390  -38.4
 1.900  0.4351  144.1   2.444   56.6  0.1513   71.5  0.3362  -40.4
 2.000  0.4384  141.9   2.331   54.5  0.1596   71.0  0.3339  -42.7
 2.100  0.4436  139.7   2.235   52.6  0.1681   70.3  0.3315  -44.9
 2.200  0.4494  137.5   2.141   50.5  0.1767   69.7  0.3296  -47.2
 2.300  0.4537  135.6   2.061   48.7  0.1853   68.9  0.3277  -49.6
 2.400  0.4584  133.7   1.984   46.7  0.1940   68.2  0.3264  -52.1
 2.500  0.4623  131.7   1.915   45.0  0.2025   67.5  0.3256  -54.5
 2.600  0.4668  129.7   1.848   43.1  0.2110   66.8  0.3254  -56.9
 2.700  0.4716  127.9   1.791   41.4  0.2196   66.0  0.3249  -59.3
 2.800  0.4769  126.1   1.736   39.6  0.2283   65.2  0.3249  -61.7
 2.900  0.4815  124.1   1.686   37.9  0.2370   64.3  0.3245  -64.0
 3.000  0.4866  122.2   1.637   36.1  0.2458   63.5  0.3247  -66.4
 3.100  0.4898  120.4   1.595   34.7  0.2547   62.6  0.3234  -68.7
 3.200  0.4935  118.6   1.555   33.2  0.2637   61.7  0.3225  -70.9
 3.300  0.4977  116.8   1.515   31.6  0.2727   60.9  0.3222  -73.2
 3.400  0.5023  115.1   1.477   29.9  0.2818   60.1  0.3224  -75.5
 3.500  0.5074  113.4   1.440   28.2  0.2909   59.4  0.3231  -77.8
 3.600  0.5114  111.8   1.409   26.9  0.2999   58.3  0.3200  -80.1
 3.700  0.5158  110.2   1.380   25.5  0.3091   57.2  0.3174  -82.5
 3.800  0.5206  108.6   1.351   24.0  0.3183   56.2  0.3154  -84.9
 3.900  0.5258  107.0   1.323   22.5  0.3276   55.3  0.3139  -87.3
 4.000  0.5314  105.5   1.296   20.9  0.3370   54.4  0.3130  -89.7
 4.100  0.5349  104.1   1.272   19.6  0.3458   53.2  0.3085  -92.5
 4.200  0.5388  102.6   1.249   18.3  0.3547   52.1  0.3048  -95.3
 4.300  0.5430  101.2   1.226   16.9  0.3637   51.0  0.3019  -98.2
 4.400  0.5475   99.9   1.204   15.5  0.3728   50.0  0.2997 -101.1
 4.500  0.5523   98.5   1.183   14.0  0.3821   49.0  0.2983 -104.1
 4.600  0.5578   97.1   1.162   12.9  0.3907   47.8  0.2952 -107.5
 4.700  0.5636   95.8   1.142   11.7  0.3994   46.7  0.2931 -110.9
 4.800  0.5696   94.5   1.121   10.5  0.4083   45.7  0.2921 -114.4
 4.900  0.5760   93.2   1.102    9.3  0.4173   44.7  0.2922 -117.9
 5.000  0.5827   91.9   1.083    8.0  0.4264   43.7  0.2934 -121.4
 5.100  0.5852   90.6   1.068    7.0  0.4347   42.5  0.2946 -124.9
 5.200  0.5879   89.4   1.053    5.9  0.4431   41.3  0.2969 -128.4
 5.300  0.5909   88.1   1.039    4.8  0.4517   40.1  0.3003 -131.8
 5.400  0.5942   86.9   1.025    3.7  0.4605   39.1  0.3047 -135.2
 5.500  0.5978   85.7   1.012    2.6  0.4695   38.0  0.3101 -138.4
 5.600  0.5996   84.6   0.998    1.7  0.4770   36.8  0.3128 -141.3
 5.700  0.6017   83.6   0.984    0.8  0.4846   35.7  0.3163 -144.1
 5.800  0.6039   82.5   0.970   -0.1  0.4924   34.6  0.3206 -146.9
 5.900  0.6063   81.4   0.956   -1.0  0.5004   33.5  0.3256 -149.6
 6.000  0.6090   80.4   0.943   -2.0  0.5086   32.5  0.3313 -152.2
!
!  f       NFmin   Gammaopt  rn/50
! GHz       dB    MAG  ANG    -
!
! noise parameter not available yet for this operation point!
!
! (c) 2017  Infineon Technologies AG, Munich