! Infineon Technologies  Discrete & RF Semiconductors
! BFR182W
! VCE =  1.0 V,  IC =  20 mA
! Common Emitter S-Parameters:                            Jan 2017
# GHz  S  MA  R  50
!  f         S11            S21            S12            S22
! GHz     MAG   ANG      MAG   ANG      MAG   ANG      MAG   ANG
 0.010  0.5142  -13.9  34.811  173.1  0.0031   83.3  0.9069   -4.9
 0.020  0.5205  -27.0  34.449  166.6  0.0060   84.7  0.8887  -10.2
 0.030  0.4945  -38.4  32.715  161.2  0.0088   76.1  0.8527  -14.1
 0.040  0.4898  -50.6  31.303  155.2  0.0116   71.6  0.8210  -18.4
 0.050  0.5070  -62.4  30.258  148.8  0.0145   68.9  0.7943  -23.0
 0.060  0.4893  -70.2  28.506  145.6  0.0162   65.8  0.7564  -24.9
 0.070  0.4812  -78.3  26.852  142.1  0.0179   63.2  0.7194  -27.1
 0.080  0.4830  -86.6  25.316  138.0  0.0196   61.1  0.6835  -29.5
 0.090  0.4947  -94.7  23.919  133.5  0.0213   59.4  0.6489  -32.1
 0.100  0.5157 -102.2  22.689  128.5  0.0231   57.9  0.6159  -35.0
 0.110  0.5094 -106.8  21.535  126.6  0.0241   57.0  0.5909  -35.7
 0.120  0.5063 -111.4  20.407  124.5  0.0252   56.2  0.5661  -36.5
 0.130  0.5067 -116.1  19.311  122.1  0.0262   55.5  0.5413  -37.4
 0.140  0.5104 -120.8  18.251  119.5  0.0273   54.8  0.5167  -38.4
 0.150  0.5174 -125.3  17.235  116.5  0.0283   54.2  0.4923  -39.4
 0.200  0.5208 -139.2  13.658  108.7  0.0308   53.3  0.4166  -40.2
 0.250  0.5239 -149.1  11.271  102.9  0.0345   54.7  0.3689  -39.6
 0.300  0.5226 -156.1   9.531   98.9  0.0381   56.0  0.3348  -38.6
 0.350  0.5225 -161.0   8.406   96.2  0.0418   58.2  0.3154  -37.6
 0.400  0.5262 -165.9   7.306   92.6  0.0455   60.0  0.2962  -36.5
 0.450  0.5261 -169.5   6.597   90.5  0.0492   61.1  0.2851  -35.9
 0.500  0.5281 -173.0   5.898   87.9  0.0530   62.1  0.2740  -35.2
 0.600  0.5322 -178.5   4.960   83.9  0.0607   64.1  0.2596  -34.4
 0.700  0.5346  177.1   4.271   80.5  0.0688   65.8  0.2504  -34.2
 0.800  0.5388  173.0   3.758   77.2  0.0777   66.8  0.2437  -34.7
 0.900  0.5385  169.4   3.349   74.2  0.0860   67.1  0.2382  -35.5
 1.000  0.5439  166.0   3.039   71.3  0.0944   67.7  0.2323  -36.4
 1.100  0.5476  162.8   2.777   68.6  0.1029   68.0  0.2286  -37.9
 1.200  0.5497  159.7   2.557   65.9  0.1116   67.7  0.2249  -39.3
 1.300  0.5537  157.0   2.371   63.3  0.1199   67.7  0.2213  -41.3
 1.400  0.5577  154.4   2.219   60.8  0.1293   67.4  0.2166  -43.5
 1.500  0.5632  152.0   2.079   58.4  0.1387   67.1  0.2140  -45.7
 1.600  0.5655  149.2   1.965   56.0  0.1474   66.6  0.2120  -48.1
 1.700  0.5694  146.7   1.861   53.7  0.1564   66.3  0.2084  -51.0
 1.800  0.5752  144.2   1.774   51.3  0.1659   65.5  0.2060  -53.8
 1.900  0.5785  142.1   1.689   49.3  0.1748   65.2  0.2039  -56.8
 2.000  0.5814  139.7   1.613   47.0  0.1843   64.5  0.2029  -60.1
 2.100  0.5855  137.4   1.547   44.9  0.1936   63.7  0.2014  -63.5
 2.200  0.5905  135.2   1.484   42.7  0.2029   63.0  0.2007  -67.0
 2.300  0.5942  133.2   1.431   40.8  0.2121   62.2  0.2006  -70.6
 2.400  0.5986  131.2   1.379   38.8  0.2214   61.5  0.2013  -74.1
 2.500  0.6017  129.2   1.332   37.0  0.2305   60.7  0.2021  -77.6
 2.600  0.6056  127.2   1.287   35.1  0.2396   59.9  0.2036  -81.0
 2.700  0.6091  125.2   1.248   33.4  0.2488   59.0  0.2055  -84.3
 2.800  0.6134  123.2   1.210   31.5  0.2580   58.2  0.2080  -87.6
 2.900  0.6167  121.2   1.176   29.8  0.2674   57.2  0.2091  -90.8
 3.000  0.6207  119.3   1.143   28.1  0.2769   56.3  0.2109  -93.9
 3.100  0.6223  117.4   1.115   26.7  0.2859   55.3  0.2113  -96.9
 3.200  0.6246  115.5   1.087   25.3  0.2950   54.3  0.2122  -99.9
 3.300  0.6276  113.6   1.060   23.8  0.3042   53.4  0.2138 -102.9
 3.400  0.6313  111.7   1.034   22.2  0.3135   52.5  0.2159 -105.8
 3.500  0.6356  109.9   1.009   20.5  0.3228   51.7  0.2185 -108.6
 3.600  0.6377  108.2   0.988   19.3  0.3318   50.5  0.2173 -111.8
 3.700  0.6403  106.5   0.968   18.1  0.3409   49.4  0.2169 -115.0
 3.800  0.6435  104.7   0.949   16.8  0.3501   48.3  0.2171 -118.2
 3.900  0.6473  103.1   0.930   15.5  0.3594   47.3  0.2179 -121.4
 4.000  0.6516  101.4   0.911   14.1  0.3689   46.3  0.2195 -124.6
 4.100  0.6529   99.9   0.895   13.0  0.3772   45.1  0.2184 -128.4
 4.200  0.6547   98.3   0.879   11.9  0.3856   43.9  0.2183 -132.3
 4.300  0.6570   96.8   0.864   10.7  0.3942   42.8  0.2191 -136.2
 4.400  0.6597   95.3   0.849    9.5  0.4029   41.7  0.2210 -140.0
 4.500  0.6629   93.8   0.834    8.2  0.4118   40.7  0.2238 -143.7
 4.600  0.6657   92.4   0.821    7.4  0.4196   39.5  0.2260 -147.7
 4.700  0.6689   91.0   0.807    6.6  0.4276   38.4  0.2293 -151.6
 4.800  0.6724   89.7   0.794    5.7  0.4357   37.3  0.2336 -155.4
 4.900  0.6764   88.3   0.782    4.8  0.4441   36.2  0.2389 -159.0
 5.000  0.6807   87.0   0.769    3.9  0.4525   35.2  0.2451 -162.5
 5.100  0.6808   85.7   0.761    3.2  0.4595   34.0  0.2510 -165.7
 5.200  0.6812   84.4   0.753    2.4  0.4667   32.8  0.2578 -168.8
 5.300  0.6819   83.1   0.745    1.7  0.4741   31.6  0.2652 -171.8
 5.400  0.6830   81.8   0.737    0.9  0.4816   30.5  0.2732 -174.5
 5.500  0.6845   80.5   0.729    0.1  0.4894   29.4  0.2819 -177.1
 5.600  0.6841   79.4   0.721   -0.5  0.4956   28.3  0.2872 -179.3
 5.700  0.6839   78.3   0.714   -1.1  0.5019   27.2  0.2930  178.5
 5.800  0.6840   77.3   0.707   -1.7  0.5084   26.1  0.2991  176.5
 5.900  0.6843   76.2   0.699   -2.3  0.5151   25.0  0.3056  174.5
 6.000  0.6848   75.1   0.692   -2.9  0.5220   24.0  0.3125  172.6
!
!  f       NFmin   Gammaopt  rn/50
! GHz       dB    MAG  ANG    -
 0.450      1.41  0.11 -176   0.15
 0.900      1.49  0.11 -171   0.15
 1.900      2.00  0.28 -142   0.16
 2.400      2.26  0.29 -128   0.26
!
! (c) 2017  Infineon Technologies AG, Munich