! Infineon Technologies  Discrete & RF Semiconductors
! BFR182W
! VCE =  4.0 V,  IC =  38 mA
! Common Emitter S-Parameters:                            Jan 2017
# GHz  S  MA  R  50
!  f         S11            S21            S12            S22
! GHz     MAG   ANG      MAG   ANG      MAG   ANG      MAG   ANG
 0.010  0.4146  -12.0  42.896  173.6  0.0018   84.9  0.9418   -3.2
 0.020  0.4221  -23.9  42.902  167.9  0.0035   93.6  0.9357   -7.4
 0.030  0.4031  -34.2  40.991  162.9  0.0051   81.5  0.9062  -10.5
 0.040  0.3979  -45.0  39.421  157.4  0.0069   75.4  0.8794  -13.7
 0.050  0.4072  -55.8  38.236  151.6  0.0087   71.8  0.8557  -17.2
 0.060  0.3931  -63.2  36.238  148.4  0.0100   70.0  0.8239  -18.7
 0.070  0.3859  -71.0  34.363  144.9  0.0112   68.7  0.7928  -20.4
 0.080  0.3862  -79.0  32.630  141.0  0.0125   67.6  0.7623  -22.2
 0.090  0.3938  -86.8  31.065  136.7  0.0138   66.7  0.7327  -24.1
 0.100  0.4084  -94.2  29.694  132.0  0.0151   66.0  0.7040  -26.2
 0.110  0.4018  -98.8  28.271  130.0  0.0159   65.1  0.6815  -26.7
 0.120  0.3978 -103.6  26.885  127.9  0.0167   64.3  0.6590  -27.3
 0.130  0.3966 -108.4  25.541  125.4  0.0174   63.5  0.6366  -27.9
 0.140  0.3982 -113.2  24.248  122.8  0.0182   62.8  0.6143  -28.5
 0.150  0.4026 -117.9  23.014  119.8  0.0190   62.2  0.5920  -29.2
 0.200  0.4029 -133.0  18.456  111.9  0.0220   63.0  0.5231  -29.3
 0.250  0.4050 -143.4  15.317  106.0  0.0256   63.7  0.4787  -28.5
 0.300  0.4040 -151.2  13.004  102.0  0.0289   65.4  0.4477  -27.5
 0.350  0.4038 -156.6  11.500   99.3  0.0325   67.2  0.4304  -26.7
 0.400  0.4072 -161.9  10.031   95.7  0.0361   68.7  0.4132  -25.8
 0.450  0.4077 -165.8   9.065   93.7  0.0393   69.7  0.4034  -25.4
 0.500  0.4100 -169.6   8.113   91.2  0.0426   70.5  0.3936  -24.9
 0.600  0.4120 -175.6   6.831   87.3  0.0504   71.7  0.3815  -24.4
 0.700  0.4159  179.5   5.887   84.1  0.0575   73.1  0.3731  -24.5
 0.800  0.4187  175.3   5.182   81.0  0.0652   73.5  0.3670  -25.0
 0.900  0.4210  171.2   4.618   78.2  0.0723   73.5  0.3621  -25.7
 1.000  0.4260  167.7   4.183   75.6  0.0802   74.3  0.3572  -26.6
 1.100  0.4302  164.6   3.823   73.2  0.0887   74.0  0.3542  -27.7
 1.200  0.4339  161.5   3.518   70.7  0.0957   73.8  0.3505  -28.9
 1.300  0.4352  158.5   3.259   68.3  0.1037   73.6  0.3472  -30.4
 1.400  0.4403  155.8   3.045   66.0  0.1121   73.5  0.3430  -31.9
 1.500  0.4460  153.5   2.853   63.9  0.1199   73.2  0.3400  -33.7
 1.600  0.4492  150.7   2.690   61.6  0.1282   73.0  0.3381  -35.4
 1.700  0.4520  148.3   2.545   59.5  0.1366   72.3  0.3341  -37.4
 1.800  0.4562  145.9   2.422   57.3  0.1445   71.7  0.3314  -39.3
 1.900  0.4624  143.7   2.307   55.5  0.1532   71.5  0.3286  -41.4
 2.000  0.4659  141.4   2.200   53.3  0.1615   70.7  0.3262  -43.8
 2.100  0.4710  139.2   2.108   51.4  0.1701   70.0  0.3239  -46.1
 2.200  0.4767  137.0   2.019   49.3  0.1787   69.3  0.3222  -48.5
 2.300  0.4809  135.0   1.945   47.4  0.1875   68.6  0.3205  -51.0
 2.400  0.4857  133.0   1.874   45.4  0.1964   68.0  0.3194  -53.6
 2.500  0.4898  131.1   1.809   43.7  0.2049   67.2  0.3185  -56.1
 2.600  0.4944  129.3   1.746   41.8  0.2134   66.5  0.3182  -58.6
 2.700  0.4988  127.4   1.691   40.1  0.2223   65.7  0.3180  -61.1
 2.800  0.5037  125.6   1.638   38.3  0.2312   64.9  0.3184  -63.6
 2.900  0.5081  123.6   1.591   36.6  0.2401   64.1  0.3181  -66.1
 3.000  0.5131  121.7   1.545   34.8  0.2491   63.3  0.3184  -68.6
 3.100  0.5160  119.8   1.505   33.4  0.2581   62.3  0.3171  -70.9
 3.200  0.5195  118.0   1.467   31.9  0.2672   61.4  0.3164  -73.3
 3.300  0.5234  116.2   1.429   30.3  0.2764   60.5  0.3162  -75.6
 3.400  0.5279  114.4   1.393   28.6  0.2856   59.7  0.3165  -78.0
 3.500  0.5329  112.7   1.358   26.9  0.2949   59.0  0.3174  -80.3
 3.600  0.5365  111.0   1.329   25.6  0.3040   57.9  0.3143  -82.7
 3.700  0.5405  109.4   1.301   24.2  0.3132   56.8  0.3117  -85.2
 3.800  0.5450  107.8   1.274   22.8  0.3224   55.8  0.3098  -87.7
 3.900  0.5499  106.2   1.248   21.3  0.3318   54.8  0.3084  -90.2
 4.000  0.5552  104.6   1.222   19.7  0.3413   53.9  0.3076  -92.7
 4.100  0.5588  103.1   1.199   18.5  0.3502   52.7  0.3033  -95.6
 4.200  0.5627  101.7   1.177   17.2  0.3593   51.6  0.2997  -98.5
 4.300  0.5669  100.3   1.156   15.8  0.3685   50.5  0.2970 -101.5
 4.400  0.5716   98.9   1.135   14.4  0.3778   49.5  0.2951 -104.6
 4.500  0.5765   97.5   1.115   13.0  0.3872   48.5  0.2940 -107.7
 4.600  0.5813   96.2   1.095   11.9  0.3958   47.3  0.2913 -111.2
 4.700  0.5864   94.8   1.076   10.8  0.4045   46.2  0.2896 -114.7
 4.800  0.5918   93.5   1.057    9.6  0.4133   45.1  0.2891 -118.3
 4.900  0.5975   92.3   1.039    8.4  0.4224   44.1  0.2897 -121.9
 5.000  0.6035   91.0   1.021    7.2  0.4315   43.1  0.2914 -125.4
 5.100  0.6050   89.7   1.007    6.2  0.4397   41.9  0.2930 -129.0
 5.200  0.6068   88.4   0.993    5.2  0.4480   40.6  0.2957 -132.5
 5.300  0.6090   87.1   0.980    4.2  0.4566   39.5  0.2994 -135.9
 5.400  0.6114   85.9   0.967    3.2  0.4653   38.4  0.3043 -139.3
 5.500  0.6141   84.6   0.954    2.1  0.4742   37.3  0.3101 -142.5
 5.600  0.6158   83.5   0.941    1.3  0.4816   36.1  0.3131 -145.4
 5.700  0.6177   82.4   0.929    0.4  0.4892   34.9  0.3168 -148.2
 5.800  0.6198   81.3   0.916   -0.4  0.4970   33.8  0.3213 -151.0
 5.900  0.6221   80.3   0.904   -1.3  0.5050   32.7  0.3265 -153.6
 6.000  0.6247   79.2   0.892   -2.2  0.5132   31.6  0.3324 -156.2
!
!  f       NFmin   Gammaopt  rn/50
! GHz       dB    MAG  ANG    -
!
! noise parameter not available yet for this operation point!
!
! (c) 2017  Infineon Technologies AG, Munich