! Infineon Technologies  Discrete & RF Semiconductors
! BFR182W
! VCE =  2.0 V,  IC =  18 mA
! Common Emitter S-Parameters:                            Jan 2017
# GHz  S  MA  R  50
!  f         S11            S21            S12            S22
! GHz     MAG   ANG      MAG   ANG      MAG   ANG      MAG   ANG
 0.010  0.5704   -7.2  35.582  175.4  0.0023   94.4  0.9798   -3.0
 0.020  0.5752  -14.0  35.633  171.2  0.0039   82.7  0.9780   -6.3
 0.030  0.5553  -20.4  34.711  167.2  0.0060   79.6  0.9574   -9.1
 0.040  0.5429  -27.3  33.972  162.9  0.0080   78.1  0.9392  -11.9
 0.050  0.5385  -34.3  33.426  158.5  0.0101   77.2  0.9234  -14.9
 0.060  0.5200  -39.6  32.211  155.5  0.0118   74.9  0.8968  -16.8
 0.070  0.5063  -45.2  31.091  152.3  0.0135   73.2  0.8713  -18.8
 0.080  0.4976  -51.1  30.076  148.9  0.0152   71.8  0.8469  -21.0
 0.090  0.4943  -57.1  29.176  145.2  0.0169   70.8  0.8237  -23.2
 0.100  0.4965  -63.1  28.404  141.3  0.0186   69.9  0.8019  -25.6
 0.110  0.4813  -67.2  27.338  139.2  0.0196   68.3  0.7780  -26.7
 0.120  0.4686  -71.4  26.313  136.9  0.0206   66.9  0.7545  -27.9
 0.130  0.4587  -75.9  25.334  134.4  0.0217   65.6  0.7312  -29.1
 0.140  0.4518  -80.6  24.407  131.7  0.0227   64.4  0.7084  -30.4
 0.150  0.4479  -85.4  23.537  128.8  0.0238   63.3  0.6859  -31.8
 0.200  0.4161 -102.1  19.627  119.9  0.0276   62.3  0.5969  -34.7
 0.250  0.3973 -115.7  16.692  113.1  0.0319   60.8  0.5318  -35.9
 0.300  0.3808 -126.1  14.388  108.3  0.0345   61.4  0.4824  -36.1
 0.350  0.3704 -133.5  12.805  105.0  0.0381   62.6  0.4517  -35.8
 0.400  0.3663 -141.1  11.274  100.9  0.0418   63.5  0.4211  -35.4
 0.450  0.3602 -146.5  10.223   98.5  0.0455   64.3  0.4025  -34.9
 0.500  0.3574 -152.1   9.195   95.5  0.0492   65.0  0.3840  -34.4
 0.600  0.3549 -160.7   7.777   91.2  0.0566   66.6  0.3596  -33.5
 0.700  0.3555 -167.6   6.721   87.6  0.0635   67.8  0.3434  -32.8
 0.800  0.3574 -173.6   5.926   84.2  0.0718   68.8  0.3318  -32.7
 0.900  0.3560 -178.4   5.286   81.2  0.0790   68.9  0.3229  -32.9
 1.000  0.3603  176.9   4.797   78.5  0.0865   68.9  0.3149  -33.2
 1.100  0.3629  172.7   4.381   75.9  0.0945   69.2  0.3094  -33.8
 1.200  0.3674  169.0   4.034   73.3  0.1021   68.9  0.3034  -34.5
 1.300  0.3686  165.4   3.737   70.9  0.1099   69.2  0.2995  -35.6
 1.400  0.3736  162.4   3.492   68.6  0.1190   69.1  0.2939  -36.8
 1.500  0.3794  159.5   3.271   66.4  0.1267   68.7  0.2902  -38.2
 1.600  0.3839  156.4   3.084   64.1  0.1347   68.1  0.2874  -39.6
 1.700  0.3853  153.9   2.916   62.0  0.1429   67.9  0.2836  -41.4
 1.800  0.3922  151.1   2.776   59.8  0.1512   67.4  0.2802  -43.2
 1.900  0.3968  148.8   2.644   57.9  0.1594   67.0  0.2771  -45.1
 2.000  0.4004  146.5   2.521   55.8  0.1676   66.3  0.2744  -47.4
 2.100  0.4052  144.0   2.417   53.8  0.1761   65.7  0.2719  -49.7
 2.200  0.4108  141.6   2.316   51.7  0.1846   65.1  0.2699  -52.0
 2.300  0.4160  139.5   2.230   49.8  0.1929   64.3  0.2685  -54.4
 2.400  0.4218  137.5   2.147   47.8  0.2013   63.6  0.2676  -56.9
 2.500  0.4262  135.5   2.073   46.1  0.2095   62.9  0.2668  -59.4
 2.600  0.4311  133.5   2.001   44.2  0.2178   62.3  0.2666  -61.9
 2.700  0.4361  131.5   1.939   42.5  0.2263   61.5  0.2666  -64.3
 2.800  0.4416  129.6   1.879   40.6  0.2348   60.8  0.2670  -66.7
 2.900  0.4463  127.5   1.825   38.9  0.2433   60.0  0.2665  -69.1
 3.000  0.4516  125.5   1.773   37.1  0.2519   59.2  0.2665  -71.6
 3.100  0.4551  123.6   1.728   35.6  0.2603   58.3  0.2656  -73.9
 3.200  0.4591  121.8   1.684   34.1  0.2688   57.4  0.2652  -76.2
 3.300  0.4636  120.0   1.642   32.5  0.2773   56.7  0.2651  -78.4
 3.400  0.4685  118.2   1.601   30.8  0.2859   55.9  0.2655  -80.7
 3.500  0.4738  116.5   1.561   29.0  0.2945   55.2  0.2663  -83.0
 3.600  0.4785  114.9   1.528   27.6  0.3031   54.2  0.2637  -85.4
 3.700  0.4836  113.3   1.496   26.2  0.3118   53.2  0.2616  -87.8
 3.800  0.4890  111.7   1.465   24.7  0.3205   52.2  0.2599  -90.2
 3.900  0.4948  110.2   1.435   23.1  0.3294   51.3  0.2587  -92.7
 4.000  0.5009  108.7   1.406   21.5  0.3383   50.5  0.2580  -95.2
 4.100  0.5053  107.2   1.380   20.1  0.3466   49.4  0.2543  -98.1
 4.200  0.5100  105.8   1.354   18.7  0.3550   48.4  0.2514 -101.1
 4.300  0.5150  104.4   1.329   17.2  0.3635   47.4  0.2491 -104.2
 4.400  0.5203  103.0   1.306   15.7  0.3721   46.4  0.2475 -107.3
 4.500  0.5259  101.6   1.283   14.1  0.3808   45.5  0.2467 -110.4
 4.600  0.5319  100.2   1.260   12.9  0.3889   44.4  0.2448 -114.0
 4.700  0.5382   98.8   1.238   11.7  0.3970   43.4  0.2439 -117.7
 4.800  0.5449   97.5   1.216   10.5  0.4054   42.4  0.2440 -121.3
 4.900  0.5518   96.2   1.195    9.1  0.4138   41.5  0.2450 -125.0
 5.000  0.5590   94.9   1.175    7.8  0.4223   40.6  0.2471 -128.6
 5.100  0.5619   93.6   1.158    6.7  0.4300   39.4  0.2497 -132.3
 5.200  0.5650   92.4   1.142    5.6  0.4379   38.3  0.2532 -135.8
 5.300  0.5684   91.1   1.126    4.5  0.4459   37.2  0.2577 -139.3
 5.400  0.5721   89.9   1.110    3.3  0.4541   36.2  0.2631 -142.6
 5.500  0.5760   88.7   1.095    2.1  0.4624   35.2  0.2694 -145.8
 5.600  0.5789   87.6   1.080    1.1  0.4695   34.1  0.2733 -148.6
 5.700  0.5820   86.5   1.064    0.1  0.4768   33.0  0.2778 -151.4
 5.800  0.5853   85.4   1.050   -0.9  0.4842   32.0  0.2829 -154.0
 5.900  0.5889   84.3   1.035   -1.9  0.4918   31.0  0.2886 -156.6
 6.000  0.5926   83.2   1.021   -3.0  0.4995   30.0  0.2948 -159.0
!
!  f       NFmin   Gammaopt  rn/50
! GHz       dB    MAG  ANG    -
 0.450      1.34  0.07  174   0.15
 0.900      1.41  0.08  179   0.15
 1.900      1.93  0.27 -144   0.15
 2.400      2.18  0.27 -129   0.24
!
! (c) 2017  Infineon Technologies AG, Munich