! Infineon Technologies  Discrete & RF Semiconductors
! BFR182W
! VCE =  2.0 V,  IC =  2.0 mA
! Common Emitter S-Parameters:                            Jan 2017
# GHz  S  MA  R  50
!  f         S11            S21            S12            S22
! GHz     MAG   ANG      MAG   ANG      MAG   ANG      MAG   ANG
 0.010  0.9267   -1.8   6.898  178.9  0.0020   84.1  1.0000   -0.8
 0.020  0.9380   -3.3   6.955  177.9  0.0047   87.9  1.0000   -1.8
 0.030  0.9275   -4.9   6.935  176.6  0.0072   85.1  1.0000   -2.5
 0.040  0.9177   -6.5   6.919  175.3  0.0098   83.8  0.9991   -3.2
 0.050  0.9087   -8.1   6.907  174.0  0.0123   83.0  0.9947   -3.9
 0.060  0.9088   -9.8   6.883  172.8  0.0149   82.6  0.9924   -4.7
 0.070  0.9097  -11.5   6.862  171.5  0.0175   82.3  0.9904   -5.5
 0.080  0.9115  -13.2   6.844  170.3  0.0202   82.1  0.9884   -6.2
 0.090  0.9140  -14.9   6.829  169.1  0.0228   81.9  0.9867   -7.0
 0.100  0.9173  -16.6   6.818  167.8  0.0254   81.8  0.9852   -7.8
 0.110  0.9121  -18.2   6.784  166.6  0.0277   80.2  0.9813   -8.5
 0.120  0.9077  -19.8   6.753  165.4  0.0300   78.9  0.9776   -9.3
 0.130  0.9039  -21.4   6.725  164.1  0.0324   77.7  0.9741  -10.1
 0.140  0.9008  -23.0   6.700  162.9  0.0347   76.8  0.9708  -10.8
 0.150  0.8985  -24.6   6.679  161.6  0.0371   75.9  0.9676  -11.6
 0.200  0.8760  -32.5   6.511  155.4  0.0470   71.9  0.9468  -15.0
 0.250  0.8547  -40.2   6.343  149.5  0.0578   67.3  0.9226  -18.3
 0.300  0.8222  -47.4   6.102  144.2  0.0660   63.7  0.8927  -21.2
 0.350  0.7907  -53.9   5.858  139.5  0.0733   60.1  0.8636  -23.7
 0.400  0.7700  -60.8   5.656  134.4  0.0809   57.2  0.8363  -26.3
 0.450  0.7364  -66.8   5.398  130.4  0.0867   54.5  0.8074  -28.2
 0.500  0.7114  -73.2   5.169  126.0  0.0926   52.2  0.7795  -30.3
 0.600  0.6623  -84.6   4.737  118.4  0.1012   48.0  0.7283  -33.4
 0.700  0.6184  -94.8   4.328  111.7  0.1072   45.0  0.6850  -35.8
 0.800  0.5817 -104.3   3.985  105.7  0.1120   42.8  0.6472  -37.8
 0.900  0.5508 -113.0   3.668  100.4  0.1155   40.8  0.6159  -39.4
 1.000  0.5262 -121.1   3.405   95.7  0.1183   39.8  0.5884  -40.8
 1.100  0.5086 -128.7   3.169   91.3  0.1208   39.2  0.5666  -42.1
 1.200  0.4933 -135.8   2.960   87.2  0.1224   38.6  0.5466  -43.3
 1.300  0.4794 -142.5   2.776   83.3  0.1240   38.8  0.5302  -44.6
 1.400  0.4721 -148.6   2.618   79.8  0.1260   39.1  0.5149  -46.0
 1.500  0.4675 -154.6   2.477   76.5  0.1277   39.7  0.5030  -47.2
 1.600  0.4619 -160.2   2.346   73.1  0.1296   40.3  0.4941  -48.5
 1.700  0.4585 -165.5   2.235   70.2  0.1315   41.3  0.4827  -50.0
 1.800  0.4567 -170.7   2.142   67.2  0.1345   42.2  0.4748  -51.4
 1.900  0.4581 -175.4   2.050   64.6  0.1367   43.5  0.4675  -52.9
 2.000  0.4578 -180.0   1.966   61.6  0.1402   44.5  0.4619  -54.5
 2.100  0.4587  175.7   1.890   59.0  0.1437   45.8  0.4573  -56.2
 2.200  0.4621  171.5   1.819   56.2  0.1473   47.0  0.4531  -58.0
 2.300  0.4652  167.8   1.755   53.8  0.1518   48.2  0.4501  -60.0
 2.400  0.4703  164.1   1.694   51.2  0.1564   49.3  0.4476  -62.0
 2.500  0.4733  160.6   1.636   49.0  0.1614   50.4  0.4457  -63.9
 2.600  0.4781  157.2   1.581   46.7  0.1665   51.4  0.4443  -65.8
 2.700  0.4810  154.0   1.534   44.6  0.1727   52.3  0.4438  -67.8
 2.800  0.4853  150.9   1.490   42.3  0.1790   53.1  0.4439  -69.8
 2.900  0.4891  147.8   1.450   40.2  0.1861   53.7  0.4430  -71.6
 3.000  0.4944  144.7   1.412   38.0  0.1933   54.3  0.4426  -73.5
 3.100  0.4970  141.9   1.375   36.3  0.2017   54.6  0.4416  -75.6
 3.200  0.5008  139.1   1.340   34.6  0.2100   55.0  0.4412  -77.6
 3.300  0.5057  136.4   1.306   32.8  0.2184   55.3  0.4414  -79.7
 3.400  0.5118  133.7   1.273   30.8  0.2268   55.5  0.4421  -81.7
 3.500  0.5189  131.1   1.242   28.8  0.2352   55.8  0.4434  -83.8
 3.600  0.5230  128.6   1.215   27.3  0.2452   55.5  0.4408  -86.0
 3.700  0.5280  126.2   1.189   25.7  0.2552   55.1  0.4388  -88.3
 3.800  0.5340  123.8   1.164   24.1  0.2652   54.8  0.4375  -90.5
 3.900  0.5409  121.5   1.140   22.4  0.2753   54.6  0.4369  -92.8
 4.000  0.5487  119.2   1.117   20.6  0.2853   54.3  0.4370  -95.1
 4.100  0.5522  117.1   1.095   19.2  0.2960   53.5  0.4328  -97.8
 4.200  0.5565  115.0   1.075   17.8  0.3067   52.8  0.4296 -100.6
 4.300  0.5615  113.0   1.054   16.4  0.3175   52.2  0.4274 -103.4
 4.400  0.5672  111.0   1.035   14.9  0.3283   51.6  0.4262 -106.2
 4.500  0.5736  109.0   1.016   13.3  0.3392   51.0  0.4261 -109.0
 4.600  0.5787  107.1   0.997   12.2  0.3501   50.0  0.4231 -112.1
 4.700  0.5843  105.3   0.978   11.1  0.3612   49.0  0.4214 -115.3
 4.800  0.5906  103.5   0.960    9.9  0.3723   48.1  0.4209 -118.5
 4.900  0.5974  101.7   0.942    8.7  0.3836   47.2  0.4218 -121.6
 5.000  0.6048  100.0   0.924    7.4  0.3949   46.4  0.4239 -124.8
 5.100  0.6068   98.4   0.911    6.5  0.4054   45.2  0.4247 -128.0
 5.200  0.6092   96.8   0.898    5.6  0.4160   44.0  0.4268 -131.2
 5.300  0.6122   95.2   0.885    4.6  0.4268   42.9  0.4302 -134.4
 5.400  0.6156   93.6   0.872    3.6  0.4378   41.8  0.4349 -137.5
 5.500  0.6194   92.1   0.860    2.6  0.4489   40.8  0.4408 -140.5
 5.600  0.6212   90.7   0.848    1.9  0.4584   39.5  0.4426 -143.3
 5.700  0.6235   89.3   0.836    1.1  0.4681   38.2  0.4455 -146.1
 5.800  0.6261   87.9   0.825    0.3  0.4780   37.1  0.4494 -148.8
 5.900  0.6291   86.5   0.813   -0.5  0.4881   35.9  0.4543 -151.5
 6.000  0.6324   85.1   0.802   -1.3  0.4984   34.8  0.4602 -154.1
!
!  f       NFmin   Gammaopt  rn/50
! GHz       dB    MAG  ANG    -
 0.450      0.85  0.50   30   0.26
 0.900      0.99  0.40   58   0.24
 1.900      1.74  0.30  142   0.14
 2.400      2.11  0.26  164   0.19
!
! (c) 2017  Infineon Technologies AG, Munich