! Infineon Technologies  Discrete & RF Semiconductors
! BFR182W
! VCE =  1.0 V,  IC =  2.0 mA
! Common Emitter S-Parameters:                            Jan 2017
# GHz  S  MA  R  50
!  f         S11            S21            S12            S22
! GHz     MAG   ANG      MAG   ANG      MAG   ANG      MAG   ANG
 0.010  0.9249   -1.9   6.927  178.9  0.0023   89.0  1.0000   -0.8
 0.020  0.9450   -3.8   7.051  177.7  0.0053   94.3  0.9996   -1.9
 0.030  0.9315   -5.4   7.008  176.4  0.0082   88.0  0.9974   -2.7
 0.040  0.9187   -7.0   6.969  175.0  0.0111   85.0  0.9953   -3.6
 0.050  0.9067   -8.7   6.934  173.7  0.0140   83.3  0.9935   -4.4
 0.060  0.9063  -10.5   6.909  172.4  0.0169   82.2  0.9907   -5.3
 0.070  0.9068  -12.3   6.887  171.1  0.0197   81.3  0.9881   -6.1
 0.080  0.9081  -14.1   6.870  169.8  0.0226   80.7  0.9857   -7.0
 0.090  0.9104  -15.8   6.855  168.4  0.0254   80.3  0.9836   -7.9
 0.100  0.9135  -17.6   6.845  167.1  0.0283   79.9  0.9817   -8.8
 0.110  0.9078  -19.2   6.807  165.8  0.0309   78.6  0.9776   -9.6
 0.120  0.9028  -20.9   6.772  164.6  0.0334   77.4  0.9737  -10.4
 0.130  0.8986  -22.5   6.741  163.3  0.0360   76.5  0.9700  -11.2
 0.140  0.8951  -24.2   6.713  162.0  0.0386   75.6  0.9665  -12.1
 0.150  0.8924  -25.9   6.688  160.7  0.0412   74.9  0.9632  -12.9
 0.200  0.8719  -34.5   6.501  154.3  0.0528   71.2  0.9390  -16.7
 0.250  0.8478  -42.5   6.317  148.2  0.0643   66.0  0.9113  -20.3
 0.300  0.8140  -50.1   6.058  142.7  0.0738   62.3  0.8787  -23.5
 0.350  0.7812  -56.8   5.797  137.9  0.0816   58.6  0.8464  -26.1
 0.400  0.7600  -64.0   5.580  132.7  0.0897   55.6  0.8160  -29.0
 0.450  0.7269  -70.1   5.311  128.6  0.0956   52.8  0.7847  -31.1
 0.500  0.7029  -76.8   5.072  124.1  0.1016   50.4  0.7545  -33.4
 0.600  0.6516  -88.5   4.627  116.4  0.1104   46.1  0.7009  -36.6
 0.700  0.6109  -98.7   4.207  109.8  0.1161   43.0  0.6536  -39.2
 0.800  0.5768 -108.2   3.866  103.8  0.1215   40.9  0.6142  -41.3
 0.900  0.5498 -117.3   3.549   98.6  0.1248   38.8  0.5814  -43.1
 1.000  0.5268 -125.3   3.289   93.9  0.1278   37.8  0.5531  -44.7
 1.100  0.5102 -132.9   3.056   89.5  0.1302   37.2  0.5300  -46.0
 1.200  0.4972 -139.9   2.852   85.4  0.1324   36.6  0.5090  -47.3
 1.300  0.4845 -146.3   2.671   81.5  0.1339   36.7  0.4924  -48.7
 1.400  0.4786 -152.4   2.519   78.0  0.1356   37.0  0.4770  -50.1
 1.500  0.4756 -158.3   2.382   74.7  0.1378   37.5  0.4642  -51.5
 1.600  0.4717 -163.8   2.255   71.3  0.1399   37.9  0.4552  -52.9
 1.700  0.4696 -168.8   2.150   68.5  0.1414   38.9  0.4438  -54.5
 1.800  0.4693 -173.9   2.060   65.4  0.1445   39.9  0.4348  -56.0
 1.900  0.4708 -178.4   1.970   62.8  0.1467   41.0  0.4277  -57.7
 2.000  0.4711  177.2   1.889   59.8  0.1504   41.8  0.4225  -59.4
 2.100  0.4725  173.0   1.817   57.3  0.1540   42.9  0.4176  -61.3
 2.200  0.4764  168.9   1.749   54.5  0.1576   44.0  0.4131  -63.2
 2.300  0.4797  165.3   1.687   52.1  0.1618   45.1  0.4102  -65.3
 2.400  0.4848  161.8   1.628   49.5  0.1661   46.1  0.4078  -67.4
 2.500  0.4882  158.5   1.573   47.3  0.1712   47.1  0.4060  -69.4
 2.600  0.4932  155.2   1.520   45.0  0.1763   48.1  0.4047  -71.5
 2.700  0.4966  152.1   1.476   42.9  0.1824   48.9  0.4042  -73.6
 2.800  0.5015  149.0   1.434   40.6  0.1886   49.7  0.4042  -75.7
 2.900  0.5055  146.0   1.395   38.5  0.1957   50.2  0.4031  -77.6
 3.000  0.5109  143.1   1.358   36.3  0.2029   50.7  0.4025  -79.6
 3.100  0.5135  140.3   1.323   34.7  0.2112   51.0  0.4017  -81.8
 3.200  0.5173  137.6   1.289   32.9  0.2195   51.3  0.4014  -83.9
 3.300  0.5223  134.9   1.257   31.1  0.2278   51.6  0.4017  -86.1
 3.400  0.5284  132.3   1.226   29.2  0.2361   51.9  0.4026  -88.3
 3.500  0.5356  129.7   1.196   27.2  0.2444   52.1  0.4041  -90.4
 3.600  0.5394  127.3   1.170   25.7  0.2542   51.8  0.4017  -92.8
 3.700  0.5441  124.9   1.146   24.2  0.2639   51.4  0.3999  -95.2
 3.800  0.5498  122.6   1.122   22.6  0.2737   51.1  0.3989  -97.6
 3.900  0.5563  120.3   1.099   20.9  0.2835   50.9  0.3985 -100.0
 4.000  0.5637  118.1   1.077   19.2  0.2933   50.6  0.3989 -102.4
 4.100  0.5673  116.0   1.056   17.8  0.3037   49.9  0.3952 -105.3
 4.200  0.5715  114.0   1.036   16.4  0.3142   49.2  0.3926 -108.2
 4.300  0.5765  112.0   1.017   15.0  0.3247   48.6  0.3910 -111.2
 4.400  0.5822  110.0   0.998   13.5  0.3353   48.0  0.3904 -114.1
 4.500  0.5886  108.1   0.980   11.9  0.3459   47.4  0.3909 -117.1
 4.600  0.5932  106.3   0.962   10.8  0.3564   46.4  0.3888 -120.4
 4.700  0.5984  104.4   0.944    9.7  0.3670   45.5  0.3880 -123.8
 4.800  0.6043  102.7   0.927    8.6  0.3777   44.6  0.3886 -127.1
 4.900  0.6107  100.9   0.910    7.4  0.3885   43.8  0.3904 -130.4
 5.000  0.6176   99.2   0.894    6.2  0.3994   43.0  0.3936 -133.7
 5.100  0.6196   97.6   0.882    5.3  0.4095   41.8  0.3955 -137.0
 5.200  0.6222   96.0   0.870    4.4  0.4197   40.6  0.3987 -140.2
 5.300  0.6252   94.4   0.858    3.5  0.4301   39.5  0.4031 -143.3
 5.400  0.6287   92.8   0.846    2.5  0.4406   38.5  0.4087 -146.4
 5.500  0.6326   91.3   0.835    1.5  0.4513   37.5  0.4154 -149.4
 5.600  0.6336   89.9   0.824    0.8  0.4602   36.2  0.4180 -152.1
 5.700  0.6350   88.6   0.813    0.1  0.4693   35.0  0.4215 -154.8
 5.800  0.6368   87.3   0.802   -0.6  0.4786   33.9  0.4259 -157.5
 5.900  0.6389   85.9   0.792   -1.3  0.4881   32.8  0.4312 -160.1
 6.000  0.6413   84.6   0.781   -2.1  0.4978   31.7  0.4374 -162.6
!
!  f       NFmin   Gammaopt  rn/50
! GHz       dB    MAG  ANG    -
 0.450      0.85  0.50   30   0.26
 0.900      0.99  0.40   58   0.24
 1.900      1.74  0.30  142   0.14
 2.400      2.11  0.26  164   0.19
!
! (c) 2017  Infineon Technologies AG, Munich