! Infineon Technologies  Discrete & RF Semiconductors
! BFR182W
! VCE =  5.0 V,  IC =  42 mA
! Common Emitter S-Parameters:                            Jan 2017
# GHz  S  MA  R  50
!  f         S11            S21            S12            S22
! GHz     MAG   ANG      MAG   ANG      MAG   ANG      MAG   ANG
 0.010  0.4027  -12.1  44.076  173.5  0.0018   82.2  0.9403   -3.1
 0.020  0.4096  -23.9  43.747  167.8  0.0038   85.5  0.9294   -7.2
 0.030  0.3901  -34.5  41.844  162.7  0.0055   79.2  0.9016  -10.3
 0.040  0.3850  -45.8  40.300  157.2  0.0072   75.9  0.8765  -13.5
 0.050  0.3948  -56.9  39.157  151.3  0.0089   73.8  0.8544  -16.9
 0.060  0.3813  -64.4  37.083  148.2  0.0100   71.3  0.8230  -18.4
 0.070  0.3746  -72.2  35.132  144.7  0.0111   69.3  0.7921  -20.0
 0.080  0.3752  -80.2  33.328  140.8  0.0123   67.6  0.7620  -21.7
 0.090  0.3830  -88.0  31.695  136.5  0.0134   66.2  0.7326  -23.6
 0.100  0.3975  -95.4  30.260  131.7  0.0146   65.1  0.7040  -25.6
 0.110  0.3917 -100.0  28.805  129.7  0.0154   64.6  0.6820  -26.1
 0.120  0.3886 -104.6  27.386  127.6  0.0162   64.2  0.6600  -26.5
 0.130  0.3880 -109.4  26.011  125.2  0.0169   63.9  0.6381  -27.1
 0.140  0.3900 -114.1  24.686  122.5  0.0177   63.5  0.6162  -27.6
 0.150  0.3947 -118.7  23.420  119.6  0.0185   63.2  0.5944  -28.2
 0.200  0.3957 -133.8  18.745  111.7  0.0216   64.9  0.5274  -28.1
 0.250  0.3972 -144.2  15.566  105.9  0.0250   64.3  0.4851  -27.2
 0.300  0.3968 -151.7  13.195  101.9  0.0280   66.6  0.4557  -26.2
 0.350  0.3957 -157.1  11.668   99.2  0.0314   68.4  0.4396  -25.4
 0.400  0.3982 -162.5  10.174   95.7  0.0349   69.8  0.4235  -24.5
 0.450  0.3988 -166.3   9.195   93.7  0.0384   70.5  0.4143  -24.1
 0.500  0.4012 -170.1   8.229   91.3  0.0419   71.1  0.4052  -23.7
 0.600  0.4039 -176.1   6.928   87.5  0.0495   72.1  0.3933  -23.4
 0.700  0.4072  179.1   5.970   84.3  0.0560   73.7  0.3860  -23.5
 0.800  0.4100  174.8   5.260   81.3  0.0642   74.4  0.3794  -24.1
 0.900  0.4130  170.9   4.686   78.5  0.0715   74.6  0.3747  -24.9
 1.000  0.4181  167.4   4.248   76.0  0.0789   74.7  0.3700  -25.8
 1.100  0.4214  164.2   3.880   73.6  0.0867   74.9  0.3671  -27.0
 1.200  0.4242  161.2   3.572   71.1  0.0942   74.5  0.3633  -28.2
 1.300  0.4265  158.2   3.309   68.7  0.1020   74.4  0.3602  -29.6
 1.400  0.4325  155.4   3.095   66.5  0.1107   74.2  0.3559  -31.3
 1.500  0.4367  153.0   2.898   64.4  0.1180   73.9  0.3527  -32.9
 1.600  0.4404  150.5   2.733   62.1  0.1261   73.4  0.3505  -34.7
 1.700  0.4442  148.0   2.585   60.1  0.1348   73.2  0.3472  -36.6
 1.800  0.4490  145.5   2.461   57.9  0.1425   72.4  0.3441  -38.5
 1.900  0.4537  143.2   2.344   56.0  0.1510   71.9  0.3410  -40.6
 2.000  0.4559  141.2   2.237   53.9  0.1596   71.4  0.3388  -42.9
 2.100  0.4609  138.9   2.145   52.0  0.1681   70.7  0.3362  -45.2
 2.200  0.4667  136.7   2.055   49.9  0.1766   70.1  0.3342  -47.5
 2.300  0.4715  134.8   1.979   48.1  0.1854   69.4  0.3326  -50.0
 2.400  0.4769  132.9   1.906   46.1  0.1942   68.7  0.3317  -52.5
 2.500  0.4806  130.9   1.840   44.4  0.2026   67.9  0.3308  -54.9
 2.600  0.4849  129.0   1.775   42.5  0.2111   67.1  0.3306  -57.4
 2.700  0.4895  127.1   1.720   40.8  0.2199   66.4  0.3301  -59.8
 2.800  0.4946  125.3   1.666   39.0  0.2288   65.7  0.3303  -62.3
 2.900  0.4988  123.4   1.618   37.3  0.2377   64.8  0.3297  -64.6
 3.000  0.5035  121.6   1.572   35.5  0.2467   63.9  0.3297  -67.0
 3.100  0.5065  119.7   1.532   34.1  0.2557   62.9  0.3283  -69.3
 3.200  0.5099  117.9   1.493   32.6  0.2647   62.0  0.3274  -71.6
 3.300  0.5139  116.1   1.455   31.0  0.2738   61.2  0.3271  -74.0
 3.400  0.5184  114.3   1.418   29.3  0.2830   60.4  0.3273  -76.3
 3.500  0.5234  112.6   1.383   27.6  0.2922   59.7  0.3281  -78.6
 3.600  0.5271  110.9   1.354   26.3  0.3013   58.6  0.3249  -81.0
 3.700  0.5311  109.3   1.325   24.9  0.3106   57.5  0.3223  -83.3
 3.800  0.5357  107.7   1.298   23.5  0.3199   56.5  0.3202  -85.8
 3.900  0.5406  106.1   1.271   22.0  0.3294   55.5  0.3188  -88.2
 4.000  0.5459  104.6   1.245   20.4  0.3389   54.6  0.3179  -90.7
 4.100  0.5494  103.2   1.222   19.1  0.3478   53.4  0.3134  -93.5
 4.200  0.5533  101.7   1.199   17.8  0.3569   52.3  0.3097  -96.4
 4.300  0.5574  100.3   1.178   16.4  0.3661   51.2  0.3068  -99.3
 4.400  0.5620   99.0   1.156   15.0  0.3755   50.2  0.3047 -102.3
 4.500  0.5668   97.6   1.136   13.5  0.3849   49.2  0.3035 -105.3
 4.600  0.5719   96.2   1.116   12.4  0.3935   48.0  0.3004 -108.7
 4.700  0.5773   94.9   1.097   11.3  0.4023   46.9  0.2984 -112.2
 4.800  0.5829   93.6   1.078   10.2  0.4112   45.8  0.2975 -115.7
 4.900  0.5889   92.3   1.059    9.0  0.4203   44.8  0.2977 -119.2
 5.000  0.5952   91.1   1.041    7.8  0.4295   43.8  0.2990 -122.7
 5.100  0.5973   89.9   1.027    6.8  0.4377   42.5  0.3002 -126.2
 5.200  0.5997   88.6   1.012    5.8  0.4461   41.3  0.3024 -129.7
 5.300  0.6024   87.4   0.999    4.8  0.4548   40.2  0.3058 -133.1
 5.400  0.6054   86.2   0.985    3.8  0.4635   39.1  0.3102 -136.4
 5.500  0.6086   85.0   0.972    2.7  0.4725   38.0  0.3156 -139.6
 5.600  0.6103   83.9   0.959    1.8  0.4800   36.8  0.3183 -142.5
 5.700  0.6123   82.7   0.946    1.0  0.4877   35.6  0.3218 -145.3
 5.800  0.6146   81.6   0.933    0.1  0.4956   34.5  0.3261 -148.1
 5.900  0.6170   80.5   0.920   -0.9  0.5036   33.4  0.3311 -150.8
 6.000  0.6197   79.4   0.908   -1.8  0.5119   32.3  0.3368 -153.4
!
!  f       NFmin   Gammaopt  rn/50
! GHz       dB    MAG  ANG    -
!
! noise parameter not available yet for this operation point!
!
! (c) 2017  Infineon Technologies AG, Munich