! Infineon Technologies  Discrete & RF Semiconductors
! BFR182W
! VCE =  5.0 V,  IC =  17 mA
! Common Emitter S-Parameters:                            Jan 2017
# GHz  S  MA  R  50
!  f         S11            S21            S12            S22
! GHz     MAG   ANG      MAG   ANG      MAG   ANG      MAG   ANG
 0.010  0.6241   -5.3  34.038  175.8  0.0018   84.9  0.9888   -2.4
 0.020  0.6321  -10.7  34.307  172.3  0.0031   84.5  0.9843   -5.1
 0.030  0.6137  -15.6  33.552  168.8  0.0052   81.8  0.9703   -7.5
 0.040  0.6001  -20.7  32.924  165.2  0.0072   80.6  0.9579   -9.9
 0.050  0.5915  -26.1  32.432  161.5  0.0093   80.0  0.9474  -12.4
 0.060  0.5752  -30.4  31.507  158.7  0.0108   77.9  0.9265  -14.2
 0.070  0.5623  -34.8  30.662  155.8  0.0123   76.2  0.9066  -16.0
 0.080  0.5530  -39.5  29.902  152.7  0.0138   75.0  0.8876  -18.0
 0.090  0.5474  -44.3  29.234  149.4  0.0153   73.9  0.8698  -20.0
 0.100  0.5457  -49.1  28.665  146.0  0.0168   73.1  0.8530  -22.1
 0.110  0.5285  -52.5  27.747  143.9  0.0180   71.4  0.8315  -23.2
 0.120  0.5133  -56.1  26.869  141.6  0.0192   69.9  0.8103  -24.4
 0.130  0.5002  -59.9  26.036  139.2  0.0204   68.6  0.7894  -25.7
 0.140  0.4894  -63.9  25.253  136.6  0.0217   67.4  0.7690  -27.0
 0.150  0.4811  -68.0  24.523  133.9  0.0229   66.4  0.7490  -28.4
 0.200  0.4335  -83.7  20.944  124.8  0.0269   64.6  0.6632  -31.9
 0.250  0.3969  -96.6  18.108  117.8  0.0307   63.1  0.5963  -33.7
 0.300  0.3662 -107.1  15.762  112.6  0.0340   62.7  0.5421  -34.5
 0.350  0.3449 -115.0  14.099  109.1  0.0376   63.7  0.5075  -34.5
 0.400  0.3309 -123.7  12.503  104.6  0.0412   64.5  0.4730  -34.5
 0.450  0.3191 -130.0  11.377  102.1  0.0447   64.7  0.4513  -34.2
 0.500  0.3115 -136.7  10.277   99.0  0.0482   64.9  0.4297  -33.9
 0.600  0.2985 -147.3   8.726   94.3  0.0556   66.6  0.4008  -33.0
 0.700  0.2935 -155.7   7.560   90.5  0.0616   67.8  0.3814  -32.5
 0.800  0.2915 -162.8   6.680   87.1  0.0696   68.7  0.3671  -32.3
 0.900  0.2907 -169.3   5.962   84.0  0.0768   68.9  0.3563  -32.2
 1.000  0.2920 -175.0   5.412   81.3  0.0836   69.0  0.3471  -32.3
 1.100  0.2946 -179.7   4.947   78.8  0.0917   69.1  0.3405  -32.8
 1.200  0.2962  175.8   4.555   76.1  0.0984   69.0  0.3340  -33.3
 1.300  0.2977  171.3   4.221   73.8  0.1063   69.0  0.3291  -34.1
 1.400  0.3018  168.0   3.944   71.5  0.1140   68.9  0.3234  -35.1
 1.500  0.3070  164.6   3.696   69.3  0.1220   68.5  0.3192  -36.3
 1.600  0.3089  160.8   3.481   67.1  0.1294   68.2  0.3165  -37.4
 1.700  0.3138  158.1   3.292   65.1  0.1372   67.9  0.3120  -38.9
 1.800  0.3181  155.0   3.133   62.9  0.1452   67.6  0.3080  -40.5
 1.900  0.3243  152.3   2.985   61.1  0.1530   67.1  0.3051  -42.1
 2.000  0.3269  149.8   2.846   59.0  0.1610   66.5  0.3022  -44.0
 2.100  0.3320  147.2   2.729   57.1  0.1688   65.9  0.2993  -45.9
 2.200  0.3377  144.7   2.615   55.1  0.1767   65.4  0.2968  -47.9
 2.300  0.3434  142.4   2.518   53.3  0.1847   64.7  0.2950  -50.1
 2.400  0.3496  140.2   2.424   51.3  0.1928   64.1  0.2937  -52.3
 2.500  0.3542  138.0   2.339   49.6  0.2008   63.4  0.2926  -54.4
 2.600  0.3593  135.9   2.256   47.8  0.2089   62.8  0.2920  -56.6
 2.700  0.3641  133.9   2.186   46.1  0.2169   62.1  0.2915  -58.7
 2.800  0.3694  132.0   2.118   44.3  0.2250   61.5  0.2913  -60.8
 2.900  0.3749  129.9   2.058   42.6  0.2331   60.7  0.2905  -62.9
 3.000  0.3810  127.8   1.999   40.8  0.2412   59.9  0.2902  -65.1
 3.100  0.3848  125.9   1.948   39.4  0.2493   59.1  0.2891  -67.1
 3.200  0.3891  124.1   1.899   37.8  0.2574   58.3  0.2883  -69.2
 3.300  0.3937  122.3   1.851   36.2  0.2656   57.5  0.2879  -71.2
 3.400  0.3987  120.5   1.804   34.6  0.2738   56.9  0.2879  -73.3
 3.500  0.4041  118.8   1.759   32.8  0.2821   56.2  0.2882  -75.3
 3.600  0.4091  117.1   1.722   31.4  0.2904   55.2  0.2853  -77.4
 3.700  0.4145  115.5   1.687   30.0  0.2988   54.3  0.2827  -79.4
 3.800  0.4201  113.9   1.652   28.5  0.3073   53.4  0.2806  -81.6
 3.900  0.4261  112.4   1.619   26.9  0.3159   52.6  0.2788  -83.7
 4.000  0.4324  110.9   1.587   25.3  0.3245   51.8  0.2774  -85.9
 4.100  0.4376  109.5   1.558   23.9  0.3325   50.8  0.2732  -88.4
 4.200  0.4430  108.2   1.529   22.5  0.3405   49.8  0.2696  -91.0
 4.300  0.4487  106.8   1.502   21.0  0.3487   48.8  0.2666  -93.7
 4.400  0.4547  105.6   1.475   19.5  0.3570   48.0  0.2641  -96.4
 4.500  0.4608  104.3   1.450   17.9  0.3653   47.1  0.2623  -99.2
 4.600  0.4678  102.9   1.425   16.7  0.3733   46.1  0.2592 -102.5
 4.700  0.4751  101.5   1.400   15.4  0.3815   45.1  0.2569 -105.8
 4.800  0.4827  100.2   1.376   14.1  0.3898   44.2  0.2555 -109.2
 4.900  0.4905   98.9   1.353   12.8  0.3981   43.3  0.2550 -112.6
 5.000  0.4985   97.7   1.331   11.4  0.4066   42.4  0.2554 -116.0
 5.100  0.5023   96.4   1.312   10.2  0.4143   41.3  0.2564 -119.6
 5.200  0.5063   95.2   1.293    9.0  0.4222   40.2  0.2585 -123.1
 5.300  0.5106   94.0   1.275    7.8  0.4302   39.2  0.2614 -126.5
 5.400  0.5151   92.8   1.258    6.5  0.4383   38.2  0.2653 -129.9
 5.500  0.5198   91.6   1.241    5.2  0.4466   37.3  0.2701 -133.1
 5.600  0.5235   90.5   1.224    4.2  0.4539   36.2  0.2730 -136.0
 5.700  0.5274   89.5   1.207    3.1  0.4613   35.2  0.2765 -138.9
 5.800  0.5315   88.4   1.190    2.0  0.4689   34.2  0.2808 -141.6
 5.900  0.5358   87.4   1.174    0.9  0.4766   33.2  0.2856 -144.3
 6.000  0.5402   86.4   1.159   -0.3  0.4845   32.3  0.2911 -146.9
!
!  f       NFmin   Gammaopt  rn/50
! GHz       dB    MAG  ANG    -
 0.450      1.32  0.06  165   0.15
 0.900      1.38  0.07  166   0.15
 1.900      1.89  0.25 -146   0.15
 2.400      2.15  0.25 -131   0.24
!
! (c) 2017  Infineon Technologies AG, Munich