! Infineon Technologies  Discrete & RF Semiconductors
! BFR182W
! VCE =  8.0 V,  IC =  17 mA
! Common Emitter S-Parameters:                            Jan 2017
# GHz  S  MA  R  50
!  f         S11            S21            S12            S22
! GHz     MAG   ANG      MAG   ANG      MAG   ANG      MAG   ANG
 0.010  0.6350   -5.0  35.084  175.3  0.0014   92.9  0.9887   -2.3
 0.020  0.6399  -10.2  34.984  172.1  0.0034   97.0  0.9843   -5.1
 0.030  0.6227  -15.0  34.290  168.7  0.0051   87.4  0.9703   -7.4
 0.040  0.6099  -19.9  33.723  165.1  0.0068   82.7  0.9579   -9.7
 0.050  0.6020  -25.1  33.289  161.5  0.0086   79.9  0.9471  -12.1
 0.060  0.5854  -29.2  32.336  158.7  0.0102   78.0  0.9266  -13.8
 0.070  0.5719  -33.6  31.464  155.8  0.0118   76.6  0.9069  -15.7
 0.080  0.5619  -38.1  30.680  152.7  0.0134   75.6  0.8882  -17.6
 0.090  0.5555  -42.8  29.991  149.4  0.0151   74.8  0.8706  -19.5
 0.100  0.5529  -47.5  29.403  146.0  0.0167   74.1  0.8540  -21.6
 0.110  0.5355  -50.7  28.473  143.9  0.0177   72.3  0.8329  -22.7
 0.120  0.5199  -54.2  27.584  141.6  0.0187   70.7  0.8122  -23.9
 0.130  0.5063  -57.9  26.740  139.2  0.0197   69.3  0.7918  -25.1
 0.140  0.4949  -61.7  25.946  136.7  0.0207   68.0  0.7717  -26.4
 0.150  0.4858  -65.7  25.206  134.0  0.0217   66.8  0.7521  -27.7
 0.200  0.4327  -81.0  21.550  125.0  0.0255   64.8  0.6672  -31.0
 0.250  0.3922  -93.5  18.632  117.9  0.0299   63.2  0.6014  -32.7
 0.300  0.3594 -104.3  16.225  112.7  0.0330   63.4  0.5491  -33.4
 0.350  0.3369 -112.0  14.515  109.2  0.0366   64.2  0.5151  -33.4
 0.400  0.3213 -120.7  12.873  104.8  0.0402   64.9  0.4811  -33.3
 0.450  0.3075 -127.0  11.715  102.3  0.0434   65.8  0.4597  -33.0
 0.500  0.2978 -133.8  10.584   99.2  0.0467   66.6  0.4383  -32.7
 0.600  0.2839 -144.4   8.993   94.6  0.0536   66.8  0.4104  -31.9
 0.700  0.2770 -153.3   7.785   90.8  0.0601   68.7  0.3917  -31.3
 0.800  0.2729 -160.8   6.879   87.4  0.0683   69.2  0.3774  -31.0
 0.900  0.2708 -167.2   6.142   84.4  0.0749   69.1  0.3672  -31.0
 1.000  0.2723 -173.1   5.579   81.7  0.0822   69.5  0.3582  -31.1
 1.100  0.2740 -178.5   5.097   79.2  0.0893   69.4  0.3518  -31.5
 1.200  0.2764  176.9   4.693   76.6  0.0967   69.6  0.3462  -32.0
 1.300  0.2770  172.6   4.350   74.3  0.1045   69.6  0.3406  -32.9
 1.400  0.2810  168.8   4.064   72.0  0.1123   69.2  0.3353  -33.8
 1.500  0.2873  165.4   3.806   69.9  0.1197   69.3  0.3312  -34.9
 1.600  0.2890  161.6   3.586   67.7  0.1271   68.7  0.3282  -36.1
 1.700  0.2926  158.6   3.391   65.7  0.1349   68.5  0.3240  -37.5
 1.800  0.2979  155.5   3.226   63.6  0.1428   68.0  0.3200  -39.0
 1.900  0.3025  152.9   3.073   61.8  0.1500   67.5  0.3170  -40.5
 2.000  0.3063  150.2   2.930   59.7  0.1580   67.1  0.3144  -42.4
 2.100  0.3113  147.5   2.809   57.9  0.1657   66.5  0.3117  -44.2
 2.200  0.3169  144.9   2.691   55.9  0.1735   65.9  0.3094  -46.1
 2.300  0.3225  142.7   2.592   54.1  0.1816   65.3  0.3072  -48.2
 2.400  0.3286  140.6   2.496   52.1  0.1898   64.8  0.3055  -50.3
 2.500  0.3334  138.4   2.408   50.4  0.1975   64.1  0.3044  -52.4
 2.600  0.3386  136.2   2.323   48.6  0.2053   63.4  0.3037  -54.5
 2.700  0.3436  134.3   2.251   47.0  0.2131   62.7  0.3032  -56.5
 2.800  0.3490  132.4   2.181   45.2  0.2210   62.1  0.3030  -58.6
 2.900  0.3545  130.2   2.118   43.5  0.2291   61.3  0.3022  -60.6
 3.000  0.3604  128.1   2.057   41.7  0.2373   60.6  0.3018  -62.7
 3.100  0.3642  126.2   2.005   40.3  0.2453   59.8  0.3006  -64.6
 3.200  0.3684  124.3   1.954   38.8  0.2534   59.0  0.2998  -66.6
 3.300  0.3730  122.5   1.904   37.2  0.2615   58.2  0.2993  -68.6
 3.400  0.3779  120.7   1.856   35.5  0.2697   57.6  0.2992  -70.5
 3.500  0.3832  119.0   1.810   33.8  0.2779   56.9  0.2994  -72.5
 3.600  0.3882  117.4   1.772   32.4  0.2861   55.9  0.2965  -74.5
 3.700  0.3936  115.8   1.736   31.0  0.2944   55.0  0.2939  -76.5
 3.800  0.3992  114.2   1.700   29.5  0.3027   54.2  0.2917  -78.6
 3.900  0.4051  112.8   1.666   27.9  0.3111   53.4  0.2899  -80.7
 4.000  0.4113  111.3   1.633   26.3  0.3196   52.6  0.2885  -82.8
 4.100  0.4169  109.9   1.603   24.9  0.3276   51.6  0.2842  -85.2
 4.200  0.4228  108.6   1.575   23.5  0.3357   50.6  0.2805  -87.7
 4.300  0.4289  107.3   1.547   22.0  0.3439   49.7  0.2772  -90.2
 4.400  0.4352  106.0   1.520   20.5  0.3522   48.8  0.2746  -92.9
 4.500  0.4417  104.8   1.495   18.9  0.3606   48.0  0.2725  -95.5
 4.600  0.4487  103.4   1.469   17.7  0.3685   47.0  0.2690  -98.7
 4.700  0.4559  102.0   1.444   16.4  0.3766   46.0  0.2663 -101.9
 4.800  0.4634  100.7   1.419   15.1  0.3847   45.1  0.2645 -105.2
 4.900  0.4711   99.4   1.395   13.7  0.3930   44.2  0.2636 -108.5
 5.000  0.4790   98.2   1.372   12.3  0.4013   43.3  0.2635 -111.8
 5.100  0.4833   97.0   1.352   11.1  0.4093   42.2  0.2641 -115.2
 5.200  0.4877   95.8   1.333    9.9  0.4174   41.2  0.2657 -118.7
 5.300  0.4924   94.7   1.314    8.7  0.4256   40.2  0.2683 -122.0
 5.400  0.4972   93.5   1.296    7.4  0.4339   39.2  0.2717 -125.3
 5.500  0.5023   92.4   1.279    6.1  0.4424   38.3  0.2760 -128.5
 5.600  0.5060   91.3   1.261    5.1  0.4496   37.2  0.2784 -131.4
 5.700  0.5099   90.1   1.243    4.0  0.4570   36.2  0.2814 -134.3
 5.800  0.5139   89.0   1.226    2.9  0.4645   35.2  0.2852 -137.1
 5.900  0.5182   88.0   1.209    1.8  0.4721   34.2  0.2896 -139.9
 6.000  0.5226   86.9   1.193    0.6  0.4799   33.3  0.2947 -142.5
!
!  f       NFmin   Gammaopt  rn/50
! GHz       dB    MAG  ANG    -
 0.450      1.32  0.06  165   0.15
 0.900      1.38  0.07  166   0.15
 1.900      1.89  0.25 -146   0.15
 2.400      2.15  0.25 -131   0.24
!
! (c) 2017  Infineon Technologies AG, Munich