! Infineon Technologies  Discrete & RF Semiconductors
! BFR182W
! VCE =  5.0 V,  IC =  3.0 mA
! Common Emitter S-Parameters:                            Jan 2017
# GHz  S  MA  R  50
!  f         S11            S21            S12            S22
! GHz     MAG   ANG      MAG   ANG      MAG   ANG      MAG   ANG
 0.010  0.8982   -2.0   9.845  178.5  0.0019   86.2  1.0000   -0.9
 0.020  0.9079   -3.8   9.914  177.3  0.0043   93.9  1.0000   -2.0
 0.030  0.8971   -5.7   9.874  175.8  0.0065   88.4  0.9975   -2.9
 0.040  0.8873   -7.6   9.840  174.4  0.0087   85.7  0.9950   -3.7
 0.050  0.8785   -9.5   9.813  172.9  0.0109   84.1  0.9927   -4.6
 0.060  0.8770  -11.4   9.761  171.5  0.0131   82.9  0.9892   -5.5
 0.070  0.8766  -13.4   9.714  170.1  0.0153   82.0  0.9860   -6.3
 0.080  0.8771  -15.3   9.674  168.6  0.0174   81.3  0.9829   -7.2
 0.090  0.8786  -17.3   9.640  167.2  0.0196   80.8  0.9802   -8.1
 0.100  0.8812  -19.2   9.612  165.7  0.0218   80.4  0.9776   -9.0
 0.110  0.8743  -20.9   9.546  164.3  0.0238   78.7  0.9724   -9.8
 0.120  0.8681  -22.7   9.487  162.9  0.0258   77.3  0.9674  -10.7
 0.130  0.8628  -24.5   9.432  161.5  0.0278   76.1  0.9626  -11.6
 0.140  0.8584  -26.3   9.384  160.1  0.0298   75.1  0.9580  -12.4
 0.150  0.8548  -28.1   9.342  158.6  0.0318   74.2  0.9537  -13.3
 0.200  0.8265  -37.0   9.006  151.8  0.0404   70.6  0.9243  -17.0
 0.250  0.7938  -45.6   8.655  145.4  0.0488   65.9  0.8910  -20.4
 0.300  0.7556  -53.4   8.218  139.7  0.0561   62.6  0.8538  -23.3
 0.350  0.7179  -60.2   7.790  135.0  0.0616   59.4  0.8194  -25.6
 0.400  0.6913  -67.6   7.422  129.7  0.0672   56.8  0.7863  -28.0
 0.450  0.6545  -73.7   7.009  125.7  0.0714   54.7  0.7550  -29.6
 0.500  0.6258  -80.4   6.633  121.3  0.0757   52.8  0.7243  -31.3
 0.600  0.5736  -91.8   5.971  114.1  0.0823   49.8  0.6726  -33.7
 0.700  0.5313 -102.0   5.377  107.8  0.0864   48.1  0.6298  -35.3
 0.800  0.4970 -111.5   4.895  102.4  0.0916   47.3  0.5954  -36.7
 0.900  0.4690 -119.9   4.464   97.5  0.0946   46.6  0.5669  -37.7
 1.000  0.4489 -127.9   4.113   93.3  0.0985   46.5  0.5429  -38.7
 1.100  0.4325 -135.6   3.806   89.4  0.1019   46.6  0.5244  -39.5
 1.200  0.4203 -142.6   3.541   85.6  0.1050   47.1  0.5075  -40.3
 1.300  0.4084 -148.9   3.305   82.1  0.1082   47.6  0.4942  -41.2
 1.400  0.4039 -154.8   3.107   78.9  0.1120   48.5  0.4816  -42.3
 1.500  0.4006 -160.8   2.928   75.9  0.1155   49.3  0.4715  -43.3
 1.600  0.3972 -166.2   2.769   72.9  0.1193   50.1  0.4639  -44.4
 1.700  0.3946 -171.0   2.630   70.3  0.1230   51.4  0.4550  -45.8
 1.800  0.3941 -176.3   2.515   67.5  0.1279   52.1  0.4481  -47.0
 1.900  0.3966  179.4   2.402   65.1  0.1323   53.1  0.4427  -48.4
 2.000  0.3975  175.3   2.300   62.4  0.1376   53.8  0.4378  -49.9
 2.100  0.3994  171.1   2.209   60.0  0.1430   54.5  0.4337  -51.5
 2.200  0.4034  167.0   2.122   57.4  0.1485   55.2  0.4300  -53.2
 2.300  0.4068  163.6   2.046   55.2  0.1543   55.8  0.4274  -55.0
 2.400  0.4117  160.2   1.973   52.8  0.1601   56.4  0.4252  -56.8
 2.500  0.4154  156.9   1.905   50.7  0.1665   56.9  0.4237  -58.6
 2.600  0.4204  153.7   1.840   48.5  0.1729   57.4  0.4227  -60.4
 2.700  0.4247  150.7   1.785   46.5  0.1797   57.7  0.4221  -62.3
 2.800  0.4301  147.8   1.732   44.4  0.1866   57.9  0.4219  -64.2
 2.900  0.4342  144.9   1.684   42.4  0.1940   58.0  0.4210  -65.9
 3.000  0.4394  142.0   1.638   40.3  0.2015   58.1  0.4205  -67.7
 3.100  0.4427  139.4   1.595   38.7  0.2098   58.0  0.4196  -69.6
 3.200  0.4470  136.8   1.554   37.0  0.2181   58.0  0.4192  -71.5
 3.300  0.4521  134.2   1.515   35.2  0.2263   57.9  0.4192  -73.5
 3.400  0.4581  131.7   1.476   33.3  0.2346   57.9  0.4197  -75.4
 3.500  0.4650  129.3   1.440   31.3  0.2429   57.8  0.4207  -77.3
 3.600  0.4697  127.0   1.409   29.8  0.2523   57.2  0.4181  -79.3
 3.700  0.4751  124.7   1.380   28.2  0.2617   56.7  0.4160  -81.4
 3.800  0.4813  122.5   1.351   26.6  0.2711   56.3  0.4144  -83.5
 3.900  0.4881  120.4   1.324   24.9  0.2805   55.8  0.4134  -85.6
 4.000  0.4956  118.3   1.298   23.1  0.2900   55.4  0.4130  -87.7
 4.100  0.5000  116.4   1.273   21.7  0.2998   54.6  0.4089  -90.2
 4.200  0.5050  114.5   1.249   20.2  0.3097   53.8  0.4055  -92.7
 4.300  0.5106  112.6   1.226   18.7  0.3197   53.0  0.4030  -95.3
 4.400  0.5166  110.8   1.203   17.1  0.3297   52.4  0.4013  -97.9
 4.500  0.5232  109.0   1.182   15.5  0.3397   51.7  0.4004 -100.5
 4.600  0.5293  107.2   1.160   14.3  0.3498   50.7  0.3971 -103.5
 4.700  0.5358  105.5   1.139   13.0  0.3600   49.8  0.3948 -106.5
 4.800  0.5429  103.8   1.118   11.7  0.3703   48.9  0.3937 -109.6
 4.900  0.5504  102.1   1.098   10.4  0.3807   48.1  0.3937 -112.6
 5.000  0.5584  100.5   1.078    9.0  0.3911   47.3  0.3948 -115.7
 5.100  0.5616   99.0   1.061    7.9  0.4010   46.1  0.3952 -118.9
 5.200  0.5652   97.4   1.045    6.8  0.4110   45.0  0.3967 -122.1
 5.300  0.5692   95.9   1.029    5.7  0.4212   44.0  0.3995 -125.2
 5.400  0.5735   94.5   1.014    4.5  0.4315   43.0  0.4035 -128.3
 5.500  0.5783   93.0   0.999    3.3  0.4419   42.0  0.4086 -131.3
 5.600  0.5810   91.7   0.984    2.4  0.4511   40.8  0.4104 -134.1
 5.700  0.5839   90.3   0.970    1.5  0.4605   39.6  0.4131 -136.8
 5.800  0.5872   89.0   0.956    0.6  0.4701   38.4  0.4168 -139.5
 5.900  0.5908   87.7   0.942   -0.3  0.4799   37.3  0.4214 -142.2
 6.000  0.5947   86.4   0.928   -1.3  0.4898   36.3  0.4269 -144.8
!
!  f       NFmin   Gammaopt  rn/50
! GHz       dB    MAG  ANG    -
 0.450      0.82  0.39   31   0.20
 0.900      0.95  0.30   57   0.20
 1.900      1.60  0.25  149   0.12
 2.400      1.92  0.23  170   0.17
!
! (c) 2017  Infineon Technologies AG, Munich