! Infineon Technologies  Discrete & RF Semiconductors
! BFR182W
! VCE =  7.0 V,  IC =  13 mA
! Common Emitter S-Parameters:                            Jan 2017
# GHz  S  MA  R  50
!  f         S11            S21            S12            S22
! GHz     MAG   ANG      MAG   ANG      MAG   ANG      MAG   ANG
 0.010  0.6838   -4.4  30.155  176.0  0.0014   91.3  0.9925   -2.1
 0.020  0.6924   -8.9  30.235  173.1  0.0035  102.0  0.9843   -4.5
 0.030  0.6758  -13.1  29.722  170.0  0.0051   89.3  0.9745   -6.6
 0.040  0.6631  -17.5  29.297  166.9  0.0069   83.0  0.9659   -8.7
 0.050  0.6543  -22.0  28.965  163.6  0.0087   79.2  0.9587  -10.8
 0.060  0.6396  -25.8  28.284  161.0  0.0104   77.2  0.9413  -12.5
 0.070  0.6278  -29.7  27.664  158.3  0.0122   75.7  0.9247  -14.2
 0.080  0.6190  -33.7  27.110  155.4  0.0139   74.6  0.9090  -16.0
 0.090  0.6134  -37.9  26.626  152.5  0.0157   73.8  0.8942  -17.8
 0.100  0.6111  -42.1  26.215  149.4  0.0174   73.1  0.8804  -19.7
 0.110  0.5939  -45.1  25.501  147.3  0.0186   71.6  0.8616  -20.9
 0.120  0.5785  -48.3  24.822  145.1  0.0199   70.3  0.8431  -22.1
 0.130  0.5650  -51.7  24.182  142.8  0.0212   69.2  0.8250  -23.4
 0.140  0.5535  -55.2  23.583  140.4  0.0224   68.2  0.8074  -24.7
 0.150  0.5442  -58.9  23.030  137.8  0.0237   67.3  0.7902  -26.1
 0.200  0.4885  -73.4  20.067  128.7  0.0276   65.1  0.7100  -30.0
 0.250  0.4422  -85.7  17.594  121.4  0.0328   62.1  0.6425  -32.2
 0.300  0.4042  -95.9  15.470  115.9  0.0356   62.5  0.5870  -33.5
 0.350  0.3756 -103.7  13.909  112.1  0.0390   62.3  0.5495  -33.8
 0.400  0.3550 -112.5  12.424  107.4  0.0425   62.1  0.5121  -34.2
 0.450  0.3375 -119.0  11.334  104.6  0.0457   62.5  0.4877  -34.2
 0.500  0.3247 -126.1  10.275  101.3  0.0490   62.9  0.4633  -34.1
 0.600  0.3062 -137.3   8.761   96.4  0.0560   64.1  0.4309  -33.5
 0.700  0.2945 -146.7   7.606   92.4  0.0621   65.3  0.4080  -33.0
 0.800  0.2876 -154.4   6.731   88.7  0.0694   66.7  0.3918  -32.8
 0.900  0.2834 -161.9   6.017   85.6  0.0755   66.9  0.3793  -32.8
 1.000  0.2845 -168.2   5.468   82.7  0.0827   67.5  0.3684  -32.9
 1.100  0.2836 -173.7   4.999   80.1  0.0902   67.7  0.3614  -33.2
 1.200  0.2845 -178.9   4.606   77.4  0.0969   67.6  0.3540  -33.7
 1.300  0.2843  176.3   4.268   74.9  0.1044   67.6  0.3483  -34.4
 1.400  0.2884  172.6   3.992   72.6  0.1115   67.9  0.3420  -35.3
 1.500  0.2932  168.6   3.740   70.4  0.1186   67.6  0.3378  -36.4
 1.600  0.2956  164.6   3.525   68.1  0.1264   67.3  0.3346  -37.5
 1.700  0.2998  161.5   3.333   66.1  0.1339   67.4  0.3294  -38.8
 1.800  0.3042  158.2   3.172   63.9  0.1419   67.0  0.3256  -40.3
 1.900  0.3095  155.4   3.022   62.1  0.1489   66.5  0.3225  -41.9
 2.000  0.3118  152.4   2.882   60.0  0.1567   66.1  0.3200  -43.7
 2.100  0.3172  149.6   2.763   58.1  0.1645   65.6  0.3169  -45.5
 2.200  0.3233  146.9   2.648   56.0  0.1724   65.2  0.3142  -47.4
 2.300  0.3287  144.7   2.550   54.2  0.1803   64.6  0.3123  -49.4
 2.400  0.3345  142.5   2.455   52.2  0.1882   64.0  0.3108  -51.5
 2.500  0.3389  140.2   2.369   50.5  0.1958   63.4  0.3096  -53.5
 2.600  0.3439  138.0   2.286   48.7  0.2034   62.9  0.3087  -55.5
 2.700  0.3492  135.8   2.215   47.0  0.2113   62.3  0.3082  -57.6
 2.800  0.3550  133.7   2.146   45.1  0.2192   61.7  0.3081  -59.7
 2.900  0.3603  131.5   2.084   43.4  0.2274   60.9  0.3074  -61.7
 3.000  0.3662  129.4   2.024   41.7  0.2356   60.2  0.3070  -63.7
 3.100  0.3700  127.4   1.973   40.2  0.2435   59.4  0.3059  -65.6
 3.200  0.3742  125.5   1.924   38.7  0.2515   58.7  0.3051  -67.6
 3.300  0.3789  123.6   1.875   37.1  0.2596   58.0  0.3047  -69.5
 3.400  0.3839  121.7   1.829   35.4  0.2676   57.4  0.3046  -71.5
 3.500  0.3894  119.9   1.784   33.6  0.2757   56.8  0.3049  -73.4
 3.600  0.3946  118.2   1.746   32.2  0.2840   55.8  0.3020  -75.4
 3.700  0.4000  116.6   1.710   30.7  0.2924   54.9  0.2995  -77.4
 3.800  0.4059  115.0   1.675   29.2  0.3008   54.1  0.2974  -79.5
 3.900  0.4120  113.4   1.641   27.6  0.3093   53.3  0.2957  -81.6
 4.000  0.4184  111.9   1.608   26.0  0.3179   52.5  0.2944  -83.7
 4.100  0.4241  110.5   1.579   24.6  0.3261   51.5  0.2901  -86.1
 4.200  0.4300  109.1   1.550   23.2  0.3344   50.5  0.2864  -88.6
 4.300  0.4362  107.8   1.523   21.8  0.3427   49.6  0.2833  -91.2
 4.400  0.4426  106.5   1.496   20.3  0.3512   48.7  0.2807  -93.8
 4.500  0.4492  105.2   1.471   18.7  0.3597   47.9  0.2787  -96.5
 4.600  0.4560  103.8   1.445   17.5  0.3678   46.9  0.2753  -99.6
 4.700  0.4630  102.4   1.420   16.2  0.3761   46.0  0.2727 -102.8
 4.800  0.4704  101.0   1.395   14.8  0.3844   45.1  0.2709 -106.0
 4.900  0.4780   99.7   1.372   13.4  0.3928   44.2  0.2701 -109.3
 5.000  0.4858   98.4   1.349   12.0  0.4013   43.4  0.2701 -112.6
 5.100  0.4898   97.2   1.330   10.8  0.4091   42.3  0.2708 -116.1
 5.200  0.4940   96.0   1.311    9.6  0.4171   41.2  0.2724 -119.5
 5.300  0.4985   94.8   1.293    8.4  0.4253   40.2  0.2751 -122.9
 5.400  0.5031   93.6   1.276    7.1  0.4335   39.2  0.2786 -126.2
 5.500  0.5080   92.5   1.259    5.8  0.4419   38.3  0.2831 -129.4
 5.600  0.5116   91.4   1.241    4.8  0.4493   37.2  0.2857 -132.3
 5.700  0.5154   90.3   1.224    3.7  0.4568   36.2  0.2890 -135.1
 5.800  0.5194   89.2   1.207    2.6  0.4645   35.2  0.2929 -137.8
 5.900  0.5236   88.1   1.190    1.5  0.4723   34.2  0.2976 -140.5
 6.000  0.5279   87.1   1.174    0.3  0.4803   33.3  0.3028 -143.1
!
!  f       NFmin   Gammaopt  rn/50
! GHz       dB    MAG  ANG    -
 0.450      1.17  0.04  108   0.14
 0.900      1.26  0.05  122   0.14
 1.900      1.73  0.23 -151   0.14
 2.400      2.00  0.22 -136   0.21
!
! (c) 2017  Infineon Technologies AG, Munich