! Infineon Technologies  Discrete & RF Semiconductors
! BFR182W
! VCE =  3.0 V,  IC =  50 mA
! Common Emitter S-Parameters:                            Jan 2017
# GHz  S  MA  R  50
!  f         S11            S21            S12            S22
! GHz     MAG   ANG      MAG   ANG      MAG   ANG      MAG   ANG
 0.010  0.2706  -27.4  38.726  171.3  0.0025   66.9  0.8502   -4.6
 0.020  0.3037  -50.6  37.936  163.2  0.0049   78.3  0.8289  -10.1
 0.030  0.3087  -68.7  35.263  157.1  0.0068   70.2  0.7884  -13.5
 0.040  0.3420  -84.7  33.048  150.1  0.0089   65.7  0.7511  -17.3
 0.050  0.3965  -97.1  31.388  142.3  0.0109   62.9  0.7174  -21.5
 0.060  0.4031 -105.2  29.213  139.3  0.0119   61.4  0.6838  -22.6
 0.070  0.4173 -112.9  27.131  135.8  0.0130   60.2  0.6505  -23.7
 0.080  0.4385 -119.9  25.164  131.8  0.0141   59.2  0.6174  -25.0
 0.090  0.4657 -126.2  23.342  127.1  0.0151   58.3  0.5848  -26.5
 0.100  0.4979 -131.8  21.701  121.7  0.0162   57.5  0.5525  -28.1
 0.110  0.5018 -135.3  20.487  120.0  0.0169   57.3  0.5349  -28.1
 0.120  0.5074 -138.7  19.294  118.1  0.0175   57.1  0.5172  -28.1
 0.130  0.5148 -142.0  18.125  115.9  0.0182   56.9  0.4996  -28.2
 0.140  0.5239 -145.2  16.985  113.5  0.0188   56.8  0.4819  -28.2
 0.150  0.5346 -148.3  15.880  110.7  0.0195   56.6  0.4643  -28.2
 0.200  0.5509 -157.8  12.363  103.9  0.0225   59.4  0.4189  -26.5
 0.250  0.5609 -164.2  10.101   98.9  0.0264   61.7  0.3920  -24.9
 0.300  0.5653 -169.0   8.493   95.4  0.0292   64.2  0.3749  -23.7
 0.350  0.5670 -172.4   7.474   93.0  0.0328   65.9  0.3660  -23.1
 0.400  0.5706 -175.7   6.473   89.8  0.0364   67.3  0.3572  -22.4
 0.450  0.5723 -178.3   5.838   87.9  0.0400   68.8  0.3517  -22.3
 0.500  0.5751  179.1   5.211   85.6  0.0436   70.0  0.3462  -22.2
 0.600  0.5786  174.6   4.376   81.8  0.0517   70.9  0.3397  -22.6
 0.700  0.5810  171.3   3.766   78.6  0.0593   72.9  0.3349  -23.4
 0.800  0.5858  167.8   3.313   75.3  0.0678   73.9  0.3314  -24.7
 0.900  0.5865  164.7   2.951   72.4  0.0752   74.3  0.3276  -26.1
 1.000  0.5929  161.7   2.677   69.6  0.0832   74.3  0.3239  -27.6
 1.100  0.5948  158.9   2.447   67.0  0.0917   74.5  0.3217  -29.4
 1.200  0.5972  156.2   2.253   64.3  0.0997   74.5  0.3179  -31.3
 1.300  0.5997  153.5   2.089   61.8  0.1083   74.3  0.3152  -33.3
 1.400  0.6047  151.2   1.954   59.2  0.1176   74.2  0.3109  -35.5
 1.500  0.6096  148.9   1.832   56.9  0.1258   73.8  0.3081  -37.8
 1.600  0.6135  146.4   1.729   54.5  0.1348   73.5  0.3061  -40.2
 1.700  0.6160  144.1   1.638   52.2  0.1436   73.1  0.3024  -42.8
 1.800  0.6218  141.6   1.560   49.8  0.1530   72.2  0.2998  -45.4
 1.900  0.6253  139.4   1.486   47.9  0.1624   71.8  0.2972  -48.2
 2.000  0.6274  137.1   1.418   45.6  0.1716   71.1  0.2951  -51.2
 2.100  0.6313  134.8   1.360   43.6  0.1808   70.3  0.2929  -54.2
 2.200  0.6363  132.5   1.304   41.4  0.1900   69.6  0.2915  -57.2
 2.300  0.6393  130.6   1.257   39.5  0.1999   68.8  0.2901  -60.4
 2.400  0.6431  128.7   1.211   37.5  0.2098   68.0  0.2897  -63.6
 2.500  0.6463  126.7   1.169   35.8  0.2194   67.1  0.2893  -66.7
 2.600  0.6502  124.7   1.128   33.9  0.2290   66.2  0.2898  -69.8
 2.700  0.6534  122.7   1.093   32.3  0.2389   65.2  0.2901  -72.9
 2.800  0.6574  120.8   1.059   30.5  0.2488   64.3  0.2913  -75.9
 2.900  0.6597  118.8   1.028   29.0  0.2587   63.3  0.2913  -78.9
 3.000  0.6628  116.9   0.997   27.4  0.2687   62.4  0.2921  -81.8
 3.100  0.6637  115.0   0.972   26.1  0.2784   61.3  0.2908  -84.7
 3.200  0.6653  113.0   0.948   24.8  0.2883   60.2  0.2902  -87.5
 3.300  0.6676  111.1   0.925   23.4  0.2982   59.2  0.2904  -90.4
 3.400  0.6707  109.2   0.901   21.9  0.3082   58.3  0.2913  -93.3
 3.500  0.6746  107.3   0.879   20.4  0.3183   57.4  0.2929  -96.1
 3.600  0.6760  105.6   0.861   19.4  0.3280   56.1  0.2899  -99.0
 3.700  0.6780  103.8   0.844   18.3  0.3378   54.9  0.2876 -102.0
 3.800  0.6806  102.1   0.827   17.2  0.3478   53.7  0.2861 -105.0
 3.900  0.6838  100.4   0.810   16.1  0.3579   52.6  0.2854 -108.1
 4.000  0.6876   98.7   0.794   14.9  0.3681   51.6  0.2855 -111.1
 4.100  0.6878   97.1   0.781   14.0  0.3771   50.2  0.2820 -114.6
 4.200  0.6885   95.6   0.768   13.1  0.3863   48.9  0.2796 -118.2
 4.300  0.6897   94.0   0.755   12.1  0.3957   47.6  0.2783 -121.8
 4.400  0.6914   92.4   0.742   11.1  0.4053   46.4  0.2781 -125.5
 4.500  0.6936   90.9   0.730   10.1  0.4151   45.3  0.2790 -129.1
 4.600  0.6955   89.5   0.719    9.5  0.4234   44.0  0.2781 -133.0
 4.700  0.6977   88.2   0.709    8.8  0.4320   42.8  0.2785 -136.9
 4.800  0.7003   86.8   0.699    8.2  0.4407   41.6  0.2801 -140.7
 4.900  0.7033   85.5   0.688    7.5  0.4496   40.4  0.2830 -144.5
 5.000  0.7067   84.2   0.678    6.8  0.4587   39.3  0.2871 -148.2
 5.100  0.7054   82.9   0.672    6.2  0.4662   38.0  0.2904 -151.7
 5.200  0.7045   81.6   0.667    5.7  0.4739   36.7  0.2948 -155.1
 5.300  0.7039   80.4   0.662    5.1  0.4819   35.5  0.3002 -158.5
 5.400  0.7037   79.1   0.656    4.5  0.4900   34.3  0.3066 -161.7
 5.500  0.7038   77.8   0.651    3.9  0.4984   33.1  0.3139 -164.7
 5.600  0.7024   76.7   0.646    3.5  0.5047   31.8  0.3175 -167.3
 5.700  0.7013   75.6   0.642    3.1  0.5113   30.6  0.3217 -169.9
 5.800  0.7004   74.5   0.637    2.7  0.5181   29.4  0.3265 -172.4
 5.900  0.6998   73.4   0.633    2.2  0.5252   28.2  0.3320 -174.8
 6.000  0.6995   72.3   0.628    1.8  0.5324   27.1  0.3380 -177.1
!
!  f       NFmin   Gammaopt  rn/50
! GHz       dB    MAG  ANG    -
!
! noise parameter not available yet for this operation point!
!
! (c) 2017  Infineon Technologies AG, Munich