! Infineon Technologies  Discrete & RF Semiconductors
! BFR182W
! VCE =  4.0 V,  IC =  2.0 mA
! Common Emitter S-Parameters:                            Jan 2017
# GHz  S  MA  R  50
!  f         S11            S21            S12            S22
! GHz     MAG   ANG      MAG   ANG      MAG   ANG      MAG   ANG
 0.010  0.9298   -1.7   6.817  178.9  0.0019   89.6  1.0000   -0.7
 0.020  0.9468   -3.3   6.912  177.9  0.0045   93.7  1.0000   -1.6
 0.030  0.9344   -4.8   6.880  176.7  0.0069   90.0  1.0000   -2.3
 0.040  0.9226   -6.3   6.851  175.4  0.0093   88.2  0.9987   -3.0
 0.050  0.9114   -7.8   6.825  174.2  0.0117   87.1  0.9955   -3.7
 0.060  0.9114   -9.4   6.801  173.0  0.0140   84.9  0.9932   -4.4
 0.070  0.9121  -11.0   6.780  171.9  0.0162   83.3  0.9911   -5.1
 0.080  0.9135  -12.6   6.762  170.7  0.0185   82.2  0.9891   -5.8
 0.090  0.9155  -14.1   6.747  169.5  0.0208   81.2  0.9872   -6.5
 0.100  0.9183  -15.7   6.735  168.3  0.0231   80.5  0.9855   -7.2
 0.110  0.9139  -17.2   6.706  167.1  0.0252   79.4  0.9824   -7.9
 0.120  0.9101  -18.7   6.679  165.9  0.0273   78.4  0.9794   -8.6
 0.130  0.9070  -20.2   6.656  164.7  0.0294   77.6  0.9766   -9.3
 0.140  0.9045  -21.8   6.636  163.5  0.0316   76.9  0.9740  -10.1
 0.150  0.9026  -23.3   6.618  162.3  0.0337   76.3  0.9715  -10.8
 0.200  0.8824  -30.9   6.470  156.4  0.0437   72.8  0.9526  -13.9
 0.250  0.8615  -38.2   6.318  150.7  0.0529   68.1  0.9305  -16.9
 0.300  0.8304  -45.3   6.096  145.5  0.0612   65.1  0.9031  -19.7
 0.350  0.7999  -51.5   5.866  140.9  0.0684   61.6  0.8760  -22.0
 0.400  0.7796  -58.2   5.678  135.9  0.0758   58.8  0.8504  -24.5
 0.450  0.7464  -64.0   5.434  131.9  0.0811   56.0  0.8238  -26.3
 0.500  0.7214  -70.2   5.218  127.6  0.0865   53.6  0.7981  -28.3
 0.600  0.6705  -81.2   4.801  120.0  0.0954   49.1  0.7499  -31.1
 0.700  0.6253  -91.3   4.400  113.3  0.1005   46.4  0.7077  -33.5
 0.800  0.5888 -100.6   4.065  107.4  0.1055   44.3  0.6717  -35.4
 0.900  0.5551 -109.2   3.749  102.0  0.1090   42.1  0.6408  -37.0
 1.000  0.5282 -117.5   3.486   97.3  0.1116   41.3  0.6144  -38.4
 1.100  0.5102 -125.0   3.249   93.0  0.1148   40.7  0.5931  -39.6
 1.200  0.4904 -132.3   3.037   88.7  0.1161   40.1  0.5732  -40.8
 1.300  0.4765 -138.9   2.851   84.9  0.1176   40.3  0.5575  -42.0
 1.400  0.4675 -145.1   2.691   81.3  0.1199   40.6  0.5423  -43.3
 1.500  0.4617 -151.1   2.549   78.0  0.1213   41.1  0.5305  -44.5
 1.600  0.4543 -157.0   2.413   74.6  0.1229   41.7  0.5216  -45.7
 1.700  0.4496 -162.5   2.299   71.7  0.1250   42.8  0.5111  -47.2
 1.800  0.4487 -167.8   2.204   68.7  0.1273   43.9  0.5027  -48.5
 1.900  0.4492 -172.6   2.110   66.1  0.1300   45.2  0.4960  -50.0
 2.000  0.4468 -177.3   2.024   63.1  0.1336   46.3  0.4903  -51.5
 2.100  0.4473  178.3   1.947   60.5  0.1370   47.6  0.4854  -53.2
 2.200  0.4505  173.9   1.874   57.7  0.1404   48.9  0.4810  -54.9
 2.300  0.4531  170.0   1.807   55.3  0.1449   50.2  0.4782  -56.7
 2.400  0.4577  166.2   1.744   52.7  0.1494   51.4  0.4759  -58.6
 2.500  0.4605  162.6   1.685   50.5  0.1544   52.5  0.4738  -60.4
 2.600  0.4650  159.1   1.629   48.2  0.1594   53.6  0.4722  -62.3
 2.700  0.4676  155.8   1.580   46.1  0.1656   54.5  0.4718  -64.1
 2.800  0.4718  152.5   1.534   43.8  0.1719   55.4  0.4718  -66.0
 2.900  0.4756  149.3   1.492   41.7  0.1789   56.1  0.4709  -67.8
 3.000  0.4809  146.2   1.453   39.4  0.1860   56.7  0.4705  -69.6
 3.100  0.4835  143.3   1.415   37.7  0.1945   57.1  0.4695  -71.6
 3.200  0.4873  140.5   1.379   36.0  0.2029   57.4  0.4691  -73.5
 3.300  0.4923  137.7   1.344   34.1  0.2114   57.7  0.4692  -75.5
 3.400  0.4984  135.0   1.310   32.2  0.2199   58.0  0.4699  -77.4
 3.500  0.5056  132.3   1.278   30.1  0.2284   58.3  0.4711  -79.4
 3.600  0.5094  129.8   1.250   28.6  0.2384   58.0  0.4684  -81.5
 3.700  0.5142  127.3   1.224   27.0  0.2485   57.7  0.4664  -83.7
 3.800  0.5199  124.8   1.198   25.4  0.2586   57.4  0.4651  -85.9
 3.900  0.5266  122.4   1.174   23.7  0.2686   57.1  0.4645  -88.1
 4.000  0.5341  120.1   1.150   21.9  0.2787   56.9  0.4645  -90.3
 4.100  0.5382  118.0   1.128   20.5  0.2896   56.1  0.4601  -92.9
 4.200  0.5429  115.9   1.106   19.1  0.3005   55.4  0.4566  -95.5
 4.300  0.5484  113.9   1.085   17.6  0.3115   54.7  0.4541  -98.1
 4.400  0.5546  111.9   1.064   16.1  0.3225   54.1  0.4525 -100.8
 4.500  0.5614  109.9   1.045   14.5  0.3335   53.5  0.4520 -103.5
 4.600  0.5667  108.0   1.025   13.4  0.3446   52.5  0.4483 -106.5
 4.700  0.5725  106.1   1.006   12.2  0.3559   51.5  0.4460 -109.6
 4.800  0.5790  104.3   0.987   10.9  0.3672   50.6  0.4449 -112.7
 4.900  0.5861  102.5   0.969    9.6  0.3786   49.7  0.4451 -115.8
 5.000  0.5937  100.7   0.951    8.3  0.3901   48.9  0.4466 -118.9
 5.100  0.5959   99.1   0.937    7.4  0.4010   47.6  0.4467 -122.0
 5.200  0.5985   97.5   0.923    6.4  0.4121   46.4  0.4481 -125.2
 5.300  0.6017   95.8   0.909    5.4  0.4233   45.3  0.4508 -128.3
 5.400  0.6053   94.3   0.896    4.4  0.4347   44.2  0.4549 -131.3
 5.500  0.6093   92.7   0.883    3.4  0.4463   43.2  0.4602 -134.3
 5.600  0.6111   91.3   0.871    2.7  0.4561   41.9  0.4613 -137.1
 5.700  0.6133   89.8   0.858    1.9  0.4660   40.6  0.4635 -139.8
 5.800  0.6158   88.4   0.846    1.2  0.4762   39.4  0.4667 -142.6
 5.900  0.6188   87.0   0.834    0.4  0.4866   38.3  0.4710 -145.3
 6.000  0.6221   85.6   0.822   -0.4  0.4972   37.2  0.4763 -147.9
!
!  f       NFmin   Gammaopt  rn/50
! GHz       dB    MAG  ANG    -
 0.450      0.85  0.50   30   0.26
 0.900      0.99  0.40   58   0.24
 1.900      1.74  0.30  142   0.14
 2.400      2.11  0.26  164   0.19
!
! (c) 2017  Infineon Technologies AG, Munich