! Infineon Technologies  Discrete & RF Semiconductors
! BFR182W
! VCE =  12. V,  IC =  10 mA
! Common Emitter S-Parameters:                            Jan 2017
# GHz  S  MA  R  50
!  f         S11            S21            S12            S22
! GHz     MAG   ANG      MAG   ANG      MAG   ANG      MAG   ANG
 0.010  0.7563   -3.6  25.444  176.1  0.0018   76.9  0.9886   -1.8
 0.020  0.7724   -7.3  25.660  173.7  0.0035   91.8  0.9895   -3.8
 0.030  0.7550  -10.7  25.253  171.2  0.0054   84.6  0.9799   -5.5
 0.040  0.7403  -14.2  24.897  168.6  0.0073   81.1  0.9712   -7.2
 0.050  0.7285  -17.8  24.594  165.9  0.0092   79.1  0.9634   -9.0
 0.060  0.7170  -21.1  24.162  163.6  0.0109   77.4  0.9505  -10.5
 0.070  0.7079  -24.4  23.772  161.2  0.0127   76.1  0.9383  -12.0
 0.080  0.7013  -27.8  23.426  158.7  0.0144   75.2  0.9268  -13.6
 0.090  0.6972  -31.3  23.124  156.1  0.0162   74.4  0.9159  -15.2
 0.100  0.6957  -34.8  22.870  153.5  0.0179   73.8  0.9058  -16.8
 0.110  0.6792  -37.5  22.370  151.5  0.0193   72.1  0.8904  -18.0
 0.120  0.6643  -40.3  21.899  149.4  0.0208   70.7  0.8755  -19.2
 0.130  0.6510  -43.3  21.457  147.3  0.0222   69.4  0.8609  -20.4
 0.140  0.6396  -46.3  21.047  145.0  0.0237   68.3  0.8467  -21.7
 0.150  0.6300  -49.5  20.671  142.7  0.0252   67.3  0.8330  -23.0
 0.200  0.5728  -62.5  18.477  133.7  0.0296   65.0  0.7614  -27.1
 0.250  0.5210  -73.7  16.516  126.2  0.0345   62.0  0.6981  -30.0
 0.300  0.4724  -83.5  14.742  120.5  0.0379   60.1  0.6425  -31.7
 0.350  0.4352  -90.8  13.363  116.4  0.0412   59.9  0.6027  -32.5
 0.400  0.4063  -99.4  12.067  111.4  0.0446   59.8  0.5630  -33.4
 0.450  0.3812 -105.8  11.058  108.4  0.0475   59.9  0.5360  -33.6
 0.500  0.3615 -112.9  10.086  104.8  0.0505   60.0  0.5090  -33.8
 0.600  0.3320 -124.6   8.655   99.4  0.0576   61.2  0.4707  -33.6
 0.700  0.3111 -134.7   7.544   95.0  0.0631   62.0  0.4444  -33.4
 0.800  0.2977 -143.2   6.698   91.1  0.0699   63.6  0.4249  -33.3
 0.900  0.2895 -150.8   5.999   87.7  0.0754   63.9  0.4100  -33.3
 1.000  0.2832 -157.8   5.459   84.6  0.0820   64.5  0.3972  -33.4
 1.100  0.2807 -164.3   4.996   81.9  0.0886   64.9  0.3887  -33.7
 1.200  0.2801 -170.5   4.606   79.1  0.0954   65.1  0.3807  -34.2
 1.300  0.2788 -175.5   4.273   76.5  0.1020   65.5  0.3741  -34.8
 1.400  0.2800  179.8   3.996   74.1  0.1089   65.7  0.3670  -35.7
 1.500  0.2845  175.3   3.746   71.8  0.1159   65.8  0.3618  -36.7
 1.600  0.2860  171.0   3.531   69.4  0.1229   65.6  0.3582  -37.7
 1.700  0.2888  167.3   3.341   67.3  0.1298   65.7  0.3533  -39.0
 1.800  0.2915  163.4   3.181   65.2  0.1372   65.6  0.3492  -40.3
 1.900  0.2982  160.4   3.031   63.2  0.1442   65.3  0.3456  -41.7
 2.000  0.3005  156.9   2.892   61.0  0.1515   65.0  0.3424  -43.4
 2.100  0.3051  153.8   2.773   59.1  0.1590   64.6  0.3395  -45.1
 2.200  0.3106  150.8   2.657   57.0  0.1666   64.3  0.3368  -46.8
 2.300  0.3159  148.2   2.559   55.2  0.1740   63.9  0.3348  -48.7
 2.400  0.3219  145.7   2.464   53.2  0.1815   63.5  0.3332  -50.7
 2.500  0.3265  143.3   2.378   51.4  0.1891   63.0  0.3320  -52.6
 2.600  0.3316  140.9   2.295   49.5  0.1968   62.6  0.3311  -54.5
 2.700  0.3367  138.6   2.224   47.8  0.2044   62.0  0.3305  -56.5
 2.800  0.3424  136.3   2.156   46.0  0.2120   61.5  0.3304  -58.5
 2.900  0.3474  134.0   2.094   44.3  0.2198   60.9  0.3295  -60.3
 3.000  0.3529  131.7   2.034   42.4  0.2277   60.4  0.3290  -62.2
 3.100  0.3570  129.6   1.982   40.9  0.2357   59.7  0.3279  -64.0
 3.200  0.3616  127.6   1.932   39.4  0.2437   59.0  0.3272  -65.9
 3.300  0.3666  125.7   1.883   37.8  0.2518   58.4  0.3268  -67.8
 3.400  0.3720  123.8   1.836   36.1  0.2599   57.8  0.3267  -69.6
 3.500  0.3778  121.9   1.790   34.3  0.2680   57.3  0.3270  -71.5
 3.600  0.3829  120.1   1.753   32.9  0.2763   56.4  0.3241  -73.4
 3.700  0.3883  118.4   1.717   31.4  0.2846   55.6  0.3216  -75.4
 3.800  0.3941  116.7   1.682   29.9  0.2930   54.8  0.3194  -77.4
 3.900  0.4003  115.1   1.648   28.3  0.3015   54.0  0.3177  -79.4
 4.000  0.4067  113.5   1.616   26.7  0.3100   53.3  0.3163  -81.4
 4.100  0.4124  112.0   1.586   25.3  0.3182   52.3  0.3120  -83.7
 4.200  0.4184  110.5   1.557   23.9  0.3264   51.4  0.3083  -86.1
 4.300  0.4246  109.1   1.529   22.4  0.3347   50.5  0.3051  -88.6
 4.400  0.4311  107.7   1.503   20.8  0.3431   49.7  0.3024  -91.1
 4.500  0.4378  106.4   1.477   19.2  0.3516   48.9  0.3004  -93.6
 4.600  0.4448  104.9   1.451   18.0  0.3599   47.9  0.2968  -96.6
 4.700  0.4521  103.5   1.426   16.7  0.3684   47.0  0.2940  -99.6
 4.800  0.4597  102.1   1.401   15.3  0.3769   46.1  0.2920 -102.7
 4.900  0.4675  100.8   1.377   13.9  0.3855   45.3  0.2909 -105.9
 5.000  0.4756   99.5   1.354   12.5  0.3942   44.5  0.2907 -109.0
 5.100  0.4797   98.2   1.335   11.3  0.4023   43.4  0.2910 -112.3
 5.200  0.4840   97.0   1.317   10.1  0.4105   42.4  0.2922 -115.6
 5.300  0.4885   95.8   1.299    8.8  0.4188   41.4  0.2944 -118.9
 5.400  0.4932   94.6   1.282    7.5  0.4272   40.5  0.2975 -122.1
 5.500  0.4982   93.4   1.265    6.2  0.4358   39.6  0.3015 -125.2
 5.600  0.5024   92.2   1.247    5.2  0.4435   38.5  0.3036 -128.1
 5.700  0.5069   91.1   1.229    4.1  0.4514   37.5  0.3065 -130.9
 5.800  0.5115   90.0   1.211    3.1  0.4594   36.5  0.3101 -133.6
 5.900  0.5163   88.9   1.194    1.9  0.4676   35.5  0.3144 -136.3
 6.000  0.5213   87.8   1.177    0.8  0.4759   34.6  0.3194 -138.9
!
!  f       NFmin   Gammaopt  rn/50
! GHz       dB    MAG  ANG    -
 0.450      1.07  0.08   50   0.15
 0.900      1.15  0.07   86   0.15
 1.900      1.65  0.19 -164   0.13
 2.400      1.90  0.18 -156   0.20
!
! (c) 2017  Infineon Technologies AG, Munich