! Infineon Technologies  Discrete & RF Semiconductors
! BFR182W
! VCE =  2.0 V,  IC =  50 mA
! Common Emitter S-Parameters:                            Jan 2017
# GHz  S  MA  R  50
!  f         S11            S21            S12            S22
! GHz     MAG   ANG      MAG   ANG      MAG   ANG      MAG   ANG
 0.010  0.2223  -42.0  36.287  169.6  0.0034   63.7  0.7880   -6.6
 0.020  0.2893  -71.1  35.015  159.9  0.0063   67.5  0.7561  -13.7
 0.030  0.3190  -90.5  31.932  153.4  0.0084   62.4  0.7054  -17.7
 0.040  0.3775 -105.2  29.338  145.7  0.0106   59.4  0.6587  -22.3
 0.050  0.4538 -115.5  27.372  136.7  0.0128   57.4  0.6169  -27.6
 0.060  0.4669 -122.3  25.267  133.9  0.0139   56.1  0.5820  -28.6
 0.070  0.4861 -128.6  23.234  130.6  0.0150   55.0  0.5473  -29.8
 0.080  0.5108 -134.4  21.292  126.7  0.0161   54.1  0.5128  -31.1
 0.090  0.5403 -139.7  19.470  122.0  0.0173   53.2  0.4787  -32.6
 0.100  0.5737 -144.3  17.803  116.4  0.0184   52.5  0.4449  -34.3
 0.110  0.5785 -147.0  16.751  114.9  0.0191   52.7  0.4283  -34.2
 0.120  0.5846 -149.6  15.712  113.1  0.0197   52.9  0.4117  -34.1
 0.130  0.5919 -152.2  14.689  111.2  0.0204   53.1  0.3952  -34.0
 0.140  0.6004 -154.8  13.686  108.9  0.0210   53.3  0.3786  -33.8
 0.150  0.6100 -157.2  12.708  106.3  0.0217   53.5  0.3620  -33.7
 0.200  0.6261 -164.7   9.790  100.0  0.0252   57.5  0.3212  -31.6
 0.250  0.6365 -169.9   7.950   95.3  0.0291   60.0  0.2979  -29.6
 0.300  0.6380 -173.7   6.665   92.0  0.0327   62.1  0.2826  -28.3
 0.350  0.6397 -176.6   5.857   89.6  0.0364   64.5  0.2751  -27.6
 0.400  0.6429 -179.4   5.062   86.5  0.0401   66.5  0.2676  -26.9
 0.450  0.6442  178.3   4.562   84.6  0.0444   67.5  0.2632  -26.8
 0.500  0.6465  176.0   4.069   82.2  0.0488   68.4  0.2589  -26.7
 0.600  0.6506  172.3   3.416   78.3  0.0574   70.0  0.2520  -27.4
 0.700  0.6528  169.1   2.941   74.8  0.0658   71.6  0.2478  -28.5
 0.800  0.6565  165.9   2.587   71.3  0.0750   72.5  0.2442  -30.2
 0.900  0.6560  163.0   2.306   68.2  0.0832   72.5  0.2403  -32.1
 1.000  0.6614  160.1   2.091   65.2  0.0929   72.6  0.2364  -34.2
 1.100  0.6660  157.6   1.914   62.3  0.1024   72.7  0.2348  -36.6
 1.200  0.6677  154.9   1.762   59.4  0.1111   72.5  0.2317  -38.9
 1.300  0.6689  152.3   1.635   56.7  0.1201   72.2  0.2285  -41.8
 1.400  0.6752  149.8   1.532   54.0  0.1302   72.0  0.2244  -44.7
 1.500  0.6799  147.7   1.435   51.5  0.1397   71.4  0.2220  -47.8
 1.600  0.6846  145.2   1.356   48.9  0.1497   70.9  0.2199  -51.0
 1.700  0.6867  142.8   1.285   46.6  0.1595   70.3  0.2168  -54.5
 1.800  0.6913  140.3   1.227   44.0  0.1694   69.6  0.2146  -58.2
 1.900  0.6954  138.3   1.168   42.1  0.1789   68.9  0.2130  -62.0
 2.000  0.6972  135.9   1.114   39.6  0.1895   68.0  0.2122  -66.0
 2.100  0.7002  133.6   1.069   37.6  0.1996   67.1  0.2110  -70.0
 2.200  0.7043  131.3   1.025   35.4  0.2098   66.3  0.2109  -74.1
 2.300  0.7075  129.3   0.987   33.6  0.2201   65.3  0.2113  -78.2
 2.400  0.7116  127.3   0.951   31.7  0.2304   64.3  0.2128  -82.3
 2.500  0.7134  125.2   0.918   30.1  0.2404   63.3  0.2143  -86.2
 2.600  0.7161  123.2   0.886   28.3  0.2505   62.3  0.2167  -90.1
 2.700  0.7186  121.2   0.858   26.8  0.2606   61.3  0.2187  -93.8
 2.800  0.7219  119.3   0.831   25.2  0.2708   60.3  0.2217  -97.5
 2.900  0.7238  117.2   0.807   23.8  0.2811   59.2  0.2234 -101.0
 3.000  0.7266  115.2   0.784   22.3  0.2915   58.1  0.2260 -104.5
 3.100  0.7263  113.2   0.765   21.3  0.3012   56.8  0.2261 -107.9
 3.200  0.7268  111.2   0.747   20.2  0.3110   55.6  0.2270 -111.2
 3.300  0.7282  109.2   0.729   19.1  0.3210   54.5  0.2286 -114.6
 3.400  0.7305  107.3   0.711   17.9  0.3311   53.4  0.2311 -117.8
 3.500  0.7337  105.3   0.693   16.6  0.3413   52.4  0.2342 -121.0
 3.600  0.7336  103.6   0.680   15.9  0.3505   51.0  0.2330 -124.5
 3.700  0.7342  101.8   0.668   15.1  0.3599   49.7  0.2326 -128.0
 3.800  0.7355  100.1   0.655   14.3  0.3695   48.4  0.2331 -131.5
 3.900  0.7375   98.3   0.643   13.5  0.3792   47.2  0.2345 -135.0
 4.000  0.7401   96.6   0.631   12.7  0.3891   46.1  0.2367 -138.4
 4.100  0.7384   95.0   0.622   12.1  0.3974   44.7  0.2360 -142.4
 4.200  0.7373   93.4   0.614   11.5  0.4059   43.4  0.2364 -146.4
 4.300  0.7367   91.9   0.606   10.9  0.4146   42.1  0.2380 -150.4
 4.400  0.7367   90.3   0.597   10.3  0.4235   40.9  0.2407 -154.3
 4.500  0.7373   88.7   0.589    9.7  0.4326   39.7  0.2445 -158.1
 4.600  0.7373   87.4   0.583    9.4  0.4398   38.4  0.2472 -161.9
 4.700  0.7378   86.0   0.578    9.0  0.4473   37.1  0.2510 -165.7
 4.800  0.7386   84.7   0.572    8.7  0.4549   35.9  0.2559 -169.3
 4.900  0.7399   83.3   0.567    8.4  0.4628   34.7  0.2617 -172.8
 5.000  0.7415   82.0   0.561    8.0  0.4708   33.6  0.2685 -176.1
 5.100  0.7395   80.7   0.560    7.6  0.4771   32.3  0.2743 -179.0
 5.200  0.7379   79.4   0.559    7.3  0.4837   31.0  0.2807  178.3
 5.300  0.7366   78.1   0.557    6.9  0.4905   29.8  0.2878  175.7
 5.400  0.7358   76.8   0.556    6.6  0.4975   28.6  0.2954  173.2
 5.500  0.7353   75.5   0.555    6.2  0.5047   27.4  0.3035  170.9
 5.600  0.7328   74.4   0.554    5.8  0.5098   26.2  0.3081  168.9
 5.700  0.7305   73.4   0.553    5.5  0.5152   25.1  0.3130  167.0
 5.800  0.7285   72.3   0.552    5.1  0.5207   24.0  0.3183  165.1
 5.900  0.7268   71.2   0.551    4.8  0.5265   22.9  0.3239  163.3
 6.000  0.7253   70.1   0.550    4.4  0.5324   21.8  0.3298  161.5
!
!  f       NFmin   Gammaopt  rn/50
! GHz       dB    MAG  ANG    -
!
! noise parameter not available yet for this operation point!
!
! (c) 2017  Infineon Technologies AG, Munich