! Infineon Technologies  Discrete & RF Semiconductors
! BFR182W
! VCE =  6.0 V,  IC =  35 mA
! Common Emitter S-Parameters:                            Jan 2017
# GHz  S  MA  R  50
!  f         S11            S21            S12            S22
! GHz     MAG   ANG      MAG   ANG      MAG   ANG      MAG   ANG
 0.010  0.4593   -8.7  45.674  174.1  0.0015   88.9  0.9678   -2.8
 0.020  0.4645  -17.4  45.479  169.2  0.0031   87.7  0.9568   -6.6
 0.030  0.4442  -25.3  43.895  164.6  0.0047   82.0  0.9337   -9.6
 0.040  0.4330  -33.7  42.615  159.7  0.0064   79.2  0.9133  -12.7
 0.050  0.4315  -42.4  41.667  154.5  0.0080   77.5  0.8956  -15.9
 0.060  0.4137  -48.4  39.771  151.4  0.0092   74.9  0.8658  -17.6
 0.070  0.4008  -54.9  38.002  148.0  0.0105   72.9  0.8368  -19.4
 0.080  0.3934  -61.8  36.380  144.3  0.0118   71.3  0.8087  -21.3
 0.090  0.3918  -68.8  34.923  140.3  0.0130   70.0  0.7816  -23.4
 0.100  0.3960  -75.7  33.655  135.9  0.0143   69.0  0.7556  -25.6
 0.110  0.3841  -80.0  32.181  133.9  0.0152   68.3  0.7319  -26.3
 0.120  0.3745  -84.6  30.751  131.6  0.0161   67.6  0.7084  -27.1
 0.130  0.3674  -89.4  29.372  129.2  0.0169   67.1  0.6849  -27.9
 0.140  0.3630  -94.4  28.051  126.5  0.0178   66.6  0.6617  -28.8
 0.150  0.3613  -99.4  26.797  123.6  0.0187   66.1  0.6386  -29.8
 0.200  0.3447 -116.0  21.819  115.3  0.0220   66.9  0.5603  -30.8
 0.250  0.3341 -128.3  18.277  109.1  0.0257   66.2  0.5074  -30.5
 0.300  0.3262 -137.7  15.602  104.8  0.0289   68.2  0.4696  -29.8
 0.350  0.3212 -144.2  13.824  102.0  0.0324   69.4  0.4476  -29.0
 0.400  0.3205 -150.9  12.089   98.3  0.0359   70.4  0.4256  -28.2
 0.450  0.3186 -155.7  10.944   96.2  0.0395   70.7  0.4129  -27.6
 0.500  0.3189 -160.5   9.817   93.6  0.0431   70.9  0.4003  -27.0
 0.600  0.3199 -168.4   8.280   89.7  0.0506   72.3  0.3839  -26.2
 0.700  0.3223 -173.9   7.144   86.5  0.0577   73.7  0.3734  -25.9
 0.800  0.3227 -179.0   6.294   83.3  0.0657   73.6  0.3652  -26.0
 0.900  0.3260  176.4   5.608   80.7  0.0731   73.5  0.3590  -26.3
 1.000  0.3312  172.4   5.081   78.1  0.0810   73.9  0.3530  -26.9
 1.100  0.3334  168.4   4.642   75.8  0.0883   73.9  0.3499  -27.8
 1.200  0.3379  165.0   4.270   73.3  0.0960   73.7  0.3458  -28.6
 1.300  0.3399  161.7   3.956   71.1  0.1037   73.0  0.3421  -29.8
 1.400  0.3456  159.0   3.696   68.9  0.1121   73.0  0.3374  -31.1
 1.500  0.3509  156.6   3.460   66.8  0.1197   72.5  0.3345  -32.5
 1.600  0.3541  153.6   3.262   64.6  0.1278   72.1  0.3324  -33.9
 1.700  0.3564  151.0   3.083   62.6  0.1353   71.5  0.3284  -35.6
 1.800  0.3627  148.6   2.934   60.6  0.1438   71.0  0.3256  -37.4
 1.900  0.3674  146.4   2.793   58.8  0.1516   70.3  0.3228  -39.2
 2.000  0.3723  143.9   2.663   56.7  0.1597   69.8  0.3203  -41.3
 2.100  0.3769  141.7   2.553   54.8  0.1680   69.1  0.3178  -43.4
 2.200  0.3821  139.5   2.445   52.8  0.1763   68.5  0.3158  -45.6
 2.300  0.3875  137.6   2.355   51.0  0.1846   67.8  0.3139  -47.8
 2.400  0.3934  135.7   2.268   49.1  0.1929   67.1  0.3125  -50.1
 2.500  0.3983  133.8   2.188   47.4  0.2010   66.3  0.3115  -52.4
 2.600  0.4037  131.9   2.111   45.6  0.2092   65.6  0.3110  -54.7
 2.700  0.4076  130.0   2.045   43.9  0.2176   64.8  0.3105  -57.0
 2.800  0.4120  128.1   1.981   42.1  0.2260   64.0  0.3106  -59.3
 2.900  0.4179  126.2   1.924   40.4  0.2345   63.2  0.3099  -61.5
 3.000  0.4242  124.3   1.869   38.7  0.2430   62.4  0.3097  -63.7
 3.100  0.4276  122.5   1.821   37.3  0.2514   61.5  0.3085  -65.8
 3.200  0.4315  120.8   1.775   35.7  0.2598   60.6  0.3077  -68.0
 3.300  0.4357  119.0   1.730   34.1  0.2683   59.8  0.3073  -70.1
 3.400  0.4403  117.4   1.686   32.5  0.2769   59.1  0.3074  -72.3
 3.500  0.4453  115.7   1.644   30.7  0.2855   58.4  0.3079  -74.4
 3.600  0.4501  114.1   1.610   29.3  0.2940   57.3  0.3050  -76.6
 3.700  0.4552  112.5   1.576   27.9  0.3027   56.4  0.3025  -78.7
 3.800  0.4607  111.0   1.544   26.4  0.3114   55.4  0.3004  -81.0
 3.900  0.4665  109.5   1.512   24.9  0.3202   54.5  0.2988  -83.2
 4.000  0.4726  108.0   1.482   23.3  0.3291   53.7  0.2977  -85.5
 4.100  0.4772  106.6   1.454   22.0  0.3375   52.6  0.2933  -88.1
 4.200  0.4820  105.3   1.427   20.6  0.3461   51.6  0.2896  -90.8
 4.300  0.4871  104.0   1.401   19.1  0.3548   50.6  0.2865  -93.6
 4.400  0.4925  102.7   1.376   17.6  0.3635   49.6  0.2841  -96.4
 4.500  0.4981  101.4   1.352   16.1  0.3724   48.7  0.2824  -99.2
 4.600  0.5046  100.1   1.328   14.9  0.3806   47.6  0.2791 -102.5
 4.700  0.5114   98.7   1.305   13.7  0.3890   46.6  0.2767 -105.8
 4.800  0.5184   97.5   1.283   12.4  0.3974   45.6  0.2753 -109.2
 4.900  0.5257   96.2   1.261   11.1  0.4060   44.6  0.2748 -112.6
 5.000  0.5332   95.0   1.240    9.7  0.4147   43.7  0.2753 -116.0
 5.100  0.5367   93.8   1.222    8.6  0.4228   42.6  0.2762 -119.5
 5.200  0.5405   92.6   1.205    7.4  0.4310   41.5  0.2781 -123.0
 5.300  0.5445   91.4   1.188    6.3  0.4394   40.4  0.2810 -126.4
 5.400  0.5487   90.2   1.172    5.0  0.4479   39.4  0.2849 -129.8
 5.500  0.5532   89.1   1.156    3.8  0.4566   38.4  0.2898 -133.0
 5.600  0.5557   88.0   1.139    2.8  0.4640   37.2  0.2926 -135.9
 5.700  0.5585   86.9   1.123    1.8  0.4715   36.1  0.2961 -138.8
 5.800  0.5615   85.8   1.107    0.8  0.4792   35.1  0.3003 -141.6
 5.900  0.5646   84.7   1.091   -0.2  0.4871   34.0  0.3053 -144.4
 6.000  0.5680   83.6   1.076   -1.3  0.4951   33.0  0.3109 -147.0
!
!  f       NFmin   Gammaopt  rn/50
! GHz       dB    MAG  ANG    -
!
! noise parameter not available yet for this operation point!
!
! (c) 2017  Infineon Technologies AG, Munich