! Infineon Technologies  Discrete & RF Semiconductors
! BFR182W
! VCE =  7.0 V,  IC =  32 mA
! Common Emitter S-Parameters:                            Jan 2017
# GHz  S  MA  R  50
!  f         S11            S21            S12            S22
! GHz     MAG   ANG      MAG   ANG      MAG   ANG      MAG   ANG
 0.010  0.4927   -7.5  45.228  174.2  0.0014   81.1  0.9739   -2.7
 0.020  0.5005  -15.3  45.361  169.7  0.0030   88.3  0.9711   -6.4
 0.030  0.4792  -22.3  43.824  165.4  0.0048   80.2  0.9478   -9.2
 0.040  0.4657  -29.9  42.554  160.8  0.0066   76.6  0.9270  -12.2
 0.050  0.4606  -37.7  41.576  155.9  0.0084   74.5  0.9087  -15.3
 0.060  0.4421  -43.1  39.812  152.8  0.0096   73.2  0.8800  -17.0
 0.070  0.4278  -49.0  38.172  149.5  0.0108   72.3  0.8522  -18.9
 0.080  0.4183  -55.2  36.674  145.8  0.0120   71.5  0.8254  -20.9
 0.090  0.4138  -61.6  35.336  141.9  0.0132   70.8  0.7996  -23.0
 0.100  0.4146  -68.0  34.177  137.7  0.0144   70.3  0.7749  -25.2
 0.110  0.4006  -72.1  32.748  135.6  0.0153   69.2  0.7513  -26.0
 0.120  0.3889  -76.4  31.364  133.4  0.0161   68.3  0.7278  -26.9
 0.130  0.3795  -81.0  30.033  131.0  0.0170   67.4  0.7044  -27.8
 0.140  0.3726  -85.9  28.762  128.3  0.0179   66.6  0.6813  -28.8
 0.150  0.3685  -90.8  27.558  125.4  0.0188   65.9  0.6584  -29.8
 0.200  0.3411 -107.6  22.595  116.9  0.0221   67.2  0.5766  -31.3
 0.250  0.3239 -120.6  19.023  110.6  0.0261   66.7  0.5201  -31.5
 0.300  0.3116 -130.2  16.283  106.2  0.0295   67.7  0.4790  -30.9
 0.350  0.3027 -137.4  14.444  103.2  0.0329   69.0  0.4549  -30.1
 0.400  0.2988 -145.0  12.656   99.4  0.0364   70.0  0.4309  -29.3
 0.450  0.2950 -150.2  11.467   97.2  0.0400   70.5  0.4166  -28.7
 0.500  0.2937 -155.5  10.298   94.6  0.0436   70.9  0.4023  -28.1
 0.600  0.2932 -163.7   8.694   90.7  0.0510   71.8  0.3841  -27.3
 0.700  0.2951 -170.2   7.503   87.3  0.0581   73.3  0.3721  -26.8
 0.800  0.2963 -176.0   6.611   84.2  0.0663   73.4  0.3635  -26.8
 0.900  0.2992  179.2   5.894   81.5  0.0733   73.2  0.3566  -27.1
 1.000  0.3021  174.8   5.344   79.0  0.0810   73.4  0.3504  -27.4
 1.100  0.3068  170.6   4.879   76.6  0.0889   73.4  0.3466  -28.1
 1.200  0.3093  167.0   4.489   74.2  0.0964   72.7  0.3418  -28.9
 1.300  0.3113  163.7   4.160   71.9  0.1040   72.6  0.3384  -29.9
 1.400  0.3154  160.8   3.885   69.8  0.1123   72.1  0.3335  -31.1
 1.500  0.3215  157.8   3.639   67.8  0.1199   71.9  0.3302  -32.5
 1.600  0.3251  154.9   3.428   65.6  0.1277   71.4  0.3280  -33.8
 1.700  0.3278  152.4   3.240   63.6  0.1357   71.0  0.3242  -35.4
 1.800  0.3337  149.9   3.083   61.6  0.1438   70.3  0.3213  -37.1
 1.900  0.3397  147.4   2.935   59.8  0.1518   69.9  0.3184  -38.8
 2.000  0.3424  145.3   2.799   57.7  0.1599   69.3  0.3155  -40.9
 2.100  0.3478  142.9   2.683   55.9  0.1679   68.6  0.3130  -42.9
 2.200  0.3539  140.5   2.569   53.9  0.1759   67.9  0.3110  -45.0
 2.300  0.3590  138.7   2.474   52.1  0.1841   67.2  0.3091  -47.2
 2.400  0.3644  136.9   2.382   50.2  0.1924   66.5  0.3077  -49.4
 2.500  0.3691  134.9   2.298   48.5  0.2003   65.7  0.3068  -51.6
 2.600  0.3743  132.9   2.217   46.7  0.2082   65.0  0.3063  -53.8
 2.700  0.3795  131.0   2.149   45.1  0.2165   64.2  0.3058  -56.0
 2.800  0.3851  129.1   2.082   43.3  0.2248   63.5  0.3057  -58.3
 2.900  0.3905  127.1   2.023   41.6  0.2328   62.7  0.3050  -60.4
 3.000  0.3964  125.1   1.965   39.9  0.2409   61.9  0.3048  -62.6
 3.100  0.4000  123.3   1.915   38.5  0.2493   61.0  0.3035  -64.7
 3.200  0.4040  121.6   1.866   37.0  0.2577   60.2  0.3026  -66.7
 3.300  0.4084  119.9   1.819   35.4  0.2662   59.4  0.3022  -68.8
 3.400  0.4131  118.2   1.772   33.7  0.2747   58.7  0.3021  -70.9
 3.500  0.4181  116.6   1.728   32.0  0.2833   58.0  0.3024  -73.0
 3.600  0.4229  115.0   1.692   30.6  0.2916   57.0  0.2995  -75.1
 3.700  0.4280  113.5   1.656   29.2  0.3001   56.0  0.2969  -77.2
 3.800  0.4334  112.0   1.622   27.7  0.3086   55.0  0.2948  -79.4
 3.900  0.4390  110.5   1.589   26.1  0.3172   54.1  0.2931  -81.6
 4.000  0.4450  109.1   1.557   24.5  0.3259   53.3  0.2919  -83.8
 4.100  0.4503  107.7   1.528   23.1  0.3341   52.2  0.2875  -86.3
 4.200  0.4558  106.4   1.501   21.7  0.3423   51.2  0.2837  -88.9
 4.300  0.4616  105.0   1.474   20.3  0.3507   50.2  0.2805  -91.5
 4.400  0.4676  103.8   1.448   18.8  0.3591   49.3  0.2780  -94.3
 4.500  0.4739  102.5   1.423   17.2  0.3677   48.4  0.2760  -97.0
 4.600  0.4807  101.2   1.398   16.0  0.3759   47.4  0.2726 -100.2
 4.700  0.4877   99.9   1.374   14.8  0.3843   46.4  0.2702 -103.5
 4.800  0.4950   98.6   1.350   13.5  0.3928   45.4  0.2686 -106.9
 4.900  0.5025   97.4   1.327   12.2  0.4013   44.5  0.2679 -110.2
 5.000  0.5102   96.2   1.305   10.8  0.4100   43.6  0.2682 -113.6
 5.100  0.5136   95.0   1.286    9.7  0.4178   42.5  0.2689 -117.1
 5.200  0.5172   93.8   1.268    8.5  0.4258   41.4  0.2706 -120.6
 5.300  0.5210   92.6   1.251    7.3  0.4339   40.4  0.2733 -124.0
 5.400  0.5250   91.4   1.233    6.1  0.4421   39.4  0.2769 -127.4
 5.500  0.5293   90.3   1.217    4.8  0.4505   38.4  0.2815 -130.6
 5.600  0.5325   89.2   1.199    3.8  0.4579   37.3  0.2841 -133.5
 5.700  0.5358   88.2   1.182    2.7  0.4654   36.2  0.2875 -136.4
 5.800  0.5394   87.1   1.165    1.7  0.4731   35.2  0.2916 -139.2
 5.900  0.5431   86.1   1.148    0.5  0.4810   34.2  0.2963 -142.0
 6.000  0.5470   85.1   1.132   -0.6  0.4890   33.2  0.3017 -144.6
!
!  f       NFmin   Gammaopt  rn/50
! GHz       dB    MAG  ANG    -
!
! noise parameter not available yet for this operation point!
!
! (c) 2017  Infineon Technologies AG, Munich