! Infineon Technologies  Discrete & RF Semiconductors
! BFR182W
! VCE =  11. V,  IC =  3.0 mA
! Common Emitter S-Parameters:                            Jan 2017
# GHz  S  MA  R  50
!  f         S11            S21            S12            S22
! GHz     MAG   ANG      MAG   ANG      MAG   ANG      MAG   ANG
 0.010  0.9072   -2.0   9.933  178.3  0.0017   70.2  1.0000   -0.9
 0.020  0.9239   -3.7  10.048  177.2  0.0036   95.3  1.0000   -1.9
 0.030  0.9108   -5.5   9.985  175.8  0.0057   88.8  0.9997   -2.7
 0.040  0.8985   -7.3   9.928  174.3  0.0079   85.8  0.9958   -3.5
 0.050  0.8872   -9.1   9.877  172.9  0.0101   84.1  0.9921   -4.3
 0.060  0.8858  -10.9   9.826  171.5  0.0122   82.8  0.9889   -5.1
 0.070  0.8853  -12.8   9.781  170.2  0.0143   81.9  0.9859   -6.0
 0.080  0.8858  -14.6   9.741  168.8  0.0164   81.2  0.9831   -6.9
 0.090  0.8871  -16.5   9.707  167.4  0.0185   80.7  0.9805   -7.7
 0.100  0.8894  -18.3   9.679  166.0  0.0206   80.3  0.9782   -8.6
 0.110  0.8829  -20.0   9.616  164.7  0.0226   78.7  0.9734   -9.4
 0.120  0.8772  -21.8   9.559  163.3  0.0245   77.3  0.9688  -10.2
 0.130  0.8723  -23.5   9.508  161.9  0.0265   76.1  0.9644  -11.0
 0.140  0.8683  -25.3   9.461  160.5  0.0285   75.1  0.9601  -11.8
 0.150  0.8651  -27.1   9.421  159.1  0.0305   74.2  0.9561  -12.6
 0.200  0.8358  -35.7   9.093  152.5  0.0390   70.6  0.9277  -16.2
 0.250  0.8028  -43.8   8.761  146.2  0.0465   66.6  0.8971  -19.4
 0.300  0.7648  -51.5   8.337  140.6  0.0526   63.0  0.8615  -22.2
 0.350  0.7273  -58.0   7.915  135.8  0.0582   60.1  0.8284  -24.4
 0.400  0.7002  -65.2   7.554  130.6  0.0639   57.8  0.7965  -26.7
 0.450  0.6634  -71.1   7.145  126.7  0.0681   55.4  0.7664  -28.2
 0.500  0.6344  -77.6   6.774  122.3  0.0724   53.3  0.7369  -29.9
 0.600  0.5820  -88.7   6.109  115.1  0.0788   50.6  0.6860  -32.2
 0.700  0.5334  -99.0   5.514  108.9  0.0832   48.9  0.6444  -33.9
 0.800  0.4986 -108.0   5.027  103.4  0.0875   48.1  0.6102  -35.2
 0.900  0.4678 -116.6   4.588   98.6  0.0915   47.3  0.5823  -36.2
 1.000  0.4443 -124.6   4.230   94.3  0.0944   47.3  0.5583  -37.1
 1.100  0.4276 -132.1   3.920   90.4  0.0977   47.7  0.5405  -37.9
 1.200  0.4120 -139.3   3.645   86.7  0.1009   47.9  0.5241  -38.7
 1.300  0.3994 -145.9   3.403   83.2  0.1040   48.3  0.5109  -39.6
 1.400  0.3943 -151.6   3.201   80.0  0.1075   49.6  0.4983  -40.6
 1.500  0.3888 -157.7   3.020   77.0  0.1111   50.2  0.4887  -41.6
 1.600  0.3849 -163.1   2.855   74.0  0.1149   51.1  0.4809  -42.6
 1.700  0.3814 -168.2   2.713   71.4  0.1188   52.3  0.4717  -43.9
 1.800  0.3808 -173.5   2.592   68.6  0.1233   53.3  0.4656  -45.1
 1.900  0.3830 -178.2   2.478   66.2  0.1276   54.3  0.4599  -46.4
 2.000  0.3813  177.5   2.370   63.5  0.1328   54.9  0.4554  -47.8
 2.100  0.3836  173.2   2.276   61.1  0.1380   55.7  0.4513  -49.3
 2.200  0.3880  169.0   2.187   58.6  0.1432   56.5  0.4475  -50.9
 2.300  0.3910  165.5   2.108   56.4  0.1489   57.2  0.4449  -52.7
 2.400  0.3955  162.0   2.033   54.0  0.1546   57.8  0.4427  -54.5
 2.500  0.3991  158.7   1.964   51.9  0.1608   58.4  0.4410  -56.2
 2.600  0.4041  155.4   1.897   49.7  0.1670   58.9  0.4398  -58.0
 2.700  0.4077  152.2   1.839   47.7  0.1739   59.2  0.4391  -59.7
 2.800  0.4125  149.0   1.784   45.6  0.1808   59.4  0.4389  -61.5
 2.900  0.4172  146.1   1.735   43.6  0.1882   59.6  0.4383  -63.2
 3.000  0.4230  143.3   1.689   41.5  0.1957   59.7  0.4380  -64.9
 3.100  0.4259  140.6   1.645   39.9  0.2039   59.6  0.4371  -66.7
 3.200  0.4297  137.9   1.602   38.2  0.2121   59.6  0.4367  -68.6
 3.300  0.4345  135.3   1.561   36.4  0.2203   59.5  0.4368  -70.4
 3.400  0.4401  132.8   1.522   34.5  0.2285   59.5  0.4373  -72.3
 3.500  0.4466  130.3   1.484   32.5  0.2367   59.4  0.4382  -74.1
 3.600  0.4513  128.0   1.452   31.0  0.2461   58.9  0.4356  -76.1
 3.700  0.4567  125.7   1.422   29.5  0.2554   58.4  0.4336  -78.1
 3.800  0.4628  123.5   1.392   27.8  0.2649   57.9  0.4321  -80.1
 3.900  0.4696  121.3   1.364   26.2  0.2743   57.5  0.4312  -82.2
 4.000  0.4771  119.2   1.337   24.4  0.2837   57.1  0.4308  -84.2
 4.100  0.4820  117.2   1.311   23.0  0.2935   56.3  0.4266  -86.6
 4.200  0.4875  115.3   1.287   21.5  0.3033   55.5  0.4231  -89.0
 4.300  0.4935  113.4   1.263   20.0  0.3132   54.8  0.4203  -91.4
 4.400  0.5000  111.6   1.240   18.4  0.3231   54.1  0.4184  -93.9
 4.500  0.5070  109.8   1.218   16.7  0.3331   53.5  0.4172  -96.4
 4.600  0.5133  108.0   1.195   15.5  0.3434   52.5  0.4135  -99.3
 4.700  0.5200  106.3   1.173   14.2  0.3537   51.6  0.4109 -102.2
 4.800  0.5273  104.6   1.151   12.9  0.3642   50.8  0.4094 -105.2
 4.900  0.5350  102.9   1.130   11.5  0.3747   50.0  0.4089 -108.1
 5.000  0.5431  101.3   1.110   10.1  0.3853   49.2  0.4096 -111.1
 5.100  0.5461   99.8   1.093    9.0  0.3953   48.0  0.4095 -114.2
 5.200  0.5496   98.2   1.076    7.9  0.4055   46.9  0.4107 -117.3
 5.300  0.5534   96.7   1.060    6.8  0.4159   45.8  0.4130 -120.4
 5.400  0.5576   95.3   1.044    5.6  0.4264   44.8  0.4165 -123.4
 5.500  0.5621   93.8   1.029    4.4  0.4370   43.8  0.4212 -126.4
 5.600  0.5652   92.4   1.014    3.5  0.4464   42.6  0.4227 -129.2
 5.700  0.5685   91.1   0.999    2.5  0.4559   41.4  0.4252 -132.0
 5.800  0.5722   89.8   0.984    1.5  0.4656   40.3  0.4287 -134.7
 5.900  0.5762   88.5   0.969    0.5  0.4755   39.2  0.4331 -137.4
 6.000  0.5805   87.2   0.955   -0.5  0.4856   38.2  0.4385 -140.0
!
!  f       NFmin   Gammaopt  rn/50
! GHz       dB    MAG  ANG    -
 0.450      0.82  0.39   31   0.20
 0.900      0.95  0.30   57   0.20
 1.900      1.60  0.25  149   0.12
 2.400      1.92  0.23  170   0.17
!
! (c) 2017  Infineon Technologies AG, Munich