! Infineon Technologies  Discrete & RF Semiconductors
! BFR182W
! VCE =  2.0 V,  IC =  33 mA
! Common Emitter S-Parameters:                            Jan 2017
# GHz  S  MA  R  50
!  f         S11            S21            S12            S22
! GHz     MAG   ANG      MAG   ANG      MAG   ANG      MAG   ANG
 0.010  0.3846  -17.6  39.885  172.4  0.0025   76.0  0.8942   -4.5
 0.020  0.3946  -34.3  39.432  165.3  0.0051   78.4  0.8745   -9.6
 0.030  0.3799  -48.4  37.125  159.6  0.0072   71.5  0.8377  -13.2
 0.040  0.3891  -62.6  35.227  153.3  0.0093   67.7  0.8045  -17.1
 0.050  0.4206  -75.5  33.808  146.3  0.0114   65.3  0.7753  -21.3
 0.060  0.4133  -83.8  31.689  143.2  0.0126   64.1  0.7399  -22.8
 0.070  0.4149  -92.2  29.675  139.7  0.0138   63.1  0.7051  -24.4
 0.080  0.4253 -100.4  27.792  135.6  0.0151   62.2  0.6709  -26.2
 0.090  0.4439 -108.1  26.066  131.0  0.0163   61.5  0.6374  -28.1
 0.100  0.4697 -115.0  24.531  125.8  0.0175   60.9  0.6047  -30.3
 0.110  0.4686 -119.2  23.228  124.0  0.0184   60.3  0.5829  -30.6
 0.120  0.4700 -123.5  21.952  121.9  0.0193   59.7  0.5612  -30.9
 0.130  0.4740 -127.6  20.706  119.7  0.0202   59.1  0.5394  -31.3
 0.140  0.4805 -131.7  19.497  117.1  0.0211   58.6  0.5177  -31.7
 0.150  0.4893 -135.7  18.333  114.2  0.0220   58.2  0.4960  -32.1
 0.200  0.5009 -147.8  14.411  106.8  0.0242   59.1  0.4360  -31.3
 0.250  0.5085 -156.0  11.851  101.5  0.0281   60.5  0.3991  -29.9
 0.300  0.5117 -161.8   9.995   97.8  0.0314   63.6  0.3742  -28.5
 0.350  0.5124 -166.1   8.807   95.2  0.0349   64.7  0.3608  -27.6
 0.400  0.5159 -170.4   7.641   91.9  0.0385   65.6  0.3475  -26.6
 0.450  0.5165 -173.6   6.895   89.9  0.0421   66.7  0.3399  -26.3
 0.500  0.5186 -176.7   6.160   87.5  0.0458   67.6  0.3323  -25.9
 0.600  0.5245  178.5   5.177   83.7  0.0539   69.5  0.3230  -25.7
 0.700  0.5267  174.6   4.456   80.4  0.0615   71.4  0.3164  -25.9
 0.800  0.5305  170.6   3.920   77.2  0.0697   72.6  0.3114  -26.8
 0.900  0.5320  167.5   3.489   74.3  0.0771   71.8  0.3069  -27.8
 1.000  0.5366  164.2   3.166   71.6  0.0860   72.5  0.3025  -29.1
 1.100  0.5411  161.3   2.891   69.0  0.0944   72.5  0.3003  -30.6
 1.200  0.5444  158.5   2.663   66.3  0.1020   72.5  0.2965  -32.1
 1.300  0.5463  155.8   2.468   63.8  0.1107   72.3  0.2935  -34.0
 1.400  0.5518  153.2   2.308   61.4  0.1197   72.1  0.2892  -36.0
 1.500  0.5562  150.8   2.162   59.1  0.1281   71.7  0.2864  -38.1
 1.600  0.5596  148.2   2.041   56.7  0.1373   71.3  0.2846  -40.3
 1.700  0.5628  145.8   1.932   54.5  0.1457   70.9  0.2809  -42.7
 1.800  0.5685  143.4   1.840   52.2  0.1550   70.3  0.2781  -45.3
 1.900  0.5733  141.2   1.752   50.2  0.1633   69.8  0.2758  -47.8
 2.000  0.5751  139.0   1.671   47.9  0.1729   69.1  0.2738  -50.8
 2.100  0.5794  136.7   1.602   45.9  0.1820   68.4  0.2717  -53.7
 2.200  0.5846  134.5   1.536   43.8  0.1911   67.8  0.2703  -56.6
 2.300  0.5885  132.5   1.480   41.8  0.2005   66.9  0.2694  -59.6
 2.400  0.5931  130.5   1.426   39.7  0.2099   66.1  0.2692  -62.7
 2.500  0.5962  128.5   1.376   38.0  0.2190   65.3  0.2691  -65.8
 2.600  0.5999  126.6   1.328   36.1  0.2281   64.5  0.2697  -68.8
 2.700  0.6034  124.6   1.287   34.4  0.2375   63.6  0.2701  -71.8
 2.800  0.6075  122.7   1.248   32.6  0.2470   62.7  0.2713  -74.8
 2.900  0.6111  120.7   1.212   30.9  0.2564   61.8  0.2715  -77.7
 3.000  0.6154  118.8   1.177   29.2  0.2658   60.9  0.2723  -80.5
 3.100  0.6170  116.9   1.148   27.8  0.2752   59.8  0.2715  -83.3
 3.200  0.6193  115.0   1.119   26.4  0.2848   58.8  0.2714  -86.0
 3.300  0.6223  113.2   1.091   24.9  0.2944   57.9  0.2719  -88.8
 3.400  0.6259  111.3   1.063   23.4  0.3041   57.0  0.2730  -91.6
 3.500  0.6302  109.5   1.037   21.7  0.3138   56.2  0.2748  -94.3
 3.600  0.6325  107.8   1.015   20.5  0.3231   55.0  0.2723  -97.2
 3.700  0.6355  106.0   0.994   19.3  0.3326   53.8  0.2704 -100.1
 3.800  0.6390  104.3   0.973   18.0  0.3422   52.7  0.2693 -103.1
 3.900  0.6430  102.7   0.953   16.7  0.3520   51.7  0.2689 -106.0
 4.000  0.6476  101.0   0.933   15.3  0.3618   50.7  0.2692 -109.0
 4.100  0.6489   99.5   0.916   14.2  0.3706   49.4  0.2660 -112.5
 4.200  0.6507   97.9   0.900   13.1  0.3796   48.2  0.2639 -116.0
 4.300  0.6529   96.4   0.884   11.9  0.3888   47.1  0.2627 -119.5
 4.400  0.6556   94.9   0.868   10.7  0.3981   46.0  0.2626 -123.1
 4.500  0.6588   93.4   0.853    9.5  0.4076   44.9  0.2635 -126.7
 4.600  0.6620   92.1   0.839    8.7  0.4159   43.7  0.2630 -130.6
 4.700  0.6655   90.7   0.825    7.8  0.4244   42.5  0.2638 -134.5
 4.800  0.6694   89.4   0.812    6.9  0.4331   41.3  0.2657 -138.4
 4.900  0.6737   88.1   0.798    6.0  0.4420   40.2  0.2689 -142.2
 5.000  0.6783   86.8   0.785    5.1  0.4510   39.2  0.2732 -145.9
 5.100  0.6779   85.5   0.776    4.4  0.4586   37.9  0.2770 -149.4
 5.200  0.6779   84.2   0.768    3.7  0.4664   36.7  0.2818 -152.8
 5.300  0.6782   82.9   0.759    2.9  0.4744   35.5  0.2876 -156.1
 5.400  0.6788   81.6   0.751    2.2  0.4826   34.3  0.2943 -159.3
 5.500  0.6798   80.3   0.743    1.4  0.4910   33.2  0.3019 -162.3
 5.600  0.6797   79.2   0.735    0.8  0.4977   32.0  0.3061 -165.0
 5.700  0.6799   78.1   0.727    0.2  0.5047   30.8  0.3108 -167.6
 5.800  0.6803   77.0   0.719   -0.4  0.5119   29.6  0.3163 -170.1
 5.900  0.6810   75.9   0.711   -1.0  0.5192   28.5  0.3223 -172.5
 6.000  0.6819   74.8   0.703   -1.6  0.5268   27.4  0.3288 -174.8
!
!  f       NFmin   Gammaopt  rn/50
! GHz       dB    MAG  ANG    -
!
! noise parameter not available yet for this operation point!
!
! (c) 2017  Infineon Technologies AG, Munich