! Infineon Technologies  Discrete & RF Semiconductors
! BFR182W
! VCE =  10. V,  IC =  5.0 mA
! Common Emitter S-Parameters:                            Jan 2017
# GHz  S  MA  R  50
!  f         S11            S21            S12            S22
! GHz     MAG   ANG      MAG   ANG      MAG   ANG      MAG   ANG
 0.010  0.8500   -2.6  15.274  177.6  0.0019   88.9  0.9988   -1.2
 0.020  0.8577   -5.0  15.309  176.1  0.0033   95.3  0.9983   -2.5
 0.030  0.8463   -7.3  15.211  174.2  0.0055   87.0  0.9937   -3.7
 0.040  0.8363   -9.7  15.130  172.3  0.0078   83.5  0.9896   -4.9
 0.050  0.8279  -12.2  15.065  170.4  0.0101   81.6  0.9859   -6.1
 0.060  0.8230  -14.6  14.931  168.7  0.0121   80.5  0.9794   -7.2
 0.070  0.8195  -17.0  14.812  166.9  0.0142   79.8  0.9732   -8.3
 0.080  0.8174  -19.4  14.707  165.1  0.0162   79.2  0.9675   -9.5
 0.090  0.8168  -21.8  14.616  163.2  0.0183   78.8  0.9621  -10.6
 0.100  0.8176  -24.2  14.541  161.4  0.0203   78.4  0.9571  -11.8
 0.110  0.8072  -26.3  14.371  159.8  0.0219   76.7  0.9486  -12.8
 0.120  0.7980  -28.5  14.213  158.1  0.0236   75.3  0.9405  -13.8
 0.130  0.7900  -30.8  14.068  156.3  0.0252   74.0  0.9326  -14.8
 0.140  0.7833  -33.1  13.936  154.6  0.0269   72.9  0.9250  -15.8
 0.150  0.7778  -35.4  13.817  152.8  0.0286   71.9  0.9177  -16.9
 0.200  0.7346  -45.9  12.993  144.9  0.0355   68.4  0.8713  -21.0
 0.250  0.6913  -55.7  12.155  137.7  0.0418   63.3  0.8238  -24.5
 0.300  0.6403  -64.4  11.278  131.8  0.0466   60.6  0.7755  -27.2
 0.350  0.5977  -71.5  10.473  127.1  0.0508   58.5  0.7348  -29.0
 0.400  0.5656  -79.5   9.749  121.7  0.0551   56.7  0.6949  -31.0
 0.450  0.5309  -85.7   9.071  118.1  0.0583   55.6  0.6626  -32.0
 0.500  0.5031  -92.6   8.435  113.9  0.0616   54.6  0.6306  -33.2
 0.600  0.4561 -104.4   7.407  107.3  0.0670   53.5  0.5816  -34.5
 0.700  0.4185 -114.3   6.554  101.9  0.0715   54.0  0.5441  -35.2
 0.800  0.3941 -123.9   5.888   97.1  0.0769   54.4  0.5153  -35.7
 0.900  0.3722 -132.0   5.317   93.0  0.0820   54.4  0.4929  -36.1
 1.000  0.3560 -139.6   4.861   89.3  0.0864   55.2  0.4740  -36.6
 1.100  0.3474 -146.9   4.472   85.9  0.0913   55.9  0.4603  -37.1
 1.200  0.3410 -153.7   4.137   82.6  0.0957   56.5  0.4479  -37.6
 1.300  0.3326 -160.0   3.848   79.6  0.1009   57.2  0.4373  -38.3
 1.400  0.3309 -165.3   3.607   76.8  0.1066   58.1  0.4278  -39.1
 1.500  0.3321 -170.7   3.390   74.2  0.1118   58.8  0.4204  -40.0
 1.600  0.3292 -175.8   3.199   71.6  0.1178   59.2  0.4149  -41.0
 1.700  0.3307  179.7   3.032   69.2  0.1232   59.8  0.4081  -42.2
 1.800  0.3321  175.1   2.892   66.7  0.1292   60.1  0.4030  -43.4
 1.900  0.3363  171.2   2.759   64.6  0.1356   60.6  0.3981  -44.8
 2.000  0.3383  167.4   2.635   62.1  0.1422   60.6  0.3945  -46.3
 2.100  0.3414  163.7   2.528   60.0  0.1487   60.8  0.3912  -47.9
 2.200  0.3458  160.1   2.425   57.7  0.1553   61.0  0.3882  -49.5
 2.300  0.3510  157.0   2.337   55.7  0.1621   61.1  0.3858  -51.3
 2.400  0.3571  154.0   2.252   53.5  0.1690   61.1  0.3838  -53.1
 2.500  0.3610  151.0   2.173   51.6  0.1761   61.1  0.3825  -54.9
 2.600  0.3659  148.1   2.097   49.5  0.1832   61.1  0.3815  -56.7
 2.700  0.3711  145.4   2.033   47.7  0.1905   60.8  0.3810  -58.5
 2.800  0.3771  142.8   1.972   45.7  0.1978   60.6  0.3808  -60.4
 2.900  0.3813  140.1   1.916   43.8  0.2055   60.3  0.3801  -62.2
 3.000  0.3863  137.5   1.863   41.8  0.2132   60.1  0.3797  -64.0
 3.100  0.3901  135.1   1.815   40.3  0.2213   59.7  0.3787  -65.8
 3.200  0.3946  132.8   1.769   38.7  0.2295   59.3  0.3781  -67.6
 3.300  0.3998  130.5   1.724   37.0  0.2376   58.9  0.3778  -69.5
 3.400  0.4055  128.3   1.681   35.2  0.2458   58.5  0.3780  -71.3
 3.500  0.4119  126.1   1.639   33.3  0.2540   58.2  0.3785  -73.1
 3.600  0.4170  124.1   1.605   31.8  0.2627   57.5  0.3759  -75.0
 3.700  0.4226  122.1   1.571   30.3  0.2714   56.8  0.3737  -77.0
 3.800  0.4287  120.1   1.539   28.8  0.2801   56.1  0.3719  -79.0
 3.900  0.4353  118.2   1.508   27.1  0.2889   55.5  0.3706  -81.0
 4.000  0.4424  116.4   1.478   25.4  0.2977   54.9  0.3698  -83.0
 4.100  0.4477  114.7   1.451   24.0  0.3067   54.0  0.3656  -85.4
 4.200  0.4534  113.0   1.424   22.5  0.3158   53.2  0.3621  -87.8
 4.300  0.4595  111.3   1.399   20.9  0.3249   52.4  0.3592  -90.2
 4.400  0.4660  109.8   1.374   19.4  0.3341   51.6  0.3570  -92.7
 4.500  0.4728  108.2   1.351   17.7  0.3433   50.9  0.3555  -95.2
 4.600  0.4796  106.6   1.326   16.5  0.3524   49.9  0.3520  -98.1
 4.700  0.4867  105.0   1.303   15.2  0.3617   49.0  0.3494 -101.1
 4.800  0.4942  103.4   1.279   13.8  0.3710   48.1  0.3477 -104.1
 4.900  0.5020  101.9   1.257   12.4  0.3804   47.3  0.3471 -107.2
 5.000  0.5102  100.5   1.235   11.0  0.3899   46.5  0.3474 -110.2
 5.100  0.5141   99.1   1.217    9.9  0.3989   45.4  0.3477 -113.4
 5.200  0.5183   97.7   1.199    8.7  0.4081   44.4  0.3490 -116.6
 5.300  0.5228   96.3   1.181    7.4  0.4174   43.4  0.3514 -119.7
 5.400  0.5275   95.0   1.164    6.2  0.4269   42.4  0.3548 -122.8
 5.500  0.5326   93.7   1.148    4.9  0.4364   41.5  0.3592 -125.8
 5.600  0.5360   92.5   1.131    3.9  0.4449   40.4  0.3612 -128.6
 5.700  0.5397   91.2   1.114    2.8  0.4536   39.3  0.3640 -131.4
 5.800  0.5436   90.0   1.098    1.8  0.4624   38.2  0.3676 -134.1
 5.900  0.5477   88.9   1.082    0.6  0.4714   37.2  0.3721 -136.8
 6.000  0.5521   87.7   1.066   -0.5  0.4805   36.2  0.3774 -139.4
!
!  f       NFmin   Gammaopt  rn/50
! GHz       dB    MAG  ANG    -
 0.450      0.88  0.26   32   0.17
 0.900      0.98  0.21   59   0.16
 1.900      1.55  0.19  162   0.13
 2.400      1.83  0.21  176   0.17
!
! (c) 2017  Infineon Technologies AG, Munich