! Infineon Technologies  Discrete & RF Semiconductors
! BFR182W
! VCE =  7.0 V,  IC =  25 mA
! Common Emitter S-Parameters:                            Jan 2017
# GHz  S  MA  R  50
!  f         S11            S21            S12            S22
! GHz     MAG   ANG      MAG   ANG      MAG   ANG      MAG   ANG
 0.010  0.5458   -6.4  41.794  174.6  0.0013   82.8  0.9815   -2.6
 0.020  0.5500  -13.1  41.725  170.6  0.0037   94.0  0.9706   -5.9
 0.030  0.5310  -19.1  40.580  166.6  0.0052   85.0  0.9533   -8.6
 0.040  0.5181  -25.4  39.641  162.5  0.0068   80.1  0.9382  -11.3
 0.050  0.5118  -32.0  38.922  158.1  0.0084   77.1  0.9254  -14.2
 0.060  0.4936  -36.9  37.488  155.1  0.0097   76.1  0.8999  -16.0
 0.070  0.4792  -42.1  36.163  151.9  0.0110   75.3  0.8754  -17.9
 0.080  0.4690  -47.6  34.960  148.5  0.0123   74.6  0.8518  -19.9
 0.090  0.4633  -53.2  33.891  144.8  0.0136   74.1  0.8294  -22.0
 0.100  0.4622  -59.0  32.971  140.9  0.0149   73.7  0.8081  -24.2
 0.110  0.4459  -62.7  31.715  138.8  0.0159   72.1  0.7844  -25.2
 0.120  0.4316  -66.6  30.504  136.5  0.0168   70.7  0.7610  -26.2
 0.130  0.4194  -70.9  29.345  134.1  0.0178   69.5  0.7378  -27.3
 0.140  0.4097  -75.3  28.244  131.5  0.0188   68.4  0.7149  -28.5
 0.150  0.4025  -79.9  27.208  128.6  0.0198   67.4  0.6924  -29.8
 0.200  0.3642  -96.4  22.638  119.8  0.0238   66.0  0.6069  -32.0
 0.250  0.3373 -109.5  19.230  113.2  0.0274   65.6  0.5451  -32.8
 0.300  0.3170 -119.7  16.558  108.5  0.0304   65.9  0.4991  -32.7
 0.350  0.3031 -127.4  14.724  105.3  0.0342   67.4  0.4708  -32.1
 0.400  0.2952 -135.7  12.948  101.3  0.0380   68.6  0.4425  -31.5
 0.450  0.2879 -141.4  11.750   99.0  0.0414   69.2  0.4255  -31.0
 0.500  0.2836 -147.4  10.576   96.2  0.0448   69.8  0.4085  -30.4
 0.600  0.2806 -156.7   8.944   92.1  0.0520   70.3  0.3867  -29.5
 0.700  0.2774 -163.9   7.727   88.6  0.0590   71.7  0.3716  -28.8
 0.800  0.2801 -170.7   6.817   85.4  0.0672   72.0  0.3611  -28.7
 0.900  0.2813 -176.4   6.080   82.6  0.0743   71.8  0.3532  -28.8
 1.000  0.2826  178.8   5.513   80.0  0.0822   72.2  0.3459  -29.1
 1.100  0.2850  174.8   5.037   77.6  0.0902   72.1  0.3412  -29.6
 1.200  0.2878  170.3   4.634   75.2  0.0975   71.5  0.3360  -30.2
 1.300  0.2919  166.6   4.293   72.9  0.1049   71.2  0.3318  -31.2
 1.400  0.2950  163.6   4.010   70.7  0.1130   71.2  0.3270  -32.3
 1.500  0.3002  160.4   3.755   68.7  0.1206   70.8  0.3237  -33.5
 1.600  0.3042  157.1   3.537   66.5  0.1288   70.2  0.3205  -34.8
 1.700  0.3085  154.6   3.344   64.5  0.1364   70.0  0.3167  -36.3
 1.800  0.3120  151.5   3.183   62.5  0.1445   69.4  0.3134  -37.9
 1.900  0.3200  149.2   3.030   60.7  0.1520   68.8  0.3107  -39.6
 2.000  0.3226  146.9   2.888   58.6  0.1600   68.1  0.3078  -41.6
 2.100  0.3277  144.5   2.769   56.8  0.1680   67.4  0.3050  -43.5
 2.200  0.3334  142.1   2.653   54.8  0.1760   66.8  0.3026  -45.5
 2.300  0.3385  140.0   2.554   53.0  0.1841   66.2  0.3008  -47.7
 2.400  0.3440  137.9   2.458   51.1  0.1923   65.6  0.2994  -49.9
 2.500  0.3490  136.0   2.373   49.5  0.2002   64.8  0.2985  -52.0
 2.600  0.3544  134.1   2.290   47.7  0.2081   64.0  0.2980  -54.2
 2.700  0.3592  132.1   2.219   46.1  0.2163   63.3  0.2975  -56.3
 2.800  0.3644  130.1   2.149   44.3  0.2245   62.6  0.2975  -58.5
 2.900  0.3695  128.2   2.088   42.6  0.2326   61.8  0.2965  -60.6
 3.000  0.3750  126.4   2.028   40.9  0.2408   61.1  0.2960  -62.8
 3.100  0.3789  124.6   1.977   39.5  0.2489   60.2  0.2948  -64.8
 3.200  0.3833  122.8   1.927   38.0  0.2571   59.4  0.2941  -66.8
 3.300  0.3880  121.0   1.878   36.4  0.2653   58.6  0.2936  -68.8
 3.400  0.3930  119.3   1.831   34.7  0.2736   57.9  0.2936  -70.9
 3.500  0.3984  117.6   1.785   33.0  0.2819   57.2  0.2939  -72.9
 3.600  0.4035  116.0   1.748   31.6  0.2902   56.2  0.2910  -75.0
 3.700  0.4089  114.5   1.711   30.2  0.2986   55.2  0.2884  -77.0
 3.800  0.4145  113.0   1.676   28.7  0.3070   54.4  0.2863  -79.2
 3.900  0.4205  111.5   1.642   27.1  0.3155   53.5  0.2845  -81.3
 4.000  0.4267  110.1   1.609   25.5  0.3241   52.7  0.2832  -83.5
 4.100  0.4320  108.7   1.579   24.1  0.3320   51.6  0.2789  -86.0
 4.200  0.4376  107.4   1.550   22.7  0.3401   50.6  0.2751  -88.6
 4.300  0.4434  106.1   1.523   21.3  0.3482   49.7  0.2719  -91.2
 4.400  0.4494  104.8   1.496   19.8  0.3565   48.8  0.2692  -93.9
 4.500  0.4556  103.6   1.470   18.2  0.3648   47.9  0.2672  -96.6
 4.600  0.4626  102.2   1.444   17.0  0.3728   46.9  0.2638  -99.8
 4.700  0.4698  100.9   1.419   15.7  0.3810   45.9  0.2612 -103.1
 4.800  0.4773   99.6   1.395   14.4  0.3892   45.0  0.2594 -106.4
 4.900  0.4851   98.4   1.372   13.0  0.3976   44.1  0.2586 -109.7
 5.000  0.4930   97.2   1.349   11.6  0.4060   43.2  0.2586 -113.1
 5.100  0.4967   96.0   1.330   10.4  0.4138   42.1  0.2594 -116.6
 5.200  0.5007   94.8   1.311    9.3  0.4218   41.0  0.2611 -120.1
 5.300  0.5049   93.7   1.293    8.0  0.4299   40.0  0.2637 -123.5
 5.400  0.5092   92.5   1.275    6.8  0.4381   39.0  0.2673 -126.9
 5.500  0.5138   91.4   1.258    5.5  0.4465   38.1  0.2718 -130.1
 5.600  0.5175   90.3   1.240    4.5  0.4537   37.0  0.2744 -133.0
 5.700  0.5214   89.2   1.223    3.4  0.4611   36.0  0.2777 -135.9
 5.800  0.5254   88.2   1.206    2.3  0.4687   34.9  0.2817 -138.7
 5.900  0.5297   87.1   1.189    1.2  0.4764   34.0  0.2863 -141.5
 6.000  0.5341   86.1   1.173    0.0  0.4842   33.0  0.2916 -144.1
!
!  f       NFmin   Gammaopt  rn/50
! GHz       dB    MAG  ANG    -
 0.450      1.56  0.16 -169   0.15
 0.900      1.65  0.17 -163   0.16
 1.900      2.18  0.33 -138   0.18
 2.400      2.46  0.34 -127   0.29
!
! (c) 2017  Infineon Technologies AG, Munich