! Infineon Technologies  Discrete & RF Semiconductors
! BFR182W
! VCE =  5.0 V,  IC =  38 mA
! Common Emitter S-Parameters:                            Jan 2017
# GHz  S  MA  R  50
!  f         S11            S21            S12            S22
! GHz     MAG   ANG      MAG   ANG      MAG   ANG      MAG   ANG
 0.010  0.4367  -10.3  44.134  173.9  0.0018   87.1  0.9559   -3.0
 0.020  0.4422  -20.5  43.924  168.6  0.0032   90.6  0.9446   -6.9
 0.030  0.4221  -29.4  42.230  163.8  0.0050   81.0  0.9194   -9.9
 0.040  0.4132  -39.0  40.854  158.7  0.0070   76.6  0.8969  -13.0
 0.050  0.4160  -48.7  39.829  153.2  0.0089   74.1  0.8772  -16.3
 0.060  0.4000  -55.5  37.890  150.1  0.0100   71.9  0.8464  -17.9
 0.070  0.3900  -62.7  36.076  146.6  0.0112   70.1  0.8163  -19.7
 0.080  0.3864  -70.2  34.406  142.8  0.0123   68.7  0.7870  -21.5
 0.090  0.3895  -77.7  32.903  138.6  0.0134   67.5  0.7586  -23.5
 0.100  0.3990  -84.9  31.590  134.1  0.0146   66.5  0.7312  -25.7
 0.110  0.3899  -89.5  30.145  132.1  0.0155   65.6  0.7083  -26.3
 0.120  0.3834  -94.3  28.740  129.9  0.0163   64.7  0.6855  -27.0
 0.130  0.3797  -99.2  27.383  127.4  0.0172   64.0  0.6629  -27.7
 0.140  0.3789 -104.2  26.080  124.8  0.0180   63.3  0.6403  -28.4
 0.150  0.3809 -109.2  24.840  121.8  0.0189   62.7  0.6178  -29.2
 0.200  0.3736 -125.2  20.063  113.6  0.0217   64.9  0.5448  -29.7
 0.250  0.3692 -136.9  16.740  107.6  0.0256   65.1  0.4958  -29.2
 0.300  0.3659 -145.2  14.243  103.5  0.0287   66.8  0.4616  -28.3
 0.350  0.3633 -151.1  12.610  100.7  0.0322   68.2  0.4423  -27.5
 0.400  0.3646 -157.1  11.015   97.1  0.0357   69.3  0.4230  -26.6
 0.450  0.3635 -161.4   9.961   95.0  0.0393   70.2  0.4120  -26.1
 0.500  0.3645 -165.8   8.924   92.4  0.0430   71.0  0.4011  -25.6
 0.600  0.3668 -172.3   7.519   88.6  0.0501   71.7  0.3871  -25.0
 0.700  0.3701 -177.9   6.486   85.3  0.0570   73.4  0.3778  -24.9
 0.800  0.3737  177.6   5.712   82.2  0.0653   73.8  0.3712  -25.3
 0.900  0.3754  173.5   5.086   79.5  0.0725   73.5  0.3657  -25.9
 1.000  0.3794  169.4   4.613   76.9  0.0799   74.0  0.3606  -26.6
 1.100  0.3832  166.3   4.212   74.5  0.0883   74.1  0.3577  -27.6
 1.200  0.3867  162.9   3.876   72.1  0.0950   73.8  0.3529  -28.6
 1.300  0.3896  159.9   3.592   69.7  0.1033   73.8  0.3500  -29.9
 1.400  0.3945  157.3   3.356   67.6  0.1116   73.3  0.3451  -31.4
 1.500  0.4003  154.7   3.143   65.4  0.1194   72.9  0.3426  -33.0
 1.600  0.4028  152.0   2.963   63.2  0.1273   72.5  0.3401  -34.5
 1.700  0.4065  149.4   2.803   61.1  0.1354   72.2  0.3366  -36.4
 1.800  0.4127  147.0   2.668   59.0  0.1437   71.6  0.3337  -38.2
 1.900  0.4174  144.7   2.542   57.2  0.1516   71.1  0.3306  -40.2
 2.000  0.4199  142.7   2.422   55.0  0.1598   70.5  0.3285  -42.4
 2.100  0.4252  140.4   2.322   53.1  0.1683   69.8  0.3261  -44.6
 2.200  0.4311  138.1   2.225   51.1  0.1768   69.1  0.3241  -46.8
 2.300  0.4360  136.2   2.143   49.3  0.1854   68.4  0.3223  -49.2
 2.400  0.4413  134.3   2.063   47.3  0.1940   67.8  0.3211  -51.6
 2.500  0.4453  132.3   1.991   45.6  0.2024   67.0  0.3202  -54.0
 2.600  0.4499  130.4   1.921   43.7  0.2108   66.3  0.3199  -56.4
 2.700  0.4546  128.5   1.862   42.0  0.2192   65.5  0.3194  -58.8
 2.800  0.4598  126.7   1.804   40.2  0.2277   64.7  0.3195  -61.2
 2.900  0.4645  124.8   1.752   38.5  0.2364   63.9  0.3190  -63.5
 3.000  0.4697  122.9   1.702   36.8  0.2452   63.1  0.3190  -65.9
 3.100  0.4730  121.1   1.658   35.4  0.2540   62.1  0.3177  -68.1
 3.200  0.4767  119.2   1.616   33.8  0.2628   61.2  0.3168  -70.3
 3.300  0.4810  117.5   1.575   32.2  0.2717   60.4  0.3165  -72.5
 3.400  0.4857  115.7   1.535   30.6  0.2807   59.6  0.3166  -74.8
 3.500  0.4908  114.0   1.496   28.8  0.2897   58.9  0.3172  -77.0
 3.600  0.4950  112.4   1.464   27.4  0.2986   57.8  0.3142  -79.3
 3.700  0.4996  110.8   1.434   26.0  0.3075   56.8  0.3116  -81.6
 3.800  0.5046  109.3   1.404   24.5  0.3166   55.8  0.3096  -83.9
 3.900  0.5099  107.8   1.375   23.0  0.3258   54.9  0.3082  -86.3
 4.000  0.5156  106.3   1.347   21.4  0.3350   54.0  0.3072  -88.7
 4.100  0.5196  104.9   1.322   20.1  0.3437   52.9  0.3028  -91.5
 4.200  0.5240  103.4   1.298   18.8  0.3525   51.8  0.2992  -94.3
 4.300  0.5287  102.0   1.274   17.4  0.3615   50.8  0.2963  -97.2
 4.400  0.5337  100.6   1.251   15.9  0.3705   49.8  0.2941 -100.1
 4.500  0.5390   99.3   1.229   14.4  0.3797   48.9  0.2928 -103.1
 4.600  0.5446   97.9   1.207   13.3  0.3882   47.7  0.2897 -106.4
 4.700  0.5506   96.6   1.186   12.1  0.3968   46.6  0.2876 -109.9
 4.800  0.5568   95.3   1.165   10.9  0.4056   45.6  0.2866 -113.3
 4.900  0.5633   94.0   1.145    9.6  0.4146   44.6  0.2866 -116.8
 5.000  0.5701   92.8   1.125    8.3  0.4236   43.6  0.2876 -120.2
 5.100  0.5730   91.6   1.109    7.3  0.4317   42.4  0.2887 -123.7
 5.200  0.5761   90.4   1.094    6.2  0.4399   41.2  0.2910 -127.3
 5.300  0.5795   89.2   1.079    5.1  0.4484   40.1  0.2943 -130.7
 5.400  0.5831   88.0   1.064    4.0  0.4570   39.0  0.2987 -134.1
 5.500  0.5870   86.8   1.050    2.8  0.4657   38.0  0.3040 -137.3
 5.600  0.5889   85.7   1.035    1.9  0.4731   36.8  0.3068 -140.2
 5.700  0.5909   84.6   1.021    1.0  0.4808   35.7  0.3103 -143.1
 5.800  0.5932   83.5   1.007    0.1  0.4886   34.6  0.3146 -145.9
 5.900  0.5958   82.4   0.993   -0.9  0.4966   33.5  0.3197 -148.6
 6.000  0.5985   81.3   0.979   -1.9  0.5047   32.5  0.3254 -151.2
!
!  f       NFmin   Gammaopt  rn/50
! GHz       dB    MAG  ANG    -
!
! noise parameter not available yet for this operation point!
!
! (c) 2017  Infineon Technologies AG, Munich