! Infineon Technologies  Discrete & RF Semiconductors
! BFR182W
! VCE =  3.0 V,  IC =  42 mA
! Common Emitter S-Parameters:                            Jan 2017
# GHz  S  MA  R  50
!  f         S11            S21            S12            S22
! GHz     MAG   ANG      MAG   ANG      MAG   ANG      MAG   ANG
 0.010  0.3421  -18.9  40.637  172.4  0.0021   76.2  0.8920   -4.1
 0.020  0.3576  -36.6  40.035  165.3  0.0047   82.9  0.8811   -9.0
 0.030  0.3466  -51.3  37.710  159.6  0.0064   75.1  0.8435  -12.3
 0.040  0.3589  -65.9  35.806  153.2  0.0082   70.7  0.8090  -15.9
 0.050  0.3923  -78.8  34.393  146.2  0.0100   67.8  0.7779  -19.8
 0.060  0.3885  -87.2  32.227  143.1  0.0112   65.5  0.7439  -21.1
 0.070  0.3931  -95.6  30.169  139.6  0.0124   63.6  0.7104  -22.5
 0.080  0.4058 -103.6  28.242  135.5  0.0137   62.1  0.6773  -24.0
 0.090  0.4259 -111.0  26.476  130.9  0.0149   60.8  0.6447  -25.7
 0.100  0.4524 -117.6  24.904  125.7  0.0162   59.7  0.6128  -27.6
 0.110  0.4530 -121.8  23.586  123.9  0.0169   59.5  0.5929  -27.8
 0.120  0.4559 -125.9  22.294  121.9  0.0177   59.4  0.5730  -28.0
 0.130  0.4612 -130.0  21.033  119.6  0.0184   59.2  0.5531  -28.3
 0.140  0.4687 -133.9  19.809  117.1  0.0192   59.1  0.5333  -28.5
 0.150  0.4784 -137.7  18.629  114.2  0.0199   59.0  0.5134  -28.8
 0.200  0.4921 -149.4  14.637  106.9  0.0219   60.5  0.4580  -27.8
 0.250  0.5019 -157.3  12.019  101.6  0.0265   61.4  0.4248  -26.5
 0.300  0.5036 -162.9  10.150   97.9  0.0290   63.6  0.4029  -25.2
 0.350  0.5056 -167.1   8.946   95.4  0.0326   65.7  0.3909  -24.4
 0.400  0.5103 -171.2   7.765   92.1  0.0363   67.3  0.3790  -23.6
 0.450  0.5118 -174.2   7.008   90.2  0.0398   68.8  0.3723  -23.4
 0.500  0.5148 -177.2   6.260   87.8  0.0433   70.1  0.3657  -23.1
 0.600  0.5191  177.9   5.258   84.0  0.0511   71.5  0.3574  -23.1
 0.700  0.5207  174.0   4.528   80.8  0.0578   73.1  0.3513  -23.6
 0.800  0.5237  170.2   3.983   77.6  0.0664   73.8  0.3466  -24.6
 0.900  0.5268  166.9   3.548   74.8  0.0743   73.6  0.3428  -25.7
 1.000  0.5313  163.8   3.217   72.1  0.0822   74.2  0.3389  -27.0
 1.100  0.5347  160.7   2.938   69.6  0.0897   74.3  0.3359  -28.5
 1.200  0.5387  158.0   2.704   66.9  0.0980   74.0  0.3328  -30.0
 1.300  0.5400  155.3   2.508   64.5  0.1062   74.0  0.3298  -31.9
 1.400  0.5442  152.8   2.344   62.1  0.1147   73.8  0.3258  -33.7
 1.500  0.5493  150.4   2.195   59.8  0.1236   73.5  0.3229  -35.8
 1.600  0.5535  148.0   2.071   57.4  0.1317   73.1  0.3208  -37.9
 1.700  0.5571  145.4   1.962   55.2  0.1407   72.6  0.3174  -40.3
 1.800  0.5622  143.0   1.867   53.0  0.1493   72.1  0.3141  -42.7
 1.900  0.5666  140.9   1.780   51.0  0.1581   71.6  0.3120  -45.1
 2.000  0.5690  138.7   1.696   48.8  0.1670   70.9  0.3095  -47.9
 2.100  0.5731  136.4   1.626   46.8  0.1762   70.2  0.3075  -50.6
 2.200  0.5780  134.2   1.559   44.6  0.1854   69.6  0.3062  -53.3
 2.300  0.5820  132.2   1.502   42.7  0.1946   68.8  0.3047  -56.2
 2.400  0.5867  130.3   1.447   40.7  0.2038   68.0  0.3039  -59.1
 2.500  0.5899  128.3   1.397   39.0  0.2130   67.2  0.3033  -61.9
 2.600  0.5938  126.3   1.348   37.1  0.2222   66.5  0.3035  -64.8
 2.700  0.5968  124.4   1.307   35.4  0.2316   65.6  0.3035  -67.6
 2.800  0.6004  122.5   1.267   33.6  0.2411   64.7  0.3042  -70.4
 2.900  0.6041  120.5   1.230   32.0  0.2507   63.8  0.3040  -73.2
 3.000  0.6085  118.6   1.194   30.3  0.2603   63.0  0.3046  -75.9
 3.100  0.6102  116.7   1.164   28.9  0.2698   61.9  0.3033  -78.5
 3.200  0.6127  114.8   1.135   27.5  0.2793   60.9  0.3027  -81.2
 3.300  0.6158  112.9   1.106   26.0  0.2890   59.9  0.3028  -83.9
 3.400  0.6195  111.0   1.078   24.5  0.2987   59.0  0.3034  -86.6
 3.500  0.6239  109.2   1.051   22.8  0.3085   58.2  0.3048  -89.2
 3.600  0.6263  107.5   1.029   21.6  0.3181   57.0  0.3017  -91.9
 3.700  0.6293  105.8   1.008   20.4  0.3278   55.8  0.2993  -94.7
 3.800  0.6328  104.1   0.986   19.1  0.3376   54.7  0.2977  -97.5
 3.900  0.6369  102.4   0.966   17.8  0.3475   53.7  0.2967 -100.4
 4.000  0.6415  100.8   0.946   16.4  0.3576   52.7  0.2965 -103.2
 4.100  0.6429   99.3   0.929   15.3  0.3667   51.4  0.2926 -106.4
 4.200  0.6447   97.8   0.913   14.2  0.3759   50.2  0.2897 -109.8
 4.300  0.6470   96.3   0.897   13.0  0.3853   49.0  0.2877 -113.2
 4.400  0.6497   94.8   0.881   11.8  0.3949   47.9  0.2868 -116.6
 4.500  0.6528   93.3   0.866   10.6  0.4046   46.8  0.2869 -120.0
 4.600  0.6557   91.9   0.852    9.8  0.4132   45.5  0.2852 -123.7
 4.700  0.6589   90.6   0.838    8.9  0.4219   44.3  0.2847 -127.5
 4.800  0.6625   89.2   0.825    8.0  0.4308   43.2  0.2854 -131.3
 4.900  0.6664   87.9   0.811    7.1  0.4399   42.1  0.2874 -135.0
 5.000  0.6707   86.6   0.798    6.2  0.4492   41.0  0.2906 -138.7
 5.100  0.6708   85.3   0.789    5.5  0.4570   39.7  0.2934 -142.3
 5.200  0.6713   84.0   0.780    4.7  0.4650   38.4  0.2973 -145.8
 5.300  0.6722   82.7   0.771    3.9  0.4733   37.2  0.3022 -149.2
 5.400  0.6733   81.5   0.763    3.1  0.4817   36.0  0.3082 -152.5
 5.500  0.6748   80.2   0.754    2.3  0.4904   34.9  0.3152 -155.6
 5.600  0.6747   79.1   0.746    1.7  0.4973   33.7  0.3187 -158.4
 5.700  0.6749   78.0   0.738    1.1  0.5045   32.4  0.3229 -161.1
 5.800  0.6753   77.0   0.730    0.5  0.5119   31.3  0.3277 -163.7
 5.900  0.6760   75.9   0.723   -0.1  0.5195   30.1  0.3333 -166.2
 6.000  0.6769   74.8   0.715   -0.7  0.5273   29.0  0.3395 -168.7
!
!  f       NFmin   Gammaopt  rn/50
! GHz       dB    MAG  ANG    -
!
! noise parameter not available yet for this operation point!
!
! (c) 2017  Infineon Technologies AG, Munich