! Infineon Technologies  Discrete & RF Semiconductors
! BFR182W
! VCE =  1.0 V,  IC =  37 mA
! Common Emitter S-Parameters:                            Jan 2017
# GHz  S  MA  R  50
!  f         S11            S21            S12            S22
! GHz     MAG   ANG      MAG   ANG      MAG   ANG      MAG   ANG
 0.010  0.2844  -43.4  34.411  167.6  0.0050   65.1  0.7272  -10.5
 0.020  0.3632  -73.7  32.600  156.4  0.0088   66.1  0.6849  -20.7
 0.030  0.3869  -93.2  29.153  149.8  0.0118   59.1  0.6194  -26.2
 0.040  0.4482 -108.9  26.193  141.6  0.0150   55.0  0.5610  -32.9
 0.050  0.5343 -120.2  23.901  131.5  0.0182   52.3  0.5120  -41.1
 0.060  0.5434 -126.6  21.922  128.9  0.0193   51.5  0.4737  -42.8
 0.070  0.5589 -132.6  19.997  125.8  0.0204   50.7  0.4359  -44.7
 0.080  0.5804 -138.3  18.142  122.1  0.0216   50.0  0.3987  -47.1
 0.090  0.6071 -143.5  16.381  117.5  0.0227   49.4  0.3623  -49.9
 0.100  0.6384 -148.3  14.749  111.9  0.0238   48.9  0.3270  -53.3
 0.110  0.6419 -150.8  13.846  110.5  0.0246   49.0  0.3098  -53.7
 0.120  0.6465 -153.3  12.951  108.9  0.0253   49.0  0.2926  -54.2
 0.130  0.6524 -155.7  12.069  107.1  0.0261   49.1  0.2754  -54.8
 0.140  0.6594 -158.1  11.200  105.0  0.0268   49.1  0.2582  -55.4
 0.150  0.6675 -160.4  10.348  102.6  0.0276   49.2  0.2411  -56.1
 0.200  0.6791 -167.2   7.906   96.7  0.0311   52.3  0.1966  -56.0
 0.250  0.6849 -171.9   6.391   92.2  0.0360   55.5  0.1697  -54.8
 0.300  0.6868 -175.5   5.348   89.0  0.0392   58.2  0.1523  -54.1
 0.350  0.6882 -178.2   4.696   86.6  0.0441   60.6  0.1425  -53.6
 0.400  0.6911  179.1   4.055   83.4  0.0490   62.5  0.1328  -53.0
 0.450  0.6920  177.0   3.654   81.4  0.0538   63.8  0.1274  -53.3
 0.500  0.6938  175.0   3.259   78.9  0.0586   64.8  0.1220  -53.7
 0.600  0.6982  171.1   2.737   74.8  0.0685   66.3  0.1152  -55.2
 0.700  0.6989  168.3   2.356   71.2  0.0780   67.9  0.1103  -57.1
 0.800  0.7015  165.1   2.075   67.4  0.0890   68.7  0.1078  -60.5
 0.900  0.7027  162.1   1.851   64.1  0.0991   68.6  0.1060  -64.2
 1.000  0.7080  159.5   1.683   60.8  0.1091   68.9  0.1037  -68.6
 1.100  0.7104  156.8   1.542   57.7  0.1203   68.7  0.1033  -73.0
 1.200  0.7121  154.1   1.422   54.7  0.1304   68.1  0.1025  -77.8
 1.300  0.7154  151.7   1.321   51.8  0.1410   67.9  0.1037  -83.1
 1.400  0.7196  149.1   1.239   49.1  0.1522   67.2  0.1041  -89.3
 1.500  0.7241  146.9   1.164   46.4  0.1630   66.5  0.1057  -94.9
 1.600  0.7282  144.5   1.100   43.7  0.1740   65.8  0.1095 -100.3
 1.700  0.7311  142.0   1.045   41.3  0.1847   65.2  0.1125 -106.1
 1.800  0.7356  139.7   0.997   38.8  0.1958   64.0  0.1172 -111.4
 1.900  0.7396  137.4   0.950   36.7  0.2067   63.2  0.1224 -116.8
 2.000  0.7393  135.0   0.909   34.4  0.2174   62.2  0.1295 -121.7
 2.100  0.7423  132.7   0.873   32.5  0.2284   61.0  0.1356 -126.5
 2.200  0.7464  130.4   0.838   30.4  0.2394   60.0  0.1426 -130.9
 2.300  0.7487  128.3   0.808   28.7  0.2502   58.9  0.1502 -135.0
 2.400  0.7520  126.3   0.779   26.9  0.2610   57.8  0.1584 -138.6
 2.500  0.7527  124.2   0.753   25.5  0.2712   56.6  0.1656 -141.9
 2.600  0.7544  122.1   0.728   23.9  0.2816   55.5  0.1733 -144.9
 2.700  0.7557  120.1   0.706   22.6  0.2918   54.3  0.1800 -147.9
 2.800  0.7580  118.1   0.685   21.3  0.3022   53.2  0.1872 -150.7
 2.900  0.7588  116.0   0.667   20.2  0.3123   51.9  0.1931 -153.6
 3.000  0.7606  114.0   0.650   19.1  0.3226   50.7  0.1995 -156.4
 3.100  0.7591  112.0   0.637   18.3  0.3317   49.3  0.2033 -159.3
 3.200  0.7585  110.1   0.624   17.5  0.3410   48.1  0.2076 -162.2
 3.300  0.7588  108.1   0.611   16.6  0.3505   46.8  0.2124 -164.9
 3.400  0.7600  106.2   0.598   15.7  0.3601   45.7  0.2176 -167.4
 3.500  0.7621  104.2   0.585   14.8  0.3698   44.6  0.2233 -169.9
 3.600  0.7610  102.4   0.577   14.3  0.3780   43.2  0.2263 -173.0
 3.700  0.7605  100.7   0.569   13.8  0.3865   41.9  0.2299 -176.1
 3.800  0.7608   98.9   0.561   13.3  0.3951   40.6  0.2342 -179.0
 3.900  0.7619   97.2   0.553   12.8  0.4040   39.4  0.2390  178.2
 4.000  0.7636   95.4   0.545   12.2  0.4130   38.2  0.2444  175.5
 4.100  0.7608   93.9   0.541   11.8  0.4198   36.8  0.2485  172.4
 4.200  0.7586   92.3   0.537   11.3  0.4268   35.5  0.2534  169.3
 4.300  0.7569   90.7   0.532   10.9  0.4341   34.2  0.2589  166.4
 4.400  0.7558   89.2   0.528   10.5  0.4415   33.0  0.2650  163.6
 4.500  0.7552   87.6   0.524   10.0  0.4492   31.8  0.2718  161.0
 4.600  0.7546   86.3   0.522    9.7  0.4549   30.6  0.2779  158.5
 4.700  0.7543   85.0   0.520    9.4  0.4609   29.3  0.2845  156.1
 4.800  0.7545   83.8   0.518    9.1  0.4670   28.2  0.2915  153.8
 4.900  0.7550   82.5   0.516    8.8  0.4734   27.0  0.2991  151.6
 5.000  0.7559   81.2   0.514    8.5  0.4799   25.9  0.3070  149.5
 5.100  0.7530   80.0   0.515    8.1  0.4848   24.7  0.3135  147.8
 5.200  0.7504   78.7   0.517    7.7  0.4900   23.5  0.3203  146.2
 5.300  0.7482   77.5   0.518    7.4  0.4953   22.3  0.3272  144.7
 5.400  0.7463   76.3   0.520    7.0  0.5009   21.2  0.3345  143.2
 5.500  0.7448   75.0   0.521    6.6  0.5066   20.1  0.3419  141.8
 5.600  0.7420   74.0   0.522    6.2  0.5104   19.0  0.3453  140.6
 5.700  0.7395   73.0   0.523    5.8  0.5144   18.0  0.3489  139.4
 5.800  0.7371   72.0   0.524    5.3  0.5186   16.9  0.3526  138.2
 5.900  0.7350   70.9   0.525    4.9  0.5229   15.9  0.3564  137.0
 6.000  0.7332   69.9   0.526    4.5  0.5274   14.9  0.3604  135.9
!
!  f       NFmin   Gammaopt  rn/50
! GHz       dB    MAG  ANG    -
!
! noise parameter not available yet for this operation point!
!
! (c) 2017  Infineon Technologies AG, Munich