! Infineon Technologies  Discrete & RF Semiconductors
! BFR182W
! VCE =  5.0 V,  IC =  48 mA
! Common Emitter S-Parameters:                            Jan 2017
# GHz  S  MA  R  50
!  f         S11            S21            S12            S22
! GHz     MAG   ANG      MAG   ANG      MAG   ANG      MAG   ANG
 0.010  0.3505  -16.0  43.095  172.8  0.0020   80.5  0.9139   -3.3
 0.020  0.3617  -31.4  42.938  166.3  0.0036   87.0  0.8973   -7.6
 0.030  0.3474  -44.3  40.631  160.9  0.0053   76.3  0.8671  -10.7
 0.040  0.3518  -57.7  38.725  154.9  0.0071   70.9  0.8397  -14.0
 0.050  0.3741  -70.0  37.282  148.4  0.0089   67.7  0.8152  -17.5
 0.060  0.3667  -78.3  35.084  145.3  0.0100   66.5  0.7835  -18.8
 0.070  0.3671  -86.8  33.004  141.7  0.0111   65.6  0.7523  -20.2
 0.080  0.3755  -95.0  31.066  137.7  0.0122   64.8  0.7215  -21.7
 0.090  0.3912 -102.8  29.299  133.2  0.0133   64.1  0.6913  -23.3
 0.100  0.4135 -109.8  27.735  128.2  0.0144   63.6  0.6617  -25.1
 0.110  0.4120 -114.2  26.318  126.3  0.0152   63.1  0.6416  -25.3
 0.120  0.4129 -118.6  24.932  124.3  0.0159   62.7  0.6215  -25.6
 0.130  0.4163 -123.0  23.582  122.0  0.0167   62.4  0.6015  -25.9
 0.140  0.4221 -127.3  22.275  119.4  0.0174   62.0  0.5814  -26.2
 0.150  0.4301 -131.4  21.018  116.5  0.0182   61.7  0.5614  -26.5
 0.200  0.4401 -144.3  16.641  109.0  0.0207   63.8  0.5052  -25.7
 0.250  0.4472 -153.1  13.722  103.5  0.0243   63.9  0.4712  -24.5
 0.300  0.4501 -159.4  11.614   99.8  0.0268   66.6  0.4473  -23.4
 0.350  0.4497 -164.0  10.248   97.2  0.0304   68.4  0.4349  -22.7
 0.400  0.4523 -168.6   8.908   93.9  0.0340   69.9  0.4225  -22.0
 0.450  0.4542 -171.9   8.045   92.0  0.0376   71.2  0.4156  -21.8
 0.500  0.4576 -175.1   7.193   89.6  0.0412   72.3  0.4088  -21.6
 0.600  0.4603  179.6   6.049   86.0  0.0483   72.2  0.3992  -21.6
 0.700  0.4645  175.5   5.215   82.8  0.0551   74.8  0.3933  -22.1
 0.800  0.4664  171.6   4.591   79.8  0.0630   74.9  0.3887  -23.0
 0.900  0.4683  168.0   4.089   77.1  0.0703   75.4  0.3847  -24.1
 1.000  0.4740  164.7   3.708   74.5  0.0776   76.1  0.3804  -25.2
 1.100  0.4773  161.7   3.389   72.1  0.0855   75.7  0.3776  -26.6
 1.200  0.4793  158.8   3.121   69.5  0.0935   75.3  0.3739  -28.0
 1.300  0.4827  156.0   2.894   67.2  0.1008   75.5  0.3709  -29.7
 1.400  0.4860  153.5   2.707   64.9  0.1094   75.5  0.3668  -31.4
 1.500  0.4920  151.1   2.535   62.7  0.1171   74.9  0.3637  -33.2
 1.600  0.4948  148.4   2.391   60.4  0.1256   74.7  0.3614  -35.1
 1.700  0.4980  146.0   2.263   58.3  0.1338   74.4  0.3574  -37.2
 1.800  0.5031  143.7   2.156   56.1  0.1427   73.7  0.3547  -39.4
 1.900  0.5073  141.7   2.055   54.2  0.1512   73.2  0.3522  -41.5
 2.000  0.5103  139.5   1.959   52.1  0.1596   72.7  0.3500  -44.0
 2.100  0.5152  137.2   1.879   50.1  0.1683   71.9  0.3475  -46.4
 2.200  0.5210  134.9   1.802   48.0  0.1771   71.2  0.3457  -48.9
 2.300  0.5247  133.0   1.736   46.2  0.1863   70.5  0.3439  -51.4
 2.400  0.5290  131.1   1.671   44.2  0.1955   69.8  0.3428  -54.0
 2.500  0.5323  129.1   1.613   42.5  0.2042   69.0  0.3418  -56.6
 2.600  0.5363  127.1   1.557   40.6  0.2129   68.3  0.3416  -59.2
 2.700  0.5400  125.2   1.509   38.9  0.2220   67.5  0.3412  -61.7
 2.800  0.5442  123.4   1.462   37.1  0.2311   66.7  0.3415  -64.2
 2.900  0.5487  121.5   1.420   35.4  0.2404   65.8  0.3411  -66.7
 3.000  0.5539  119.6   1.379   33.7  0.2497   64.9  0.3413  -69.2
 3.100  0.5562  117.7   1.344   32.3  0.2591   63.9  0.3397  -71.6
 3.200  0.5590  115.9   1.311   30.8  0.2686   62.9  0.3386  -74.0
 3.300  0.5624  114.1   1.278   29.3  0.2781   62.0  0.3382  -76.4
 3.400  0.5664  112.3   1.246   27.6  0.2877   61.2  0.3384  -78.9
 3.500  0.5709  110.5   1.215   25.9  0.2974   60.4  0.3392  -81.3
 3.600  0.5741  108.8   1.190   24.7  0.3068   59.2  0.3358  -83.8
 3.700  0.5777  107.2   1.165   23.4  0.3164   58.1  0.3330  -86.3
 3.800  0.5818  105.5   1.140   22.0  0.3261   57.0  0.3309  -88.8
 3.900  0.5864  103.9   1.117   20.6  0.3358   56.0  0.3295  -91.4
 4.000  0.5915  102.3   1.094   19.1  0.3457   55.1  0.3287  -94.0
 4.100  0.5939  100.8   1.074   17.9  0.3549   53.8  0.3241  -96.9
 4.200  0.5966   99.4   1.055   16.7  0.3642   52.6  0.3204  -99.9
 4.300  0.5997   97.9   1.036   15.4  0.3736   51.5  0.3175 -103.0
 4.400  0.6032   96.5   1.018   14.1  0.3833   50.4  0.3156 -106.1
 4.500  0.6071   95.1   1.000   12.7  0.3930   49.4  0.3146 -109.2
 4.600  0.6112   93.7   0.983   11.7  0.4018   48.2  0.3116 -112.7
 4.700  0.6157   92.4   0.967   10.7  0.4109   47.0  0.3097 -116.2
 4.800  0.6205   91.1   0.951    9.7  0.4201   45.8  0.3091 -119.8
 4.900  0.6256   89.8   0.935    8.6  0.4294   44.7  0.3097 -123.4
 5.000  0.6310   88.5   0.920    7.5  0.4389   43.7  0.3114 -126.9
 5.100  0.6319   87.2   0.908    6.6  0.4471   42.4  0.3127 -130.4
 5.200  0.6332   85.9   0.897    5.8  0.4556   41.2  0.3151 -133.9
 5.300  0.6348   84.6   0.885    4.9  0.4642   40.0  0.3187 -137.3
 5.400  0.6367   83.4   0.874    3.9  0.4731   38.8  0.3234 -140.6
 5.500  0.6389   82.1   0.863    3.0  0.4821   37.7  0.3291 -143.8
 5.600  0.6395   81.0   0.852    2.3  0.4895   36.4  0.3317 -146.7
 5.700  0.6404   80.0   0.841    1.5  0.4971   35.2  0.3351 -149.5
 5.800  0.6415   78.9   0.831    0.7  0.5049   34.0  0.3393 -152.2
 5.900  0.6428   77.9   0.820   -0.1  0.5130   32.9  0.3443 -154.9
 6.000  0.6443   76.8   0.810   -0.9  0.5212   31.8  0.3500 -157.5
!
!  f       NFmin   Gammaopt  rn/50
! GHz       dB    MAG  ANG    -
!
! noise parameter not available yet for this operation point!
!
! (c) 2017  Infineon Technologies AG, Munich