! Infineon Technologies  Discrete & RF Semiconductors
! BFR182W
! VCE =  3.0 V,  IC =  45 mA
! Common Emitter S-Parameters:                            Jan 2017
# GHz  S  MA  R  50
!  f         S11            S21            S12            S22
! GHz     MAG   ANG      MAG   ANG      MAG   ANG      MAG   ANG
 0.010  0.3152  -21.8  39.980  171.9  0.0022   73.4  0.8760   -4.3
 0.020  0.3359  -41.4  39.276  164.5  0.0049   71.8  0.8620   -9.4
 0.030  0.3300  -57.6  36.814  158.6  0.0068   69.0  0.8228  -12.8
 0.040  0.3502  -73.1  34.793  152.0  0.0086   67.4  0.7867  -16.5
 0.050  0.3924  -86.1  33.294  144.6  0.0105   66.4  0.7542  -20.5
 0.060  0.3927  -94.5  31.107  141.5  0.0115   64.9  0.7207  -21.7
 0.070  0.4014 -102.7  29.023  138.0  0.0126   63.7  0.6876  -23.0
 0.080  0.4178 -110.5  27.065  134.0  0.0137   62.7  0.6549  -24.4
 0.090  0.4413 -117.5  25.262  129.3  0.0147   61.8  0.6226  -26.0
 0.100  0.4706 -123.7  23.650  124.0  0.0158   61.0  0.5909  -27.8
 0.110  0.4726 -127.6  22.366  122.2  0.0165   60.3  0.5715  -27.9
 0.120  0.4767 -131.5  21.105  120.3  0.0172   59.7  0.5521  -28.1
 0.130  0.4829 -135.2  19.872  118.1  0.0180   59.1  0.5326  -28.2
 0.140  0.4912 -138.9  18.673  115.5  0.0187   58.6  0.5132  -28.3
 0.150  0.5014 -142.4  17.515  112.7  0.0194   58.1  0.4938  -28.5
 0.200  0.5170 -152.9  13.707  105.6  0.0222   60.7  0.4427  -27.2
 0.250  0.5255 -160.3  11.241  100.5  0.0259   61.4  0.4125  -25.7
 0.300  0.5290 -165.8   9.465   96.9  0.0291   63.8  0.3922  -24.4
 0.350  0.5308 -169.5   8.338   94.4  0.0328   65.7  0.3818  -23.7
 0.400  0.5348 -173.2   7.231   91.2  0.0365   67.3  0.3715  -23.0
 0.450  0.5360 -176.1   6.524   89.3  0.0401   68.7  0.3650  -22.8
 0.500  0.5386 -178.9   5.826   86.9  0.0437   69.9  0.3586  -22.6
 0.600  0.5420  176.5   4.893   83.2  0.0515   71.4  0.3513  -22.8
 0.700  0.5461  172.8   4.212   79.9  0.0585   73.4  0.3459  -23.4
 0.800  0.5496  169.2   3.705   76.7  0.0665   74.1  0.3419  -24.5
 0.900  0.5506  165.8   3.298   73.9  0.0741   73.8  0.3379  -25.7
 1.000  0.5557  163.0   2.991   71.2  0.0823   74.5  0.3342  -27.1
 1.100  0.5599  160.0   2.733   68.6  0.0907   74.5  0.3315  -28.8
 1.200  0.5625  157.3   2.518   65.9  0.0987   74.5  0.3282  -30.4
 1.300  0.5638  154.6   2.334   63.4  0.1067   74.0  0.3253  -32.2
 1.400  0.5694  152.1   2.182   61.0  0.1157   74.0  0.3211  -34.4
 1.500  0.5740  149.7   2.045   58.7  0.1239   73.6  0.3186  -36.5
 1.600  0.5777  147.2   1.930   56.3  0.1326   73.2  0.3163  -38.7
 1.700  0.5802  144.7   1.827   54.1  0.1415   73.0  0.3129  -41.2
 1.800  0.5858  142.5   1.739   51.7  0.1503   72.2  0.3100  -43.6
 1.900  0.5904  140.2   1.658   49.9  0.1591   71.7  0.3076  -46.2
 2.000  0.5927  138.0   1.582   47.5  0.1685   71.1  0.3056  -49.0
 2.100  0.5969  135.8   1.517   45.5  0.1777   70.4  0.3032  -51.8
 2.200  0.6019  133.6   1.453   43.4  0.1870   69.7  0.3015  -54.6
 2.300  0.6053  131.6   1.401   41.5  0.1963   68.9  0.3001  -57.6
 2.400  0.6095  129.6   1.350   39.5  0.2057   68.1  0.2995  -60.6
 2.500  0.6124  127.6   1.303   37.8  0.2152   67.3  0.2993  -63.6
 2.600  0.6161  125.6   1.257   35.9  0.2248   66.5  0.2998  -66.5
 2.700  0.6196  123.6   1.218   34.3  0.2342   65.6  0.2997  -69.4
 2.800  0.6239  121.6   1.180   32.5  0.2437   64.7  0.3004  -72.3
 2.900  0.6275  119.7   1.146   30.8  0.2533   63.7  0.3004  -75.2
 3.000  0.6317  117.9   1.113   29.1  0.2630   62.8  0.3012  -78.1
 3.100  0.6328  116.0   1.085   27.8  0.2727   61.7  0.2999  -80.8
 3.200  0.6347  114.1   1.058   26.4  0.2824   60.7  0.2993  -83.5
 3.300  0.6373  112.2   1.032   24.9  0.2922   59.7  0.2993  -86.2
 3.400  0.6405  110.3   1.006   23.4  0.3021   58.8  0.3000  -88.9
 3.500  0.6445  108.4   0.981   21.8  0.3121   58.0  0.3014  -91.6
 3.600  0.6466  106.7   0.961   20.7  0.3217   56.7  0.2983  -94.4
 3.700  0.6493  105.0   0.941   19.5  0.3315   55.6  0.2960  -97.3
 3.800  0.6526  103.2   0.921   18.3  0.3414   54.4  0.2943 -100.2
 3.900  0.6565  101.6   0.902   17.0  0.3514   53.4  0.2935 -103.1
 4.000  0.6609   99.9   0.883   15.7  0.3615   52.4  0.2934 -106.0
 4.100  0.6617   98.4   0.868   14.7  0.3705   51.1  0.2896 -109.4
 4.200  0.6629   96.8   0.853   13.7  0.3798   49.8  0.2869 -112.8
 4.300  0.6646   95.3   0.838   12.6  0.3892   48.6  0.2851 -116.3
 4.400  0.6668   93.8   0.823   11.5  0.3988   47.4  0.2845 -119.8
 4.500  0.6694   92.3   0.809   10.4  0.4085   46.3  0.2849 -123.3
 4.600  0.6719   90.9   0.797    9.6  0.4170   45.0  0.2834 -127.1
 4.700  0.6747   89.6   0.784    8.9  0.4258   43.8  0.2832 -130.9
 4.800  0.6779   88.2   0.772    8.1  0.4347   42.7  0.2842 -134.7
 4.900  0.6815   86.9   0.760    7.3  0.4438   41.6  0.2865 -138.5
 5.000  0.6854   85.6   0.748    6.4  0.4530   40.5  0.2900 -142.2
 5.100  0.6851   84.3   0.740    5.7  0.4608   39.2  0.2930 -145.7
 5.200  0.6851   83.0   0.732    5.0  0.4688   37.8  0.2970 -149.2
 5.300  0.6855   81.8   0.725    4.3  0.4770   36.6  0.3021 -152.6
 5.400  0.6862   80.5   0.717    3.6  0.4855   35.4  0.3082 -155.8
 5.500  0.6873   79.2   0.710    2.9  0.4942   34.2  0.3153 -158.9
 5.600  0.6865   78.1   0.704    2.4  0.5009   33.0  0.3189 -161.6
 5.700  0.6860   77.0   0.697    1.8  0.5077   31.7  0.3232 -164.2
 5.800  0.6857   75.9   0.691    1.3  0.5149   30.6  0.3282 -166.8
 5.900  0.6857   74.8   0.685    0.8  0.5222   29.4  0.3338 -169.3
 6.000  0.6859   73.7   0.679    0.2  0.5297   28.3  0.3400 -171.7
!
!  f       NFmin   Gammaopt  rn/50
! GHz       dB    MAG  ANG    -
!
! noise parameter not available yet for this operation point!
!
! (c) 2017  Infineon Technologies AG, Munich