! Infineon Technologies  Discrete & RF Semiconductors
! BFR182W
! VCE =  4.0 V,  IC =  25 mA
! Common Emitter S-Parameters:                            Jan 2017
# GHz  S  MA  R  50
!  f         S11            S21            S12            S22
! GHz     MAG   ANG      MAG   ANG      MAG   ANG      MAG   ANG
 0.010  0.5251   -7.2  40.204  175.0  0.0015   93.0  0.9792   -2.8
 0.020  0.5303  -14.5  40.200  170.7  0.0033   88.9  0.9697   -6.2
 0.030  0.5109  -21.0  39.074  166.5  0.0051   82.6  0.9506   -9.0
 0.040  0.4985  -27.9  38.166  162.2  0.0069   79.6  0.9338  -11.8
 0.050  0.4937  -35.1  37.490  157.6  0.0087   77.8  0.9194  -14.8
 0.060  0.4759  -40.4  36.058  154.6  0.0101   75.4  0.8922  -16.6
 0.070  0.4625  -46.1  34.735  151.3  0.0116   73.6  0.8660  -18.6
 0.080  0.4538  -52.0  33.534  147.8  0.0130   72.2  0.8408  -20.6
 0.090  0.4501  -58.1  32.469  144.0  0.0144   71.0  0.8168  -22.8
 0.100  0.4516  -64.2  31.553  140.0  0.0159   70.1  0.7940  -25.1
 0.110  0.4369  -68.2  30.310  137.9  0.0169   69.0  0.7705  -26.1
 0.120  0.4246  -72.4  29.111  135.6  0.0178   68.0  0.7473  -27.1
 0.130  0.4146  -76.9  27.961  133.2  0.0188   67.1  0.7244  -28.2
 0.140  0.4074  -81.6  26.868  130.5  0.0198   66.2  0.7017  -29.4
 0.150  0.4029  -86.4  25.838  127.6  0.0208   65.5  0.6794  -30.7
 0.200  0.3727 -103.4  21.412  118.9  0.0241   65.6  0.5938  -32.9
 0.250  0.3530 -116.7  18.152  112.3  0.0284   63.9  0.5315  -33.6
 0.300  0.3381 -126.9  15.597  107.6  0.0316   65.4  0.4858  -33.5
 0.350  0.3280 -134.2  13.858  104.5  0.0350   66.6  0.4578  -32.9
 0.400  0.3236 -141.9  12.172  100.5  0.0385   67.5  0.4298  -32.3
 0.450  0.3192 -147.3  11.041   98.2  0.0423   68.1  0.4129  -31.8
 0.500  0.3177 -152.9   9.932   95.4  0.0461   68.6  0.3960  -31.2
 0.600  0.3155 -161.4   8.395   91.2  0.0536   69.6  0.3747  -30.2
 0.700  0.3150 -168.0   7.250   87.8  0.0609   70.7  0.3607  -29.7
 0.800  0.3180 -173.8   6.394   84.5  0.0687   71.3  0.3499  -29.6
 0.900  0.3180 -178.9   5.700   81.7  0.0756   71.5  0.3420  -29.7
 1.000  0.3219  176.5   5.169   79.1  0.0831   71.7  0.3348  -30.1
 1.100  0.3258  172.3   4.722   76.6  0.0916   71.5  0.3304  -30.7
 1.200  0.3287  168.5   4.344   74.1  0.0990   71.1  0.3250  -31.4
 1.300  0.3314  165.0   4.024   71.8  0.1068   71.1  0.3207  -32.5
 1.400  0.3361  161.8   3.761   69.5  0.1152   70.7  0.3156  -33.5
 1.500  0.3404  159.0   3.523   67.4  0.1227   70.3  0.3125  -34.8
 1.600  0.3447  156.0   3.318   65.2  0.1310   70.1  0.3098  -36.2
 1.700  0.3486  153.3   3.139   63.2  0.1389   69.7  0.3058  -37.8
 1.800  0.3535  150.7   2.986   61.1  0.1472   69.0  0.3023  -39.6
 1.900  0.3596  148.4   2.845   59.3  0.1553   68.5  0.2994  -41.4
 2.000  0.3622  146.1   2.711   57.2  0.1631   67.9  0.2973  -43.5
 2.100  0.3675  143.6   2.599   55.3  0.1712   67.2  0.2946  -45.6
 2.200  0.3735  141.2   2.490   53.3  0.1794   66.6  0.2923  -47.7
 2.300  0.3790  139.2   2.398   51.5  0.1877   65.9  0.2905  -50.0
 2.400  0.3850  137.2   2.309   49.5  0.1960   65.2  0.2891  -52.3
 2.500  0.3893  135.3   2.228   47.8  0.2041   64.4  0.2883  -54.6
 2.600  0.3941  133.4   2.149   46.0  0.2122   63.7  0.2879  -56.9
 2.700  0.3993  131.4   2.082   44.3  0.2204   62.9  0.2875  -59.2
 2.800  0.4049  129.5   2.017   42.5  0.2287   62.2  0.2875  -61.5
 2.900  0.4096  127.6   1.960   40.8  0.2370   61.4  0.2867  -63.7
 3.000  0.4147  125.7   1.904   39.0  0.2454   60.6  0.2863  -66.0
 3.100  0.4184  123.8   1.855   37.6  0.2537   59.7  0.2852  -68.1
 3.200  0.4225  122.0   1.808   36.0  0.2621   58.9  0.2845  -70.3
 3.300  0.4270  120.2   1.762   34.4  0.2706   58.1  0.2842  -72.5
 3.400  0.4320  118.5   1.717   32.8  0.2791   57.4  0.2844  -74.6
 3.500  0.4373  116.8   1.674   31.0  0.2876   56.7  0.2849  -76.8
 3.600  0.4423  115.2   1.639   29.6  0.2960   55.7  0.2821  -79.0
 3.700  0.4476  113.6   1.605   28.2  0.3045   54.7  0.2797  -81.2
 3.800  0.4532  112.1   1.572   26.7  0.3131   53.8  0.2777  -83.4
 3.900  0.4592  110.6   1.541   25.1  0.3218   52.9  0.2762  -85.7
 4.000  0.4654  109.2   1.510   23.5  0.3305   52.1  0.2751  -88.0
 4.100  0.4701  107.8   1.482   22.1  0.3387   51.0  0.2709  -90.7
 4.200  0.4750  106.4   1.454   20.7  0.3470   50.0  0.2674  -93.4
 4.300  0.4802  105.0   1.428   19.3  0.3554   49.0  0.2644  -96.2
 4.400  0.4857  103.7   1.402   17.8  0.3639   48.0  0.2621  -99.1
 4.500  0.4914  102.4   1.378   16.2  0.3725   47.1  0.2605 -102.0
 4.600  0.4980  101.0   1.354   15.0  0.3806   46.1  0.2577 -105.4
 4.700  0.5048   99.7   1.330   13.7  0.3888   45.1  0.2557 -108.8
 4.800  0.5119   98.5   1.307   12.4  0.3971   44.1  0.2547 -112.3
 4.900  0.5193   97.2   1.285   11.1  0.4056   43.2  0.2547 -115.8
 5.000  0.5269   96.0   1.263    9.7  0.4141   42.3  0.2556 -119.3
 5.100  0.5307   94.7   1.245    8.6  0.4219   41.2  0.2570 -122.9
 5.200  0.5347   93.5   1.227    7.4  0.4298   40.1  0.2595 -126.4
 5.300  0.5390   92.2   1.210    6.3  0.4378   39.0  0.2629 -129.9
 5.400  0.5435   91.0   1.194    5.0  0.4461   38.0  0.2673 -133.3
 5.500  0.5483   89.8   1.178    3.8  0.4544   37.0  0.2725 -136.5
 5.600  0.5512   88.7   1.161    2.8  0.4617   35.9  0.2756 -139.4
 5.700  0.5543   87.7   1.144    1.8  0.4691   34.8  0.2794 -142.3
 5.800  0.5575   86.6   1.128    0.7  0.4767   33.8  0.2839 -145.0
 5.900  0.5610   85.6   1.112   -0.4  0.4845   32.8  0.2890 -147.7
 6.000  0.5646   84.6   1.097   -1.5  0.4924   31.8  0.2947 -150.3
!
!  f       NFmin   Gammaopt  rn/50
! GHz       dB    MAG  ANG    -
 0.450      1.56  0.16 -169   0.15
 0.900      1.65  0.17 -163   0.16
 1.900      2.18  0.33 -138   0.18
 2.400      2.46  0.34 -127   0.29
!
! (c) 2017  Infineon Technologies AG, Munich