! Infineon Technologies  Discrete & RF Semiconductors
! BFR182W
! VCE =  2.0 V,  IC =  45 mA
! Common Emitter S-Parameters:                            Jan 2017
# GHz  S  MA  R  50
!  f         S11            S21            S12            S22
! GHz     MAG   ANG      MAG   ANG      MAG   ANG      MAG   ANG
 0.010  0.2643  -32.8  37.533  170.3  0.0027   66.4  0.8164   -6.0
 0.020  0.3090  -58.4  36.433  161.3  0.0058   66.5  0.7876  -12.5
 0.030  0.3228  -77.8  33.491  155.0  0.0080   62.7  0.7401  -16.4
 0.040  0.3688  -94.0  31.031  147.5  0.0103   60.6  0.6966  -20.8
 0.050  0.4370 -105.9  29.176  139.0  0.0125   59.2  0.6577  -25.8
 0.060  0.4455 -113.4  27.014  136.1  0.0135   58.0  0.6224  -26.9
 0.070  0.4612 -120.5  24.932  132.7  0.0145   57.0  0.5874  -28.1
 0.080  0.4836 -127.1  22.953  128.8  0.0155   56.1  0.5527  -29.5
 0.090  0.5116 -133.0  21.105  124.1  0.0166   55.4  0.5183  -31.1
 0.100  0.5445 -138.2  19.425  118.5  0.0176   54.7  0.4844  -32.9
 0.110  0.5486 -141.3  18.301  116.9  0.0185   54.4  0.4666  -32.9
 0.120  0.5544 -144.4  17.193  115.1  0.0193   54.1  0.4487  -32.8
 0.130  0.5617 -147.4  16.104  113.0  0.0202   53.9  0.4309  -32.8
 0.140  0.5705 -150.3  15.039  110.7  0.0210   53.6  0.4130  -32.7
 0.150  0.5807 -153.1  14.003  108.0  0.0219   53.4  0.3952  -32.7
 0.200  0.5968 -161.4  10.832  101.5  0.0249   57.3  0.3504  -30.9
 0.250  0.6055 -167.2   8.813   96.7  0.0285   59.9  0.3248  -29.0
 0.300  0.6074 -171.6   7.396   93.4  0.0313   61.6  0.3073  -27.6
 0.350  0.6105 -174.6   6.503   91.0  0.0353   64.1  0.2988  -26.9
 0.400  0.6153 -177.6   5.626   87.8  0.0394   66.1  0.2903  -26.1
 0.450  0.6162  179.9   5.071   85.9  0.0436   67.6  0.2852  -25.9
 0.500  0.6182  177.4   4.524   83.5  0.0479   68.8  0.2802  -25.7
 0.600  0.6224  173.5   3.799   79.7  0.0564   70.4  0.2741  -26.1
 0.700  0.6243  170.2   3.269   76.3  0.0639   72.1  0.2692  -27.0
 0.800  0.6286  166.8   2.876   72.9  0.0732   72.3  0.2653  -28.5
 0.900  0.6296  163.9   2.563   69.9  0.0815   72.6  0.2613  -30.1
 1.000  0.6337  160.9   2.324   67.0  0.0901   72.9  0.2582  -31.9
 1.100  0.6381  158.3   2.124   64.2  0.0992   72.8  0.2553  -34.0
 1.200  0.6399  155.6   1.957   61.4  0.1081   72.5  0.2519  -36.1
 1.300  0.6422  152.9   1.815   58.7  0.1172   72.4  0.2495  -38.6
 1.400  0.6486  150.6   1.700   56.1  0.1267   72.2  0.2453  -41.2
 1.500  0.6518  148.3   1.593   53.7  0.1358   71.7  0.2422  -43.9
 1.600  0.6555  145.7   1.505   51.1  0.1452   71.0  0.2407  -46.8
 1.700  0.6586  143.3   1.425   48.7  0.1544   70.8  0.2369  -50.0
 1.800  0.6638  140.9   1.359   46.3  0.1645   70.0  0.2347  -53.2
 1.900  0.6677  138.8   1.296   44.3  0.1741   69.3  0.2328  -56.5
 2.000  0.6691  136.5   1.235   41.9  0.1844   68.5  0.2315  -60.1
 2.100  0.6729  134.2   1.185   39.9  0.1941   67.7  0.2299  -63.8
 2.200  0.6777  132.0   1.137   37.7  0.2038   66.9  0.2293  -67.6
 2.300  0.6803  130.0   1.095   35.8  0.2137   65.9  0.2290  -71.3
 2.400  0.6837  128.0   1.055   33.8  0.2237   65.0  0.2296  -75.0
 2.500  0.6865  126.0   1.019   32.1  0.2335   64.1  0.2304  -78.7
 2.600  0.6901  124.0   0.983   30.3  0.2434   63.2  0.2321  -82.3
 2.700  0.6925  122.0   0.953   28.7  0.2535   62.2  0.2335  -85.8
 2.800  0.6957  120.0   0.924   27.1  0.2636   61.3  0.2358  -89.3
 2.900  0.6985  118.0   0.897   25.6  0.2734   60.2  0.2370  -92.7
 3.000  0.7021  116.0   0.871   24.1  0.2834   59.1  0.2391  -96.0
 3.100  0.7023  114.0   0.849   22.9  0.2931   57.9  0.2388  -99.2
 3.200  0.7033  112.1   0.828   21.7  0.3030   56.8  0.2392 -102.4
 3.300  0.7052  110.1   0.807   20.5  0.3129   55.7  0.2404 -105.6
 3.400  0.7078  108.2   0.787   19.1  0.3230   54.7  0.2423 -108.8
 3.500  0.7113  106.3   0.767   17.7  0.3331   53.8  0.2450 -111.9
 3.600  0.7117  104.5   0.752   16.8  0.3425   52.4  0.2433 -115.2
 3.700  0.7128  102.8   0.737   15.9  0.3520   51.2  0.2423 -118.6
 3.800  0.7146  101.0   0.723   14.9  0.3617   49.9  0.2423 -121.9
 3.900  0.7170   99.2   0.708   13.9  0.3716   48.8  0.2430 -125.3
 4.000  0.7201   97.5   0.694   12.9  0.3816   47.7  0.2446 -128.6
 4.100  0.7191   95.9   0.683   12.2  0.3901   46.3  0.2430 -132.5
 4.200  0.7187   94.4   0.673   11.5  0.3988   45.0  0.2425 -136.4
 4.300  0.7188   92.8   0.662   10.7  0.4077   43.8  0.2432 -140.4
 4.400  0.7194   91.3   0.652    9.9  0.4168   42.6  0.2450 -144.3
 4.500  0.7206   89.7   0.642    9.1  0.4261   41.4  0.2479 -148.1
 4.600  0.7216   88.3   0.634    8.6  0.4337   40.1  0.2496 -152.1
 4.700  0.7231   87.0   0.627    8.2  0.4415   38.9  0.2525 -156.0
 4.800  0.7249   85.7   0.619    7.7  0.4496   37.7  0.2565 -159.8
 4.900  0.7272   84.3   0.612    7.2  0.4578   36.5  0.2616 -163.5
 5.000  0.7298   83.0   0.604    6.7  0.4662   35.4  0.2678 -167.0
 5.100  0.7280   81.7   0.601    6.3  0.4729   34.1  0.2732 -170.2
 5.200  0.7266   80.4   0.598    5.9  0.4799   32.8  0.2794 -173.2
 5.300  0.7256   79.1   0.595    5.5  0.4872   31.5  0.2863 -176.1
 5.400  0.7249   77.7   0.592    5.0  0.4946   30.3  0.2940 -178.9
 5.500  0.7247   76.4   0.589    4.6  0.5023   29.1  0.3023  178.5
 5.600  0.7228   75.3   0.587    4.2  0.5080   27.9  0.3068  176.3
 5.700  0.7212   74.3   0.584    3.9  0.5139   26.7  0.3117  174.2
 5.800  0.7198   73.2   0.582    3.5  0.5200   25.6  0.3170  172.1
 5.900  0.7187   72.1   0.579    3.2  0.5264   24.5  0.3228  170.1
 6.000  0.7178   71.0   0.577    2.8  0.5329   23.4  0.3289  168.2
!
!  f       NFmin   Gammaopt  rn/50
! GHz       dB    MAG  ANG    -
!
! noise parameter not available yet for this operation point!
!
! (c) 2017  Infineon Technologies AG, Munich