! Infineon Technologies  Discrete & RF Semiconductors
! BFR182W
! VCE =  10. V,  IC =  18 mA
! Common Emitter S-Parameters:                            Jan 2017
# GHz  S  MA  R  50
!  f         S11            S21            S12            S22
! GHz     MAG   ANG      MAG   ANG      MAG   ANG      MAG   ANG
 0.010  0.6382   -4.9  35.925  175.0  0.0014   76.7  0.9855   -2.3
 0.020  0.6477  -10.2  35.834  171.7  0.0032   96.0  0.9806   -5.0
 0.030  0.6287  -14.9  35.078  168.3  0.0050   85.6  0.9667   -7.3
 0.040  0.6142  -19.9  34.447  164.8  0.0068   80.8  0.9545   -9.7
 0.050  0.6046  -25.1  33.951  161.2  0.0087   78.0  0.9440  -12.2
 0.060  0.5878  -29.2  32.974  158.4  0.0102   76.5  0.9235  -13.9
 0.070  0.5742  -33.5  32.080  155.5  0.0118   75.3  0.9039  -15.7
 0.080  0.5640  -38.0  31.276  152.4  0.0133   74.5  0.8852  -17.5
 0.090  0.5574  -42.7  30.568  149.1  0.0149   73.8  0.8674  -19.5
 0.100  0.5546  -47.4  29.963  145.7  0.0164   73.2  0.8507  -21.5
 0.110  0.5365  -50.7  29.001  143.6  0.0174   71.8  0.8294  -22.6
 0.120  0.5203  -54.1  28.081  141.3  0.0185   70.6  0.8084  -23.8
 0.130  0.5061  -57.8  27.207  139.0  0.0195   69.5  0.7878  -25.0
 0.140  0.4941  -61.7  26.383  136.4  0.0205   68.5  0.7675  -26.3
 0.150  0.4845  -65.7  25.615  133.7  0.0216   67.6  0.7477  -27.6
 0.200  0.4306  -80.9  21.856  124.7  0.0252   64.1  0.6632  -30.8
 0.250  0.3889  -93.1  18.873  117.7  0.0295   63.3  0.5987  -32.4
 0.300  0.3554 -103.7  16.438  112.5  0.0329   64.3  0.5469  -33.0
 0.350  0.3324 -111.2  14.701  109.1  0.0362   64.8  0.5136  -32.9
 0.400  0.3160 -119.7  13.032  104.7  0.0395   65.3  0.4803  -32.8
 0.450  0.3016 -126.0  11.855  102.2  0.0429   65.6  0.4594  -32.4
 0.500  0.2913 -132.9  10.706   99.1  0.0463   65.9  0.4386  -32.0
 0.600  0.2763 -143.7   9.090   94.6  0.0533   66.9  0.4112  -31.2
 0.700  0.2692 -152.9   7.869   90.8  0.0601   68.9  0.3930  -30.6
 0.800  0.2666 -160.2   6.955   87.4  0.0673   69.7  0.3795  -30.4
 0.900  0.2627 -167.1   6.208   84.4  0.0745   69.2  0.3695  -30.4
 1.000  0.2659 -172.8   5.638   81.7  0.0820   70.0  0.3609  -30.6
 1.100  0.2667 -178.1   5.151   79.2  0.0893   69.8  0.3549  -30.9
 1.200  0.2679  177.0   4.741   76.7  0.0962   69.7  0.3483  -31.5
 1.300  0.2692  172.7   4.395   74.4  0.1033   69.6  0.3436  -32.2
 1.400  0.2729  168.9   4.107   72.1  0.1115   69.7  0.3378  -33.1
 1.500  0.2785  165.4   3.846   70.0  0.1190   69.4  0.3339  -34.3
 1.600  0.2810  161.7   3.625   67.8  0.1265   68.9  0.3313  -35.4
 1.700  0.2856  158.6   3.426   65.8  0.1342   68.7  0.3271  -36.9
 1.800  0.2902  155.6   3.260   63.8  0.1419   68.2  0.3235  -38.3
 1.900  0.2953  152.8   3.106   62.0  0.1493   67.9  0.3204  -39.9
 2.000  0.2984  150.1   2.960   59.9  0.1575   67.3  0.3175  -41.8
 2.100  0.3039  147.5   2.837   58.1  0.1652   66.7  0.3148  -43.6
 2.200  0.3100  144.9   2.718   56.1  0.1729   66.1  0.3124  -45.5
 2.300  0.3159  142.7   2.618   54.3  0.1809   65.5  0.3105  -47.5
 2.400  0.3222  140.6   2.520   52.4  0.1889   64.9  0.3090  -49.6
 2.500  0.3262  138.4   2.432   50.7  0.1966   64.2  0.3078  -51.6
 2.600  0.3306  136.2   2.347   48.9  0.2044   63.6  0.3069  -53.6
 2.700  0.3357  134.2   2.274   47.2  0.2122   62.8  0.3064  -55.7
 2.800  0.3412  132.2   2.203   45.4  0.2201   62.1  0.3063  -57.8
 2.900  0.3459  130.2   2.140   43.7  0.2282   61.4  0.3054  -59.8
 3.000  0.3511  128.2   2.079   42.0  0.2363   60.7  0.3049  -61.8
 3.100  0.3554  126.2   2.026   40.6  0.2442   59.9  0.3037  -63.7
 3.200  0.3600  124.3   1.975   39.1  0.2522   59.1  0.3029  -65.7
 3.300  0.3651  122.5   1.925   37.5  0.2602   58.4  0.3024  -67.6
 3.400  0.3705  120.7   1.876   35.8  0.2683   57.7  0.3022  -69.6
 3.500  0.3763  118.9   1.829   34.1  0.2764   57.1  0.3024  -71.5
 3.600  0.3815  117.3   1.791   32.7  0.2846   56.1  0.2995  -73.5
 3.700  0.3871  115.8   1.754   31.3  0.2928   55.2  0.2969  -75.4
 3.800  0.3928  114.3   1.718   29.8  0.3011   54.4  0.2947  -77.5
 3.900  0.3989  112.8   1.683   28.2  0.3095   53.6  0.2929  -79.5
 4.000  0.4052  111.4   1.650   26.6  0.3179   52.8  0.2914  -81.6
 4.100  0.4106  110.0   1.620   25.2  0.3259   51.8  0.2870  -84.0
 4.200  0.4162  108.6   1.591   23.8  0.3340   50.8  0.2832  -86.5
 4.300  0.4220  107.3   1.563   22.3  0.3422   49.8  0.2799  -89.0
 4.400  0.4281  106.0   1.537   20.8  0.3505   49.0  0.2772  -91.6
 4.500  0.4344  104.7   1.511   19.2  0.3589   48.1  0.2750  -94.2
 4.600  0.4414  103.3   1.485   18.0  0.3669   47.1  0.2714  -97.3
 4.700  0.4487  102.0   1.459   16.7  0.3749   46.2  0.2685 -100.4
 4.800  0.4562  100.7   1.434   15.4  0.3831   45.3  0.2665 -103.7
 4.900  0.4640   99.5   1.409   14.0  0.3914   44.4  0.2654 -106.9
 5.000  0.4719   98.3   1.386   12.6  0.3997   43.6  0.2651 -110.2
 5.100  0.4760   97.1   1.366   11.4  0.4075   42.5  0.2655 -113.6
 5.200  0.4803   95.9   1.347   10.3  0.4155   41.5  0.2668 -117.0
 5.300  0.4848   94.7   1.328    9.0  0.4236   40.5  0.2691 -120.4
 5.400  0.4895   93.5   1.310    7.8  0.4319   39.5  0.2723 -123.7
 5.500  0.4944   92.4   1.293    6.5  0.4402   38.6  0.2763 -126.9
 5.600  0.4981   91.3   1.274    5.4  0.4476   37.5  0.2787 -129.8
 5.700  0.5020   90.2   1.256    4.3  0.4551   36.5  0.2819 -132.7
 5.800  0.5060   89.2   1.239    3.1  0.4627   35.5  0.2857 -135.5
 5.900  0.5102   88.1   1.222    1.9  0.4705   34.5  0.2902 -138.3
 6.000  0.5146   87.1   1.205    0.7  0.4784   33.6  0.2954 -140.9
!
!  f       NFmin   Gammaopt  rn/50
! GHz       dB    MAG  ANG    -
 0.450      1.34  0.07  174   0.15
 0.900      1.41  0.08  179   0.15
 1.900      1.93  0.27 -144   0.15
 2.400      2.18  0.27 -129   0.24
!
! (c) 2017  Infineon Technologies AG, Munich