! Infineon Technologies  Discrete & RF Semiconductors
! BFR182W
! VCE =  5.0 V,  IC =  8.0 mA
! Common Emitter S-Parameters:                            Jan 2017
# GHz  S  MA  R  50
!  f         S11            S21            S12            S22
! GHz     MAG   ANG      MAG   ANG      MAG   ANG      MAG   ANG
 0.010  0.7704   -3.5  21.493  177.2  0.0019   88.2  0.9973   -1.7
 0.020  0.7799   -6.9  21.621  174.8  0.0040   94.8  0.9925   -3.5
 0.030  0.7657  -10.1  21.388  172.4  0.0060   88.1  0.9860   -5.1
 0.040  0.7539  -13.3  21.195  169.9  0.0080   84.7  0.9804   -6.8
 0.050  0.7447  -16.7  21.041  167.4  0.0100   82.7  0.9756   -8.5
 0.060  0.7351  -19.8  20.723  165.2  0.0119   80.6  0.9644   -9.9
 0.070  0.7277  -23.0  20.438  162.9  0.0139   79.1  0.9538  -11.4
 0.080  0.7227  -26.3  20.185  160.6  0.0158   78.0  0.9438  -12.9
 0.090  0.7200  -29.6  19.968  158.1  0.0177   77.1  0.9345  -14.4
 0.100  0.7197  -32.9  19.786  155.7  0.0197   76.4  0.9259  -16.0
 0.110  0.7051  -35.5  19.413  153.8  0.0210   74.5  0.9119  -17.2
 0.120  0.6920  -38.3  19.064  151.8  0.0224   72.8  0.8983  -18.4
 0.130  0.6806  -41.1  18.739  149.7  0.0238   71.3  0.8851  -19.6
 0.140  0.6710  -44.1  18.439  147.5  0.0252   70.0  0.8723  -20.9
 0.150  0.6631  -47.1  18.166  145.3  0.0266   68.8  0.8600  -22.2
 0.200  0.6088  -60.1  16.456  136.4  0.0326   65.0  0.7924  -26.7
 0.250  0.5605  -71.3  14.877  128.9  0.0385   61.6  0.7301  -30.0
 0.300  0.5151  -81.2  13.395  123.0  0.0422   59.9  0.6733  -32.2
 0.350  0.4773  -88.8  12.212  118.7  0.0459   58.8  0.6309  -33.4
 0.400  0.4493  -97.6  11.113  113.5  0.0496   57.9  0.5888  -34.7
 0.450  0.4231 -104.0  10.208  110.3  0.0527   57.9  0.5583  -35.2
 0.500  0.4028 -111.2   9.341  106.5  0.0558   57.9  0.5279  -35.8
 0.600  0.3712 -123.0   8.052  100.8  0.0614   57.9  0.4854  -36.0
 0.700  0.3482 -133.1   7.038   96.1  0.0665   59.0  0.4552  -36.0
 0.800  0.3371 -142.0   6.264   91.9  0.0734   59.9  0.4324  -36.0
 0.900  0.3263 -149.8   5.617   88.3  0.0792   60.6  0.4149  -36.2
 1.000  0.3194 -156.9   5.114   85.1  0.0854   61.0  0.4001  -36.4
 1.100  0.3177 -163.3   4.688   82.1  0.0919   61.8  0.3902  -36.7
 1.200  0.3160 -168.9   4.325   79.1  0.0979   62.4  0.3804  -37.2
 1.300  0.3138 -174.5   4.012   76.5  0.1044   62.7  0.3729  -37.8
 1.400  0.3170 -179.2   3.756   73.9  0.1115   63.1  0.3647  -38.7
 1.500  0.3193  176.5   3.524   71.5  0.1181   63.3  0.3587  -39.7
 1.600  0.3201  172.1   3.321   69.0  0.1250   63.4  0.3548  -40.7
 1.700  0.3224  168.5   3.143   66.8  0.1317   63.5  0.3491  -42.1
 1.800  0.3274  164.8   2.996   64.6  0.1390   63.6  0.3445  -43.4
 1.900  0.3313  161.6   2.854   62.6  0.1462   63.5  0.3407  -44.9
 2.000  0.3354  158.2   2.724   60.3  0.1535   63.3  0.3377  -46.7
 2.100  0.3399  155.1   2.613   58.3  0.1609   63.0  0.3347  -48.4
 2.200  0.3453  152.0   2.505   56.1  0.1684   62.8  0.3320  -50.2
 2.300  0.3502  149.3   2.413   54.2  0.1760   62.4  0.3298  -52.2
 2.400  0.3559  146.7   2.324   52.1  0.1837   62.1  0.3280  -54.2
 2.500  0.3609  144.2   2.243   50.3  0.1912   61.7  0.3267  -56.2
 2.600  0.3665  141.7   2.164   48.3  0.1987   61.4  0.3257  -58.2
 2.700  0.3713  139.3   2.098   46.6  0.2064   60.9  0.3253  -60.1
 2.800  0.3768  137.0   2.034   44.7  0.2142   60.4  0.3252  -62.1
 2.900  0.3812  134.7   1.976   42.9  0.2222   59.8  0.3246  -64.1
 3.000  0.3863  132.4   1.920   41.0  0.2302   59.2  0.3244  -66.1
 3.100  0.3905  130.3   1.871   39.5  0.2383   58.5  0.3233  -68.0
 3.200  0.3953  128.2   1.824   37.9  0.2465   57.9  0.3226  -69.9
 3.300  0.4005  126.2   1.777   36.3  0.2547   57.3  0.3223  -71.9
 3.400  0.4063  124.2   1.733   34.5  0.2629   56.8  0.3223  -73.8
 3.500  0.4125  122.3   1.690   32.7  0.2711   56.3  0.3227  -75.7
 3.600  0.4175  120.4   1.655   31.3  0.2796   55.4  0.3199  -77.7
 3.700  0.4228  118.6   1.620   29.8  0.2881   54.6  0.3175  -79.8
 3.800  0.4286  116.9   1.587   28.2  0.2967   53.8  0.3155  -81.9
 3.900  0.4348  115.2   1.556   26.6  0.3054   53.1  0.3139  -84.0
 4.000  0.4414  113.5   1.525   24.9  0.3141   52.4  0.3128  -86.1
 4.100  0.4467  112.0   1.497   23.5  0.3225   51.4  0.3086  -88.6
 4.200  0.4523  110.5   1.469   22.1  0.3309   50.5  0.3050  -91.1
 4.300  0.4582  109.0   1.443   20.6  0.3395   49.6  0.3021  -93.8
 4.400  0.4644  107.6   1.417   19.1  0.3481   48.8  0.2998  -96.4
 4.500  0.4709  106.2   1.393   17.5  0.3568   48.0  0.2981  -99.1
 4.600  0.4777  104.7   1.368   16.2  0.3652   47.0  0.2949 -102.2
 4.700  0.4849  103.2   1.344   14.9  0.3738   46.1  0.2926 -105.4
 4.800  0.4924  101.8   1.321   13.6  0.3824   45.2  0.2912 -108.6
 4.900  0.5002  100.4   1.299   12.2  0.3911   44.3  0.2908 -111.8
 5.000  0.5082   99.1   1.277   10.7  0.3999   43.5  0.2912 -115.0
 5.100  0.5118   97.7   1.258    9.6  0.4082   42.4  0.2922 -118.4
 5.200  0.5157   96.4   1.240    8.4  0.4166   41.4  0.2942 -121.7
 5.300  0.5199   95.1   1.223    7.2  0.4251   40.4  0.2972 -125.0
 5.400  0.5244   93.8   1.205    6.0  0.4337   39.4  0.3012 -128.3
 5.500  0.5291   92.5   1.189    4.7  0.4425   38.5  0.3061 -131.4
 5.600  0.5325   91.4   1.172    3.7  0.4503   37.4  0.3087 -134.2
 5.700  0.5361   90.3   1.155    2.6  0.4582   36.4  0.3120 -137.0
 5.800  0.5400   89.2   1.139    1.5  0.4663   35.3  0.3160 -139.8
 5.900  0.5440   88.1   1.123    0.4  0.4745   34.3  0.3208 -142.4
 6.000  0.5482   87.0   1.107   -0.8  0.4829   33.4  0.3262 -145.0
!
!  f       NFmin   Gammaopt  rn/50
! GHz       dB    MAG  ANG    -
 0.450      1.00  0.12   39   0.15
 0.900      1.08  0.12   69   0.15
 1.900      1.59  0.18 -174   0.13
 2.400      1.85  0.18 -169   0.19
!
! (c) 2017  Infineon Technologies AG, Munich