! Infineon Technologies  Discrete & RF Semiconductors
! BFR182W
! VCE =  5.0 V,  IC =  7.0 mA
! Common Emitter S-Parameters:                            Jan 2017
# GHz  S  MA  R  50
!  f         S11            S21            S12            S22
! GHz     MAG   ANG      MAG   ANG      MAG   ANG      MAG   ANG
 0.010  0.7924   -3.3  19.539  177.4  0.0018   90.5  0.9981   -1.5
 0.020  0.8020   -6.3  19.608  175.3  0.0038   92.9  1.0000   -3.3
 0.030  0.7880   -9.3  19.439  173.0  0.0058   87.0  0.9937   -4.8
 0.040  0.7763  -12.4  19.301  170.7  0.0079   84.2  0.9863   -6.3
 0.050  0.7669  -15.6  19.196  168.3  0.0100   82.6  0.9795   -7.8
 0.060  0.7584  -18.5  18.938  166.2  0.0120   80.4  0.9694   -9.2
 0.070  0.7519  -21.4  18.706  164.0  0.0141   78.8  0.9599  -10.6
 0.080  0.7474  -24.4  18.502  161.8  0.0161   77.6  0.9510  -12.0
 0.090  0.7449  -27.5  18.325  159.6  0.0181   76.7  0.9426  -13.4
 0.100  0.7446  -30.5  18.177  157.3  0.0202   76.0  0.9349  -14.9
 0.110  0.7313  -33.1  17.874  155.4  0.0217   74.2  0.9226  -16.0
 0.120  0.7195  -35.7  17.590  153.5  0.0233   72.7  0.9106  -17.2
 0.130  0.7094  -38.4  17.328  151.5  0.0248   71.3  0.8990  -18.4
 0.140  0.7008  -41.2  17.087  149.4  0.0264   70.2  0.8879  -19.6
 0.150  0.6940  -44.1  16.869  147.3  0.0280   69.1  0.8771  -20.9
 0.200  0.6435  -56.3  15.451  138.7  0.0338   65.3  0.8149  -25.4
 0.250  0.5942  -67.3  14.094  131.2  0.0398   62.1  0.7551  -28.8
 0.300  0.5492  -77.1  12.786  125.2  0.0441   59.1  0.6997  -31.3
 0.350  0.5093  -84.6  11.705  120.8  0.0478   58.1  0.6569  -32.7
 0.400  0.4794  -93.2  10.708  115.5  0.0516   57.2  0.6146  -34.2
 0.450  0.4506  -99.8   9.867  112.2  0.0545   56.8  0.5831  -34.9
 0.500  0.4285 -107.1   9.065  108.2  0.0575   56.5  0.5516  -35.7
 0.600  0.3928 -118.5   7.848  102.3  0.0639   56.0  0.5073  -36.1
 0.700  0.3667 -128.6   6.876   97.4  0.0687   57.7  0.4742  -36.3
 0.800  0.3515 -137.6   6.134   93.1  0.0748   58.5  0.4501  -36.5
 0.900  0.3381 -145.9   5.509   89.3  0.0800   58.6  0.4303  -36.7
 1.000  0.3311 -153.1   5.020   85.9  0.0857   59.5  0.4151  -37.0
 1.100  0.3270 -159.7   4.604   82.9  0.0921   60.2  0.4038  -37.4
 1.200  0.3233 -165.8   4.249   79.9  0.0981   60.7  0.3927  -37.8
 1.300  0.3223 -171.3   3.947   77.1  0.1043   61.2  0.3846  -38.5
 1.400  0.3232 -176.2   3.693   74.4  0.1109   61.6  0.3763  -39.3
 1.500  0.3268  179.2   3.464   72.0  0.1174   62.1  0.3700  -40.3
 1.600  0.3265  174.6   3.269   69.4  0.1240   62.1  0.3656  -41.3
 1.700  0.3284  170.8   3.095   67.2  0.1305   62.5  0.3596  -42.7
 1.800  0.3317  166.8   2.949   64.9  0.1375   62.4  0.3547  -44.0
 1.900  0.3360  163.6   2.811   62.8  0.1448   62.5  0.3505  -45.4
 2.000  0.3396  160.3   2.683   60.5  0.1520   62.4  0.3474  -47.2
 2.100  0.3442  156.9   2.574   58.5  0.1590   62.3  0.3444  -48.9
 2.200  0.3500  153.6   2.468   56.3  0.1660   62.2  0.3417  -50.6
 2.300  0.3550  150.9   2.378   54.3  0.1737   61.9  0.3396  -52.5
 2.400  0.3608  148.3   2.291   52.2  0.1814   61.6  0.3378  -54.5
 2.500  0.3647  145.7   2.211   50.4  0.1887   61.3  0.3365  -56.4
 2.600  0.3694  143.1   2.134   48.4  0.1961   61.0  0.3355  -58.4
 2.700  0.3748  140.7   2.068   46.6  0.2038   60.5  0.3350  -60.4
 2.800  0.3808  138.4   2.004   44.7  0.2116   60.1  0.3349  -62.4
 2.900  0.3856  135.9   1.947   42.9  0.2196   59.6  0.3343  -64.3
 3.000  0.3911  133.5   1.893   41.0  0.2276   59.1  0.3340  -66.2
 3.100  0.3950  131.3   1.845   39.5  0.2357   58.5  0.3329  -68.1
 3.200  0.3995  129.2   1.798   37.9  0.2439   57.9  0.3322  -70.1
 3.300  0.4045  127.1   1.752   36.2  0.2520   57.4  0.3319  -72.0
 3.400  0.4101  125.1   1.708   34.5  0.2602   56.9  0.3320  -74.0
 3.500  0.4161  123.1   1.666   32.6  0.2684   56.4  0.3324  -75.9
 3.600  0.4211  121.2   1.631   31.2  0.2769   55.5  0.3297  -77.9
 3.700  0.4266  119.4   1.597   29.7  0.2854   54.7  0.3274  -79.9
 3.800  0.4324  117.6   1.565   28.1  0.2941   54.0  0.3255  -82.0
 3.900  0.4387  115.9   1.533   26.5  0.3027   53.3  0.3240  -84.1
 4.000  0.4454  114.2   1.503   24.8  0.3114   52.6  0.3230  -86.2
 4.100  0.4506  112.6   1.475   23.4  0.3200   51.6  0.3188  -88.7
 4.200  0.4562  111.0   1.448   21.9  0.3287   50.7  0.3153  -91.2
 4.300  0.4622  109.5   1.423   20.4  0.3374   49.9  0.3124  -93.8
 4.400  0.4684  108.0   1.398   18.8  0.3462   49.1  0.3101  -96.4
 4.500  0.4750  106.5   1.374   17.2  0.3551   48.3  0.3085  -99.1
 4.600  0.4816  105.0   1.350   16.0  0.3637   47.3  0.3054 -102.2
 4.700  0.4886  103.5   1.326   14.7  0.3723   46.4  0.3032 -105.3
 4.800  0.4959  102.0   1.303   13.3  0.3811   45.5  0.3019 -108.5
 4.900  0.5036  100.6   1.281   11.9  0.3899   44.7  0.3015 -111.7
 5.000  0.5115   99.2   1.259   10.5  0.3988   43.9  0.3021 -114.9
 5.100  0.5156   97.8   1.241    9.3  0.4072   42.8  0.3028 -118.2
 5.200  0.5199   96.5   1.223    8.2  0.4158   41.7  0.3046 -121.5
 5.300  0.5245   95.2   1.205    6.9  0.4244   40.7  0.3074 -124.8
 5.400  0.5294   93.9   1.188    5.7  0.4333   39.7  0.3111 -128.0
 5.500  0.5346   92.6   1.172    4.4  0.4422   38.8  0.3158 -131.1
 5.600  0.5378   91.5   1.154    3.4  0.4501   37.7  0.3184 -134.0
 5.700  0.5412   90.3   1.137    2.4  0.4582   36.7  0.3217 -136.8
 5.800  0.5448   89.2   1.120    1.4  0.4664   35.6  0.3258 -139.5
 5.900  0.5487   88.1   1.104    0.3  0.4748   34.6  0.3307 -142.2
 6.000  0.5527   87.0   1.088   -0.8  0.4833   33.7  0.3362 -144.8
!
!  f       NFmin   Gammaopt  rn/50
! GHz       dB    MAG  ANG    -
 0.450      0.95  0.17   35   0.16
 0.900      1.04  0.15   63   0.15
 1.900      1.57  0.18  174   0.13
 2.400      1.84  0.19 -178   0.18
!
! (c) 2017  Infineon Technologies AG, Munich