! Infineon Technologies  Discrete & RF Semiconductors
! BFR182W
! VCE =  9.0 V,  IC =  15 mA
! Common Emitter S-Parameters:                            Jan 2017
# GHz  S  MA  R  50
!  f         S11            S21            S12            S22
! GHz     MAG   ANG      MAG   ANG      MAG   ANG      MAG   ANG
 0.010  0.6663   -4.6  32.733  175.5  0.0016   92.7  0.9903   -2.2
 0.020  0.6770   -9.4  32.951  172.5  0.0034   91.7  0.9871   -4.8
 0.030  0.6594  -13.7  32.268  169.3  0.0051   84.6  0.9745   -6.9
 0.040  0.6457  -18.3  31.689  166.0  0.0069   81.1  0.9633   -9.1
 0.050  0.6363  -23.0  31.219  162.6  0.0087   79.0  0.9535  -11.3
 0.060  0.6204  -26.9  30.416  159.9  0.0103   77.3  0.9347  -13.0
 0.070  0.6075  -31.0  29.684  157.1  0.0119   76.0  0.9168  -14.7
 0.080  0.5978  -35.2  29.026  154.2  0.0135   75.1  0.8998  -16.6
 0.090  0.5915  -39.6  28.448  151.1  0.0152   74.3  0.8837  -18.4
 0.100  0.5887  -44.0  27.956  147.9  0.0168   73.7  0.8686  -20.4
 0.110  0.5709  -47.1  27.140  145.8  0.0180   72.1  0.8488  -21.5
 0.120  0.5549  -50.4  26.362  143.6  0.0192   70.7  0.8293  -22.7
 0.130  0.5408  -53.9  25.627  141.2  0.0204   69.5  0.8102  -24.0
 0.140  0.5289  -57.5  24.937  138.7  0.0217   68.5  0.7915  -25.3
 0.150  0.5191  -61.3  24.297  136.1  0.0229   67.5  0.7732  -26.7
 0.200  0.4637  -75.8  20.983  127.0  0.0262   66.5  0.6914  -30.2
 0.250  0.4169  -88.4  18.279  119.8  0.0306   64.1  0.6240  -32.3
 0.300  0.3808  -98.5  15.997  114.4  0.0339   62.4  0.5700  -33.3
 0.350  0.3551 -106.2  14.347  110.8  0.0374   63.4  0.5344  -33.4
 0.400  0.3368 -115.0  12.770  106.2  0.0409   64.3  0.4988  -33.5
 0.450  0.3199 -121.5  11.637  103.6  0.0441   64.8  0.4760  -33.3
 0.500  0.3076 -128.7  10.533  100.4  0.0474   65.2  0.4533  -33.1
 0.600  0.2896 -139.4   8.965   95.7  0.0545   65.5  0.4231  -32.4
 0.700  0.2797 -148.6   7.776   91.8  0.0604   67.3  0.4025  -31.8
 0.800  0.2746 -156.6   6.875   88.2  0.0678   68.0  0.3881  -31.6
 0.900  0.2707 -163.4   6.143   85.2  0.0749   68.0  0.3764  -31.5
 1.000  0.2723 -169.7   5.579   82.4  0.0815   68.5  0.3668  -31.7
 1.100  0.2732 -175.1   5.099   79.8  0.0895   69.0  0.3598  -32.1
 1.200  0.2737  179.8   4.697   77.2  0.0967   68.8  0.3531  -32.5
 1.300  0.2730  175.1   4.353   74.8  0.1032   68.7  0.3480  -33.3
 1.400  0.2784  171.2   4.068   72.5  0.1111   68.6  0.3420  -34.2
 1.500  0.2820  167.3   3.813   70.4  0.1187   68.7  0.3375  -35.2
 1.600  0.2860  163.6   3.592   68.1  0.1264   68.2  0.3348  -36.4
 1.700  0.2882  160.4   3.397   66.1  0.1336   68.0  0.3299  -37.8
 1.800  0.2930  157.3   3.233   64.0  0.1410   67.5  0.3267  -39.2
 1.900  0.2991  154.5   3.078   62.2  0.1488   67.2  0.3231  -40.7
 2.000  0.3016  151.6   2.935   60.1  0.1567   66.6  0.3207  -42.6
 2.100  0.3069  148.8   2.814   58.2  0.1645   66.1  0.3178  -44.4
 2.200  0.3129  146.1   2.697   56.2  0.1723   65.6  0.3152  -46.3
 2.300  0.3184  143.9   2.597   54.4  0.1801   65.0  0.3133  -48.3
 2.400  0.3244  141.7   2.500   52.5  0.1879   64.5  0.3118  -50.3
 2.500  0.3288  139.4   2.412   50.8  0.1956   63.9  0.3105  -52.3
 2.600  0.3337  137.1   2.327   48.9  0.2034   63.3  0.3096  -54.4
 2.700  0.3391  135.1   2.255   47.3  0.2113   62.6  0.3091  -56.4
 2.800  0.3449  133.2   2.184   45.5  0.2193   62.0  0.3089  -58.4
 2.900  0.3501  131.0   2.123   43.8  0.2271   61.3  0.3081  -60.4
 3.000  0.3558  128.8   2.063   42.0  0.2350   60.6  0.3076  -62.5
 3.100  0.3596  126.9   2.011   40.6  0.2430   59.8  0.3065  -64.4
 3.200  0.3639  125.0   1.959   39.0  0.2511   59.0  0.3057  -66.4
 3.300  0.3685  123.1   1.910   37.4  0.2592   58.3  0.3053  -68.3
 3.400  0.3735  121.3   1.861   35.8  0.2673   57.6  0.3052  -70.3
 3.500  0.3789  119.6   1.815   34.0  0.2755   57.0  0.3055  -72.2
 3.600  0.3842  117.9   1.777   32.6  0.2837   56.1  0.3025  -74.2
 3.700  0.3897  116.3   1.741   31.2  0.2920   55.2  0.2999  -76.1
 3.800  0.3956  114.8   1.705   29.7  0.3003   54.3  0.2977  -78.2
 3.900  0.4018  113.3   1.671   28.1  0.3087   53.5  0.2959  -80.2
 4.000  0.4082  111.8   1.638   26.5  0.3172   52.8  0.2944  -82.3
 4.100  0.4137  110.4   1.608   25.1  0.3252   51.8  0.2902  -84.7
 4.200  0.4195  109.0   1.578   23.7  0.3333   50.8  0.2865  -87.1
 4.300  0.4256  107.6   1.550   22.2  0.3415   49.9  0.2833  -89.6
 4.400  0.4318  106.3   1.523   20.7  0.3498   49.0  0.2807  -92.2
 4.500  0.4383  105.0   1.497   19.1  0.3581   48.2  0.2786  -94.8
 4.600  0.4455  103.6   1.471   17.9  0.3662   47.2  0.2750  -97.9
 4.700  0.4530  102.3   1.446   16.6  0.3744   46.2  0.2721 -101.1
 4.800  0.4607  101.0   1.422   15.3  0.3828   45.3  0.2702 -104.3
 4.900  0.4686   99.8   1.399   13.9  0.3912   44.4  0.2690 -107.5
 5.000  0.4767   98.6   1.376   12.5  0.3997   43.6  0.2688 -110.8
 5.100  0.4806   97.3   1.356   11.3  0.4075   42.5  0.2693 -114.2
 5.200  0.4848   96.1   1.337   10.1  0.4155   41.5  0.2707 -117.6
 5.300  0.4892   94.9   1.318    8.9  0.4236   40.5  0.2731 -120.9
 5.400  0.4938   93.7   1.300    7.6  0.4318   39.5  0.2764 -124.2
 5.500  0.4986   92.5   1.282    6.3  0.4401   38.6  0.2806 -127.4
 5.600  0.5022   91.4   1.264    5.2  0.4475   37.5  0.2830 -130.3
 5.700  0.5059   90.3   1.246    4.1  0.4551   36.5  0.2860 -133.2
 5.800  0.5098   89.3   1.229    3.0  0.4628   35.5  0.2898 -136.0
 5.900  0.5139   88.2   1.212    1.8  0.4706   34.5  0.2942 -138.7
 6.000  0.5182   87.2   1.196    0.6  0.4786   33.6  0.2993 -141.3
!
!  f       NFmin   Gammaopt  rn/50
! GHz       dB    MAG  ANG    -
 0.450      1.25  0.04  146   0.15
 0.900      1.33  0.05  146   0.15
 1.900      1.82  0.24 -148   0.15
 2.400      2.07  0.24 -133   0.22
!
! (c) 2017  Infineon Technologies AG, Munich