! Infineon Technologies  Discrete & RF Semiconductors
! BFR182W
! VCE =  9.0 V,  IC =  18 mA
! Common Emitter S-Parameters:                            Jan 2017
# GHz  S  MA  R  50
!  f         S11            S21            S12            S22
! GHz     MAG   ANG      MAG   ANG      MAG   ANG      MAG   ANG
 0.010  0.6312   -5.0  36.038  175.1  0.0017   82.8  0.9871   -2.3
 0.020  0.6379  -10.3  35.922  171.8  0.0034   90.2  0.9876   -5.1
 0.030  0.6199  -15.1  35.176  168.4  0.0052   82.1  0.9716   -7.4
 0.040  0.6064  -20.1  34.561  164.8  0.0070   78.3  0.9572   -9.8
 0.050  0.5978  -25.3  34.086  161.1  0.0089   76.0  0.9445  -12.3
 0.060  0.5807  -29.5  33.092  158.3  0.0104   74.5  0.9233  -14.0
 0.070  0.5669  -33.9  32.181  155.3  0.0119   73.4  0.9029  -15.8
 0.080  0.5566  -38.5  31.361  152.2  0.0133   72.6  0.8835  -17.7
 0.090  0.5500  -43.3  30.639  148.9  0.0148   71.9  0.8651  -19.7
 0.100  0.5473  -48.1  30.023  145.5  0.0163   71.3  0.8477  -21.7
 0.110  0.5295  -51.4  29.050  143.4  0.0174   70.0  0.8268  -22.8
 0.120  0.5136  -54.9  28.118  141.2  0.0185   68.8  0.8061  -23.9
 0.130  0.4996  -58.6  27.232  138.8  0.0196   67.8  0.7859  -25.1
 0.140  0.4879  -62.4  26.397  136.2  0.0208   66.9  0.7659  -26.4
 0.150  0.4785  -66.5  25.618  133.5  0.0219   66.1  0.7464  -27.7
 0.200  0.4259  -81.6  21.841  124.5  0.0254   64.9  0.6617  -31.0
 0.250  0.3840  -94.5  18.855  117.5  0.0300   63.5  0.5957  -32.5
 0.300  0.3534 -104.8  16.392  112.3  0.0323   64.1  0.5446  -33.2
 0.350  0.3304 -112.5  14.655  108.9  0.0359   64.8  0.5110  -33.1
 0.400  0.3142 -121.1  12.985  104.5  0.0396   65.4  0.4775  -32.9
 0.450  0.3014 -127.4  11.812  102.0  0.0429   65.8  0.4568  -32.5
 0.500  0.2925 -134.2  10.667   98.9  0.0463   66.1  0.4362  -32.1
 0.600  0.2798 -144.8   9.056   94.4  0.0533   67.6  0.4093  -31.3
 0.700  0.2720 -153.6   7.841   90.7  0.0599   68.8  0.3911  -30.7
 0.800  0.2680 -161.2   6.928   87.3  0.0684   69.5  0.3776  -30.5
 0.900  0.2664 -167.5   6.185   84.3  0.0744   69.5  0.3676  -30.5
 1.000  0.2677 -173.4   5.613   81.6  0.0819   69.9  0.3589  -30.7
 1.100  0.2697 -178.7   5.132   79.1  0.0893   70.0  0.3528  -31.1
 1.200  0.2731  176.8   4.724   76.6  0.0969   69.9  0.3465  -31.5
 1.300  0.2726  171.9   4.376   74.2  0.1040   69.8  0.3416  -32.4
 1.400  0.2766  168.3   4.090   72.0  0.1117   69.7  0.3363  -33.4
 1.500  0.2808  165.1   3.832   69.9  0.1190   69.3  0.3324  -34.4
 1.600  0.2841  161.5   3.610   67.7  0.1269   69.1  0.3293  -35.6
 1.700  0.2888  158.3   3.412   65.7  0.1344   68.8  0.3251  -37.1
 1.800  0.2935  155.2   3.247   63.6  0.1424   68.3  0.3216  -38.5
 1.900  0.2984  152.9   3.093   61.9  0.1501   67.9  0.3185  -40.1
 2.000  0.3029  149.9   2.948   59.7  0.1578   67.3  0.3155  -41.9
 2.100  0.3075  147.2   2.827   57.9  0.1656   66.7  0.3129  -43.8
 2.200  0.3128  144.6   2.709   56.0  0.1735   66.1  0.3107  -45.7
 2.300  0.3181  142.5   2.608   54.2  0.1812   65.5  0.3086  -47.7
 2.400  0.3238  140.4   2.510   52.2  0.1890   64.9  0.3069  -49.8
 2.500  0.3289  138.3   2.422   50.5  0.1968   64.2  0.3059  -51.8
 2.600  0.3344  136.2   2.337   48.7  0.2047   63.6  0.3052  -53.9
 2.700  0.3395  134.1   2.265   47.1  0.2126   62.9  0.3046  -56.0
 2.800  0.3451  132.0   2.194   45.3  0.2206   62.2  0.3044  -58.1
 2.900  0.3501  130.0   2.132   43.6  0.2287   61.5  0.3035  -60.1
 3.000  0.3555  128.0   2.071   41.9  0.2369   60.8  0.3030  -62.2
 3.100  0.3595  126.1   2.018   40.5  0.2449   60.0  0.3019  -64.1
 3.200  0.3640  124.2   1.967   38.9  0.2529   59.2  0.3010  -66.1
 3.300  0.3688  122.4   1.917   37.3  0.2610   58.4  0.3006  -68.0
 3.400  0.3740  120.6   1.869   35.7  0.2691   57.8  0.3005  -70.0
 3.500  0.3795  118.9   1.822   33.9  0.2773   57.1  0.3007  -71.9
 3.600  0.3848  117.3   1.784   32.5  0.2855   56.1  0.2977  -73.9
 3.700  0.3904  115.7   1.747   31.1  0.2938   55.2  0.2951  -75.9
 3.800  0.3963  114.2   1.712   29.6  0.3022   54.3  0.2928  -78.0
 3.900  0.4024  112.7   1.677   28.0  0.3106   53.5  0.2910  -80.1
 4.000  0.4088  111.3   1.644   26.4  0.3191   52.7  0.2895  -82.2
 4.100  0.4141  109.9   1.614   25.0  0.3270   51.7  0.2852  -84.6
 4.200  0.4197  108.6   1.585   23.6  0.3351   50.7  0.2814  -87.1
 4.300  0.4255  107.2   1.556   22.2  0.3432   49.8  0.2782  -89.6
 4.400  0.4315  105.9   1.529   20.7  0.3514   48.9  0.2755  -92.2
 4.500  0.4377  104.7   1.503   19.1  0.3597   48.1  0.2734  -94.8
 4.600  0.4448  103.3   1.477   17.9  0.3677   47.1  0.2698  -97.9
 4.700  0.4522  101.9   1.451   16.6  0.3759   46.1  0.2671 -101.1
 4.800  0.4598  100.6   1.427   15.2  0.3841   45.2  0.2652 -104.3
 4.900  0.4676   99.3   1.403   13.8  0.3925   44.3  0.2641 -107.6
 5.000  0.4757   98.1   1.380   12.4  0.4009   43.5  0.2639 -110.9
 5.100  0.4799   96.9   1.360   11.2  0.4087   42.4  0.2644 -114.3
 5.200  0.4843   95.7   1.341   10.1  0.4167   41.4  0.2659 -117.7
 5.300  0.4890   94.6   1.323    8.8  0.4248   40.4  0.2682 -121.1
 5.400  0.4938   93.4   1.305    7.6  0.4330   39.4  0.2715 -124.4
 5.500  0.4988   92.3   1.288    6.3  0.4413   38.5  0.2757 -127.6
 5.600  0.5025   91.2   1.270    5.2  0.4486   37.4  0.2781 -130.5
 5.700  0.5065   90.2   1.252    4.2  0.4561   36.4  0.2812 -133.4
 5.800  0.5105   89.1   1.234    3.0  0.4638   35.3  0.2850 -136.2
 5.900  0.5148   88.1   1.217    1.9  0.4716   34.4  0.2895 -139.0
 6.000  0.5192   87.1   1.201    0.7  0.4795   33.4  0.2946 -141.6
!
!  f       NFmin   Gammaopt  rn/50
! GHz       dB    MAG  ANG    -
 0.450      1.34  0.07  174   0.15
 0.900      1.41  0.08  179   0.15
 1.900      1.93  0.27 -144   0.15
 2.400      2.18  0.27 -129   0.24
!
! (c) 2017  Infineon Technologies AG, Munich