! Infineon Technologies  Discrete & RF Semiconductors
! BFR182W
! VCE =  6.0 V,  IC =  23 mA
! Common Emitter S-Parameters:                            Jan 2017
# GHz  S  MA  R  50
!  f         S11            S21            S12            S22
! GHz     MAG   ANG      MAG   ANG      MAG   ANG      MAG   ANG
 0.010  0.5576   -6.2  40.149  175.0  0.0017   91.7  0.9837   -2.6
 0.020  0.5638  -12.6  40.100  171.0  0.0034   97.1  0.9757   -5.8
 0.030  0.5440  -18.4  39.066  167.1  0.0052   86.2  0.9584   -8.4
 0.040  0.5302  -24.6  38.224  163.0  0.0071   81.0  0.9432  -11.2
 0.050  0.5229  -31.1  37.587  158.7  0.0090   78.0  0.9303  -14.0
 0.060  0.5051  -35.9  36.252  155.8  0.0103   76.2  0.9049  -15.8
 0.070  0.4911  -41.0  35.019  152.6  0.0116   74.8  0.8805  -17.7
 0.080  0.4811  -46.3  33.901  149.2  0.0129   73.7  0.8571  -19.7
 0.090  0.4755  -51.8  32.909  145.6  0.0143   72.8  0.8348  -21.8
 0.100  0.4743  -57.4  32.055  141.8  0.0156   72.1  0.8137  -24.0
 0.110  0.4580  -61.1  30.871  139.7  0.0166   70.7  0.7906  -25.0
 0.120  0.4438  -65.1  29.732  137.4  0.0176   69.5  0.7678  -26.1
 0.130  0.4318  -69.3  28.643  135.0  0.0186   68.4  0.7453  -27.2
 0.140  0.4223  -73.8  27.610  132.3  0.0196   67.4  0.7231  -28.4
 0.150  0.4155  -78.4  26.641  129.5  0.0206   66.5  0.7012  -29.7
 0.200  0.3753  -94.6  22.252  120.6  0.0245   65.6  0.6155  -32.4
 0.250  0.3491 -107.7  18.967  113.9  0.0279   65.1  0.5524  -33.3
 0.300  0.3277 -118.2  16.354  109.1  0.0312   66.0  0.5045  -33.3
 0.350  0.3126 -125.9  14.564  105.9  0.0350   67.1  0.4745  -32.9
 0.400  0.3036 -134.2  12.831  101.9  0.0389   67.9  0.4446  -32.4
 0.450  0.2956 -140.0  11.642   99.5  0.0423   68.2  0.4269  -31.9
 0.500  0.2909 -146.1  10.477   96.6  0.0457   68.4  0.4092  -31.3
 0.600  0.2860 -155.7   8.870   92.4  0.0531   69.2  0.3863  -30.4
 0.700  0.2846 -163.0   7.665   88.9  0.0595   70.9  0.3700  -29.8
 0.800  0.2833 -169.5   6.762   85.7  0.0682   71.5  0.3591  -29.6
 0.900  0.2848 -174.9   6.033   82.8  0.0749   71.4  0.3504  -29.7
 1.000  0.2883  179.5   5.471   80.2  0.0828   71.8  0.3429  -29.9
 1.100  0.2909  175.1   4.998   77.7  0.0903   71.4  0.3377  -30.4
 1.200  0.2933  171.1   4.598   75.3  0.0979   71.0  0.3323  -31.0
 1.300  0.2964  167.2   4.261   72.9  0.1054   70.8  0.3283  -31.9
 1.400  0.3001  164.1   3.980   70.8  0.1138   70.7  0.3227  -33.0
 1.500  0.3061  161.0   3.728   68.7  0.1217   70.4  0.3190  -34.2
 1.600  0.3105  157.4   3.512   66.5  0.1291   70.0  0.3169  -35.5
 1.700  0.3118  154.7   3.320   64.5  0.1373   69.6  0.3127  -37.0
 1.800  0.3185  152.2   3.160   62.5  0.1448   68.8  0.3094  -38.6
 1.900  0.3228  149.5   3.009   60.7  0.1531   68.4  0.3063  -40.3
 2.000  0.3264  147.4   2.868   58.6  0.1611   67.7  0.3040  -42.3
 2.100  0.3322  144.9   2.749   56.8  0.1690   67.1  0.3012  -44.3
 2.200  0.3386  142.4   2.634   54.8  0.1769   66.6  0.2987  -46.3
 2.300  0.3436  140.4   2.537   53.0  0.1852   65.9  0.2968  -48.5
 2.400  0.3490  138.4   2.442   51.1  0.1935   65.2  0.2953  -50.7
 2.500  0.3532  136.3   2.356   49.4  0.2014   64.5  0.2943  -52.9
 2.600  0.3578  134.2   2.273   47.5  0.2093   63.8  0.2937  -55.1
 2.700  0.3635  132.3   2.203   45.9  0.2174   63.0  0.2932  -57.2
 2.800  0.3696  130.5   2.134   44.1  0.2255   62.3  0.2931  -59.4
 2.900  0.3746  128.5   2.073   42.4  0.2336   61.5  0.2924  -61.5
 3.000  0.3801  126.5   2.013   40.7  0.2417   60.8  0.2921  -63.7
 3.100  0.3838  124.7   1.962   39.3  0.2498   59.9  0.2909  -65.7
 3.200  0.3879  122.9   1.912   37.8  0.2580   59.1  0.2901  -67.7
 3.300  0.3923  121.1   1.864   36.2  0.2662   58.3  0.2897  -69.7
 3.400  0.3971  119.4   1.817   34.5  0.2745   57.6  0.2896  -71.8
 3.500  0.4023  117.7   1.772   32.8  0.2828   56.9  0.2899  -73.8
 3.600  0.4076  116.1   1.735   31.4  0.2911   55.9  0.2869  -75.9
 3.700  0.4132  114.6   1.699   30.0  0.2995   54.9  0.2843  -78.0
 3.800  0.4191  113.1   1.664   28.5  0.3079   54.0  0.2821  -80.1
 3.900  0.4253  111.6   1.630   26.9  0.3165   53.1  0.2803  -82.3
 4.000  0.4317  110.2   1.598   25.3  0.3251   52.3  0.2789  -84.5
 4.100  0.4369  108.8   1.569   23.9  0.3331   51.3  0.2747  -87.0
 4.200  0.4423  107.5   1.540   22.5  0.3412   50.3  0.2710  -89.6
 4.300  0.4480  106.1   1.513   21.0  0.3494   49.3  0.2679  -92.3
 4.400  0.4539  104.9   1.486   19.5  0.3577   48.5  0.2654  -95.0
 4.500  0.4600  103.6   1.461   17.9  0.3661   47.6  0.2635  -97.8
 4.600  0.4666  102.2   1.435   16.7  0.3741   46.6  0.2602 -101.0
 4.700  0.4736  100.8   1.410   15.4  0.3823   45.6  0.2577 -104.3
 4.800  0.4807   99.5   1.386   14.1  0.3906   44.6  0.2562 -107.7
 4.900  0.4881   98.2   1.362   12.8  0.3989   43.7  0.2555 -111.1
 5.000  0.4958   97.0   1.339   11.4  0.4074   42.8  0.2557 -114.5
 5.100  0.5000   95.8   1.320   10.2  0.4152   41.7  0.2566 -118.1
 5.200  0.5044   94.7   1.302    9.1  0.4231   40.6  0.2585 -121.6
 5.300  0.5091   93.5   1.284    7.8  0.4311   39.6  0.2613 -125.1
 5.400  0.5139   92.4   1.267    6.6  0.4393   38.6  0.2651 -128.4
 5.500  0.5189   91.3   1.250    5.3  0.4476   37.7  0.2698 -131.7
 5.600  0.5223   90.2   1.232    4.3  0.4548   36.6  0.2726 -134.6
 5.700  0.5259   89.2   1.215    3.2  0.4622   35.6  0.2761 -137.5
 5.800  0.5296   88.1   1.198    2.1  0.4698   34.5  0.2802 -140.3
 5.900  0.5335   87.1   1.181    1.0  0.4775   33.6  0.2850 -143.0
 6.000  0.5376   86.1   1.165   -0.2  0.4853   32.6  0.2904 -145.6
!
!  f       NFmin   Gammaopt  rn/50
! GHz       dB    MAG  ANG    -
 0.450      1.50  0.14 -170   0.15
 0.900      1.58  0.16 -165   0.16
 1.900      2.10  0.31 -139   0.17
 2.400      2.38  0.32 -127   0.27
!
! (c) 2017  Infineon Technologies AG, Munich