! Infineon Technologies  Discrete & RF Semiconductors
! BFR182W
! VCE =  6.0 V,  IC =  18 mA
! Common Emitter S-Parameters:                            Jan 2017
# GHz  S  MA  R  50
!  f         S11            S21            S12            S22
! GHz     MAG   ANG      MAG   ANG      MAG   ANG      MAG   ANG
 0.010  0.6100   -5.4  35.886  175.5  0.0017   82.9  0.9882   -2.4
 0.020  0.6187  -11.0  35.973  171.9  0.0032   97.7  0.9793   -5.3
 0.030  0.6003  -16.0  35.181  168.3  0.0050   85.8  0.9653   -7.7
 0.040  0.5869  -21.3  34.530  164.6  0.0069   80.3  0.9530  -10.2
 0.050  0.5786  -26.8  34.029  160.8  0.0089   77.2  0.9426  -12.7
 0.060  0.5615  -31.1  32.994  158.0  0.0104   75.8  0.9209  -14.5
 0.070  0.5478  -35.7  32.044  155.0  0.0119   74.8  0.9002  -16.3
 0.080  0.5378  -40.5  31.186  151.8  0.0133   74.0  0.8805  -18.3
 0.090  0.5318  -45.5  30.429  148.5  0.0148   73.4  0.8618  -20.3
 0.100  0.5297  -50.5  29.780  145.0  0.0163   72.9  0.8442  -22.4
 0.110  0.5124  -53.9  28.800  142.9  0.0174   71.4  0.8223  -23.5
 0.120  0.4971  -57.6  27.862  140.6  0.0185   70.1  0.8007  -24.7
 0.130  0.4839  -61.4  26.971  138.2  0.0196   69.0  0.7794  -25.9
 0.140  0.4730  -65.5  26.133  135.6  0.0208   67.9  0.7586  -27.2
 0.150  0.4646  -69.7  25.351  132.8  0.0219   67.0  0.7381  -28.6
 0.200  0.4165  -85.2  21.534  123.8  0.0257   65.4  0.6527  -31.8
 0.250  0.3810  -98.2  18.537  116.8  0.0300   64.2  0.5857  -33.4
 0.300  0.3509 -109.0  16.098  111.7  0.0330   63.7  0.5346  -34.0
 0.350  0.3316 -116.8  14.384  108.3  0.0365   64.6  0.5011  -33.9
 0.400  0.3191 -125.3  12.736  103.9  0.0400   65.4  0.4677  -33.7
 0.450  0.3075 -131.6  11.579  101.4  0.0435   66.0  0.4469  -33.4
 0.500  0.2999 -138.4  10.449   98.4  0.0471   66.5  0.4261  -33.0
 0.600  0.2901 -148.7   8.867   93.9  0.0542   67.6  0.3995  -32.1
 0.700  0.2844 -156.6   7.676   90.2  0.0608   68.6  0.3808  -31.5
 0.800  0.2832 -163.8   6.778   86.8  0.0688   69.7  0.3675  -31.2
 0.900  0.2806 -170.1   6.051   83.8  0.0758   69.4  0.3572  -31.2
 1.000  0.2826 -175.9   5.493   81.1  0.0830   70.0  0.3483  -31.5
 1.100  0.2868  179.3   5.017   78.7  0.0909   70.0  0.3429  -31.7
 1.200  0.2879  175.0   4.621   76.1  0.0979   70.0  0.3367  -32.3
 1.300  0.2909  170.5   4.281   73.7  0.1055   69.6  0.3318  -33.2
 1.400  0.2938  167.4   3.999   71.5  0.1132   69.6  0.3261  -34.2
 1.500  0.3000  164.0   3.746   69.4  0.1212   69.2  0.3224  -35.3
 1.600  0.3023  160.3   3.530   67.1  0.1290   68.9  0.3193  -36.5
 1.700  0.3060  157.4   3.339   65.1  0.1364   68.7  0.3150  -38.0
 1.800  0.3107  154.4   3.175   63.0  0.1441   67.9  0.3115  -39.5
 1.900  0.3166  151.9   3.025   61.2  0.1520   67.7  0.3085  -41.2
 2.000  0.3193  149.0   2.883   59.2  0.1605   66.9  0.3055  -43.0
 2.100  0.3249  146.4   2.765   57.3  0.1683   66.4  0.3029  -45.0
 2.200  0.3312  143.9   2.650   55.3  0.1762   65.9  0.3006  -47.0
 2.300  0.3361  141.8   2.551   53.5  0.1842   65.2  0.2986  -49.1
 2.400  0.3414  139.7   2.455   51.5  0.1922   64.6  0.2970  -51.2
 2.500  0.3462  137.7   2.369   49.8  0.2000   63.9  0.2959  -53.3
 2.600  0.3515  135.7   2.286   48.0  0.2079   63.2  0.2952  -55.5
 2.700  0.3565  133.7   2.215   46.4  0.2160   62.5  0.2947  -57.6
 2.800  0.3620  131.7   2.146   44.6  0.2241   61.8  0.2947  -59.8
 2.900  0.3671  129.6   2.085   42.9  0.2321   61.0  0.2939  -61.9
 3.000  0.3727  127.5   2.025   41.1  0.2402   60.3  0.2935  -64.0
 3.100  0.3766  125.6   1.974   39.7  0.2482   59.5  0.2924  -66.0
 3.200  0.3809  123.8   1.924   38.2  0.2563   58.7  0.2916  -68.0
 3.300  0.3856  122.0   1.875   36.6  0.2645   57.9  0.2911  -70.0
 3.400  0.3906  120.3   1.828   34.9  0.2727   57.3  0.2911  -72.1
 3.500  0.3960  118.6   1.782   33.2  0.2809   56.6  0.2914  -74.1
 3.600  0.4011  117.0   1.745   31.8  0.2892   55.6  0.2885  -76.2
 3.700  0.4065  115.4   1.709   30.3  0.2975   54.6  0.2860  -78.2
 3.800  0.4122  113.9   1.674   28.8  0.3059   53.8  0.2839  -80.4
 3.900  0.4182  112.4   1.640   27.2  0.3144   52.9  0.2822  -82.5
 4.000  0.4245  110.9   1.608   25.6  0.3230   52.1  0.2809  -84.7
 4.100  0.4299  109.5   1.579   24.2  0.3310   51.1  0.2766  -87.2
 4.200  0.4356  108.2   1.550   22.8  0.3391   50.1  0.2729  -89.7
 4.300  0.4414  106.8   1.523   21.4  0.3473   49.2  0.2697  -92.3
 4.400  0.4476  105.5   1.496   19.9  0.3555   48.3  0.2670  -95.0
 4.500  0.4539  104.3   1.471   18.3  0.3639   47.5  0.2650  -97.7
 4.600  0.4607  102.9   1.445   17.1  0.3719   46.5  0.2617 -100.9
 4.700  0.4678  101.5   1.420   15.8  0.3800   45.5  0.2592 -104.2
 4.800  0.4751  100.2   1.395   14.5  0.3883   44.6  0.2576 -107.6
 4.900  0.4827   98.9   1.371   13.1  0.3966   43.7  0.2569 -111.0
 5.000  0.4905   97.7   1.348   11.7  0.4050   42.8  0.2571 -114.4
 5.100  0.4944   96.5   1.329   10.5  0.4128   41.7  0.2580 -117.9
 5.200  0.4986   95.3   1.311    9.4  0.4207   40.6  0.2599 -121.4
 5.300  0.5030   94.1   1.293    8.1  0.4287   39.6  0.2627 -124.8
 5.400  0.5076   92.9   1.276    6.9  0.4369   38.6  0.2664 -128.1
 5.500  0.5124   91.8   1.259    5.6  0.4452   37.7  0.2710 -131.3
 5.600  0.5159   90.7   1.241    4.5  0.4525   36.6  0.2737 -134.2
 5.700  0.5197   89.6   1.223    3.5  0.4599   35.6  0.2771 -137.1
 5.800  0.5236   88.5   1.205    2.3  0.4675   34.6  0.2812 -139.9
 5.900  0.5277   87.4   1.188    1.2  0.4752   33.6  0.2859 -142.6
 6.000  0.5320   86.4   1.172    0.0  0.4830   32.7  0.2912 -145.2
!
!  f       NFmin   Gammaopt  rn/50
! GHz       dB    MAG  ANG    -
 0.450      1.34  0.07  174   0.15
 0.900      1.41  0.08  179   0.15
 1.900      1.93  0.27 -144   0.15
 2.400      2.18  0.27 -129   0.24
!
! (c) 2017  Infineon Technologies AG, Munich