! Infineon Technologies  Discrete & RF Semiconductors
! BFR182W
! VCE =  5.0 V,  IC =  13 mA
! Common Emitter S-Parameters:                            Jan 2017
# GHz  S  MA  R  50
!  f         S11            S21            S12            S22
! GHz     MAG   ANG      MAG   ANG      MAG   ANG      MAG   ANG
 0.010  0.6801   -4.6  29.427  176.3  0.0017   91.9  0.9924   -2.1
 0.020  0.6871   -9.1  29.500  173.3  0.0033   91.8  0.9934   -4.6
 0.030  0.6706  -13.3  29.028  170.2  0.0053   85.2  0.9807   -6.7
 0.040  0.6579  -17.7  28.645  167.0  0.0074   82.3  0.9692   -8.8
 0.050  0.6492  -22.3  28.353  163.7  0.0095   80.7  0.9592  -11.0
 0.060  0.6348  -26.2  27.685  161.1  0.0112   78.3  0.9416  -12.7
 0.070  0.6234  -30.2  27.078  158.4  0.0129   76.5  0.9247  -14.4
 0.080  0.6152  -34.3  26.535  155.5  0.0146   75.2  0.9088  -16.2
 0.090  0.6102  -38.5  26.059  152.6  0.0163   74.1  0.8938  -18.1
 0.100  0.6086  -42.8  25.656  149.5  0.0180   73.2  0.8798  -20.0
 0.110  0.5915  -45.9  24.959  147.4  0.0193   71.5  0.8609  -21.2
 0.120  0.5763  -49.2  24.298  145.2  0.0206   70.0  0.8424  -22.4
 0.130  0.5630  -52.6  23.675  142.8  0.0220   68.7  0.8244  -23.7
 0.140  0.5519  -56.2  23.094  140.4  0.0233   67.5  0.8068  -25.1
 0.150  0.5430  -59.9  22.557  137.8  0.0247   66.5  0.7896  -26.5
 0.200  0.4911  -74.7  19.649  128.7  0.0286   63.9  0.7079  -30.5
 0.250  0.4467  -87.0  17.237  121.3  0.0333   61.9  0.6401  -32.9
 0.300  0.4089  -97.6  15.153  115.8  0.0363   61.0  0.5844  -34.3
 0.350  0.3818 -105.5  13.627  112.0  0.0399   61.5  0.5460  -34.7
 0.400  0.3629 -114.4  12.175  107.3  0.0435   61.9  0.5077  -35.1
 0.450  0.3457 -120.8  11.107  104.5  0.0466   62.1  0.4828  -35.1
 0.500  0.3332 -127.8  10.070  101.2  0.0498   62.3  0.4580  -35.0
 0.600  0.3170 -138.8   8.584   96.3  0.0567   63.9  0.4241  -34.5
 0.700  0.3058 -148.0   7.451   92.2  0.0629   65.0  0.4013  -34.0
 0.800  0.2994 -156.1   6.595   88.5  0.0702   66.1  0.3846  -33.8
 0.900  0.2953 -162.8   5.897   85.4  0.0770   66.1  0.3715  -33.7
 1.000  0.2951 -169.0   5.357   82.5  0.0842   66.8  0.3607  -33.9
 1.100  0.2969 -174.5   4.900   79.8  0.0917   67.2  0.3532  -34.3
 1.200  0.2997 -179.7   4.513   77.1  0.0979   67.0  0.3456  -34.7
 1.300  0.2972  175.8   4.184   74.6  0.1057   67.3  0.3398  -35.4
 1.400  0.3016  172.0   3.911   72.3  0.1136   67.3  0.3334  -36.4
 1.500  0.3066  168.4   3.665   70.1  0.1210   67.2  0.3290  -37.5
 1.600  0.3110  164.3   3.453   67.7  0.1282   66.9  0.3257  -38.6
 1.700  0.3122  160.9   3.268   65.7  0.1361   66.8  0.3210  -40.0
 1.800  0.3180  158.0   3.110   63.5  0.1436   66.3  0.3169  -41.5
 1.900  0.3222  155.1   2.962   61.6  0.1510   65.9  0.3137  -43.1
 2.000  0.3259  152.3   2.826   59.5  0.1590   65.6  0.3107  -45.0
 2.100  0.3307  149.5   2.709   57.6  0.1669   65.1  0.3078  -46.9
 2.200  0.3363  146.8   2.596   55.5  0.1748   64.6  0.3053  -48.8
 2.300  0.3414  144.5   2.500   53.7  0.1827   64.0  0.3034  -50.8
 2.400  0.3471  142.3   2.406   51.7  0.1906   63.5  0.3019  -52.9
 2.500  0.3526  139.9   2.323   50.0  0.1983   62.9  0.3008  -55.0
 2.600  0.3586  137.6   2.243   48.1  0.2061   62.3  0.3001  -57.1
 2.700  0.3634  135.5   2.173   46.4  0.2140   61.6  0.2996  -59.2
 2.800  0.3687  133.5   2.105   44.6  0.2220   61.0  0.2995  -61.3
 2.900  0.3735  131.4   2.045   42.9  0.2300   60.3  0.2988  -63.3
 3.000  0.3789  129.3   1.987   41.0  0.2381   59.6  0.2984  -65.4
 3.100  0.3827  127.3   1.937   39.5  0.2463   58.8  0.2972  -67.4
 3.200  0.3870  125.4   1.887   38.0  0.2545   58.1  0.2964  -69.4
 3.300  0.3918  123.5   1.840   36.4  0.2628   57.4  0.2960  -71.4
 3.400  0.3969  121.6   1.794   34.7  0.2711   56.7  0.2959  -73.5
 3.500  0.4025  119.8   1.749   32.9  0.2794   56.1  0.2962  -75.5
 3.600  0.4076  118.1   1.713   31.5  0.2877   55.1  0.2933  -77.5
 3.700  0.4130  116.5   1.677   30.1  0.2960   54.2  0.2909  -79.6
 3.800  0.4188  114.9   1.643   28.6  0.3044   53.4  0.2887  -81.7
 3.900  0.4249  113.3   1.610   27.0  0.3129   52.6  0.2870  -83.8
 4.000  0.4313  111.8   1.578   25.4  0.3214   51.8  0.2857  -85.9
 4.100  0.4368  110.3   1.549   24.0  0.3294   50.8  0.2815  -88.4
 4.200  0.4426  108.9   1.521   22.6  0.3376   49.8  0.2779  -91.0
 4.300  0.4486  107.5   1.493   21.1  0.3458   48.9  0.2749  -93.7
 4.400  0.4549  106.2   1.467   19.5  0.3541   48.0  0.2725  -96.4
 4.500  0.4614  104.9   1.442   17.9  0.3625   47.2  0.2707  -99.2
 4.600  0.4681  103.5   1.417   16.7  0.3707   46.2  0.2675 -102.4
 4.700  0.4750  102.1   1.392   15.4  0.3789   45.2  0.2652 -105.7
 4.800  0.4823  100.8   1.368   14.1  0.3873   44.3  0.2637 -109.0
 4.900  0.4898   99.5   1.345   12.7  0.3957   43.4  0.2632 -112.4
 5.000  0.4975   98.2   1.323   11.3  0.4043   42.6  0.2635 -115.7
 5.100  0.5015   96.9   1.304   10.1  0.4121   41.5  0.2645 -119.2
 5.200  0.5056   95.7   1.286    9.0  0.4201   40.4  0.2665 -122.6
 5.300  0.5101   94.5   1.268    7.7  0.4282   39.4  0.2695 -126.0
 5.400  0.5147   93.3   1.251    6.5  0.4364   38.4  0.2734 -129.3
 5.500  0.5196   92.1   1.234    5.2  0.4448   37.5  0.2781 -132.5
 5.600  0.5233   91.0   1.216    4.2  0.4522   36.4  0.2809 -135.4
 5.700  0.5272   89.8   1.199    3.1  0.4597   35.4  0.2844 -138.2
 5.800  0.5313   88.7   1.182    2.0  0.4674   34.4  0.2886 -141.0
 5.900  0.5355   87.7   1.166    0.9  0.4752   33.4  0.2935 -143.6
 6.000  0.5400   86.6   1.150   -0.3  0.4832   32.5  0.2989 -146.2
!
!  f       NFmin   Gammaopt  rn/50
! GHz       dB    MAG  ANG    -
 0.450      1.17  0.04  108   0.14
 0.900      1.26  0.05  122   0.14
 1.900      1.73  0.23 -151   0.14
 2.400      2.00  0.22 -136   0.21
!
! (c) 2017  Infineon Technologies AG, Munich