! Infineon Technologies  Discrete & RF Semiconductors
! BFR182W
! VCE =  2.0 V,  IC =  48 mA
! Common Emitter S-Parameters:                            Jan 2017
# GHz  S  MA  R  50
!  f         S11            S21            S12            S22
! GHz     MAG   ANG      MAG   ANG      MAG   ANG      MAG   ANG
 0.010  0.2395  -38.1  36.757  169.9  0.0031   60.7  0.7989   -6.3
 0.020  0.2965  -66.5  35.701  160.4  0.0058   69.2  0.7725  -13.2
 0.030  0.3207  -85.8  32.626  154.0  0.0082   63.6  0.7216  -17.2
 0.040  0.3745 -100.9  30.036  146.4  0.0107   60.6  0.6746  -21.7
 0.050  0.4473 -111.7  28.064  137.6  0.0132   58.7  0.6325  -26.9
 0.060  0.4585 -118.8  25.935  134.8  0.0142   57.4  0.5975  -27.9
 0.070  0.4764 -125.5  23.880  131.4  0.0152   56.3  0.5626  -29.1
 0.080  0.5003 -131.7  21.922  127.5  0.0162   55.3  0.5281  -30.4
 0.090  0.5293 -137.2  20.087  122.8  0.0173   54.4  0.4938  -32.0
 0.100  0.5628 -142.1  18.414  117.2  0.0183   53.6  0.4600  -33.7
 0.110  0.5674 -144.9  17.335  115.7  0.0190   53.6  0.4429  -33.6
 0.120  0.5734 -147.7  16.271  113.9  0.0197   53.6  0.4258  -33.5
 0.130  0.5806 -150.4  15.224  111.9  0.0205   53.7  0.4088  -33.4
 0.140  0.5892 -153.0  14.198  109.6  0.0212   53.7  0.3917  -33.3
 0.150  0.5989 -155.6  13.198  107.0  0.0219   53.7  0.3746  -33.2
 0.200  0.6148 -163.4  10.180  100.6  0.0252   57.4  0.3324  -31.2
 0.250  0.6244 -168.9   8.273   95.9  0.0288   59.8  0.3088  -29.4
 0.300  0.6270 -172.8   6.935   92.5  0.0320   62.0  0.2929  -27.9
 0.350  0.6290 -175.9   6.098   90.1  0.0360   64.4  0.2847  -27.2
 0.400  0.6328 -178.9   5.274   87.0  0.0401   66.3  0.2765  -26.4
 0.450  0.6338  178.8   4.754   85.1  0.0442   67.4  0.2717  -26.3
 0.500  0.6358  176.6   4.240   82.7  0.0483   68.4  0.2669  -26.2
 0.600  0.6398  172.8   3.557   78.9  0.0569   70.2  0.2606  -26.8
 0.700  0.6422  169.5   3.063   75.4  0.0650   71.8  0.2563  -27.8
 0.800  0.6447  166.3   2.693   72.0  0.0743   72.4  0.2528  -29.4
 0.900  0.6449  163.3   2.399   68.9  0.0823   72.6  0.2492  -31.2
 1.000  0.6515  160.4   2.178   65.9  0.0916   72.7  0.2453  -33.2
 1.100  0.6536  157.6   1.992   63.1  0.1013   72.6  0.2427  -35.5
 1.200  0.6568  155.2   1.835   60.2  0.1096   72.5  0.2395  -37.7
 1.300  0.6603  152.6   1.702   57.5  0.1189   72.2  0.2365  -40.5
 1.400  0.6636  150.2   1.594   54.8  0.1291   72.0  0.2328  -43.3
 1.500  0.6684  147.9   1.494   52.4  0.1383   71.5  0.2300  -46.2
 1.600  0.6730  145.4   1.411   49.8  0.1479   71.0  0.2278  -49.2
 1.700  0.6756  143.0   1.337   47.4  0.1574   70.4  0.2248  -52.6
 1.800  0.6818  140.6   1.274   45.0  0.1675   69.7  0.2222  -56.1
 1.900  0.6856  138.4   1.216   43.0  0.1771   69.0  0.2208  -59.6
 2.000  0.6864  136.2   1.160   40.5  0.1872   68.2  0.2198  -63.5
 2.100  0.6904  133.9   1.112   38.5  0.1973   67.3  0.2184  -67.4
 2.200  0.6955  131.6   1.066   36.3  0.2074   66.5  0.2180  -71.4
 2.300  0.6976  129.5   1.027   34.5  0.2176   65.5  0.2180  -75.4
 2.400  0.7006  127.5   0.990   32.5  0.2278   64.6  0.2190  -79.3
 2.500  0.7030  125.5   0.956   30.9  0.2377   63.6  0.2202  -83.1
 2.600  0.7063  123.5   0.922   29.1  0.2477   62.7  0.2224  -86.9
 2.700  0.7087  121.5   0.894   27.6  0.2577   61.6  0.2242  -90.5
 2.800  0.7120  119.5   0.866   25.9  0.2677   60.6  0.2269  -94.1
 2.900  0.7142  117.5   0.841   24.5  0.2778   59.5  0.2285  -97.6
 3.000  0.7172  115.5   0.816   23.0  0.2880   58.5  0.2309 -101.0
 3.100  0.7172  113.5   0.796   21.9  0.2978   57.2  0.2308 -104.3
 3.200  0.7181  111.6   0.777   20.8  0.3076   56.0  0.2315 -107.6
 3.300  0.7198  109.6   0.757   19.6  0.3176   54.9  0.2329 -110.8
 3.400  0.7223  107.6   0.739   18.4  0.3278   53.9  0.2351 -114.1
 3.500  0.7257  105.7   0.720   17.1  0.3380   52.9  0.2380 -117.2
 3.600  0.7257  103.9   0.707   16.3  0.3473   51.5  0.2365 -120.6
 3.700  0.7263  102.1   0.694   15.4  0.3568   50.3  0.2358 -124.1
 3.800  0.7277  100.3   0.681   14.6  0.3665   49.0  0.2360 -127.5
 3.900  0.7297   98.6   0.668   13.6  0.3763   47.9  0.2371 -131.0
 4.000  0.7325   96.8   0.655   12.7  0.3863   46.8  0.2390 -134.4
 4.100  0.7313   95.3   0.646   12.1  0.3947   45.4  0.2380 -138.4
 4.200  0.7306   93.7   0.636   11.4  0.4033   44.1  0.2382 -142.3
 4.300  0.7304   92.2   0.627   10.8  0.4121   42.8  0.2395 -146.3
 4.400  0.7308   90.6   0.618   10.1  0.4211   41.6  0.2419 -150.2
 4.500  0.7317   89.1   0.609    9.4  0.4303   40.4  0.2454 -154.0
 4.600  0.7322   87.7   0.603    9.0  0.4376   39.1  0.2477 -157.9
 4.700  0.7332   86.4   0.596    8.7  0.4452   37.8  0.2512 -161.8
 4.800  0.7346   85.0   0.590    8.3  0.4530   36.6  0.2558 -165.5
 4.900  0.7364   83.6   0.583    7.9  0.4609   35.4  0.2614 -169.1
 5.000  0.7386   82.3   0.577    7.5  0.4691   34.3  0.2680 -172.5
 5.100  0.7361   81.0   0.575    7.1  0.4756   33.0  0.2737 -175.5
 5.200  0.7340   79.8   0.573    6.7  0.4823   31.7  0.2801 -178.3
 5.300  0.7322   78.5   0.572    6.3  0.4892   30.5  0.2872  178.9
 5.400  0.7308   77.2   0.570    5.9  0.4964   29.3  0.2948  176.3
 5.500  0.7298   75.9   0.568    5.5  0.5038   28.1  0.3031  173.9
 5.600  0.7277   74.9   0.566    5.2  0.5092   26.9  0.3076  171.8
 5.700  0.7259   73.8   0.565    4.9  0.5148   25.7  0.3125  169.8
 5.800  0.7243   72.7   0.563    4.6  0.5206   24.6  0.3177  167.8
 5.900  0.7229   71.7   0.562    4.3  0.5267   23.5  0.3233  165.9
 6.000  0.7218   70.6   0.560    4.0  0.5329   22.4  0.3293  164.1
!
!  f       NFmin   Gammaopt  rn/50
! GHz       dB    MAG  ANG    -
!
! noise parameter not available yet for this operation point!
!
! (c) 2017  Infineon Technologies AG, Munich