! Infineon Technologies  Discrete & RF Semiconductors
! BFR182W
! VCE =  2.0 V,  IC =  5.0 mA
! Common Emitter S-Parameters:                            Jan 2017
# GHz  S  MA  R  50
!  f         S11            S21            S12            S22
! GHz     MAG   ANG      MAG   ANG      MAG   ANG      MAG   ANG
 0.010  0.8323   -3.1  15.296  177.9  0.0023   87.9  0.9988   -1.4
 0.020  0.8412   -5.7  15.398  176.1  0.0041   89.5  0.9972   -3.0
 0.030  0.8286   -8.4  15.298  174.0  0.0068   84.8  0.9921   -4.4
 0.040  0.8180  -11.2  15.219  171.9  0.0095   82.7  0.9876   -5.8
 0.050  0.8093  -14.1  15.160  169.8  0.0122   81.6  0.9837   -7.2
 0.060  0.8028  -16.8  15.000  167.9  0.0144   79.9  0.9756   -8.5
 0.070  0.7981  -19.5  14.859  165.9  0.0167   78.7  0.9680   -9.8
 0.080  0.7952  -22.3  14.735  163.8  0.0189   77.8  0.9610  -11.1
 0.090  0.7941  -25.0  14.630  161.8  0.0212   77.1  0.9544  -12.4
 0.100  0.7949  -27.8  14.544  159.7  0.0234   76.5  0.9484  -13.8
 0.110  0.7837  -30.2  14.349  157.9  0.0252   74.9  0.9381  -14.9
 0.120  0.7739  -32.6  14.168  156.2  0.0270   73.4  0.9282  -16.1
 0.130  0.7655  -35.1  14.001  154.3  0.0288   72.2  0.9186  -17.3
 0.140  0.7586  -37.6  13.850  152.4  0.0307   71.1  0.9094  -18.5
 0.150  0.7532  -40.2  13.713  150.5  0.0325   70.1  0.9007  -19.7
 0.200  0.7095  -52.2  12.772  142.2  0.0405   65.6  0.8459  -24.4
 0.250  0.6645  -62.8  11.839  134.8  0.0470   60.8  0.7912  -28.3
 0.300  0.6174  -72.4  10.874  128.7  0.0519   58.4  0.7369  -31.3
 0.350  0.5774  -80.1  10.038  124.1  0.0567   56.2  0.6924  -33.2
 0.400  0.5493  -88.8   9.279  118.6  0.0615   54.4  0.6488  -35.3
 0.450  0.5177  -95.3   8.596  115.0  0.0646   53.4  0.6152  -36.4
 0.500  0.4936 -102.6   7.952  110.9  0.0678   52.4  0.5818  -37.7
 0.600  0.4547 -114.5   6.937  104.4  0.0741   51.4  0.5307  -39.0
 0.700  0.4263 -124.8   6.112   99.1  0.0781   51.7  0.4923  -39.6
 0.800  0.4087 -134.2   5.473   94.4  0.0843   52.2  0.4629  -40.2
 0.900  0.3929 -142.3   4.930   90.3  0.0887   52.5  0.4401  -40.7
 1.000  0.3833 -149.8   4.503   86.7  0.0939   53.5  0.4212  -41.2
 1.100  0.3781 -156.3   4.137   83.3  0.0996   54.0  0.4069  -41.7
 1.200  0.3734 -162.6   3.820   80.0  0.1048   54.7  0.3938  -42.3
 1.300  0.3701 -168.2   3.554   77.0  0.1099   55.3  0.3838  -43.1
 1.400  0.3702 -173.3   3.331   74.2  0.1161   56.2  0.3741  -44.1
 1.500  0.3727 -177.9   3.128   71.6  0.1218   56.8  0.3663  -45.2
 1.600  0.3739  177.5   2.952   68.9  0.1280   56.9  0.3609  -46.2
 1.700  0.3747  173.4   2.799   66.5  0.1345   57.8  0.3538  -47.6
 1.800  0.3775  169.3   2.669   64.0  0.1412   57.8  0.3484  -49.0
 1.900  0.3821  166.0   2.546   61.8  0.1473   58.2  0.3436  -50.5
 2.000  0.3846  162.3   2.431   59.4  0.1543   58.3  0.3401  -52.2
 2.100  0.3892  159.0   2.334   57.2  0.1611   58.4  0.3367  -54.1
 2.200  0.3951  155.7   2.240   54.9  0.1680   58.5  0.3337  -56.0
 2.300  0.3998  152.8   2.157   52.8  0.1754   58.4  0.3316  -58.0
 2.400  0.4055  150.0   2.078   50.6  0.1828   58.3  0.3300  -60.1
 2.500  0.4097  147.3   2.007   48.7  0.1902   58.1  0.3288  -62.1
 2.600  0.4148  144.6   1.938   46.6  0.1976   58.0  0.3280  -64.2
 2.700  0.4190  142.1   1.878   44.7  0.2053   57.7  0.3279  -66.3
 2.800  0.4239  139.6   1.821   42.7  0.2130   57.5  0.3282  -68.4
 2.900  0.4290  137.2   1.771   40.9  0.2208   57.1  0.3272  -70.3
 3.000  0.4349  134.8   1.723   38.9  0.2286   56.7  0.3266  -72.3
 3.100  0.4386  132.5   1.679   37.4  0.2370   56.2  0.3258  -74.4
 3.200  0.4429  130.3   1.636   35.7  0.2454   55.7  0.3253  -76.4
 3.300  0.4479  128.0   1.595   34.0  0.2538   55.2  0.3253  -78.5
 3.400  0.4536  125.9   1.555   32.2  0.2622   54.8  0.3258  -80.5
 3.500  0.4599  123.8   1.517   30.3  0.2707   54.4  0.3266  -82.6
 3.600  0.4646  121.8   1.485   28.8  0.2795   53.6  0.3240  -84.8
 3.700  0.4698  119.9   1.454   27.3  0.2883   52.9  0.3219  -87.0
 3.800  0.4756  118.0   1.424   25.7  0.2972   52.2  0.3202  -89.2
 3.900  0.4819  116.1   1.395   24.0  0.3061   51.6  0.3191  -91.4
 4.000  0.4887  114.3   1.368   22.3  0.3150   51.0  0.3184  -93.7
 4.100  0.4935  112.6   1.342   20.9  0.3238   50.0  0.3147  -96.4
 4.200  0.4987  110.9   1.317   19.5  0.3328   49.1  0.3116  -99.1
 4.300  0.5043  109.3   1.293   18.0  0.3418   48.3  0.3093 -101.9
 4.400  0.5103  107.7   1.270   16.4  0.3509   47.5  0.3077 -104.7
 4.500  0.5167  106.1   1.248   14.8  0.3600   46.7  0.3069 -107.5
 4.600  0.5226  104.5   1.225   13.6  0.3688   45.7  0.3045 -110.8
 4.700  0.5290  102.9   1.203   12.3  0.3777   44.8  0.3031 -114.1
 4.800  0.5357  101.4   1.182   11.0  0.3867   43.9  0.3028 -117.5
 4.900  0.5428   99.9   1.161    9.7  0.3957   43.0  0.3035 -120.9
 5.000  0.5502   98.5   1.141    8.3  0.4049   42.2  0.3052 -124.2
 5.100  0.5536   97.1   1.124    7.2  0.4134   41.1  0.3072 -127.6
 5.200  0.5573   95.7   1.108    6.1  0.4221   40.0  0.3102 -130.9
 5.300  0.5614   94.4   1.092    4.9  0.4309   39.0  0.3142 -134.2
 5.400  0.5657   93.0   1.077    3.7  0.4398   38.0  0.3192 -137.3
 5.500  0.5704   91.7   1.062    2.5  0.4489   37.1  0.3252 -140.4
 5.600  0.5735   90.5   1.047    1.6  0.4569   36.0  0.3283 -143.2
 5.700  0.5768   89.3   1.031    0.6  0.4651   34.9  0.3321 -145.9
 5.800  0.5803   88.1   1.017   -0.4  0.4734   33.8  0.3367 -148.6
 5.900  0.5842   87.0   1.002   -1.4  0.4819   32.8  0.3420 -151.2
 6.000  0.5882   85.8   0.988   -2.5  0.4905   31.8  0.3480 -153.7
!
!  f       NFmin   Gammaopt  rn/50
! GHz       dB    MAG  ANG    -
 0.450      0.88  0.26   32   0.17
 0.900      0.98  0.21   59   0.16
 1.900      1.55  0.19  162   0.13
 2.400      1.83  0.21  176   0.17
!
! (c) 2017  Infineon Technologies AG, Munich