! Infineon Technologies  Discrete & RF Semiconductors
! BFR182W
! VCE =  1.0 V,  IC =  50 mA
! Common Emitter S-Parameters:                            Jan 2017
# GHz  S  MA  R  50
!  f         S11            S21            S12            S22
! GHz     MAG   ANG      MAG   ANG      MAG   ANG      MAG   ANG
 0.010  0.2071  -84.0  31.385  164.9  0.0062   58.3  0.6254  -14.6
 0.020  0.3642 -108.3  29.096  151.7  0.0105   60.1  0.5737  -28.3
 0.030  0.4260 -122.6  25.397  145.2  0.0133   53.5  0.5035  -34.9
 0.040  0.5072 -132.9  22.133  136.6  0.0162   49.3  0.4422  -43.6
 0.050  0.5999 -140.1  19.526  125.4  0.0191   46.3  0.3939  -54.6
 0.060  0.6142 -144.5  17.802  123.1  0.0202   46.0  0.3604  -56.9
 0.070  0.6319 -148.6  16.113  120.3  0.0213   45.8  0.3276  -59.7
 0.080  0.6527 -152.6  14.472  116.9  0.0223   45.6  0.2957  -63.2
 0.090  0.6764 -156.2  12.896  112.6  0.0234   45.4  0.2652  -67.4
 0.100  0.7027 -159.6  11.412  107.1  0.0245   45.2  0.2365  -72.7
 0.110  0.7067 -161.4  10.695  105.8  0.0253   46.1  0.2229  -74.0
 0.120  0.7113 -163.1   9.983  104.4  0.0261   46.9  0.2094  -75.5
 0.130  0.7166 -164.8   9.279  102.7  0.0269   47.6  0.1960  -77.1
 0.140  0.7225 -166.5   8.584  100.8  0.0278   48.3  0.1828  -79.0
 0.150  0.7290 -168.2   7.901   98.5  0.0286   49.0  0.1699  -81.2
 0.200  0.7370 -173.2   5.997   92.9  0.0326   53.2  0.1370  -86.3
 0.250  0.7438 -176.8   4.834   88.6  0.0376   56.3  0.1162  -89.9
 0.300  0.7425 -179.6   4.038   85.4  0.0419   59.6  0.1039  -93.5
 0.350  0.7444  178.1   3.545   82.9  0.0472   62.0  0.0979  -96.1
 0.400  0.7475  175.9   3.061   79.5  0.0526   63.9  0.0921  -99.1
 0.450  0.7483  174.1   2.759   77.4  0.0581   64.9  0.0898 -101.8
 0.500  0.7498  172.3   2.461   74.7  0.0637   65.8  0.0878 -104.7
 0.600  0.7535  169.0   2.068   70.3  0.0748   67.3  0.0876 -109.7
 0.700  0.7553  166.3   1.784   66.3  0.0853   68.5  0.0893 -113.9
 0.800  0.7575  163.3   1.570   62.1  0.0974   69.3  0.0941 -118.9
 0.900  0.7576  160.5   1.403   58.4  0.1085   69.1  0.0994 -123.6
 1.000  0.7620  158.0   1.275   55.0  0.1204   68.9  0.1046 -128.0
 1.100  0.7671  155.4   1.170   51.7  0.1325   68.6  0.1122 -131.7
 1.200  0.7686  152.8   1.080   48.3  0.1439   67.8  0.1188 -135.8
 1.300  0.7706  150.3   1.005   45.5  0.1557   67.3  0.1277 -139.6
 1.400  0.7752  147.9   0.944   42.5  0.1683   66.5  0.1369 -143.6
 1.500  0.7779  145.6   0.887   40.0  0.1802   65.7  0.1452 -147.1
 1.600  0.7829  143.1   0.838   37.3  0.1931   64.6  0.1548 -150.2
 1.700  0.7851  140.6   0.797   35.0  0.2048   63.6  0.1649 -153.8
 1.800  0.7904  138.1   0.760   32.6  0.2172   62.5  0.1751 -156.8
 1.900  0.7918  135.9   0.725   31.0  0.2292   61.4  0.1853 -159.5
 2.000  0.7908  133.6   0.693   28.8  0.2416   60.1  0.1959 -162.2
 2.100  0.7930  131.2   0.667   27.2  0.2533   58.7  0.2062 -165.0
 2.200  0.7965  128.9   0.641   25.4  0.2651   57.5  0.2169 -167.5
 2.300  0.7966  126.7   0.620   24.2  0.2765   56.1  0.2264 -170.0
 2.400  0.7978  124.6   0.599   22.9  0.2881   54.9  0.2363 -172.3
 2.500  0.7976  122.5   0.581   21.9  0.2990   53.5  0.2447 -174.5
 2.600  0.7985  120.4   0.563   20.9  0.3100   52.2  0.2535 -176.6
 2.700  0.7979  118.4   0.549   20.3  0.3205   50.8  0.2609 -178.7
 2.800  0.7984  116.3   0.535   19.6  0.3311   49.4  0.2686  179.3
 2.900  0.7979  114.3   0.524   19.0  0.3410   47.9  0.2747  177.1
 3.000  0.7984  112.2   0.513   18.3  0.3511   46.5  0.2812  175.0
 3.100  0.7953  110.3   0.507   18.0  0.3597   45.0  0.2849  172.7
 3.200  0.7932  108.3   0.501   17.6  0.3686   43.6  0.2890  170.4
 3.300  0.7920  106.3   0.495   17.2  0.3776   42.3  0.2935  168.3
 3.400  0.7917  104.4   0.489   16.9  0.3869   41.0  0.2985  166.1
 3.500  0.7924  102.4   0.483   16.5  0.3963   39.8  0.3038  164.1
 3.600  0.7896  100.7   0.481   16.2  0.4036   38.3  0.3068  161.6
 3.700  0.7876   98.9   0.479   15.9  0.4112   36.9  0.3103  159.2
 3.800  0.7863   97.2   0.478   15.7  0.4190   35.6  0.3144  156.9
 3.900  0.7857   95.4   0.476   15.4  0.4270   34.3  0.3189  154.6
 4.000  0.7858   93.7   0.474   15.1  0.4353   33.0  0.3240  152.4
 4.100  0.7818   92.2   0.475   14.7  0.4410   31.6  0.3281  150.0
 4.200  0.7784   90.8   0.475   14.3  0.4470   30.3  0.3328  147.7
 4.300  0.7754   89.3   0.476   13.8  0.4532   29.0  0.3380  145.4
 4.400  0.7730   87.8   0.476   13.4  0.4596   27.7  0.3438  143.2
 4.500  0.7711   86.3   0.477   13.0  0.4663   26.5  0.3500  141.1
 4.600  0.7698   85.1   0.478   12.6  0.4708   25.3  0.3551  139.2
 4.700  0.7689   83.9   0.480   12.2  0.4756   24.1  0.3606  137.4
 4.800  0.7683   82.6   0.481   11.9  0.4805   22.9  0.3665  135.7
 4.900  0.7681   81.4   0.483   11.5  0.4857   21.8  0.3727  133.9
 5.000  0.7682   80.2   0.484   11.1  0.4910   20.7  0.3792  132.3
 5.100  0.7648   79.0   0.487   10.5  0.4947   19.5  0.3839  131.1
 5.200  0.7616   77.8   0.491   10.0  0.4985   18.4  0.3888  129.8
 5.300  0.7589   76.6   0.494    9.4  0.5026   17.3  0.3939  128.7
 5.400  0.7564   75.4   0.498    8.8  0.5069   16.2  0.3991  127.5
 5.500  0.7543   74.2   0.501    8.3  0.5113   15.1  0.4045  126.4
 5.600  0.7513   73.3   0.503    7.7  0.5141   14.1  0.4059  125.4
 5.700  0.7486   72.3   0.506    7.1  0.5171   13.1  0.4074  124.5
 5.800  0.7460   71.3   0.509    6.5  0.5202   12.1  0.4091  123.5
 5.900  0.7437   70.4   0.511    6.0  0.5235   11.1  0.4108  122.5
 6.000  0.7416   69.4   0.514    5.4  0.5269   10.1  0.4127  121.6
!
!  f       NFmin   Gammaopt  rn/50
! GHz       dB    MAG  ANG    -
!
! noise parameter not available yet for this operation point!
!
! (c) 2017  Infineon Technologies AG, Munich