! Infineon Technologies  Discrete & RF Semiconductors
! BFR182W
! VCE =  3.0 V,  IC =  2.0 mA
! Common Emitter S-Parameters:                            Jan 2017
# GHz  S  MA  R  50
!  f         S11            S21            S12            S22
! GHz     MAG   ANG      MAG   ANG      MAG   ANG      MAG   ANG
 0.010  0.9280   -1.8   6.857  178.9  0.0021   81.6  1.0000   -0.7
 0.020  0.9426   -3.4   6.935  177.9  0.0046   93.2  1.0000   -1.7
 0.030  0.9308   -4.9   6.908  176.6  0.0070   88.8  1.0000   -2.4
 0.040  0.9196   -6.4   6.884  175.4  0.0094   86.6  0.9989   -3.1
 0.050  0.9091   -7.9   6.863  174.1  0.0118   85.3  0.9956   -3.8
 0.060  0.9093   -9.5   6.840  172.9  0.0142   83.8  0.9932   -4.5
 0.070  0.9103  -11.2   6.819  171.7  0.0166   82.7  0.9910   -5.3
 0.080  0.9120  -12.8   6.802  170.5  0.0190   81.8  0.9889   -6.0
 0.090  0.9144  -14.4   6.787  169.3  0.0215   81.2  0.9870   -6.8
 0.100  0.9175  -16.0   6.776  168.1  0.0239   80.7  0.9853   -7.5
 0.110  0.9128  -17.5   6.744  166.9  0.0262   79.5  0.9820   -8.2
 0.120  0.9088  -19.0   6.716  165.7  0.0285   78.6  0.9789   -8.9
 0.130  0.9054  -20.6   6.690  164.5  0.0308   77.7  0.9760   -9.6
 0.140  0.9027  -22.1   6.667  163.2  0.0332   77.0  0.9731  -10.4
 0.150  0.9006  -23.7   6.648  162.0  0.0355   76.4  0.9705  -11.1
 0.200  0.8792  -31.5   6.489  156.0  0.0448   72.8  0.9508  -14.4
 0.250  0.8589  -39.0   6.336  150.2  0.0552   68.0  0.9273  -17.5
 0.300  0.8274  -46.1   6.102  145.0  0.0630   64.4  0.8991  -20.3
 0.350  0.7955  -52.4   5.867  140.3  0.0701   60.9  0.8713  -22.7
 0.400  0.7741  -59.2   5.674  135.3  0.0774   58.1  0.8450  -25.2
 0.450  0.7417  -65.1   5.422  131.3  0.0830   55.4  0.8174  -27.0
 0.500  0.7177  -71.4   5.200  126.9  0.0887   53.0  0.7906  -29.0
 0.600  0.6675  -82.5   4.777  119.3  0.0977   48.8  0.7417  -32.0
 0.700  0.6211  -92.7   4.372  112.6  0.1027   45.7  0.6993  -34.3
 0.800  0.5857 -102.0   4.036  106.7  0.1082   43.7  0.6624  -36.3
 0.900  0.5532 -110.8   3.720  101.3  0.1119   41.5  0.6316  -37.9
 1.000  0.5284 -118.9   3.453   96.6  0.1139   40.9  0.6048  -39.3
 1.100  0.5082 -126.6   3.218   92.3  0.1168   40.0  0.5830  -40.5
 1.200  0.4911 -133.8   3.006   88.1  0.1185   39.3  0.5631  -41.7
 1.300  0.4773 -140.4   2.822   84.2  0.1200   39.6  0.5474  -42.9
 1.400  0.4693 -146.6   2.662   80.7  0.1220   40.0  0.5326  -44.2
 1.500  0.4643 -152.8   2.520   77.4  0.1239   40.5  0.5205  -45.5
 1.600  0.4577 -158.4   2.385   74.0  0.1255   41.2  0.5113  -46.7
 1.700  0.4535 -163.7   2.275   71.1  0.1274   42.4  0.5007  -48.2
 1.800  0.4516 -169.0   2.179   68.1  0.1303   43.4  0.4924  -49.5
 1.900  0.4522 -173.8   2.085   65.5  0.1326   44.6  0.4853  -51.0
 2.000  0.4518 -178.4   2.001   62.4  0.1357   45.7  0.4798  -52.6
 2.100  0.4520  177.2   1.925   59.9  0.1394   46.9  0.4753  -54.3
 2.200  0.4548  172.9   1.852   57.2  0.1431   48.1  0.4712  -56.0
 2.300  0.4574  169.1   1.786   54.7  0.1475   49.4  0.4681  -57.9
 2.400  0.4621  165.3   1.724   52.1  0.1519   50.7  0.4655  -59.8
 2.500  0.4651  161.8   1.665   49.9  0.1571   51.7  0.4635  -61.6
 2.600  0.4698  158.3   1.609   47.5  0.1624   52.7  0.4620  -63.5
 2.700  0.4732  155.0   1.561   45.4  0.1684   53.7  0.4615  -65.4
 2.800  0.4782  151.8   1.516   43.2  0.1745   54.6  0.4616  -67.3
 2.900  0.4821  148.7   1.475   41.1  0.1815   55.2  0.4607  -69.1
 3.000  0.4875  145.6   1.437   38.8  0.1885   55.7  0.4602  -70.9
 3.100  0.4898  142.7   1.400   37.1  0.1970   56.1  0.4591  -72.9
 3.200  0.4933  139.9   1.363   35.4  0.2056   56.5  0.4586  -74.9
 3.300  0.4980  137.1   1.328   33.6  0.2142   56.8  0.4587  -77.0
 3.400  0.5038  134.4   1.295   31.6  0.2227   57.1  0.4594  -79.0
 3.500  0.5108  131.7   1.263   29.6  0.2313   57.4  0.4606  -81.0
 3.600  0.5149  129.2   1.236   28.1  0.2413   57.1  0.4581  -83.2
 3.700  0.5199  126.7   1.209   26.5  0.2513   56.8  0.4562  -85.4
 3.800  0.5259  124.3   1.184   24.9  0.2613   56.5  0.4550  -87.6
 3.900  0.5328  122.0   1.159   23.2  0.2713   56.2  0.4545  -89.8
 4.000  0.5405  119.7   1.136   21.4  0.2813   56.0  0.4547  -92.0
 4.100  0.5442  117.6   1.114   20.0  0.2922   55.2  0.4503  -94.6
 4.200  0.5487  115.5   1.093   18.6  0.3031   54.4  0.4469  -97.3
 4.300  0.5538  113.5   1.072   17.1  0.3141   53.8  0.4444 -100.0
 4.400  0.5596  111.5   1.052   15.6  0.3251   53.1  0.4430 -102.8
 4.500  0.5661  109.6   1.033   14.0  0.3362   52.5  0.4426 -105.5
 4.600  0.5713  107.7   1.014   12.9  0.3472   51.5  0.4392 -108.6
 4.700  0.5772  105.8   0.995   11.7  0.3583   50.5  0.4370 -111.7
 4.800  0.5837  104.0   0.976   10.5  0.3695   49.6  0.4361 -114.8
 4.900  0.5908  102.2   0.958    9.3  0.3808   48.8  0.4365 -117.9
 5.000  0.5984  100.4   0.940    8.0  0.3922   48.0  0.4382 -121.0
 5.100  0.6008   98.7   0.926    7.1  0.4029   46.7  0.4385 -124.2
 5.200  0.6036   97.1   0.913    6.1  0.4138   45.5  0.4401 -127.4
 5.300  0.6070   95.5   0.900    5.1  0.4248   44.4  0.4430 -130.5
 5.400  0.6108   93.9   0.887    4.1  0.4360   43.3  0.4473 -133.6
 5.500  0.6151   92.3   0.874    3.1  0.4474   42.3  0.4528 -136.6
 5.600  0.6163   90.9   0.862    2.4  0.4570   41.0  0.4542 -139.4
 5.700  0.6179   89.6   0.850    1.6  0.4669   39.7  0.4568 -142.2
 5.800  0.6199   88.2   0.838    0.8  0.4770   38.5  0.4604 -145.0
 5.900  0.6222   86.8   0.826    0.0  0.4872   37.4  0.4650 -147.7
 6.000  0.6248   85.5   0.814   -0.8  0.4977   36.3  0.4707 -150.3
!
!  f       NFmin   Gammaopt  rn/50
! GHz       dB    MAG  ANG    -
 0.450      0.85  0.50   30   0.26
 0.900      0.99  0.40   58   0.24
 1.900      1.74  0.30  142   0.14
 2.400      2.11  0.26  164   0.19
!
! (c) 2017  Infineon Technologies AG, Munich