! Infineon Technologies  Discrete & RF Semiconductors
! BFR182W
! VCE =  2.0 V,  IC =  23 mA
! Common Emitter S-Parameters:                            Jan 2017
# GHz  S  MA  R  50
!  f         S11            S21            S12            S22
! GHz     MAG   ANG      MAG   ANG      MAG   ANG      MAG   ANG
 0.010  0.5036   -9.6  38.803  174.5  0.0020   83.1  0.9612   -3.4
 0.020  0.5103  -18.8  39.007  169.4  0.0038   83.4  0.9510   -7.2
 0.030  0.4882  -27.1  37.558  164.8  0.0059   77.0  0.9264  -10.3
 0.040  0.4773  -36.0  36.371  159.8  0.0080   74.0  0.9047  -13.6
 0.050  0.4782  -45.1  35.472  154.6  0.0102   72.3  0.8860  -17.0
 0.060  0.4600  -51.5  33.860  151.5  0.0117   71.1  0.8549  -18.8
 0.070  0.4479  -58.2  32.359  148.1  0.0133   70.3  0.8248  -20.8
 0.080  0.4423  -65.3  30.982  144.3  0.0148   69.5  0.7958  -23.0
 0.090  0.4436  -72.4  29.749  140.3  0.0164   69.0  0.7679  -25.2
 0.100  0.4516  -79.4  28.678  135.9  0.0179   68.5  0.7414  -27.7
 0.110  0.4403  -84.0  27.426  133.8  0.0188   67.1  0.7168  -28.5
 0.120  0.4320  -88.8  26.214  131.6  0.0197   65.8  0.6925  -29.5
 0.130  0.4268  -93.7  25.046  129.1  0.0206   64.6  0.6683  -30.4
 0.140  0.4249  -98.8  23.930  126.4  0.0216   63.6  0.6443  -31.5
 0.150  0.4262 -103.8  22.873  123.4  0.0225   62.6  0.6205  -32.6
 0.200  0.4132 -120.1  18.616  115.0  0.0259   62.8  0.5385  -34.1
 0.250  0.4081 -132.6  15.600  108.7  0.0294   61.5  0.4821  -34.1
 0.300  0.4023 -141.6  13.316  104.2  0.0326   62.5  0.4410  -33.6
 0.350  0.3976 -147.9  11.799  101.3  0.0364   64.4  0.4171  -32.8
 0.400  0.3978 -154.2  10.322   97.5  0.0402   66.0  0.3932  -32.0
 0.450  0.3967 -158.8   9.340   95.3  0.0436   66.6  0.3794  -31.4
 0.500  0.3981 -163.4   8.374   92.6  0.0471   67.2  0.3656  -30.8
 0.600  0.3989 -170.1   7.061   88.5  0.0545   68.1  0.3481  -30.0
 0.700  0.4012 -175.7   6.090   85.1  0.0618   69.4  0.3365  -29.5
 0.800  0.4056  179.4   5.362   81.8  0.0705   70.5  0.3284  -29.7
 0.900  0.4048  175.1   4.779   78.9  0.0775   70.7  0.3215  -30.1
 1.000  0.4116  171.3   4.334   76.2  0.0853   71.0  0.3151  -30.7
 1.100  0.4147  167.8   3.958   73.7  0.0936   71.2  0.3114  -31.6
 1.200  0.4180  164.3   3.643   71.1  0.1012   70.6  0.3067  -32.7
 1.300  0.4208  161.3   3.376   68.7  0.1094   70.7  0.3030  -33.9
 1.400  0.4248  158.5   3.155   66.4  0.1178   70.4  0.2986  -35.4
 1.500  0.4309  155.8   2.955   64.1  0.1260   70.2  0.2953  -37.0
 1.600  0.4350  153.2   2.786   61.9  0.1345   69.9  0.2928  -38.7
 1.700  0.4379  150.5   2.635   59.7  0.1428   69.6  0.2892  -40.7
 1.800  0.4426  148.1   2.509   57.5  0.1512   68.7  0.2859  -42.6
 1.900  0.4499  145.8   2.389   55.6  0.1596   68.4  0.2832  -44.8
 2.000  0.4514  143.4   2.277   53.4  0.1684   67.8  0.2812  -47.2
 2.100  0.4567  141.2   2.183   51.4  0.1768   67.1  0.2789  -49.7
 2.200  0.4626  139.0   2.092   49.3  0.1853   66.4  0.2772  -52.2
 2.300  0.4675  137.0   2.015   47.4  0.1940   65.7  0.2756  -54.8
 2.400  0.4730  135.0   1.940   45.4  0.2028   65.0  0.2746  -57.4
 2.500  0.4774  133.0   1.873   43.7  0.2112   64.2  0.2741  -60.0
 2.600  0.4824  131.0   1.807   41.8  0.2197   63.5  0.2742  -62.6
 2.700  0.4866  129.1   1.751   40.1  0.2284   62.7  0.2743  -65.2
 2.800  0.4914  127.2   1.697   38.2  0.2372   62.0  0.2750  -67.8
 2.900  0.4968  125.3   1.648   36.5  0.2461   61.1  0.2749  -70.3
 3.000  0.5027  123.4   1.600   34.7  0.2550   60.3  0.2753  -72.8
 3.100  0.5056  121.5   1.559   33.2  0.2637   59.3  0.2744  -75.2
 3.200  0.5089  119.6   1.520   31.7  0.2725   58.5  0.2740  -77.7
 3.300  0.5129  117.8   1.481   30.0  0.2813   57.6  0.2741  -80.1
 3.400  0.5173  116.0   1.444   28.3  0.2902   56.8  0.2747  -82.6
 3.500  0.5223  114.2   1.408   26.5  0.2992   56.1  0.2758  -85.0
 3.600  0.5264  112.6   1.378   25.2  0.3081   55.0  0.2732  -87.5
 3.700  0.5309  111.0   1.349   23.8  0.3171   54.0  0.2711  -90.0
 3.800  0.5358  109.4   1.321   22.3  0.3262   53.0  0.2695  -92.6
 3.900  0.5412  107.8   1.294   20.8  0.3353   52.1  0.2685  -95.2
 4.000  0.5469  106.3   1.268   19.2  0.3446   51.2  0.2680  -97.8
 4.100  0.5504  104.8   1.244   17.9  0.3531   50.0  0.2644 -100.9
 4.200  0.5543  103.4   1.221   16.6  0.3617   48.9  0.2617 -104.0
 4.300  0.5585  101.9   1.198   15.2  0.3705   47.9  0.2597 -107.2
 4.400  0.5631  100.5   1.176   13.7  0.3794   46.9  0.2585 -110.4
 4.500  0.5680   99.1   1.155   12.2  0.3884   45.9  0.2582 -113.7
 4.600  0.5736   97.7   1.134   11.1  0.3967   44.8  0.2566 -117.4
 4.700  0.5795   96.3   1.114    9.9  0.4051   43.7  0.2560 -121.1
 4.800  0.5857   95.0   1.095    8.7  0.4137   42.7  0.2565 -124.9
 4.900  0.5923   93.7   1.076    7.5  0.4224   41.7  0.2581 -128.6
 5.000  0.5991   92.4   1.057    6.2  0.4312   40.7  0.2608 -132.2
 5.100  0.6011   91.1   1.042    5.2  0.4391   39.5  0.2636 -135.8
 5.200  0.6035   89.9   1.027    4.2  0.4472   38.3  0.2674 -139.3
 5.300  0.6061   88.6   1.013    3.1  0.4554   37.2  0.2722 -142.8
 5.400  0.6090   87.4   0.999    2.0  0.4638   36.1  0.2779 -146.1
 5.500  0.6122   86.2   0.985    0.9  0.4724   35.1  0.2845 -149.2
 5.600  0.6139   85.1   0.971    0.0  0.4794   34.0  0.2884 -152.0
 5.700  0.6159   83.9   0.957   -0.9  0.4867   32.8  0.2930 -154.8
 5.800  0.6181   82.8   0.944   -1.8  0.4941   31.8  0.2983 -157.5
 5.900  0.6205   81.7   0.931   -2.7  0.5017   30.7  0.3041 -160.0
 6.000  0.6232   80.6   0.918   -3.7  0.5094   29.7  0.3106 -162.5
!
!  f       NFmin   Gammaopt  rn/50
! GHz       dB    MAG  ANG    -
 0.450      1.50  0.14 -170   0.15
 0.900      1.58  0.16 -165   0.16
 1.900      2.10  0.31 -139   0.17
 2.400      2.38  0.32 -127   0.27
!
! (c) 2017  Infineon Technologies AG, Munich