! Infineon Technologies  Discrete & RF Semiconductors
! BFR182W
! VCE =  5.0 V,  IC =  22 mA
! Common Emitter S-Parameters:                            Jan 2017
# GHz  S  MA  R  50
!  f         S11            S21            S12            S22
! GHz     MAG   ANG      MAG   ANG      MAG   ANG      MAG   ANG
 0.010  0.5671   -6.3  38.336  175.2  0.0018   72.8  0.9836   -2.6
 0.020  0.5738  -12.4  38.263  171.4  0.0036   83.7  0.9730   -5.7
 0.030  0.5550  -18.1  37.349  167.5  0.0055   81.4  0.9577   -8.3
 0.040  0.5421  -24.1  36.614  163.5  0.0074   80.3  0.9445  -11.0
 0.050  0.5354  -30.4  36.068  159.3  0.0093   79.6  0.9333  -13.7
 0.060  0.5175  -35.1  34.842  156.4  0.0107   77.2  0.9086  -15.5
 0.070  0.5033  -40.2  33.713  153.2  0.0120   75.4  0.8849  -17.4
 0.080  0.4933  -45.4  32.692  149.9  0.0134   73.9  0.8622  -19.4
 0.090  0.4875  -50.9  31.790  146.3  0.0148   72.7  0.8406  -21.6
 0.100  0.4863  -56.4  31.016  142.6  0.0162   71.7  0.8203  -23.8
 0.110  0.4705  -60.1  29.896  140.5  0.0172   70.7  0.7976  -24.9
 0.120  0.4568  -64.0  28.821  138.2  0.0182   69.8  0.7752  -26.0
 0.130  0.4454  -68.2  27.794  135.8  0.0192   69.0  0.7530  -27.2
 0.140  0.4364  -72.5  26.822  133.1  0.0202   68.3  0.7313  -28.5
 0.150  0.4300  -77.0  25.911  130.3  0.0212   67.6  0.7099  -29.8
 0.200  0.3875  -93.3  21.741  121.4  0.0250   65.8  0.6240  -32.6
 0.250  0.3603 -106.5  18.565  114.6  0.0291   64.1  0.5589  -33.7
 0.300  0.3383 -117.0  16.036  109.7  0.0326   64.5  0.5098  -34.0
 0.350  0.3229 -124.7  14.287  106.4  0.0360   65.5  0.4788  -33.7
 0.400  0.3139 -133.1  12.597  102.3  0.0394   66.3  0.4478  -33.3
 0.450  0.3060 -139.0  11.441   99.9  0.0427   66.9  0.4288  -32.8
 0.500  0.3015 -145.1  10.309   97.0  0.0461   67.5  0.4098  -32.2
 0.600  0.2962 -154.8   8.732   92.7  0.0539   68.3  0.3859  -31.3
 0.700  0.2931 -162.0   7.550   89.1  0.0605   70.2  0.3695  -30.6
 0.800  0.2938 -169.0   6.660   85.8  0.0687   70.6  0.3572  -30.5
 0.900  0.2947 -174.9   5.940   82.9  0.0761   70.3  0.3480  -30.6
 1.000  0.2973 -179.7   5.390   80.2  0.0830   70.6  0.3400  -30.8
 1.100  0.2989  175.9   4.925   77.8  0.0915   70.7  0.3350  -31.3
 1.200  0.3017  171.6   4.532   75.2  0.0987   70.6  0.3295  -31.8
 1.300  0.3047  167.9   4.200   72.9  0.1060   70.5  0.3247  -32.7
 1.400  0.3087  164.6   3.925   70.7  0.1148   70.0  0.3195  -33.8
 1.500  0.3146  161.4   3.675   68.6  0.1221   69.9  0.3157  -35.0
 1.600  0.3167  158.2   3.462   66.3  0.1304   69.2  0.3127  -36.4
 1.700  0.3206  155.2   3.274   64.4  0.1380   69.1  0.3090  -37.9
 1.800  0.3275  152.5   3.115   62.3  0.1459   68.3  0.3052  -39.5
 1.900  0.3309  150.1   2.966   60.5  0.1538   68.0  0.3025  -41.1
 2.000  0.3353  147.6   2.829   58.4  0.1619   67.4  0.2994  -43.1
 2.100  0.3407  145.1   2.711   56.5  0.1699   66.7  0.2969  -45.1
 2.200  0.3468  142.6   2.596   54.5  0.1779   66.1  0.2947  -47.2
 2.300  0.3521  140.5   2.501   52.7  0.1862   65.4  0.2928  -49.4
 2.400  0.3579  138.5   2.408   50.8  0.1946   64.8  0.2914  -51.7
 2.500  0.3622  136.4   2.324   49.1  0.2023   64.1  0.2904  -53.8
 2.600  0.3669  134.4   2.242   47.2  0.2100   63.5  0.2898  -56.0
 2.700  0.3719  132.5   2.173   45.6  0.2184   62.7  0.2893  -58.2
 2.800  0.3772  130.7   2.106   43.8  0.2268   62.0  0.2892  -60.5
 2.900  0.3818  128.7   2.045   42.1  0.2348   61.2  0.2886  -62.6
 3.000  0.3869  126.8   1.986   40.3  0.2428   60.4  0.2884  -64.8
 3.100  0.3909  124.9   1.936   38.9  0.2510   59.5  0.2871  -66.8
 3.200  0.3954  123.0   1.887   37.3  0.2592   58.7  0.2862  -68.9
 3.300  0.4003  121.2   1.839   35.7  0.2675   57.9  0.2857  -71.0
 3.400  0.4056  119.4   1.793   34.1  0.2758   57.2  0.2856  -73.0
 3.500  0.4112  117.7   1.748   32.3  0.2842   56.5  0.2858  -75.1
 3.600  0.4162  116.1   1.711   30.9  0.2925   55.5  0.2829  -77.2
 3.700  0.4216  114.5   1.676   29.5  0.3009   54.5  0.2804  -79.3
 3.800  0.4272  113.0   1.641   28.0  0.3094   53.7  0.2784  -81.5
 3.900  0.4332  111.5   1.608   26.5  0.3179   52.8  0.2767  -83.7
 4.000  0.4394  110.1   1.576   24.9  0.3265   52.0  0.2754  -85.9
 4.100  0.4445  108.7   1.547   23.5  0.3345   50.9  0.2712  -88.5
 4.200  0.4499  107.4   1.519   22.1  0.3427   49.9  0.2676  -91.1
 4.300  0.4556  106.1   1.491   20.6  0.3509   49.0  0.2646  -93.8
 4.400  0.4614  104.8   1.465   19.1  0.3593   48.1  0.2622  -96.6
 4.500  0.4675  103.6   1.440   17.5  0.3677   47.2  0.2604  -99.4
 4.600  0.4744  102.2   1.415   16.3  0.3757   46.2  0.2572 -102.7
 4.700  0.4816  100.8   1.390   15.0  0.3838   45.2  0.2548 -106.1
 4.800  0.4890   99.5   1.366   13.7  0.3920   44.2  0.2534 -109.5
 4.900  0.4967   98.2   1.343   12.4  0.4004   43.3  0.2528 -112.9
 5.000  0.5046   97.0   1.320   11.0  0.4088   42.4  0.2532 -116.4
 5.100  0.5083   95.8   1.301    9.8  0.4165   41.3  0.2544 -119.9
 5.200  0.5123   94.5   1.283    8.7  0.4243   40.2  0.2565 -123.4
 5.300  0.5165   93.3   1.265    7.4  0.4323   39.2  0.2595 -126.8
 5.400  0.5209   92.2   1.248    6.2  0.4405   38.2  0.2635 -130.2
 5.500  0.5255   91.0   1.232    4.9  0.4487   37.3  0.2683 -133.4
 5.600  0.5287   90.0   1.215    3.9  0.4559   36.2  0.2711 -136.4
 5.700  0.5321   88.9   1.197    2.8  0.4633   35.2  0.2747 -139.2
 5.800  0.5357   87.9   1.181    1.7  0.4708   34.2  0.2789 -142.1
 5.900  0.5394   86.9   1.165    0.6  0.4784   33.2  0.2838 -144.8
 6.000  0.5433   85.9   1.149   -0.6  0.4862   32.3  0.2893 -147.4
!
!  f       NFmin   Gammaopt  rn/50
! GHz       dB    MAG  ANG    -
 0.450      1.47  0.13 -172   0.15
 0.900      1.55  0.14 -167   0.15
 1.900      2.06  0.29 -141   0.17
 2.400      2.34  0.31 -127   0.27
!
! (c) 2017  Infineon Technologies AG, Munich