! Infineon Technologies  Discrete & RF Semiconductors
! BFR182W
! VCE =  9.0 V,  IC =  10 mA
! Common Emitter S-Parameters:                            Jan 2017
# GHz  S  MA  R  50
!  f         S11            S21            S12            S22
! GHz     MAG   ANG      MAG   ANG      MAG   ANG      MAG   ANG
 0.010  0.7409   -3.6  25.537  176.4  0.0014   87.8  0.9942   -1.8
 0.020  0.7532   -7.4  25.687  174.0  0.0037   91.4  0.9856   -3.8
 0.030  0.7369  -10.9  25.310  171.3  0.0056   84.6  0.9790   -5.6
 0.040  0.7234  -14.6  24.989  168.6  0.0076   81.2  0.9734   -7.4
 0.050  0.7131  -18.4  24.726  165.8  0.0096   79.3  0.9688   -9.3
 0.060  0.7016  -21.7  24.277  163.4  0.0113   77.4  0.9551  -10.8
 0.070  0.6925  -25.2  23.872  161.0  0.0131   76.1  0.9420  -12.3
 0.080  0.6859  -28.7  23.513  158.4  0.0148   75.0  0.9296  -13.9
 0.090  0.6820  -32.2  23.201  155.8  0.0166   74.2  0.9180  -15.5
 0.100  0.6807  -35.8  22.939  153.1  0.0183   73.5  0.9071  -17.2
 0.110  0.6644  -38.6  22.429  151.1  0.0196   72.3  0.8915  -18.4
 0.120  0.6498  -41.4  21.948  149.0  0.0210   71.2  0.8763  -19.6
 0.130  0.6368  -44.4  21.497  146.8  0.0223   70.2  0.8614  -20.8
 0.140  0.6257  -47.6  21.079  144.6  0.0236   69.4  0.8470  -22.1
 0.150  0.6165  -50.8  20.695  142.2  0.0250   68.6  0.8330  -23.4
 0.200  0.5598  -64.1  18.463  133.3  0.0297   65.6  0.7601  -27.6
 0.250  0.5109  -75.6  16.473  125.8  0.0345   62.2  0.6957  -30.4
 0.300  0.4640  -85.6  14.674  120.0  0.0377   60.7  0.6391  -32.3
 0.350  0.4282  -93.2  13.297  116.0  0.0413   60.6  0.5991  -33.0
 0.400  0.4010 -101.9  12.002  111.0  0.0450   60.5  0.5593  -33.8
 0.450  0.3769 -108.3  10.989  108.0  0.0480   60.2  0.5320  -34.0
 0.500  0.3581 -115.4  10.013  104.4  0.0511   60.0  0.5047  -34.2
 0.600  0.3300 -126.6   8.587   99.1  0.0573   61.1  0.4667  -34.1
 0.700  0.3122 -136.6   7.482   94.7  0.0628   62.2  0.4402  -33.9
 0.800  0.3022 -145.2   6.640   90.8  0.0698   63.8  0.4207  -33.7
 0.900  0.2937 -152.9   5.946   87.4  0.0756   63.7  0.4061  -33.7
 1.000  0.2885 -160.1   5.410   84.3  0.0824   64.5  0.3936  -33.8
 1.100  0.2862 -166.3   4.951   81.6  0.0891   65.0  0.3849  -34.2
 1.200  0.2855 -172.0   4.565   78.8  0.0956   65.4  0.3764  -34.5
 1.300  0.2846 -177.2   4.234   76.2  0.1023   65.7  0.3698  -35.3
 1.400  0.2870  178.5   3.960   73.7  0.1093   65.9  0.3629  -36.1
 1.500  0.2917  174.1   3.711   71.5  0.1163   65.9  0.3580  -37.1
 1.600  0.2940  169.8   3.497   69.1  0.1234   65.8  0.3543  -38.1
 1.700  0.2955  166.0   3.309   67.1  0.1305   66.0  0.3490  -39.5
 1.800  0.3006  162.3   3.151   64.8  0.1382   65.6  0.3450  -40.8
 1.900  0.3048  159.4   3.004   62.9  0.1456   65.4  0.3416  -42.2
 2.000  0.3085  156.4   2.865   60.7  0.1530   65.2  0.3386  -43.9
 2.100  0.3130  153.2   2.748   58.8  0.1604   64.8  0.3357  -45.7
 2.200  0.3185  150.1   2.634   56.7  0.1678   64.4  0.3331  -47.5
 2.300  0.3240  147.7   2.537   54.8  0.1754   64.0  0.3310  -49.4
 2.400  0.3300  145.4   2.442   52.8  0.1831   63.6  0.3293  -51.4
 2.500  0.3345  142.8   2.356   51.1  0.1906   63.1  0.3280  -53.3
 2.600  0.3397  140.3   2.273   49.2  0.1982   62.6  0.3271  -55.3
 2.700  0.3448  138.1   2.202   47.5  0.2059   62.1  0.3268  -57.2
 2.800  0.3505  135.9   2.134   45.6  0.2137   61.6  0.3268  -59.2
 2.900  0.3556  133.6   2.074   43.9  0.2216   60.9  0.3257  -61.1
 3.000  0.3613  131.3   2.016   42.1  0.2295   60.3  0.3250  -63.1
 3.100  0.3653  129.3   1.964   40.6  0.2375   59.6  0.3240  -65.0
 3.200  0.3697  127.3   1.914   39.1  0.2456   58.9  0.3233  -66.8
 3.300  0.3745  125.3   1.866   37.4  0.2537   58.3  0.3230  -68.7
 3.400  0.3798  123.4   1.818   35.7  0.2618   57.7  0.3230  -70.6
 3.500  0.3855  121.6   1.773   33.9  0.2700   57.2  0.3234  -72.5
 3.600  0.3908  119.8   1.736   32.5  0.2784   56.3  0.3205  -74.4
 3.700  0.3965  118.1   1.701   31.0  0.2868   55.4  0.3180  -76.4
 3.800  0.4025  116.4   1.666   29.5  0.2953   54.6  0.3159  -78.4
 3.900  0.4088  114.8   1.633   27.9  0.3039   53.8  0.3141  -80.5
 4.000  0.4155  113.2   1.601   26.3  0.3125   53.1  0.3128  -82.5
 4.100  0.4208  111.7   1.572   24.9  0.3207   52.1  0.3085  -84.9
 4.200  0.4265  110.2   1.543   23.5  0.3289   51.2  0.3048  -87.3
 4.300  0.4324  108.8   1.516   22.0  0.3373   50.3  0.3017  -89.8
 4.400  0.4386  107.4   1.489   20.4  0.3457   49.5  0.2991  -92.3
 4.500  0.4450  106.0   1.464   18.8  0.3542   48.7  0.2971  -94.9
 4.600  0.4519  104.6   1.438   17.6  0.3625   47.7  0.2936  -97.9
 4.700  0.4591  103.1   1.413   16.3  0.3709   46.8  0.2909 -101.0
 4.800  0.4665  101.8   1.388   14.9  0.3794   45.9  0.2890 -104.2
 4.900  0.4742  100.5   1.365   13.5  0.3879   45.1  0.2881 -107.3
 5.000  0.4821   99.2   1.342   12.1  0.3966   44.3  0.2880 -110.5
 5.100  0.4864   97.9   1.323   10.9  0.4047   43.2  0.2885 -113.8
 5.200  0.4909   96.7   1.304    9.7  0.4130   42.1  0.2899 -117.2
 5.300  0.4957   95.5   1.286    8.5  0.4213   41.1  0.2924 -120.5
 5.400  0.5007   94.3   1.269    7.2  0.4299   40.1  0.2957 -123.7
 5.500  0.5059   93.1   1.252    5.9  0.4385   39.2  0.3000 -126.8
 5.600  0.5095   92.0   1.234    4.9  0.4463   38.1  0.3023 -129.7
 5.700  0.5132   90.9   1.216    3.8  0.4542   37.1  0.3053 -132.5
 5.800  0.5172   89.8   1.198    2.7  0.4623   36.1  0.3090 -135.3
 5.900  0.5213   88.7   1.181    1.6  0.4705   35.1  0.3135 -138.0
 6.000  0.5256   87.7   1.165    0.4  0.4789   34.2  0.3186 -140.6
!
!  f       NFmin   Gammaopt  rn/50
! GHz       dB    MAG  ANG    -
 0.450      1.07  0.08   50   0.15
 0.900      1.15  0.07   86   0.15
 1.900      1.65  0.19 -164   0.13
 2.400      1.90  0.18 -156   0.20
!
! (c) 2017  Infineon Technologies AG, Munich