! Infineon Technologies  Discrete & RF Semiconductors
! BFR182W
! VCE =  2.0 V,  IC =  40 mA
! Common Emitter S-Parameters:                            Jan 2017
# GHz  S  MA  R  50
!  f         S11            S21            S12            S22
! GHz     MAG   ANG      MAG   ANG      MAG   ANG      MAG   ANG
 0.010  0.3082  -25.7  38.869  171.1  0.0028   76.1  0.8468   -5.4
 0.020  0.3371  -48.7  38.095  162.7  0.0057   76.6  0.8242  -11.4
 0.030  0.3370  -66.4  35.296  156.6  0.0076   69.8  0.7793  -15.2
 0.040  0.3674  -82.6  32.966  149.5  0.0096   65.8  0.7382  -19.3
 0.050  0.4219  -95.5  31.208  141.5  0.0116   63.2  0.7015  -24.0
 0.060  0.4256 -103.6  29.012  138.5  0.0128   61.5  0.6658  -25.2
 0.070  0.4376 -111.4  26.908  135.1  0.0141   60.1  0.6304  -26.6
 0.080  0.4571 -118.6  24.917  131.1  0.0154   58.9  0.5954  -28.1
 0.090  0.4833 -125.2  23.070  126.4  0.0166   57.9  0.5609  -29.9
 0.100  0.5151 -131.0  21.403  120.9  0.0179   57.1  0.5270  -31.8
 0.110  0.5179 -134.5  20.194  119.2  0.0186   56.7  0.5079  -31.9
 0.120  0.5226 -137.9  19.004  117.4  0.0193   56.3  0.4888  -31.9
 0.130  0.5292 -141.3  17.837  115.3  0.0201   55.9  0.4697  -32.0
 0.140  0.5375 -144.5  16.698  112.9  0.0208   55.5  0.4506  -32.0
 0.150  0.5475 -147.7  15.592  110.1  0.0215   55.2  0.4315  -32.1
 0.200  0.5614 -157.3  12.115  103.3  0.0242   58.8  0.3820  -30.6
 0.250  0.5708 -163.8   9.888   98.3  0.0284   59.6  0.3535  -28.8
 0.300  0.5740 -168.5   8.308   94.9  0.0314   62.9  0.3342  -27.4
 0.350  0.5754 -172.0   7.310   92.5  0.0354   64.9  0.3242  -26.6
 0.400  0.5789 -175.4   6.329   89.3  0.0395   66.5  0.3143  -25.7
 0.450  0.5802 -178.1   5.708   87.4  0.0432   67.9  0.3082  -25.5
 0.500  0.5828  179.2   5.094   85.0  0.0470   69.1  0.3021  -25.3
 0.600  0.5873  175.0   4.275   81.2  0.0550   69.7  0.2951  -25.3
 0.700  0.5900  171.5   3.679   77.9  0.0626   71.9  0.2903  -26.1
 0.800  0.5933  168.1   3.239   74.6  0.0716   72.5  0.2859  -27.3
 0.900  0.5942  164.9   2.883   71.6  0.0797   72.6  0.2821  -28.7
 1.000  0.5981  161.9   2.615   68.8  0.0881   72.7  0.2783  -30.2
 1.100  0.6043  159.2   2.390   66.1  0.0971   72.9  0.2758  -32.1
 1.200  0.6062  156.5   2.200   63.3  0.1055   72.6  0.2724  -33.9
 1.300  0.6094  153.8   2.041   60.8  0.1137   72.5  0.2697  -36.1
 1.400  0.6143  151.3   1.910   58.3  0.1235   72.2  0.2653  -38.5
 1.500  0.6177  148.9   1.791   55.9  0.1326   71.7  0.2626  -41.0
 1.600  0.6218  146.5   1.690   53.3  0.1416   71.5  0.2609  -43.5
 1.700  0.6245  144.1   1.602   51.1  0.1504   70.9  0.2569  -46.3
 1.800  0.6300  141.8   1.526   48.7  0.1600   70.2  0.2543  -49.2
 1.900  0.6342  139.6   1.454   46.7  0.1695   69.7  0.2523  -52.3
 2.000  0.6375  137.4   1.387   44.3  0.1788   68.9  0.2504  -55.5
 2.100  0.6406  135.1   1.330   42.3  0.1884   68.1  0.2488  -58.8
 2.200  0.6448  132.8   1.275   40.1  0.1981   67.3  0.2480  -62.2
 2.300  0.6483  130.8   1.229   38.2  0.2078   66.5  0.2472  -65.6
 2.400  0.6526  128.8   1.184   36.2  0.2176   65.7  0.2472  -69.1
 2.500  0.6549  126.8   1.143   34.5  0.2272   64.8  0.2475  -72.4
 2.600  0.6579  124.8   1.103   32.6  0.2369   63.9  0.2486  -75.7
 2.700  0.6608  122.8   1.069   31.0  0.2463   63.0  0.2496  -79.1
 2.800  0.6645  120.9   1.036   29.2  0.2558   62.1  0.2515  -82.4
 2.900  0.6676  118.9   1.007   27.7  0.2656   61.1  0.2522  -85.6
 3.000  0.6715  116.9   0.978   26.1  0.2754   60.1  0.2537  -88.7
 3.100  0.6722  115.0   0.954   24.8  0.2851   58.9  0.2532  -91.7
 3.200  0.6737  113.0   0.930   23.5  0.2949   57.8  0.2533  -94.8
 3.300  0.6759  111.1   0.906   22.1  0.3048   56.8  0.2542  -97.8
 3.400  0.6789  109.2   0.883   20.6  0.3148   55.8  0.2557 -100.8
 3.500  0.6827  107.3   0.861   19.1  0.3249   54.9  0.2580 -103.7
 3.600  0.6842  105.6   0.844   18.1  0.3344   53.6  0.2559 -106.8
 3.700  0.6862  103.9   0.827   17.0  0.3441   52.4  0.2545 -110.0
 3.800  0.6889  102.2   0.810   15.9  0.3539   51.3  0.2539 -113.2
 3.900  0.6922  100.5   0.793   14.8  0.3638   50.2  0.2541 -116.4
 4.000  0.6961   98.8   0.777   13.6  0.3739   49.2  0.2551 -119.6
 4.100  0.6959   97.2   0.764   12.7  0.3825   47.8  0.2527 -123.4
 4.200  0.6962   95.7   0.751   11.8  0.3913   46.5  0.2513 -127.2
 4.300  0.6970   94.1   0.739   10.9  0.4004   45.3  0.2511 -131.0
 4.400  0.6983   92.6   0.726    9.9  0.4095   44.1  0.2520 -134.8
 4.500  0.7002   91.0   0.714    8.9  0.4189   43.0  0.2540 -138.6
 4.600  0.7018   89.6   0.704    8.3  0.4270   41.7  0.2548 -142.6
 4.700  0.7037   88.3   0.694    7.7  0.4352   40.5  0.2568 -146.5
 4.800  0.7061   87.0   0.684    7.1  0.4437   39.3  0.2600 -150.4
 4.900  0.7088   85.6   0.674    6.5  0.4523   38.2  0.2644 -154.2
 5.000  0.7119   84.3   0.664    5.8  0.4611   37.1  0.2699 -157.8
 5.100  0.7108   83.0   0.659    5.3  0.4682   35.8  0.2746 -161.2
 5.200  0.7102   81.7   0.653    4.7  0.4756   34.5  0.2803 -164.4
 5.300  0.7098   80.4   0.648    4.2  0.4832   33.3  0.2868 -167.5
 5.400  0.7099   79.1   0.643    3.7  0.4910   32.1  0.2941 -170.5
 5.500  0.7103   77.8   0.638    3.1  0.4990   30.9  0.3022 -173.3
 5.600  0.7090   76.7   0.633    2.7  0.5050   29.7  0.3066 -175.8
 5.700  0.7079   75.6   0.629    2.3  0.5112   28.5  0.3115 -178.1
 5.800  0.7071   74.6   0.624    1.9  0.5176   27.3  0.3169  179.6
 5.900  0.7066   73.5   0.620    1.5  0.5242   26.2  0.3228  177.3
 6.000  0.7063   72.4   0.615    1.1  0.5310   25.1  0.3292  175.2
!
!  f       NFmin   Gammaopt  rn/50
! GHz       dB    MAG  ANG    -
!
! noise parameter not available yet for this operation point!
!
! (c) 2017  Infineon Technologies AG, Munich