! Infineon Technologies  Discrete & RF Semiconductors
! BFR182W
! VCE =  3.0 V,  IC =  12 mA
! Common Emitter S-Parameters:                            Jan 2017
# GHz  S  MA  R  50
!  f         S11            S21            S12            S22
! GHz     MAG   ANG      MAG   ANG      MAG   ANG      MAG   ANG
 0.010  0.6799   -4.8  28.318  176.5  0.0019   84.8  0.9921   -2.2
 0.020  0.6873   -9.5  28.393  173.4  0.0036   97.4  0.9834   -4.7
 0.030  0.6708  -13.8  27.953  170.3  0.0060   88.5  0.9735   -6.9
 0.040  0.6583  -18.3  27.600  167.0  0.0084   84.6  0.9650   -9.1
 0.050  0.6500  -23.0  27.338  163.7  0.0108   82.5  0.9579  -11.3
 0.060  0.6357  -27.0  26.702  161.1  0.0124   79.8  0.9399  -13.0
 0.070  0.6246  -31.1  26.125  158.3  0.0141   77.7  0.9228  -14.8
 0.080  0.6168  -35.3  25.612  155.4  0.0158   76.0  0.9067  -16.7
 0.090  0.6124  -39.6  25.167  152.4  0.0175   74.7  0.8915  -18.6
 0.100  0.6116  -44.0  24.793  149.3  0.0192   73.6  0.8774  -20.6
 0.110  0.5946  -47.2  24.106  147.2  0.0205   71.7  0.8582  -21.8
 0.120  0.5795  -50.6  23.454  145.0  0.0218   70.1  0.8394  -23.1
 0.130  0.5666  -54.2  22.838  142.7  0.0231   68.7  0.8211  -24.4
 0.140  0.5559  -57.9  22.262  140.2  0.0244   67.4  0.8032  -25.8
 0.150  0.5477  -61.7  21.730  137.6  0.0257   66.2  0.7858  -27.3
 0.200  0.4985  -76.7  18.922  128.4  0.0302   64.3  0.7032  -31.5
 0.250  0.4541  -89.4  16.587  121.1  0.0351   60.6  0.6335  -34.1
 0.300  0.4196 -100.0  14.572  115.6  0.0381   60.0  0.5764  -35.5
 0.350  0.3937 -108.1  13.107  111.8  0.0415   60.3  0.5373  -36.0
 0.400  0.3768 -117.2  11.715  107.0  0.0449   60.5  0.4982  -36.6
 0.450  0.3613 -123.7  10.681  104.2  0.0483   61.0  0.4728  -36.6
 0.500  0.3507 -130.6   9.677  100.9  0.0517   61.5  0.4474  -36.5
 0.600  0.3340 -141.5   8.247   95.9  0.0583   62.7  0.4129  -36.0
 0.700  0.3255 -150.4   7.159   91.8  0.0647   64.0  0.3892  -35.6
 0.800  0.3217 -158.0   6.336   88.1  0.0723   64.8  0.3726  -35.3
 0.900  0.3167 -164.6   5.662   84.8  0.0788   64.9  0.3589  -35.4
 1.000  0.3184 -171.0   5.146   81.9  0.0866   65.8  0.3478  -35.5
 1.100  0.3190 -176.1   4.706   79.2  0.0936   66.2  0.3404  -35.9
 1.200  0.3208  179.3   4.336   76.5  0.1007   66.0  0.3324  -36.4
 1.300  0.3215  174.8   4.018   74.0  0.1080   66.3  0.3262  -37.2
 1.400  0.3249  170.9   3.757   71.6  0.1159   66.3  0.3197  -38.1
 1.500  0.3304  167.4   3.521   69.3  0.1231   66.2  0.3151  -39.3
 1.600  0.3341  163.3   3.318   67.0  0.1309   66.0  0.3115  -40.4
 1.700  0.3354  160.2   3.140   64.9  0.1389   65.9  0.3069  -41.9
 1.800  0.3410  157.0   2.989   62.7  0.1460   65.4  0.3025  -43.5
 1.900  0.3460  154.4   2.848   60.8  0.1542   65.3  0.2992  -45.1
 2.000  0.3488  151.7   2.717   58.6  0.1620   64.8  0.2967  -47.0
 2.100  0.3546  149.0   2.604   56.7  0.1700   64.3  0.2939  -49.0
 2.200  0.3612  146.3   2.495   54.6  0.1781   63.9  0.2914  -51.0
 2.300  0.3661  144.0   2.403   52.7  0.1861   63.3  0.2895  -53.2
 2.400  0.3715  141.8   2.314   50.6  0.1941   62.7  0.2881  -55.4
 2.500  0.3763  139.6   2.234   48.9  0.2019   62.1  0.2870  -57.6
 2.600  0.3816  137.4   2.156   47.0  0.2098   61.5  0.2864  -59.9
 2.700  0.3863  135.2   2.089   45.3  0.2178   60.8  0.2860  -62.0
 2.800  0.3915  133.1   2.024   43.4  0.2258   60.2  0.2860  -64.2
 2.900  0.3966  131.0   1.967   41.7  0.2340   59.5  0.2852  -66.3
 3.000  0.4022  128.9   1.912   39.9  0.2423   58.9  0.2848  -68.5
 3.100  0.4061  126.9   1.863   38.4  0.2505   58.1  0.2838  -70.6
 3.200  0.4105  125.0   1.816   36.9  0.2588   57.3  0.2833  -72.7
 3.300  0.4153  123.1   1.770   35.2  0.2671   56.5  0.2831  -74.8
 3.400  0.4206  121.2   1.726   33.5  0.2754   55.9  0.2832  -76.9
 3.500  0.4263  119.4   1.683   31.7  0.2838   55.2  0.2838  -79.0
 3.600  0.4311  117.7   1.648   30.3  0.2921   54.2  0.2810  -81.1
 3.700  0.4363  116.0   1.614   28.8  0.3005   53.3  0.2786  -83.3
 3.800  0.4419  114.4   1.581   27.3  0.3090   52.5  0.2766  -85.5
 3.900  0.4478  112.8   1.549   25.7  0.3175   51.7  0.2750  -87.7
 4.000  0.4540  111.3   1.518   24.1  0.3261   50.9  0.2738  -90.0
 4.100  0.4591  109.8   1.490   22.7  0.3343   49.9  0.2698  -92.7
 4.200  0.4644  108.4   1.463   21.3  0.3426   48.9  0.2665  -95.4
 4.300  0.4700  107.0   1.436   19.8  0.3510   47.9  0.2637  -98.2
 4.400  0.4759  105.6   1.411   18.3  0.3595   47.1  0.2616 -101.0
 4.500  0.4821  104.3   1.387   16.7  0.3681   46.2  0.2602 -103.9
 4.600  0.4889  102.8   1.362   15.5  0.3762   45.2  0.2576 -107.3
 4.700  0.4960  101.4   1.338   14.2  0.3844   44.2  0.2558 -110.7
 4.800  0.5034  100.0   1.315   12.9  0.3928   43.3  0.2550 -114.2
 4.900  0.5111   98.7   1.292   11.5  0.4012   42.4  0.2551 -117.6
 5.000  0.5190   97.4   1.270   10.1  0.4097   41.6  0.2562 -121.1
 5.100  0.5225   96.1   1.252    8.9  0.4175   40.5  0.2579 -124.6
 5.200  0.5262   94.9   1.234    7.8  0.4254   39.4  0.2606 -128.1
 5.300  0.5301   93.7   1.217    6.5  0.4335   38.4  0.2643 -131.5
 5.400  0.5343   92.5   1.201    5.3  0.4417   37.4  0.2688 -134.8
 5.500  0.5387   91.3   1.185    4.0  0.4500   36.5  0.2742 -138.0
 5.600  0.5419   90.1   1.168    3.0  0.4572   35.4  0.2773 -140.9
 5.700  0.5452   89.0   1.151    2.0  0.4645   34.3  0.2811 -143.7
 5.800  0.5489   87.8   1.135    0.9  0.4720   33.3  0.2856 -146.4
 5.900  0.5527   86.7   1.119   -0.2  0.4796   32.3  0.2906 -149.1
 6.000  0.5567   85.6   1.104   -1.3  0.4874   31.3  0.2963 -151.6
!
!  f       NFmin   Gammaopt  rn/50
! GHz       dB    MAG  ANG    -
 0.450      1.14  0.05   71   0.15
 0.900      1.22  0.06  102   0.15
 1.900      1.71  0.21 -156   0.14
 2.400      1.97  0.20 -143   0.21
!
! (c) 2017  Infineon Technologies AG, Munich