! Infineon Technologies  Discrete & RF Semiconductors
! BFR182W
! VCE =  3.0 V,  IC =  30 mA
! Common Emitter S-Parameters:                            Jan 2017
# GHz  S  MA  R  50
!  f         S11            S21            S12            S22
! GHz     MAG   ANG      MAG   ANG      MAG   ANG      MAG   ANG
 0.010  0.4566  -10.4  41.680  174.1  0.0017   90.8  0.9559   -3.3
 0.020  0.4606  -20.7  41.527  168.8  0.0036   86.7  0.9497   -7.3
 0.030  0.4407  -29.6  39.942  164.0  0.0054   79.6  0.9222  -10.4
 0.040  0.4323  -39.2  38.658  158.9  0.0073   76.1  0.8975  -13.6
 0.050  0.4362  -48.8  37.707  153.4  0.0092   74.0  0.8758  -17.0
 0.060  0.4195  -55.6  35.887  150.3  0.0106   71.5  0.8445  -18.7
 0.070  0.4092  -62.9  34.187  146.8  0.0120   69.6  0.8140  -20.5
 0.080  0.4057  -70.4  32.623  143.0  0.0134   68.1  0.7843  -22.5
 0.090  0.4093  -77.9  31.218  138.8  0.0148   66.9  0.7557  -24.6
 0.100  0.4197  -85.2  29.992  134.3  0.0162   65.9  0.7282  -26.9
 0.110  0.4106  -89.8  28.631  132.3  0.0171   65.1  0.7045  -27.6
 0.120  0.4043  -94.5  27.309  130.1  0.0179   64.3  0.6808  -28.4
 0.130  0.4007  -99.3  26.031  127.6  0.0188   63.6  0.6573  -29.2
 0.140  0.4001 -104.2  24.806  125.0  0.0196   63.0  0.6340  -30.1
 0.150  0.4024 -109.1  23.640  122.0  0.0205   62.4  0.6108  -31.0
 0.200  0.3964 -125.2  19.109  113.7  0.0238   63.1  0.5340  -31.8
 0.250  0.3934 -137.1  15.952  107.7  0.0269   63.8  0.4825  -31.4
 0.300  0.3894 -145.4  13.592  103.4  0.0306   65.1  0.4463  -30.5
 0.350  0.3871 -151.4  12.031  100.5  0.0340   66.6  0.4254  -29.7
 0.400  0.3891 -157.4  10.510   96.8  0.0374   67.8  0.4046  -28.9
 0.450  0.3885 -161.5   9.504   94.7  0.0413   68.6  0.3924  -28.3
 0.500  0.3898 -165.6   8.514   92.1  0.0452   69.2  0.3803  -27.6
 0.600  0.3919 -172.4   7.173   88.2  0.0522   70.7  0.3654  -27.0
 0.700  0.3950 -177.4   6.186   84.8  0.0595   72.0  0.3555  -26.8
 0.800  0.3993  178.0   5.448   81.7  0.0674   72.3  0.3480  -27.1
 0.900  0.3992  173.7   4.852   78.8  0.0746   72.2  0.3420  -27.6
 1.000  0.4042  170.1   4.396   76.2  0.0828   72.7  0.3370  -28.3
 1.100  0.4085  166.5   4.016   73.8  0.0908   72.6  0.3330  -29.3
 1.200  0.4128  163.3   3.696   71.2  0.0982   72.3  0.3291  -30.4
 1.300  0.4145  160.3   3.425   68.8  0.1066   72.2  0.3257  -31.7
 1.400  0.4188  157.5   3.201   66.5  0.1148   72.0  0.3212  -33.2
 1.500  0.4243  154.8   2.997   64.4  0.1225   71.9  0.3180  -34.8
 1.600  0.4295  152.3   2.824   62.1  0.1310   71.4  0.3159  -36.5
 1.700  0.4325  149.8   2.673   60.0  0.1393   71.0  0.3125  -38.4
 1.800  0.4378  147.4   2.543   57.8  0.1473   70.3  0.3093  -40.4
 1.900  0.4426  145.1   2.420   56.0  0.1553   70.0  0.3063  -42.4
 2.000  0.4460  142.9   2.309   53.8  0.1642   69.3  0.3044  -44.7
 2.100  0.4508  140.6   2.214   51.9  0.1726   68.6  0.3022  -47.1
 2.200  0.4564  138.3   2.121   49.8  0.1811   67.9  0.3005  -49.5
 2.300  0.4615  136.3   2.043   47.9  0.1898   67.2  0.2988  -52.0
 2.400  0.4671  134.4   1.967   45.9  0.1986   66.5  0.2977  -54.6
 2.500  0.4711  132.5   1.898   44.1  0.2071   65.7  0.2969  -57.1
 2.600  0.4756  130.6   1.831   42.2  0.2156   65.0  0.2966  -59.6
 2.700  0.4802  128.6   1.774   40.5  0.2244   64.2  0.2965  -62.1
 2.800  0.4854  126.7   1.719   38.7  0.2332   63.5  0.2970  -64.6
 2.900  0.4895  124.7   1.669   37.0  0.2418   62.6  0.2967  -67.1
 3.000  0.4942  122.8   1.620   35.2  0.2505   61.8  0.2970  -69.5
 3.100  0.4976  121.0   1.579   33.8  0.2594   60.8  0.2960  -71.8
 3.200  0.5014  119.1   1.539   32.2  0.2683   60.0  0.2954  -74.2
 3.300  0.5058  117.4   1.500   30.6  0.2773   59.1  0.2953  -76.5
 3.400  0.5106  115.6   1.462   29.0  0.2863   58.3  0.2958  -78.9
 3.500  0.5159  113.9   1.426   27.2  0.2954   57.6  0.2967  -81.2
 3.600  0.5201  112.2   1.396   25.9  0.3043   56.5  0.2938  -83.6
 3.700  0.5247  110.6   1.366   24.5  0.3134   55.4  0.2914  -86.1
 3.800  0.5298  109.0   1.338   23.0  0.3225   54.4  0.2896  -88.6
 3.900  0.5352  107.4   1.310   21.5  0.3318   53.5  0.2884  -91.1
 4.000  0.5411  105.9   1.283   19.9  0.3411   52.6  0.2877  -93.7
 4.100  0.5446  104.4   1.259   18.6  0.3498   51.5  0.2837  -96.6
 4.200  0.5485  103.0   1.235   17.3  0.3587   50.4  0.2805  -99.6
 4.300  0.5527  101.6   1.212   15.9  0.3677   49.3  0.2780 -102.7
 4.400  0.5572  100.2   1.190   14.4  0.3768   48.3  0.2763 -105.8
 4.500  0.5621   98.8   1.169   12.9  0.3860   47.4  0.2755 -108.9
 4.600  0.5674   97.4   1.148   11.8  0.3944   46.2  0.2731 -112.5
 4.700  0.5730   96.1   1.128   10.7  0.4029   45.1  0.2718 -116.1
 4.800  0.5789   94.8   1.108    9.5  0.4116   44.1  0.2716 -119.7
 4.900  0.5851   93.5   1.088    8.3  0.4204   43.1  0.2725 -123.3
 5.000  0.5916   92.2   1.069    7.0  0.4293   42.1  0.2744 -126.9
 5.100  0.5940   90.9   1.054    6.0  0.4372   40.9  0.2765 -130.5
 5.200  0.5968   89.7   1.040    4.9  0.4454   39.7  0.2796 -134.0
 5.300  0.5998   88.4   1.026    3.8  0.4537   38.6  0.2838 -137.4
 5.400  0.6030   87.2   1.012    2.7  0.4622   37.5  0.2889 -140.7
 5.500  0.6066   86.0   0.999    1.6  0.4708   36.5  0.2950 -143.9
 5.600  0.6086   84.9   0.985    0.8  0.4780   35.3  0.2983 -146.8
 5.700  0.6108   83.8   0.971   -0.1  0.4855   34.2  0.3023 -149.6
 5.800  0.6132   82.7   0.957   -1.0  0.4931   33.1  0.3071 -152.4
 5.900  0.6158   81.7   0.943   -1.9  0.5008   32.0  0.3125 -155.0
 6.000  0.6187   80.6   0.930   -2.9  0.5088   31.0  0.3186 -157.6
!
!  f       NFmin   Gammaopt  rn/50
! GHz       dB    MAG  ANG    -
!
! noise parameter not available yet for this operation point!
!
! (c) 2017  Infineon Technologies AG, Munich