! Infineon Technologies  Discrete & RF Semiconductors
! BFR182W
! VCE =  5.0 V,  IC =  12 mA
! Common Emitter S-Parameters:                            Jan 2017
# GHz  S  MA  R  50
!  f         S11            S21            S12            S22
! GHz     MAG   ANG      MAG   ANG      MAG   ANG      MAG   ANG
 0.010  0.6954   -4.4  28.059  176.4  0.0019   95.0  0.9944   -2.0
 0.020  0.7085   -8.7  28.386  173.5  0.0038   90.9  0.9891   -4.4
 0.030  0.6908  -12.7  27.884  170.5  0.0058   86.0  0.9789   -6.4
 0.040  0.6766  -16.9  27.459  167.5  0.0077   83.6  0.9700   -8.4
 0.050  0.6663  -21.3  27.115  164.3  0.0097   82.2  0.9623  -10.5
 0.060  0.6527  -25.0  26.529  161.7  0.0114   79.8  0.9463  -12.2
 0.070  0.6419  -28.8  25.999  159.1  0.0131   78.0  0.9311  -13.9
 0.080  0.6342  -32.8  25.526  156.3  0.0148   76.7  0.9168  -15.6
 0.090  0.6294  -36.8  25.116  153.5  0.0166   75.6  0.9033  -17.4
 0.100  0.6279  -40.9  24.770  150.5  0.0183   74.7  0.8908  -19.3
 0.110  0.6108  -43.9  24.122  148.4  0.0195   72.7  0.8722  -20.5
 0.120  0.5956  -47.2  23.508  146.2  0.0208   70.9  0.8540  -21.7
 0.130  0.5823  -50.5  22.929  143.9  0.0221   69.3  0.8363  -23.0
 0.140  0.5711  -54.1  22.389  141.5  0.0234   67.9  0.8189  -24.4
 0.150  0.5622  -57.7  21.891  139.0  0.0247   66.6  0.8021  -25.8
 0.200  0.5090  -72.1  19.197  129.9  0.0294   65.0  0.7220  -30.0
 0.250  0.4635  -84.3  16.912  122.5  0.0340   61.1  0.6550  -32.5
 0.300  0.4246  -94.8  14.925  116.9  0.0370   60.9  0.5974  -34.1
 0.350  0.3954 -102.6  13.439  113.1  0.0407   60.9  0.5585  -34.6
 0.400  0.3746 -111.5  12.028  108.3  0.0444   60.9  0.5196  -35.2
 0.450  0.3558 -118.0  10.988  105.4  0.0476   61.3  0.4937  -35.2
 0.500  0.3422 -125.2   9.981  102.0  0.0509   61.7  0.4679  -35.2
 0.600  0.3227 -136.3   8.522   97.0  0.0575   62.9  0.4330  -34.8
 0.700  0.3106 -145.7   7.403   92.8  0.0632   64.0  0.4083  -34.4
 0.800  0.3041 -153.5   6.558   89.0  0.0708   65.1  0.3908  -34.2
 0.900  0.2991 -160.9   5.864   85.8  0.0768   65.3  0.3771  -34.1
 1.000  0.2985 -167.3   5.327   82.8  0.0846   66.2  0.3659  -34.3
 1.100  0.2986 -172.7   4.876   80.1  0.0915   66.5  0.3582  -34.7
 1.200  0.2994 -178.1   4.491   77.4  0.0985   66.5  0.3502  -35.1
 1.300  0.2988  177.3   4.164   74.9  0.1055   66.7  0.3443  -35.8
 1.400  0.3032  173.2   3.893   72.5  0.1136   66.7  0.3375  -36.7
 1.500  0.3070  169.1   3.650   70.3  0.1203   66.5  0.3327  -37.8
 1.600  0.3092  165.6   3.438   68.0  0.1278   66.3  0.3291  -39.0
 1.700  0.3116  161.9   3.253   65.9  0.1354   66.4  0.3244  -40.4
 1.800  0.3178  158.9   3.098   63.7  0.1431   65.9  0.3203  -41.8
 1.900  0.3229  155.9   2.950   61.8  0.1505   65.7  0.3172  -43.4
 2.000  0.3256  153.2   2.814   59.6  0.1581   65.3  0.3141  -45.2
 2.100  0.3308  150.3   2.699   57.7  0.1659   64.8  0.3112  -47.1
 2.200  0.3368  147.5   2.587   55.6  0.1738   64.4  0.3086  -49.0
 2.300  0.3421  145.1   2.491   53.8  0.1817   63.8  0.3067  -51.1
 2.400  0.3480  142.8   2.398   51.8  0.1896   63.3  0.3053  -53.2
 2.500  0.3528  140.5   2.314   50.0  0.1973   62.7  0.3041  -55.2
 2.600  0.3582  138.3   2.232   48.1  0.2051   62.2  0.3033  -57.3
 2.700  0.3631  136.1   2.163   46.4  0.2131   61.5  0.3027  -59.4
 2.800  0.3686  134.0   2.097   44.6  0.2211   60.9  0.3026  -61.5
 2.900  0.3740  131.8   2.037   42.9  0.2291   60.2  0.3018  -63.5
 3.000  0.3799  129.6   1.979   41.1  0.2372   59.6  0.3014  -65.6
 3.100  0.3838  127.6   1.929   39.6  0.2453   58.8  0.3003  -67.6
 3.200  0.3881  125.7   1.880   38.1  0.2535   58.1  0.2996  -69.5
 3.300  0.3928  123.8   1.833   36.4  0.2617   57.4  0.2992  -71.5
 3.400  0.3980  122.0   1.787   34.7  0.2700   56.7  0.2992  -73.5
 3.500  0.4035  120.2   1.743   32.9  0.2783   56.1  0.2995  -75.5
 3.600  0.4087  118.5   1.707   31.5  0.2866   55.2  0.2967  -77.5
 3.700  0.4143  116.8   1.671   30.0  0.2950   54.3  0.2942  -79.6
 3.800  0.4202  115.1   1.637   28.5  0.3034   53.4  0.2922  -81.7
 3.900  0.4265  113.5   1.604   26.9  0.3119   52.6  0.2905  -83.8
 4.000  0.4331  112.0   1.572   25.3  0.3205   51.9  0.2892  -85.9
 4.100  0.4382  110.5   1.543   23.9  0.3286   50.9  0.2850  -88.4
 4.200  0.4435  109.1   1.515   22.5  0.3367   49.9  0.2814  -91.0
 4.300  0.4492  107.7   1.489   21.0  0.3450   49.0  0.2783  -93.7
 4.400  0.4551  106.3   1.463   19.5  0.3533   48.1  0.2759  -96.4
 4.500  0.4612  105.0   1.438   17.9  0.3617   47.3  0.2741  -99.1
 4.600  0.4682  103.6   1.412   16.7  0.3699   46.3  0.2709 -102.3
 4.700  0.4754  102.2   1.387   15.4  0.3782   45.3  0.2686 -105.6
 4.800  0.4830  100.9   1.363   14.1  0.3867   44.4  0.2671 -108.9
 4.900  0.4908   99.6   1.340   12.7  0.3952   43.5  0.2666 -112.3
 5.000  0.4988   98.3   1.317   11.3  0.4038   42.7  0.2670 -115.6
 5.100  0.5026   97.1   1.298   10.1  0.4117   41.6  0.2681 -119.1
 5.200  0.5066   95.8   1.280    8.9  0.4197   40.6  0.2701 -122.5
 5.300  0.5109   94.6   1.263    7.7  0.4278   39.6  0.2730 -125.8
 5.400  0.5153   93.5   1.246    6.4  0.4361   38.6  0.2769 -129.1
 5.500  0.5200   92.3   1.230    5.1  0.4445   37.7  0.2817 -132.3
 5.600  0.5238   91.1   1.212    4.1  0.4519   36.6  0.2844 -135.2
 5.700  0.5278   90.0   1.195    3.0  0.4594   35.6  0.2878 -138.0
 5.800  0.5320   88.9   1.178    2.0  0.4671   34.5  0.2919 -140.8
 5.900  0.5364   87.8   1.162    0.8  0.4749   33.6  0.2966 -143.5
 6.000  0.5410   86.7   1.146   -0.3  0.4829   32.6  0.3020 -146.1
!
!  f       NFmin   Gammaopt  rn/50
! GHz       dB    MAG  ANG    -
 0.450      1.14  0.05   71   0.15
 0.900      1.22  0.06  102   0.15
 1.900      1.71  0.21 -156   0.14
 2.400      1.97  0.20 -143   0.21
!
! (c) 2017  Infineon Technologies AG, Munich