! Infineon Technologies  Discrete & RF Semiconductors
! BFR182W
! VCE =  6.0 V,  IC =  37 mA
! Common Emitter S-Parameters:                            Jan 2017
# GHz  S  MA  R  50
!  f         S11            S21            S12            S22
! GHz     MAG   ANG      MAG   ANG      MAG   ANG      MAG   ANG
 0.010  0.4451   -9.2  46.011  173.9  0.0012   86.0  0.9635   -2.9
 0.020  0.4491  -18.8  45.811  168.9  0.0031   94.4  0.9529   -6.7
 0.030  0.4289  -27.1  44.113  164.2  0.0049   83.5  0.9287   -9.7
 0.040  0.4184  -36.0  42.735  159.1  0.0067   78.5  0.9071  -12.8
 0.050  0.4184  -45.1  41.710  153.8  0.0086   75.7  0.8883  -16.1
 0.060  0.4014  -51.4  39.743  150.7  0.0097   73.8  0.8581  -17.7
 0.070  0.3898  -58.2  37.905  147.3  0.0108   72.3  0.8287  -19.5
 0.080  0.3838  -65.3  36.214  143.5  0.0119   71.1  0.8001  -21.4
 0.090  0.3839  -72.5  34.693  139.4  0.0131   70.1  0.7725  -23.4
 0.100  0.3900  -79.6  33.365  135.0  0.0142   69.2  0.7459  -25.6
 0.110  0.3793  -84.0  31.871  133.0  0.0150   68.5  0.7224  -26.3
 0.120  0.3710  -88.7  30.421  130.8  0.0158   67.9  0.6989  -27.0
 0.130  0.3653  -93.5  29.021  128.3  0.0167   67.3  0.6756  -27.7
 0.140  0.3622  -98.5  27.679  125.6  0.0175   66.8  0.6524  -28.5
 0.150  0.3619 -103.5  26.403  122.7  0.0183   66.3  0.6293  -29.4
 0.200  0.3486 -119.7  21.408  114.5  0.0215   66.4  0.5534  -30.2
 0.250  0.3415 -132.0  17.884  108.4  0.0254   67.0  0.5022  -29.8
 0.300  0.3343 -141.1  15.239  104.2  0.0286   67.7  0.4669  -28.9
 0.350  0.3315 -147.5  13.502  101.4  0.0320   69.1  0.4462  -28.1
 0.400  0.3328 -153.9  11.808   97.7  0.0355   70.3  0.4255  -27.2
 0.450  0.3310 -158.6  10.682   95.6  0.0390   71.3  0.4136  -26.7
 0.500  0.3315 -163.3   9.573   93.1  0.0426   72.1  0.4017  -26.1
 0.600  0.3321 -170.0   8.067   89.3  0.0501   72.1  0.3870  -25.4
 0.700  0.3357 -175.8   6.958   86.0  0.0569   74.1  0.3770  -25.1
 0.800  0.3388  179.4   6.132   83.0  0.0650   74.2  0.3696  -25.3
 0.900  0.3393  175.2   5.462   80.3  0.0730   74.0  0.3642  -25.9
 1.000  0.3426  171.0   4.952   77.8  0.0801   74.2  0.3588  -26.5
 1.100  0.3490  167.5   4.522   75.4  0.0879   74.0  0.3549  -27.4
 1.200  0.3511  163.9   4.162   72.9  0.0953   74.0  0.3509  -28.3
 1.300  0.3534  160.8   3.855   70.7  0.1030   73.8  0.3476  -29.5
 1.400  0.3579  158.3   3.602   68.5  0.1113   73.3  0.3430  -30.9
 1.500  0.3641  155.7   3.373   66.4  0.1191   73.0  0.3401  -32.4
 1.600  0.3670  152.7   3.179   64.2  0.1267   72.4  0.3377  -33.9
 1.700  0.3702  150.4   3.007   62.2  0.1355   72.0  0.3339  -35.6
 1.800  0.3758  147.8   2.861   60.2  0.1432   71.2  0.3308  -37.4
 1.900  0.3822  145.7   2.724   58.4  0.1508   70.9  0.3279  -39.2
 2.000  0.3845  143.5   2.598   56.3  0.1596   70.2  0.3259  -41.4
 2.100  0.3894  141.2   2.491   54.4  0.1677   69.5  0.3232  -43.5
 2.200  0.3950  138.9   2.386   52.4  0.1758   68.8  0.3210  -45.7
 2.300  0.4002  137.0   2.298   50.6  0.1842   68.1  0.3191  -48.0
 2.400  0.4059  135.1   2.212   48.7  0.1927   67.4  0.3178  -50.3
 2.500  0.4103  133.2   2.134   47.0  0.2010   66.7  0.3170  -52.6
 2.600  0.4151  131.4   2.059   45.1  0.2093   66.0  0.3167  -54.9
 2.700  0.4202  129.5   1.995   43.4  0.2176   65.2  0.3160  -57.2
 2.800  0.4257  127.6   1.933   41.6  0.2259   64.5  0.3159  -59.5
 2.900  0.4308  125.6   1.877   39.9  0.2343   63.7  0.3154  -61.7
 3.000  0.4363  123.7   1.823   38.2  0.2428   62.9  0.3153  -64.0
 3.100  0.4397  121.9   1.777   36.8  0.2514   62.0  0.3141  -66.1
 3.200  0.4435  120.1   1.732   35.3  0.2600   61.1  0.3134  -68.3
 3.300  0.4478  118.4   1.688   33.7  0.2687   60.3  0.3131  -70.5
 3.400  0.4524  116.7   1.645   32.0  0.2774   59.5  0.3132  -72.6
 3.500  0.4575  115.0   1.604   30.3  0.2862   58.8  0.3138  -74.8
 3.600  0.4622  113.5   1.570   28.9  0.2949   57.7  0.3108  -77.0
 3.700  0.4672  111.9   1.538   27.5  0.3037   56.7  0.3082  -79.2
 3.800  0.4725  110.5   1.506   26.0  0.3125   55.8  0.3061  -81.5
 3.900  0.4781  109.0   1.476   24.5  0.3215   54.9  0.3044  -83.8
 4.000  0.4840  107.6   1.446   22.9  0.3305   54.0  0.3033  -86.1
 4.100  0.4886  106.2   1.419   21.6  0.3390   52.9  0.2990  -88.7
 4.200  0.4935  104.8   1.393   20.2  0.3475   51.9  0.2952  -91.4
 4.300  0.4986  103.4   1.367   18.7  0.3562   50.9  0.2922  -94.2
 4.400  0.5041  102.1   1.343   17.2  0.3650   49.9  0.2899  -97.0
 4.500  0.5098  100.8   1.319   15.7  0.3739   49.0  0.2882  -99.8
 4.600  0.5159   99.4   1.296   14.5  0.3823   47.9  0.2849 -103.1
 4.700  0.5224   98.1   1.273   13.3  0.3909   46.8  0.2825 -106.4
 4.800  0.5291   96.7   1.251   12.1  0.3996   45.8  0.2811 -109.9
 4.900  0.5361   95.5   1.229   10.7  0.4084   44.8  0.2807 -113.3
 5.000  0.5433   94.2   1.208    9.4  0.4173   43.9  0.2813 -116.7
 5.100  0.5464   93.0   1.191    8.3  0.4253   42.7  0.2822 -120.2
 5.200  0.5498   91.8   1.174    7.2  0.4334   41.6  0.2842 -123.7
 5.300  0.5535   90.6   1.158    6.0  0.4417   40.5  0.2872 -127.1
 5.400  0.5573   89.4   1.142    4.8  0.4502   39.5  0.2912 -130.4
 5.500  0.5614   88.3   1.127    3.6  0.4588   38.5  0.2961 -133.6
 5.600  0.5641   87.2   1.111    2.6  0.4664   37.3  0.2988 -136.5
 5.700  0.5670   86.1   1.095    1.6  0.4741   36.2  0.3023 -139.4
 5.800  0.5702   85.0   1.079    0.6  0.4820   35.2  0.3065 -142.2
 5.900  0.5735   84.0   1.064   -0.5  0.4901   34.1  0.3114 -145.0
 6.000  0.5770   82.9   1.049   -1.6  0.4983   33.1  0.3170 -147.6
!
!  f       NFmin   Gammaopt  rn/50
! GHz       dB    MAG  ANG    -
!
! noise parameter not available yet for this operation point!
!
! (c) 2017  Infineon Technologies AG, Munich