! Infineon Technologies  Discrete & RF Semiconductors
! BFR182W
! VCE =  10. V,  IC =  8.0 mA
! Common Emitter S-Parameters:                            Jan 2017
# GHz  S  MA  R  50
!  f         S11            S21            S12            S22
! GHz     MAG   ANG      MAG   ANG      MAG   ANG      MAG   ANG
 0.010  0.7840   -3.3  21.841  176.7  0.0017   88.7  0.9958   -1.6
 0.020  0.7907   -6.5  21.849  174.7  0.0040   88.3  0.9860   -3.3
 0.030  0.7773   -9.6  21.626  172.3  0.0060   85.0  0.9816   -4.9
 0.040  0.7662  -12.7  21.441  169.9  0.0081   83.3  0.9780   -6.5
 0.050  0.7575  -16.0  21.294  167.5  0.0101   82.3  0.9751   -8.1
 0.060  0.7482  -19.0  20.987  165.3  0.0118   80.0  0.9646   -9.5
 0.070  0.7410  -22.0  20.712  163.1  0.0135   78.2  0.9547  -10.9
 0.080  0.7359  -25.1  20.468  160.8  0.0152   76.9  0.9454  -12.3
 0.090  0.7329  -28.2  20.258  158.5  0.0169   75.8  0.9368  -13.8
 0.100  0.7321  -31.3  20.082  156.1  0.0186   74.9  0.9287  -15.3
 0.110  0.7176  -33.9  19.714  154.2  0.0201   73.5  0.9151  -16.4
 0.120  0.7046  -36.5  19.369  152.2  0.0216   72.3  0.9019  -17.6
 0.130  0.6932  -39.3  19.048  150.2  0.0231   71.3  0.8891  -18.7
 0.140  0.6835  -42.1  18.752  148.1  0.0247   70.4  0.8766  -20.0
 0.150  0.6754  -45.0  18.482  145.9  0.0262   69.6  0.8646  -21.2
 0.200  0.6202  -57.3  16.785  137.1  0.0317   65.5  0.8000  -25.5
 0.250  0.5699  -68.3  15.217  129.6  0.0369   61.9  0.7391  -28.7
 0.300  0.5203  -77.9  13.730  123.7  0.0402   60.4  0.6835  -30.9
 0.350  0.4809  -85.2  12.530  119.4  0.0440   59.4  0.6422  -32.0
 0.400  0.4506  -93.7  11.415  114.2  0.0478   58.5  0.6011  -33.3
 0.450  0.4218 -100.1  10.497  111.0  0.0509   58.4  0.5715  -33.8
 0.500  0.3990 -107.3   9.617  107.2  0.0541   58.3  0.5420  -34.3
 0.600  0.3631 -118.9   8.302  101.5  0.0596   58.2  0.5000  -34.5
 0.700  0.3399 -129.0   7.261   96.8  0.0648   59.7  0.4699  -34.5
 0.800  0.3244 -137.7   6.463   92.7  0.0712   60.9  0.4477  -34.5
 0.900  0.3104 -145.8   5.798   89.0  0.0768   61.1  0.4306  -34.6
 1.000  0.3026 -153.3   5.282   85.8  0.0825   62.0  0.4162  -34.8
 1.100  0.2991 -160.2   4.841   82.8  0.0894   62.5  0.4061  -35.2
 1.200  0.2960 -166.2   4.470   79.9  0.0952   63.0  0.3965  -35.5
 1.300  0.2942 -171.7   4.146   77.2  0.1013   63.4  0.3892  -36.2
 1.400  0.2954 -176.6   3.879   74.7  0.1085   63.9  0.3814  -37.0
 1.500  0.2991  178.9   3.640   72.4  0.1149   64.1  0.3756  -38.0
 1.600  0.2996  174.0   3.431   69.9  0.1209   64.2  0.3712  -38.9
 1.700  0.3021  170.4   3.248   67.7  0.1288   64.3  0.3658  -40.3
 1.800  0.3044  166.6   3.093   65.5  0.1355   64.1  0.3619  -41.5
 1.900  0.3105  162.9   2.948   63.5  0.1421   64.2  0.3574  -43.0
 2.000  0.3126  159.8   2.814   61.2  0.1495   64.1  0.3545  -44.6
 2.100  0.3170  156.3   2.698   59.2  0.1567   63.8  0.3514  -46.3
 2.200  0.3225  153.0   2.586   57.1  0.1640   63.6  0.3487  -48.0
 2.300  0.3279  150.5   2.491   55.2  0.1714   63.2  0.3466  -49.8
 2.400  0.3340  148.0   2.399   53.1  0.1789   62.9  0.3448  -51.7
 2.500  0.3390  145.3   2.316   51.3  0.1863   62.6  0.3436  -53.6
 2.600  0.3447  142.6   2.235   49.4  0.1937   62.3  0.3427  -55.5
 2.700  0.3486  140.2   2.166   47.7  0.2013   61.8  0.3422  -57.4
 2.800  0.3531  137.9   2.099   45.8  0.2090   61.4  0.3421  -59.4
 2.900  0.3588  135.6   2.039   44.0  0.2168   60.8  0.3414  -61.2
 3.000  0.3651  133.3   1.982   42.1  0.2247   60.3  0.3410  -63.1
 3.100  0.3690  131.1   1.932   40.6  0.2327   59.6  0.3398  -65.0
 3.200  0.3734  129.0   1.883   39.0  0.2408   59.0  0.3390  -66.8
 3.300  0.3783  126.9   1.835   37.4  0.2489   58.4  0.3386  -68.7
 3.400  0.3837  124.9   1.789   35.6  0.2570   57.9  0.3385  -70.6
 3.500  0.3896  122.9   1.745   33.8  0.2651   57.4  0.3388  -72.5
 3.600  0.3947  121.1   1.709   32.4  0.2735   56.5  0.3361  -74.4
 3.700  0.4003  119.3   1.673   30.9  0.2819   55.7  0.3338  -76.3
 3.800  0.4062  117.5   1.639   29.4  0.2905   55.0  0.3318  -78.3
 3.900  0.4125  115.8   1.606   27.8  0.2990   54.3  0.3303  -80.3
 4.000  0.4191  114.2   1.574   26.2  0.3076   53.6  0.3291  -82.3
 4.100  0.4247  112.6   1.545   24.8  0.3160   52.7  0.3248  -84.6
 4.200  0.4307  111.1   1.517   23.3  0.3245   51.8  0.3211  -87.0
 4.300  0.4370  109.6   1.490   21.8  0.3331   51.0  0.3179  -89.5
 4.400  0.4435  108.2   1.464   20.2  0.3418   50.2  0.3154  -92.0
 4.500  0.4503  106.8   1.439   18.6  0.3505   49.4  0.3134  -94.5
 4.600  0.4573  105.3   1.414   17.4  0.3590   48.4  0.3099  -97.5
 4.700  0.4646  103.8   1.389   16.1  0.3675   47.5  0.3073 -100.5
 4.800  0.4721  102.4   1.365   14.7  0.3762   46.6  0.3056 -103.6
 4.900  0.4800  101.0   1.342   13.3  0.3850   45.7  0.3047 -106.7
 5.000  0.4881   99.7   1.320   11.9  0.3938   44.9  0.3048 -109.8
 5.100  0.4920   98.4   1.301   10.7  0.4022   43.8  0.3051 -113.1
 5.200  0.4962   97.1   1.282    9.5  0.4107   42.8  0.3064 -116.4
 5.300  0.5006   95.8   1.264    8.3  0.4194   41.8  0.3087 -119.6
 5.400  0.5053   94.5   1.246    7.0  0.4282   40.8  0.3119 -122.8
 5.500  0.5102   93.3   1.229    5.7  0.4371   39.9  0.3161 -125.9
 5.600  0.5139   92.1   1.211    4.7  0.4450   38.8  0.3183 -128.8
 5.700  0.5178   91.0   1.194    3.6  0.4530   37.8  0.3213 -131.6
 5.800  0.5219   89.9   1.177    2.5  0.4612   36.8  0.3250 -134.3
 5.900  0.5262   88.8   1.160    1.4  0.4695   35.8  0.3294 -137.0
 6.000  0.5307   87.7   1.144    0.2  0.4779   34.9  0.3346 -139.6
!
!  f       NFmin   Gammaopt  rn/50
! GHz       dB    MAG  ANG    -
 0.450      1.00  0.12   39   0.15
 0.900      1.08  0.12   69   0.15
 1.900      1.59  0.18 -174   0.13
 2.400      1.85  0.18 -169   0.19
!
! (c) 2017  Infineon Technologies AG, Munich