! Infineon Technologies  Discrete & RF Semiconductors
! BFR182W
! VCE =  2.0 V,  IC =  7.0 mA
! Common Emitter S-Parameters:                            Jan 2017
# GHz  S  MA  R  50
!  f         S11            S21            S12            S22
! GHz     MAG   ANG      MAG   ANG      MAG   ANG      MAG   ANG
 0.010  0.7796   -3.7  19.870  177.4  0.0020   85.3  0.9968   -1.7
 0.020  0.7937   -7.2  20.203  175.0  0.0044   95.0  0.9907   -3.7
 0.030  0.7773  -10.4  19.936  172.6  0.0067   87.1  0.9846   -5.4
 0.040  0.7634  -13.8  19.706  170.1  0.0090   83.2  0.9795   -7.1
 0.050  0.7523  -17.3  19.514  167.5  0.0113   80.9  0.9752   -8.9
 0.060  0.7428  -20.5  19.224  165.3  0.0134   79.4  0.9635  -10.4
 0.070  0.7358  -23.8  18.964  163.0  0.0156   78.2  0.9524  -12.0
 0.080  0.7312  -27.1  18.736  160.6  0.0177   77.4  0.9421  -13.5
 0.090  0.7291  -30.5  18.540  158.2  0.0199   76.7  0.9325  -15.2
 0.100  0.7295  -33.9  18.378  155.7  0.0220   76.2  0.9236  -16.8
 0.110  0.7148  -36.7  18.031  153.7  0.0236   74.2  0.9093  -18.0
 0.120  0.7019  -39.6  17.706  151.7  0.0253   72.5  0.8955  -19.3
 0.130  0.6908  -42.6  17.404  149.6  0.0269   71.0  0.8821  -20.6
 0.140  0.6817  -45.6  17.126  147.4  0.0286   69.7  0.8692  -22.0
 0.150  0.6746  -48.8  16.874  145.2  0.0303   68.5  0.8568  -23.4
 0.200  0.6255  -62.1  15.292  136.3  0.0371   63.6  0.7874  -28.2
 0.250  0.5762  -73.9  13.836  128.7  0.0427   60.0  0.7234  -31.8
 0.300  0.5314  -84.0  12.455  122.7  0.0468   57.6  0.6642  -34.3
 0.350  0.4957  -91.9  11.351  118.3  0.0506   56.5  0.6199  -35.7
 0.400  0.4708 -100.9  10.327  113.1  0.0544   55.6  0.5761  -37.3
 0.450  0.4458 -107.7   9.489  109.9  0.0575   55.5  0.5443  -37.9
 0.500  0.4277 -115.2   8.687  106.0  0.0607   55.4  0.5125  -38.6
 0.600  0.3980 -126.8   7.488  100.2  0.0672   55.1  0.4679  -39.1
 0.700  0.3799 -136.9   6.546   95.4  0.0724   56.3  0.4353  -39.2
 0.800  0.3683 -145.2   5.820   91.2  0.0788   57.4  0.4116  -39.4
 0.900  0.3603 -152.9   5.220   87.5  0.0842   57.9  0.3925  -39.6
 1.000  0.3554 -159.6   4.757   84.2  0.0909   58.3  0.3769  -39.8
 1.100  0.3530 -165.9   4.359   81.1  0.0961   59.2  0.3659  -40.3
 1.200  0.3517 -171.7   4.021   78.1  0.1032   59.6  0.3554  -40.8
 1.300  0.3513 -176.5   3.731   75.3  0.1093   60.3  0.3470  -41.5
 1.400  0.3535  179.1   3.492   72.7  0.1166   60.6  0.3390  -42.5
 1.500  0.3556  174.6   3.277   70.2  0.1233   60.9  0.3325  -43.5
 1.600  0.3582  170.6   3.091   67.7  0.1304   61.1  0.3281  -44.7
 1.700  0.3609  166.9   2.928   65.5  0.1372   61.5  0.3219  -46.1
 1.800  0.3658  163.5   2.789   63.1  0.1448   61.2  0.3175  -47.6
 1.900  0.3702  160.3   2.659   61.0  0.1520   61.4  0.3135  -49.2
 2.000  0.3729  156.9   2.538   58.7  0.1592   61.2  0.3105  -51.0
 2.100  0.3777  153.9   2.434   56.6  0.1669   60.9  0.3074  -53.0
 2.200  0.3835  151.0   2.334   54.4  0.1747   60.6  0.3046  -55.0
 2.300  0.3885  148.5   2.249   52.4  0.1824   60.4  0.3027  -57.1
 2.400  0.3942  146.0   2.166   50.3  0.1902   60.2  0.3013  -59.3
 2.500  0.3992  143.4   2.092   48.5  0.1978   59.8  0.3001  -61.4
 2.600  0.4050  140.9   2.020   46.5  0.2054   59.4  0.2993  -63.6
 2.700  0.4094  138.6   1.958   44.7  0.2133   58.9  0.2992  -65.8
 2.800  0.4145  136.3   1.898   42.7  0.2213   58.4  0.2995  -67.9
 2.900  0.4193  134.0   1.844   40.9  0.2293   57.8  0.2987  -70.0
 3.000  0.4247  131.8   1.792   39.0  0.2374   57.3  0.2983  -72.1
 3.100  0.4285  129.7   1.746   37.5  0.2457   56.6  0.2974  -74.2
 3.200  0.4328  127.6   1.702   35.9  0.2541   56.0  0.2968  -76.3
 3.300  0.4377  125.5   1.659   34.2  0.2625   55.4  0.2967  -78.3
 3.400  0.4431  123.5   1.618   32.5  0.2709   54.8  0.2970  -80.4
 3.500  0.4491  121.6   1.578   30.6  0.2794   54.3  0.2976  -82.5
 3.600  0.4540  119.7   1.545   29.2  0.2880   53.4  0.2950  -84.7
 3.700  0.4593  117.9   1.513   27.7  0.2966   52.6  0.2929  -86.9
 3.800  0.4650  116.1   1.482   26.1  0.3053   51.8  0.2912  -89.1
 3.900  0.4713  114.4   1.453   24.5  0.3140   51.0  0.2899  -91.4
 4.000  0.4779  112.7   1.424   22.8  0.3228   50.3  0.2891  -93.7
 4.100  0.4828  111.1   1.398   21.4  0.3313   49.3  0.2854  -96.5
 4.200  0.4881  109.5   1.372   20.0  0.3398   48.4  0.2823  -99.3
 4.300  0.4938  108.0   1.347   18.5  0.3484   47.5  0.2800 -102.1
 4.400  0.4998  106.5   1.324   16.9  0.3571   46.7  0.2783 -105.1
 4.500  0.5061  105.0   1.301   15.3  0.3659   45.9  0.2774 -108.0
 4.600  0.5124  103.5   1.278   14.1  0.3743   44.9  0.2752 -111.4
 4.700  0.5191  102.0   1.255   12.8  0.3828   43.9  0.2739 -114.8
 4.800  0.5261  100.6   1.232   11.5  0.3915   43.0  0.2736 -118.2
 4.900  0.5335   99.2   1.211   10.2  0.4002   42.1  0.2743 -121.6
 5.000  0.5411   97.8   1.190    8.8  0.4090   41.3  0.2760 -125.0
 5.100  0.5445   96.5   1.173    7.7  0.4171   40.2  0.2781 -128.5
 5.200  0.5481   95.2   1.156    6.5  0.4254   39.1  0.2813 -131.9
 5.300  0.5520   93.9   1.140    5.3  0.4338   38.1  0.2854 -135.2
 5.400  0.5562   92.6   1.125    4.1  0.4423   37.1  0.2904 -138.4
 5.500  0.5607   91.4   1.110    2.8  0.4510   36.2  0.2963 -141.5
 5.600  0.5634   90.2   1.094    1.8  0.4585   35.1  0.2997 -144.3
 5.700  0.5663   89.0   1.078    0.8  0.4662   34.0  0.3038 -147.1
 5.800  0.5694   87.8   1.062   -0.2  0.4741   33.0  0.3085 -149.7
 5.900  0.5728   86.7   1.047   -1.2  0.4821   32.0  0.3140 -152.3
 6.000  0.5764   85.5   1.032   -2.3  0.4902   31.0  0.3200 -154.8
!
!  f       NFmin   Gammaopt  rn/50
! GHz       dB    MAG  ANG    -
 0.450      0.95  0.17   35   0.16
 0.900      1.04  0.15   63   0.15
 1.900      1.57  0.18  174   0.13
 2.400      1.84  0.19 -178   0.18
!
! (c) 2017  Infineon Technologies AG, Munich