! Infineon Technologies  Discrete & RF Semiconductors
! BFR182W
! VCE =  7.0 V,  IC =  15 mA
! Common Emitter S-Parameters:                            Jan 2017
# GHz  S  MA  R  50
!  f         S11            S21            S12            S22
! GHz     MAG   ANG      MAG   ANG      MAG   ANG      MAG   ANG
 0.010  0.6541   -4.8  32.766  175.7  0.0016   88.7  0.9904   -2.2
 0.020  0.6657   -9.7  33.032  172.5  0.0034   86.5  0.9814   -4.7
 0.030  0.6471  -14.1  32.335  169.3  0.0053   83.8  0.9704   -7.0
 0.040  0.6325  -18.8  31.746  165.9  0.0072   82.5  0.9608   -9.3
 0.050  0.6224  -23.7  31.271  162.4  0.0091   81.7  0.9529  -11.6
 0.060  0.6065  -27.7  30.452  159.7  0.0106   79.3  0.9339  -13.3
 0.070  0.5938  -32.0  29.705  156.8  0.0120   77.4  0.9158  -15.1
 0.080  0.5844  -36.3  29.035  153.9  0.0135   76.0  0.8986  -17.0
 0.090  0.5785  -40.8  28.447  150.7  0.0150   74.8  0.8824  -18.9
 0.100  0.5763  -45.4  27.947  147.5  0.0165   73.9  0.8672  -20.9
 0.110  0.5594  -48.6  27.112  145.4  0.0177   72.0  0.8468  -22.0
 0.120  0.5443  -52.0  26.316  143.1  0.0189   70.4  0.8267  -23.2
 0.130  0.5313  -55.6  25.563  140.8  0.0201   69.0  0.8071  -24.4
 0.140  0.5204  -59.3  24.857  138.3  0.0214   67.7  0.7878  -25.7
 0.150  0.5118  -63.2  24.201  135.6  0.0226   66.6  0.7689  -27.1
 0.200  0.4557  -78.0  20.850  126.5  0.0266   65.8  0.6852  -30.7
 0.250  0.4132  -90.6  18.137  119.3  0.0315   63.2  0.6177  -32.8
 0.300  0.3794 -100.9  15.869  114.0  0.0344   62.6  0.5640  -33.7
 0.350  0.3538 -108.6  14.224  110.4  0.0378   63.0  0.5284  -33.8
 0.400  0.3354 -117.3  12.649  105.9  0.0412   63.4  0.4929  -33.9
 0.450  0.3210 -123.8  11.520  103.3  0.0443   64.1  0.4700  -33.7
 0.500  0.3111 -130.9  10.421  100.1  0.0475   64.8  0.4471  -33.4
 0.600  0.2944 -141.9   8.866   95.3  0.0547   65.8  0.4170  -32.8
 0.700  0.2854 -150.9   7.682   91.4  0.0613   67.2  0.3964  -32.2
 0.800  0.2813 -158.8   6.796   87.9  0.0683   68.1  0.3815  -32.0
 0.900  0.2779 -165.2   6.071   84.9  0.0754   68.0  0.3700  -31.9
 1.000  0.2781 -171.4   5.510   82.0  0.0831   68.3  0.3603  -32.1
 1.100  0.2807 -176.5   5.041   79.5  0.0897   69.0  0.3541  -32.3
 1.200  0.2826  178.7   4.641   76.9  0.0972   68.4  0.3471  -32.9
 1.300  0.2832  174.0   4.300   74.5  0.1045   68.8  0.3422  -33.7
 1.400  0.2873  170.1   4.019   72.2  0.1123   68.8  0.3357  -34.7
 1.500  0.2915  166.6   3.766   70.0  0.1196   68.5  0.3320  -35.7
 1.600  0.2948  162.8   3.548   67.8  0.1272   68.2  0.3287  -36.9
 1.700  0.2986  159.6   3.357   65.8  0.1346   68.0  0.3243  -38.3
 1.800  0.3024  156.6   3.194   63.7  0.1426   67.4  0.3205  -39.8
 1.900  0.3070  153.8   3.041   61.9  0.1504   67.2  0.3175  -41.3
 2.000  0.3119  151.0   2.901   59.7  0.1580   66.5  0.3145  -43.2
 2.100  0.3168  148.3   2.781   57.8  0.1659   66.0  0.3117  -45.1
 2.200  0.3224  145.7   2.664   55.8  0.1738   65.5  0.3093  -47.0
 2.300  0.3278  143.4   2.566   54.0  0.1817   64.9  0.3073  -49.0
 2.400  0.3338  141.2   2.470   52.1  0.1896   64.4  0.3056  -51.1
 2.500  0.3388  139.0   2.383   50.4  0.1974   63.7  0.3044  -53.2
 2.600  0.3442  136.9   2.299   48.5  0.2052   63.1  0.3037  -55.3
 2.700  0.3489  134.8   2.228   46.8  0.2131   62.4  0.3033  -57.3
 2.800  0.3540  132.7   2.160   45.0  0.2210   61.8  0.3032  -59.4
 2.900  0.3591  130.6   2.098   43.3  0.2289   61.0  0.3026  -61.4
 3.000  0.3647  128.5   2.038   41.6  0.2369   60.3  0.3024  -63.5
 3.100  0.3688  126.6   1.986   40.2  0.2450   59.5  0.3011  -65.5
 3.200  0.3734  124.7   1.936   38.6  0.2531   58.8  0.3002  -67.4
 3.300  0.3783  122.8   1.886   37.0  0.2612   58.1  0.2997  -69.4
 3.400  0.3836  121.0   1.839   35.4  0.2694   57.4  0.2995  -71.4
 3.500  0.3893  119.3   1.793   33.6  0.2776   56.8  0.2997  -73.4
 3.600  0.3942  117.7   1.756   32.2  0.2859   55.8  0.2968  -75.4
 3.700  0.3995  116.1   1.719   30.8  0.2942   54.9  0.2943  -77.4
 3.800  0.4050  114.6   1.684   29.3  0.3027   54.0  0.2921  -79.5
 3.900  0.4108  113.1   1.650   27.7  0.3111   53.2  0.2904  -81.6
 4.000  0.4169  111.7   1.617   26.1  0.3197   52.4  0.2890  -83.7
 4.100  0.4225  110.2   1.587   24.7  0.3277   51.4  0.2847  -86.1
 4.200  0.4284  108.8   1.559   23.3  0.3358   50.4  0.2809  -88.6
 4.300  0.4345  107.4   1.531   21.8  0.3440   49.5  0.2777  -91.2
 4.400  0.4409  106.1   1.504   20.3  0.3523   48.6  0.2750  -93.8
 4.500  0.4475  104.8   1.479   18.7  0.3607   47.8  0.2729  -96.5
 4.600  0.4544  103.4   1.453   17.5  0.3688   46.8  0.2695  -99.7
 4.700  0.4616  102.1   1.428   16.2  0.3770   45.8  0.2670 -102.9
 4.800  0.4690  100.8   1.404   14.9  0.3852   44.9  0.2653 -106.2
 4.900  0.4767   99.5   1.380   13.5  0.3936   44.0  0.2645 -109.5
 5.000  0.4846   98.3   1.357   12.1  0.4021   43.2  0.2646 -112.8
 5.100  0.4886   97.1   1.338   10.9  0.4099   42.1  0.2653 -116.2
 5.200  0.4929   95.8   1.319    9.7  0.4179   41.1  0.2670 -119.7
 5.300  0.4973   94.6   1.301    8.4  0.4260   40.1  0.2697 -123.0
 5.400  0.5020   93.5   1.284    7.1  0.4343   39.1  0.2732 -126.3
 5.500  0.5069   92.3   1.267    5.8  0.4426   38.2  0.2776 -129.5
 5.600  0.5106   91.2   1.249    4.8  0.4499   37.1  0.2802 -132.4
 5.700  0.5144   90.0   1.231    3.7  0.4573   36.1  0.2835 -135.3
 5.800  0.5185   88.9   1.213    2.6  0.4649   35.0  0.2874 -138.1
 5.900  0.5227   87.9   1.196    1.5  0.4726   34.1  0.2921 -140.9
 6.000  0.5271   86.8   1.180    0.3  0.4805   33.1  0.2974 -143.5
!
!  f       NFmin   Gammaopt  rn/50
! GHz       dB    MAG  ANG    -
 0.450      1.25  0.04  146   0.15
 0.900      1.33  0.05  146   0.15
 1.900      1.82  0.24 -148   0.15
 2.400      2.07  0.24 -133   0.22
!
! (c) 2017  Infineon Technologies AG, Munich