! Infineon Technologies  Discrete & RF Semiconductors
! BFR182W
! VCE =  12. V,  IC =  2.0 mA
! Common Emitter S-Parameters:                            Jan 2017
# GHz  S  MA  R  50
!  f         S11            S21            S12            S22
! GHz     MAG   ANG      MAG   ANG      MAG   ANG      MAG   ANG
 0.010  0.9403   -1.7   6.840  178.7  0.0019   86.4  1.0000   -0.7
 0.020  0.9526   -3.1   6.891  177.8  0.0038  101.0  0.9998   -1.5
 0.030  0.9421   -4.5   6.867  176.7  0.0060   91.5  0.9983   -2.1
 0.040  0.9321   -5.9   6.846  175.5  0.0082   87.1  0.9969   -2.8
 0.050  0.9227   -7.3   6.828  174.4  0.0105   84.6  0.9956   -3.4
 0.060  0.9235   -8.8   6.809  173.3  0.0127   83.4  0.9935   -4.1
 0.070  0.9249  -10.3   6.793  172.1  0.0148   82.6  0.9915   -4.7
 0.080  0.9269  -11.8   6.780  171.0  0.0170   82.0  0.9896   -5.4
 0.090  0.9296  -13.3   6.769  169.8  0.0191   81.5  0.9879   -6.0
 0.100  0.9329  -14.8   6.761  168.7  0.0213   81.1  0.9863   -6.7
 0.110  0.9281  -16.2   6.732  167.6  0.0233   79.9  0.9835   -7.3
 0.120  0.9238  -17.6   6.705  166.4  0.0254   78.9  0.9808   -8.0
 0.130  0.9202  -19.1   6.680  165.3  0.0274   78.1  0.9783   -8.6
 0.140  0.9171  -20.5   6.659  164.2  0.0294   77.3  0.9758   -9.3
 0.150  0.9146  -22.0   6.640  163.0  0.0315   76.7  0.9735   -9.9
 0.200  0.8961  -29.2   6.498  157.3  0.0405   73.5  0.9566  -12.9
 0.250  0.8750  -36.1   6.363  151.8  0.0490   69.1  0.9358  -15.7
 0.300  0.8441  -42.8   6.155  146.8  0.0567   65.6  0.9109  -18.3
 0.350  0.8141  -48.8   5.938  142.3  0.0635   62.3  0.8862  -20.5
 0.400  0.7937  -55.2   5.762  137.4  0.0705   59.7  0.8628  -22.8
 0.450  0.7615  -60.8   5.524  133.5  0.0755   56.9  0.8378  -24.6
 0.500  0.7371  -66.8   5.314  129.2  0.0806   54.5  0.8137  -26.5
 0.600  0.6848  -77.6   4.914  121.7  0.0892   50.5  0.7674  -29.3
 0.700  0.6381  -87.3   4.516  115.0  0.0946   47.7  0.7277  -31.6
 0.800  0.5975  -96.4   4.185  109.1  0.0995   46.0  0.6924  -33.4
 0.900  0.5610 -104.9   3.870  103.7  0.1027   43.5  0.6629  -34.9
 1.000  0.5322 -112.9   3.601   99.1  0.1058   42.6  0.6371  -36.3
 1.100  0.5099 -120.5   3.363   94.7  0.1077   41.6  0.6163  -37.5
 1.200  0.4900 -127.7   3.147   90.5  0.1100   41.4  0.5965  -38.6
 1.300  0.4728 -134.5   2.955   86.6  0.1115   41.3  0.5807  -39.7
 1.400  0.4621 -140.8   2.790   83.1  0.1132   42.0  0.5659  -41.0
 1.500  0.4529 -147.1   2.645   79.7  0.1151   42.5  0.5547  -42.1
 1.600  0.4440 -153.0   2.504   76.4  0.1164   43.2  0.5458  -43.2
 1.700  0.4390 -158.4   2.389   73.5  0.1185   44.4  0.5349  -44.6
 1.800  0.4357 -164.0   2.291   70.5  0.1209   45.3  0.5270  -45.9
 1.900  0.4347 -168.9   2.193   67.9  0.1230   46.6  0.5201  -47.3
 2.000  0.4328 -173.9   2.104   64.9  0.1264   48.1  0.5145  -48.7
 2.100  0.4319 -178.6   2.024   62.4  0.1298   49.5  0.5101  -50.3
 2.200  0.4339  176.7   1.948   59.6  0.1332   50.8  0.5061  -51.9
 2.300  0.4361  172.8   1.878   57.2  0.1374   52.1  0.5027  -53.6
 2.400  0.4403  169.0   1.812   54.6  0.1416   53.4  0.4998  -55.4
 2.500  0.4423  165.3   1.751   52.4  0.1469   54.6  0.4980  -57.1
 2.600  0.4462  161.6   1.692   50.0  0.1522   55.7  0.4967  -58.9
 2.700  0.4492  158.0   1.642   47.9  0.1582   56.7  0.4960  -60.6
 2.800  0.4540  154.5   1.595   45.6  0.1643   57.7  0.4957  -62.4
 2.900  0.4575  151.3   1.551   43.5  0.1711   58.4  0.4951  -64.1
 3.000  0.4625  148.1   1.510   41.2  0.1779   59.1  0.4949  -65.8
 3.100  0.4647  145.1   1.470   39.5  0.1863   59.5  0.4940  -67.7
 3.200  0.4682  142.2   1.432   37.8  0.1948   59.9  0.4935  -69.6
 3.300  0.4728  139.3   1.395   36.0  0.2032   60.3  0.4937  -71.4
 3.400  0.4787  136.5   1.360   34.0  0.2116   60.6  0.4943  -73.3
 3.500  0.4856  133.8   1.326   32.0  0.2201   60.9  0.4955  -75.2
 3.600  0.4897  131.2   1.297   30.5  0.2301   60.6  0.4930  -77.2
 3.700  0.4947  128.7   1.270   28.9  0.2402   60.3  0.4910  -79.3
 3.800  0.5007  126.2   1.243   27.2  0.2502   60.1  0.4897  -81.4
 3.900  0.5076  123.8   1.217   25.5  0.2603   59.8  0.4891  -83.4
 4.000  0.5153  121.5   1.193   23.7  0.2703   59.6  0.4891  -85.5
 4.100  0.5193  119.3   1.170   22.3  0.2813   58.8  0.4847  -88.0
 4.200  0.5240  117.2   1.147   20.9  0.2923   58.1  0.4811  -90.5
 4.300  0.5295  115.1   1.126   19.4  0.3034   57.4  0.4785  -93.0
 4.400  0.5357  113.0   1.105   17.8  0.3145   56.8  0.4768  -95.5
 4.500  0.5425  111.0   1.085   16.2  0.3257   56.2  0.4761  -98.1
 4.600  0.5478  109.0   1.064   15.0  0.3370   55.2  0.4720 -101.0
 4.700  0.5538  107.1   1.044   13.8  0.3485   54.2  0.4691 -103.9
 4.800  0.5603  105.2   1.025   12.6  0.3600   53.3  0.4675 -106.9
 4.900  0.5675  103.4   1.006   11.3  0.3716   52.5  0.4671 -109.8
 5.000  0.5752  101.6   0.987    9.9  0.3833   51.7  0.4680 -112.8
 5.100  0.5778   99.9   0.972    8.9  0.3943   50.4  0.4674 -115.9
 5.200  0.5808   98.3   0.958    8.0  0.4055   49.2  0.4682 -119.0
 5.300  0.5844   96.6   0.943    6.9  0.4169   48.0  0.4703 -122.0
 5.400  0.5884   95.0   0.930    5.9  0.4284   46.9  0.4737 -125.0
 5.500  0.5929   93.4   0.916    4.8  0.4401   45.9  0.4784 -128.0
 5.600  0.5946   92.0   0.902    4.0  0.4501   44.6  0.4790 -130.8
 5.700  0.5967   90.6   0.889    3.2  0.4604   43.3  0.4808 -133.6
 5.800  0.5992   89.2   0.875    2.4  0.4709   42.1  0.4837 -136.3
 5.900  0.6020   87.8   0.862    1.5  0.4816   40.9  0.4877 -139.0
 6.000  0.6052   86.4   0.849    0.6  0.4925   39.8  0.4928 -141.7
!
!  f       NFmin   Gammaopt  rn/50
! GHz       dB    MAG  ANG    -
 0.450      0.85  0.50   30   0.26
 0.900      0.99  0.40   58   0.24
 1.900      1.74  0.30  142   0.14
 2.400      2.11  0.26  164   0.19
!
! (c) 2017  Infineon Technologies AG, Munich