! Infineon Technologies  Discrete & RF Semiconductors
! BFR182W
! VCE =  7.0 V,  IC =  33 mA
! Common Emitter S-Parameters:                            Jan 2017
# GHz  S  MA  R  50
!  f         S11            S21            S12            S22
! GHz     MAG   ANG      MAG   ANG      MAG   ANG      MAG   ANG
 0.010  0.4859   -7.7  45.528  174.2  0.0015   79.8  0.9725   -2.7
 0.020  0.4905  -15.7  45.258  169.6  0.0030   95.5  0.9713   -6.4
 0.030  0.4699  -22.9  43.807  165.2  0.0046   85.0  0.9469   -9.3
 0.040  0.4572  -30.5  42.632  160.5  0.0064   80.0  0.9249  -12.3
 0.050  0.4531  -38.5  41.757  155.6  0.0081   77.2  0.9056  -15.4
 0.060  0.4348  -44.1  39.951  152.5  0.0094   75.5  0.8766  -17.1
 0.070  0.4209  -50.1  38.270  149.2  0.0108   74.3  0.8484  -19.0
 0.080  0.4120  -56.5  36.733  145.5  0.0121   73.3  0.8212  -21.0
 0.090  0.4084  -63.0  35.358  141.6  0.0135   72.5  0.7950  -23.1
 0.100  0.4101  -69.6  34.165  137.3  0.0148   71.9  0.7700  -25.3
 0.110  0.3966  -73.7  32.728  135.2  0.0156   70.8  0.7463  -26.1
 0.120  0.3852  -78.0  31.337  133.0  0.0165   69.8  0.7228  -26.9
 0.130  0.3762  -82.6  29.998  130.6  0.0173   68.9  0.6995  -27.8
 0.140  0.3697  -87.4  28.719  127.9  0.0182   68.1  0.6764  -28.8
 0.150  0.3658  -92.3  27.507  125.0  0.0190   67.4  0.6534  -29.8
 0.200  0.3400 -109.5  22.505  116.5  0.0219   66.5  0.5730  -31.2
 0.250  0.3241 -122.3  18.922  110.3  0.0260   66.7  0.5175  -31.2
 0.300  0.3131 -132.1  16.196  105.9  0.0292   67.9  0.4770  -30.5
 0.350  0.3050 -139.0  14.364  102.9  0.0325   69.1  0.4535  -29.8
 0.400  0.3016 -146.2  12.582   99.1  0.0359   70.1  0.4301  -29.0
 0.450  0.2980 -151.3  11.395   97.0  0.0397   70.8  0.4163  -28.4
 0.500  0.2968 -156.4  10.226   94.4  0.0436   71.3  0.4025  -27.8
 0.600  0.2969 -164.6   8.632   90.5  0.0505   71.6  0.3851  -26.9
 0.700  0.2974 -170.9   7.449   87.2  0.0575   72.8  0.3732  -26.4
 0.800  0.2996 -176.5   6.562   84.1  0.0663   73.8  0.3646  -26.5
 0.900  0.3011  178.7   5.850   81.4  0.0731   73.1  0.3579  -26.8
 1.000  0.3046  174.2   5.304   78.8  0.0812   73.4  0.3522  -27.3
 1.100  0.3096  170.3   4.846   76.5  0.0890   73.2  0.3480  -27.9
 1.200  0.3128  166.6   4.456   74.0  0.0965   73.1  0.3437  -28.7
 1.300  0.3139  163.3   4.129   71.8  0.1038   72.7  0.3402  -29.8
 1.400  0.3205  160.3   3.855   69.6  0.1119   72.4  0.3355  -31.0
 1.500  0.3262  157.8   3.610   67.6  0.1199   72.2  0.3325  -32.3
 1.600  0.3297  154.7   3.403   65.4  0.1280   71.6  0.3303  -33.8
 1.700  0.3326  152.0   3.217   63.5  0.1358   71.0  0.3266  -35.4
 1.800  0.3379  149.4   3.060   61.4  0.1433   70.4  0.3229  -37.1
 1.900  0.3420  147.3   2.914   59.6  0.1513   70.1  0.3201  -38.7
 2.000  0.3458  144.9   2.778   57.6  0.1596   69.4  0.3174  -40.8
 2.100  0.3513  142.6   2.663   55.7  0.1676   68.7  0.3149  -42.9
 2.200  0.3574  140.3   2.551   53.7  0.1757   68.1  0.3129  -45.0
 2.300  0.3629  138.4   2.456   52.0  0.1840   67.3  0.3112  -47.2
 2.400  0.3687  136.5   2.364   50.1  0.1923   66.6  0.3100  -49.4
 2.500  0.3734  134.5   2.282   48.4  0.2003   65.8  0.3090  -51.6
 2.600  0.3785  132.5   2.202   46.5  0.2083   65.1  0.3084  -53.9
 2.700  0.3832  130.6   2.133   44.9  0.2164   64.4  0.3078  -56.1
 2.800  0.3883  128.8   2.066   43.1  0.2246   63.7  0.3076  -58.3
 2.900  0.3937  126.9   2.006   41.5  0.2328   62.9  0.3069  -60.4
 3.000  0.3996  125.0   1.947   39.7  0.2411   62.2  0.3067  -62.6
 3.100  0.4033  123.2   1.898   38.3  0.2495   61.3  0.3055  -64.7
 3.200  0.4073  121.4   1.850   36.8  0.2579   60.4  0.3047  -66.7
 3.300  0.4118  119.7   1.804   35.2  0.2664   59.6  0.3043  -68.8
 3.400  0.4166  118.0   1.759   33.5  0.2749   58.8  0.3043  -70.9
 3.500  0.4217  116.4   1.715   31.8  0.2835   58.1  0.3047  -73.0
 3.600  0.4266  114.8   1.679   30.4  0.2919   57.1  0.3017  -75.1
 3.700  0.4317  113.3   1.644   29.0  0.3003   56.1  0.2990  -77.3
 3.800  0.4372  111.8   1.610   27.5  0.3088   55.2  0.2969  -79.4
 3.900  0.4430  110.3   1.578   25.9  0.3174   54.3  0.2951  -81.7
 4.000  0.4490  108.9   1.546   24.3  0.3261   53.5  0.2938  -83.9
 4.100  0.4542  107.5   1.517   23.0  0.3343   52.4  0.2895  -86.4
 4.200  0.4597  106.2   1.490   21.6  0.3427   51.4  0.2857  -89.0
 4.300  0.4655  104.8   1.463   20.1  0.3512   50.4  0.2826  -91.7
 4.400  0.4715  103.6   1.437   18.6  0.3597   49.5  0.2801  -94.4
 4.500  0.4777  102.3   1.412   17.1  0.3684   48.6  0.2782  -97.2
 4.600  0.4841  101.0   1.387   15.9  0.3766   47.5  0.2748 -100.4
 4.700  0.4907   99.7   1.363   14.6  0.3849   46.5  0.2723 -103.7
 4.800  0.4976   98.4   1.340   13.3  0.3934   45.5  0.2707 -107.0
 4.900  0.5048   97.2   1.317   12.0  0.4019   44.6  0.2701 -110.3
 5.000  0.5121   96.0   1.295   10.6  0.4106   43.7  0.2703 -113.7
 5.100  0.5160   94.8   1.276    9.5  0.4184   42.6  0.2710 -117.2
 5.200  0.5200   93.6   1.258    8.3  0.4265   41.5  0.2727 -120.7
 5.300  0.5243   92.4   1.241    7.1  0.4346   40.5  0.2753 -124.2
 5.400  0.5289   91.2   1.223    5.9  0.4429   39.5  0.2790 -127.5
 5.500  0.5336   90.1   1.207    4.6  0.4513   38.5  0.2836 -130.8
 5.600  0.5368   89.0   1.190    3.6  0.4588   37.4  0.2862 -133.7
 5.700  0.5401   88.0   1.173    2.6  0.4664   36.3  0.2895 -136.6
 5.800  0.5437   86.9   1.156    1.5  0.4742   35.3  0.2935 -139.4
 5.900  0.5474   85.9   1.140    0.4  0.4821   34.3  0.2983 -142.1
 6.000  0.5513   84.9   1.124   -0.7  0.4902   33.3  0.3036 -144.7
!
!  f       NFmin   Gammaopt  rn/50
! GHz       dB    MAG  ANG    -
!
! noise parameter not available yet for this operation point!
!
! (c) 2017  Infineon Technologies AG, Munich