! Infineon Technologies  Discrete & RF Semiconductors
! BFR182W
! VCE =  6.0 V,  IC =  33 mA
! Common Emitter S-Parameters:                            Jan 2017
# GHz  S  MA  R  50
!  f         S11            S21            S12            S22
! GHz     MAG   ANG      MAG   ANG      MAG   ANG      MAG   ANG
 0.010  0.4738   -8.1  45.181  174.2  0.0015   80.6  0.9710   -2.8
 0.020  0.4798  -16.6  45.330  169.4  0.0036   86.7  0.9668   -6.5
 0.030  0.4593  -24.0  43.729  165.0  0.0051   79.8  0.9428   -9.4
 0.040  0.4473  -32.0  42.409  160.2  0.0066   76.0  0.9214  -12.4
 0.050  0.4443  -40.3  41.398  155.2  0.0082   73.7  0.9027  -15.6
 0.060  0.4265  -46.1  39.580  152.1  0.0094   72.5  0.8732  -17.3
 0.070  0.4134  -52.2  37.886  148.8  0.0107   71.6  0.8446  -19.2
 0.080  0.4053  -58.7  36.333  145.1  0.0119   70.9  0.8169  -21.1
 0.090  0.4027  -65.4  34.941  141.2  0.0132   70.3  0.7903  -23.2
 0.100  0.4055  -72.1  33.729  136.9  0.0144   69.8  0.7648  -25.5
 0.110  0.3927  -76.4  32.290  134.8  0.0153   69.0  0.7411  -26.3
 0.120  0.3822  -80.9  30.897  132.6  0.0161   68.2  0.7174  -27.1
 0.130  0.3743  -85.6  29.556  130.1  0.0170   67.6  0.6940  -28.0
 0.140  0.3690  -90.6  28.274  127.4  0.0178   66.9  0.6708  -29.0
 0.150  0.3665  -95.6  27.061  124.5  0.0187   66.4  0.6477  -30.0
 0.200  0.3431 -112.3  22.110  116.1  0.0223   67.4  0.5680  -31.3
 0.250  0.3317 -125.1  18.566  109.9  0.0258   66.6  0.5129  -31.3
 0.300  0.3211 -134.6  15.872  105.5  0.0291   66.5  0.4729  -30.7
 0.350  0.3144 -141.5  14.072  102.6  0.0327   68.4  0.4496  -29.9
 0.400  0.3124 -148.6  12.320   98.8  0.0364   69.9  0.4263  -29.0
 0.450  0.3095 -153.4  11.157   96.7  0.0400   70.6  0.4125  -28.4
 0.500  0.3088 -158.3  10.012   94.1  0.0436   71.2  0.3987  -27.8
 0.600  0.3087 -166.2   8.448   90.2  0.0515   71.8  0.3818  -27.0
 0.700  0.3102 -172.4   7.289   86.8  0.0580   73.1  0.3705  -26.5
 0.800  0.3130 -177.5   6.423   83.7  0.0662   73.6  0.3621  -26.6
 0.900  0.3144  177.6   5.724   81.0  0.0734   73.2  0.3556  -26.9
 1.000  0.3174  173.4   5.188   78.5  0.0807   73.5  0.3493  -27.3
 1.100  0.3238  169.7   4.739   76.1  0.0892   73.5  0.3457  -28.2
 1.200  0.3274  166.1   4.360   73.7  0.0967   72.6  0.3414  -29.0
 1.300  0.3285  162.6   4.039   71.4  0.1044   72.9  0.3376  -30.0
 1.400  0.3332  159.9   3.773   69.2  0.1128   72.4  0.3329  -31.3
 1.500  0.3396  157.1   3.532   67.2  0.1203   72.0  0.3296  -32.7
 1.600  0.3424  154.2   3.330   65.0  0.1284   71.6  0.3272  -34.1
 1.700  0.3460  151.7   3.147   63.0  0.1359   71.1  0.3239  -35.8
 1.800  0.3511  149.1   2.994   60.9  0.1441   70.6  0.3206  -37.6
 1.900  0.3570  146.9   2.851   59.2  0.1523   70.0  0.3182  -39.3
 2.000  0.3592  144.6   2.718   57.1  0.1601   69.4  0.3155  -41.3
 2.100  0.3648  142.3   2.605   55.2  0.1682   68.7  0.3129  -43.4
 2.200  0.3710  140.1   2.496   53.2  0.1764   68.0  0.3107  -45.6
 2.300  0.3762  138.1   2.404   51.4  0.1847   67.3  0.3090  -47.8
 2.400  0.3818  136.2   2.314   49.5  0.1931   66.6  0.3078  -50.1
 2.500  0.3866  134.3   2.233   47.8  0.2012   65.9  0.3066  -52.4
 2.600  0.3918  132.4   2.154   46.0  0.2093   65.2  0.3058  -54.7
 2.700  0.3968  130.4   2.087   44.4  0.2175   64.4  0.3054  -56.9
 2.800  0.4023  128.5   2.022   42.6  0.2257   63.6  0.3055  -59.1
 2.900  0.4071  126.6   1.965   40.9  0.2343   62.8  0.3051  -61.3
 3.000  0.4124  124.8   1.909   39.1  0.2429   62.1  0.3051  -63.5
 3.100  0.4162  123.0   1.860   37.7  0.2513   61.2  0.3039  -65.6
 3.200  0.4204  121.2   1.812   36.1  0.2597   60.3  0.3031  -67.7
 3.300  0.4250  119.5   1.766   34.5  0.2681   59.5  0.3027  -69.8
 3.400  0.4300  117.8   1.721   32.9  0.2766   58.8  0.3027  -72.0
 3.500  0.4354  116.1   1.678   31.1  0.2852   58.1  0.3031  -74.1
 3.600  0.4402  114.5   1.643   29.7  0.2937   57.0  0.3001  -76.2
 3.700  0.4454  112.9   1.608   28.3  0.3023   56.0  0.2975  -78.4
 3.800  0.4508  111.4   1.575   26.8  0.3109   55.1  0.2954  -80.6
 3.900  0.4566  109.9   1.543   25.3  0.3197   54.2  0.2937  -82.8
 4.000  0.4627  108.5   1.512   23.7  0.3285   53.3  0.2925  -85.1
 4.100  0.4676  107.1   1.484   22.4  0.3368   52.2  0.2882  -87.7
 4.200  0.4728  105.8   1.457   21.0  0.3452   51.2  0.2845  -90.4
 4.300  0.4783  104.4   1.431   19.5  0.3537   50.2  0.2814  -93.1
 4.400  0.4840  103.2   1.405   18.0  0.3623   49.3  0.2790  -95.9
 4.500  0.4899  101.9   1.381   16.5  0.3710   48.4  0.2773  -98.7
 4.600  0.4962  100.6   1.357   15.3  0.3792   47.4  0.2740 -102.0
 4.700  0.5028   99.3   1.333   14.1  0.3875   46.4  0.2717 -105.3
 4.800  0.5097   98.0   1.309   12.8  0.3959   45.4  0.2703 -108.7
 4.900  0.5168   96.8   1.287   11.5  0.4045   44.5  0.2698 -112.1
 5.000  0.5241   95.6   1.265   10.1  0.4131   43.6  0.2703 -115.5
 5.100  0.5278   94.3   1.247    9.0  0.4210   42.4  0.2712 -119.0
 5.200  0.5317   93.1   1.229    7.8  0.4290   41.3  0.2731 -122.5
 5.300  0.5359   91.9   1.212    6.6  0.4372   40.2  0.2760 -126.0
 5.400  0.5403   90.7   1.196    5.4  0.4456   39.2  0.2799 -129.3
 5.500  0.5449   89.5   1.180    4.1  0.4541   38.2  0.2847 -132.6
 5.600  0.5479   88.4   1.163    3.1  0.4615   37.1  0.2874 -135.5
 5.700  0.5510   87.4   1.146    2.1  0.4690   36.0  0.2908 -138.4
 5.800  0.5544   86.3   1.130    1.0  0.4767   35.0  0.2949 -141.2
 5.900  0.5579   85.3   1.114   -0.1  0.4846   34.0  0.2997 -143.9
 6.000  0.5616   84.3   1.098   -1.2  0.4926   33.0  0.3051 -146.5
!
!  f       NFmin   Gammaopt  rn/50
! GHz       dB    MAG  ANG    -
!
! noise parameter not available yet for this operation point!
!
! (c) 2017  Infineon Technologies AG, Munich