! Infineon Technologies  Discrete & RF Semiconductors
! BFR182W
! VCE =  6.0 V,  IC =  8.0 mA
! Common Emitter S-Parameters:                            Jan 2017
# GHz  S  MA  R  50
!  f         S11            S21            S12            S22
! GHz     MAG   ANG      MAG   ANG      MAG   ANG      MAG   ANG
 0.010  0.7710   -3.5  21.809  177.1  0.0018   78.3  0.9971   -1.6
 0.020  0.7836   -6.8  21.976  174.8  0.0038   92.1  0.9932   -3.5
 0.030  0.7678  -10.0  21.718  172.4  0.0057   85.4  0.9863   -5.1
 0.040  0.7544  -13.3  21.501  169.8  0.0076   82.1  0.9803   -6.7
 0.050  0.7436  -16.7  21.326  167.3  0.0096   80.1  0.9750   -8.4
 0.060  0.7344  -19.8  21.008  165.1  0.0117   78.4  0.9639   -9.8
 0.070  0.7273  -23.0  20.723  162.8  0.0137   77.3  0.9534  -11.3
 0.080  0.7226  -26.2  20.472  160.4  0.0158   76.4  0.9436  -12.8
 0.090  0.7202  -29.5  20.256  158.0  0.0178   75.7  0.9344  -14.3
 0.100  0.7202  -32.8  20.076  155.6  0.0199   75.2  0.9259  -15.9
 0.110  0.7053  -35.4  19.691  153.7  0.0214   73.5  0.9119  -17.0
 0.120  0.6920  -38.1  19.329  151.7  0.0229   72.0  0.8982  -18.2
 0.130  0.6803  -41.0  18.991  149.6  0.0244   70.8  0.8850  -19.5
 0.140  0.6703  -43.9  18.680  147.4  0.0259   69.6  0.8721  -20.7
 0.150  0.6621  -46.9  18.396  145.2  0.0274   68.6  0.8597  -22.0
 0.200  0.6076  -59.8  16.655  136.4  0.0318   65.5  0.7917  -26.4
 0.250  0.5590  -71.0  15.051  128.9  0.0378   61.7  0.7301  -29.7
 0.300  0.5118  -80.8  13.549  122.9  0.0413   60.4  0.6735  -31.9
 0.350  0.4743  -88.5  12.349  118.6  0.0448   59.2  0.6316  -33.0
 0.400  0.4466  -97.3  11.232  113.5  0.0483   58.2  0.5899  -34.3
 0.450  0.4197 -103.8  10.319  110.3  0.0511   58.0  0.5599  -34.8
 0.500  0.3989 -111.0   9.445  106.5  0.0539   57.9  0.5299  -35.3
 0.600  0.3668 -122.5   8.139  100.8  0.0608   58.3  0.4885  -35.5
 0.700  0.3462 -132.5   7.114   96.2  0.0660   59.1  0.4581  -35.4
 0.800  0.3314 -141.6   6.328   92.0  0.0720   60.4  0.4358  -35.4
 0.900  0.3210 -149.3   5.678   88.4  0.0784   61.0  0.4183  -35.5
 1.000  0.3150 -156.3   5.168   85.1  0.0844   61.5  0.4044  -35.8
 1.100  0.3115 -162.9   4.736   82.2  0.0906   62.4  0.3940  -36.1
 1.200  0.3100 -168.8   4.370   79.3  0.0971   62.6  0.3846  -36.5
 1.300  0.3082 -174.2   4.055   76.6  0.1038   63.1  0.3770  -37.2
 1.400  0.3094 -178.8   3.796   74.1  0.1103   63.5  0.3696  -38.1
 1.500  0.3121  176.9   3.560   71.7  0.1167   63.8  0.3637  -39.0
 1.600  0.3135  172.5   3.355   69.2  0.1237   63.9  0.3597  -40.1
 1.700  0.3172  168.7   3.177   67.1  0.1309   64.1  0.3538  -41.4
 1.800  0.3219  164.8   3.026   64.8  0.1380   63.8  0.3495  -42.8
 1.900  0.3248  161.7   2.884   62.8  0.1449   63.8  0.3457  -44.2
 2.000  0.3292  158.4   2.752   60.5  0.1522   63.7  0.3424  -45.9
 2.100  0.3334  155.1   2.640   58.5  0.1598   63.4  0.3394  -47.7
 2.200  0.3387  151.9   2.531   56.4  0.1674   63.2  0.3367  -49.5
 2.300  0.3440  149.3   2.437   54.4  0.1748   62.8  0.3346  -51.4
 2.400  0.3500  146.8   2.347   52.3  0.1822   62.5  0.3329  -53.4
 2.500  0.3545  144.3   2.266   50.5  0.1896   62.1  0.3317  -55.3
 2.600  0.3597  141.9   2.187   48.6  0.1970   61.7  0.3309  -57.3
 2.700  0.3647  139.5   2.119   46.9  0.2049   61.3  0.3306  -59.2
 2.800  0.3703  137.2   2.054   45.0  0.2128   60.9  0.3306  -61.2
 2.900  0.3755  134.9   1.995   43.2  0.2207   60.2  0.3297  -63.1
 3.000  0.3813  132.7   1.939   41.3  0.2286   59.6  0.3292  -65.1
 3.100  0.3851  130.5   1.890   39.8  0.2367   58.9  0.3282  -67.0
 3.200  0.3894  128.4   1.842   38.2  0.2449   58.3  0.3275  -68.9
 3.300  0.3943  126.3   1.795   36.6  0.2531   57.7  0.3273  -70.9
 3.400  0.3996  124.3   1.750   34.8  0.2614   57.2  0.3273  -72.8
 3.500  0.4055  122.3   1.707   33.0  0.2696   56.7  0.3278  -74.7
 3.600  0.4106  120.5   1.671   31.6  0.2781   55.8  0.3250  -76.7
 3.700  0.4161  118.7   1.637   30.1  0.2866   55.0  0.3226  -78.7
 3.800  0.4220  117.0   1.603   28.6  0.2952   54.2  0.3206  -80.7
 3.900  0.4283  115.3   1.571   27.0  0.3038   53.5  0.3190  -82.8
 4.000  0.4349  113.7   1.540   25.3  0.3125   52.8  0.3178  -84.9
 4.100  0.4402  112.1   1.512   23.9  0.3209   51.8  0.3137  -87.3
 4.200  0.4459  110.6   1.484   22.5  0.3294   50.9  0.3102  -89.8
 4.300  0.4518  109.1   1.458   21.0  0.3379   50.1  0.3073  -92.4
 4.400  0.4581  107.6   1.432   19.4  0.3465   49.3  0.3050  -95.0
 4.500  0.4646  106.2   1.408   17.8  0.3552   48.5  0.3033  -97.6
 4.600  0.4714  104.7   1.383   16.6  0.3636   47.5  0.3000 -100.7
 4.700  0.4786  103.2   1.358   15.3  0.3722   46.6  0.2975 -103.8
 4.800  0.4860  101.8   1.334   13.9  0.3808   45.7  0.2959 -107.0
 4.900  0.4938  100.4   1.311   12.5  0.3896   44.8  0.2953 -110.2
 5.000  0.5018   99.1   1.289   11.1  0.3984   44.0  0.2956 -113.4
 5.100  0.5057   97.8   1.270    9.9  0.4068   42.9  0.2963 -116.8
 5.200  0.5099   96.5   1.252    8.7  0.4153   41.8  0.2981 -120.1
 5.300  0.5144   95.3   1.234    7.5  0.4240   40.8  0.3008 -123.4
 5.400  0.5191   94.0   1.217    6.2  0.4328   39.8  0.3045 -126.6
 5.500  0.5240   92.8   1.200    4.9  0.4417   38.9  0.3091 -129.7
 5.600  0.5276   91.6   1.183    3.9  0.4495   37.8  0.3116 -132.6
 5.700  0.5314   90.5   1.166    2.8  0.4575   36.8  0.3148 -135.4
 5.800  0.5354   89.3   1.150    1.8  0.4656   35.7  0.3188 -138.1
 5.900  0.5397   88.2   1.134    0.6  0.4739   34.7  0.3235 -140.8
 6.000  0.5441   87.1   1.118   -0.5  0.4823   33.8  0.3289 -143.4
!
!  f       NFmin   Gammaopt  rn/50
! GHz       dB    MAG  ANG    -
 0.450      1.00  0.12   39   0.15
 0.900      1.08  0.12   69   0.15
 1.900      1.59  0.18 -174   0.13
 2.400      1.85  0.18 -169   0.19
!
! (c) 2017  Infineon Technologies AG, Munich