! Infineon Technologies  Discrete & RF Semiconductors
! BFR182W
! VCE =  5.0 V,  IC =  5.0 mA
! Common Emitter S-Parameters:                            Jan 2017
# GHz  S  MA  R  50
!  f         S11            S21            S12            S22
! GHz     MAG   ANG      MAG   ANG      MAG   ANG      MAG   ANG
 0.010  0.8410   -2.7  15.084  177.9  0.0021   78.8  0.9997   -1.2
 0.020  0.8581   -5.1  15.317  176.2  0.0034   87.1  1.0000   -2.7
 0.030  0.8431   -7.6  15.171  174.3  0.0057   85.8  0.9963   -3.9
 0.040  0.8298  -10.1  15.042  172.4  0.0080   85.3  0.9907   -5.1
 0.050  0.8181  -12.7  14.930  170.4  0.0103   85.0  0.9856   -6.3
 0.060  0.8132  -15.2  14.794  168.6  0.0124   82.6  0.9788   -7.5
 0.070  0.8098  -17.7  14.674  166.7  0.0146   80.9  0.9723   -8.7
 0.080  0.8080  -20.2  14.569  164.8  0.0168   79.6  0.9663   -9.9
 0.090  0.8077  -22.8  14.480  162.9  0.0189   78.7  0.9607  -11.1
 0.100  0.8091  -25.3  14.407  161.0  0.0211   77.9  0.9556  -12.3
 0.110  0.7984  -27.5  14.231  159.3  0.0228   76.1  0.9466  -13.3
 0.120  0.7890  -29.8  14.068  157.6  0.0246   74.6  0.9380  -14.4
 0.130  0.7808  -32.1  13.918  155.8  0.0263   73.3  0.9297  -15.5
 0.140  0.7740  -34.5  13.781  154.0  0.0281   72.2  0.9217  -16.6
 0.150  0.7685  -36.9  13.658  152.2  0.0299   71.2  0.9141  -17.7
 0.200  0.7243  -47.7  12.809  144.2  0.0373   67.6  0.8653  -22.0
 0.250  0.6801  -57.9  11.957  137.0  0.0441   62.9  0.8157  -25.6
 0.300  0.6342  -66.9  11.066  131.0  0.0489   60.2  0.7661  -28.4
 0.350  0.5926  -74.2  10.261  126.3  0.0531   57.9  0.7242  -30.2
 0.400  0.5619  -82.4   9.535  120.9  0.0573   55.9  0.6832  -32.3
 0.450  0.5280  -88.8   8.861  117.2  0.0606   55.0  0.6503  -33.4
 0.500  0.5015  -95.9   8.229  113.0  0.0639   54.2  0.6177  -34.6
 0.600  0.4547 -107.7   7.215  106.5  0.0699   52.7  0.5675  -35.9
 0.700  0.4235 -118.2   6.376  101.1  0.0742   53.1  0.5294  -36.6
 0.800  0.3991 -127.2   5.721   96.3  0.0795   53.5  0.5007  -37.2
 0.900  0.3802 -135.7   5.162   92.2  0.0845   53.6  0.4772  -37.6
 1.000  0.3668 -143.3   4.721   88.5  0.0889   54.3  0.4582  -38.1
 1.100  0.3603 -150.4   4.342   85.1  0.0945   55.6  0.4445  -38.6
 1.200  0.3529 -157.0   4.016   81.8  0.0992   55.6  0.4314  -39.1
 1.300  0.3480 -162.8   3.734   78.8  0.1040   56.6  0.4215  -39.9
 1.400  0.3470 -168.3   3.499   76.0  0.1101   57.1  0.4115  -40.8
 1.500  0.3472 -173.4   3.290   73.3  0.1155   57.7  0.4039  -41.7
 1.600  0.3469 -178.0   3.105   70.7  0.1212   58.4  0.3986  -42.7
 1.700  0.3480  177.2   2.943   68.3  0.1271   59.0  0.3915  -44.0
 1.800  0.3510  173.3   2.804   65.8  0.1335   59.2  0.3860  -45.3
 1.900  0.3545  169.4   2.676   63.6  0.1395   59.5  0.3819  -46.7
 2.000  0.3553  165.6   2.558   61.1  0.1464   59.7  0.3778  -48.3
 2.100  0.3597  162.0   2.454   59.0  0.1531   59.9  0.3743  -50.0
 2.200  0.3655  158.5   2.354   56.7  0.1599   60.0  0.3712  -51.7
 2.300  0.3706  155.5   2.268   54.6  0.1668   60.1  0.3689  -53.6
 2.400  0.3768  152.5   2.186   52.4  0.1737   60.1  0.3671  -55.5
 2.500  0.3803  149.7   2.110   50.5  0.1809   60.0  0.3658  -57.3
 2.600  0.3848  146.9   2.037   48.4  0.1882   59.9  0.3649  -59.2
 2.700  0.3897  144.3   1.974   46.6  0.1957   59.7  0.3643  -61.1
 2.800  0.3954  141.8   1.914   44.6  0.2033   59.5  0.3641  -63.0
 2.900  0.4006  139.2   1.860   42.7  0.2110   59.1  0.3633  -64.9
 3.000  0.4066  136.6   1.809   40.7  0.2187   58.8  0.3629  -66.8
 3.100  0.4101  134.2   1.763   39.2  0.2270   58.4  0.3619  -68.7
 3.200  0.4142  131.9   1.718   37.5  0.2352   58.0  0.3613  -70.6
 3.300  0.4191  129.7   1.675   35.8  0.2435   57.6  0.3612  -72.5
 3.400  0.4245  127.5   1.633   34.0  0.2518   57.2  0.3614  -74.4
 3.500  0.4306  125.3   1.593   32.1  0.2601   56.9  0.3620  -76.3
 3.600  0.4356  123.3   1.559   30.6  0.2688   56.1  0.3594  -78.3
 3.700  0.4411  121.3   1.527   29.1  0.2775   55.4  0.3572  -80.4
 3.800  0.4472  119.4   1.495   27.6  0.2863   54.7  0.3555  -82.4
 3.900  0.4537  117.5   1.465   25.9  0.2951   54.1  0.3542  -84.5
 4.000  0.4607  115.7   1.436   24.2  0.3040   53.5  0.3534  -86.6
 4.100  0.4660  114.0   1.409   22.8  0.3129   52.6  0.3493  -89.1
 4.200  0.4717  112.3   1.383   21.3  0.3219   51.7  0.3459  -91.6
 4.300  0.4778  110.7   1.358   19.8  0.3310   50.9  0.3432  -94.1
 4.400  0.4843  109.1   1.334   18.2  0.3401   50.1  0.3411  -96.7
 4.500  0.4912  107.5   1.311   16.6  0.3493   49.4  0.3398  -99.3
 4.600  0.4976  105.9   1.287   15.4  0.3583   48.4  0.3366 -102.3
 4.700  0.5043  104.3   1.264   14.1  0.3675   47.5  0.3343 -105.4
 4.800  0.5115  102.8   1.241   12.7  0.3767   46.6  0.3330 -108.5
 4.900  0.5190  101.3   1.219   11.3  0.3860   45.8  0.3327 -111.7
 5.000  0.5268   99.8   1.198    9.9  0.3954   45.0  0.3334 -114.8
 5.100  0.5303   98.4   1.180    8.8  0.4043   43.9  0.3341 -118.1
 5.200  0.5342   97.0   1.163    7.6  0.4134   42.8  0.3358 -121.3
 5.300  0.5383   95.6   1.146    6.4  0.4227   41.8  0.3387 -124.5
 5.400  0.5428   94.2   1.130    5.2  0.4320   40.8  0.3425 -127.6
 5.500  0.5476   92.9   1.114    3.9  0.4415   39.9  0.3474 -130.7
 5.600  0.5509   91.7   1.098    2.9  0.4499   38.8  0.3498 -133.5
 5.700  0.5545   90.5   1.082    1.9  0.4584   37.7  0.3530 -136.3
 5.800  0.5584   89.2   1.066    0.9  0.4671   36.6  0.3570 -139.0
 5.900  0.5625   88.1   1.051   -0.2  0.4760   35.6  0.3618 -141.7
 6.000  0.5668   86.9   1.036   -1.3  0.4850   34.6  0.3674 -144.3
!
!  f       NFmin   Gammaopt  rn/50
! GHz       dB    MAG  ANG    -
 0.450      0.88  0.26   32   0.17
 0.900      0.98  0.21   59   0.16
 1.900      1.55  0.19  162   0.13
 2.400      1.83  0.21  176   0.17
!
! (c) 2017  Infineon Technologies AG, Munich