! Infineon Technologies  Discrete & RF Semiconductors
! BFR182W
! VCE =  4.0 V,  IC =  40 mA
! Common Emitter S-Parameters:                            Jan 2017
# GHz  S  MA  R  50
!  f         S11            S21            S12            S22
! GHz     MAG   ANG      MAG   ANG      MAG   ANG      MAG   ANG
 0.010  0.3981  -13.1  42.656  173.4  0.0018   79.8  0.9320   -3.3
 0.020  0.4055  -26.1  42.570  167.4  0.0033   87.7  0.9262   -7.6
 0.030  0.3873  -37.2  40.553  162.2  0.0051   78.3  0.8955  -10.7
 0.040  0.3846  -48.8  38.899  156.6  0.0070   73.8  0.8676  -14.0
 0.050  0.3977  -60.2  37.653  150.5  0.0089   71.3  0.8427  -17.5
 0.060  0.3856  -67.9  35.602  147.4  0.0101   69.3  0.8106  -19.0
 0.070  0.3808  -76.0  33.672  143.8  0.0113   67.7  0.7790  -20.6
 0.080  0.3836  -84.1  31.883  139.9  0.0125   66.4  0.7481  -22.3
 0.090  0.3940  -91.9  30.262  135.5  0.0137   65.4  0.7179  -24.2
 0.100  0.4112  -99.2  28.836  130.7  0.0149   64.5  0.6886  -26.2
 0.110  0.4063 -103.8  27.424  128.8  0.0157   63.7  0.6667  -26.6
 0.120  0.4042 -108.5  26.046  126.6  0.0166   62.9  0.6448  -27.1
 0.130  0.4048 -113.3  24.708  124.3  0.0174   62.2  0.6229  -27.6
 0.140  0.4081 -117.9  23.417  121.6  0.0183   61.6  0.6011  -28.1
 0.150  0.4141 -122.5  22.182  118.7  0.0191   61.0  0.5794  -28.7
 0.200  0.4193 -136.9  17.704  110.9  0.0221   64.3  0.5137  -28.5
 0.250  0.4226 -146.9  14.661  105.1  0.0256   63.7  0.4721  -27.6
 0.300  0.4236 -154.2  12.432  101.2  0.0285   65.5  0.4434  -26.5
 0.350  0.4230 -159.3  10.985   98.5  0.0321   66.9  0.4278  -25.7
 0.400  0.4257 -164.3   9.570   95.0  0.0357   68.1  0.4122  -24.8
 0.450  0.4266 -167.9   8.645   93.0  0.0391   69.5  0.4031  -24.4
 0.500  0.4292 -171.5   7.734   90.5  0.0425   70.6  0.3941  -24.0
 0.600  0.4326 -177.3   6.508   86.8  0.0501   71.4  0.3829  -23.7
 0.700  0.4340  178.2   5.607   83.5  0.0572   73.0  0.3756  -23.9
 0.800  0.4397  173.9   4.937   80.4  0.0649   74.0  0.3698  -24.5
 0.900  0.4407  170.2   4.396   77.6  0.0725   74.1  0.3652  -25.3
 1.000  0.4463  166.6   3.988   75.0  0.0800   74.2  0.3608  -26.3
 1.100  0.4510  163.6   3.641   72.6  0.0879   74.3  0.3573  -27.6
 1.200  0.4534  160.5   3.351   70.1  0.0959   74.2  0.3541  -28.8
 1.300  0.4564  157.6   3.105   67.7  0.1035   74.0  0.3508  -30.3
 1.400  0.4596  155.0   2.903   65.4  0.1117   73.8  0.3466  -32.0
 1.500  0.4656  152.6   2.720   63.2  0.1196   73.5  0.3436  -33.8
 1.600  0.4681  149.8   2.565   60.9  0.1281   73.2  0.3416  -35.5
 1.700  0.4736  147.5   2.426   58.8  0.1360   72.7  0.3378  -37.6
 1.800  0.4770  145.1   2.309   56.6  0.1449   72.2  0.3351  -39.6
 1.900  0.4813  142.9   2.199   54.7  0.1528   71.7  0.3323  -41.8
 2.000  0.4853  140.8   2.096   52.6  0.1617   71.0  0.3299  -44.1
 2.100  0.4903  138.5   2.010   50.6  0.1702   70.3  0.3276  -46.5
 2.200  0.4961  136.3   1.926   48.5  0.1788   69.6  0.3258  -49.0
 2.300  0.5005  134.4   1.855   46.7  0.1876   69.0  0.3241  -51.6
 2.400  0.5054  132.5   1.787   44.7  0.1965   68.4  0.3230  -54.2
 2.500  0.5093  130.5   1.725   42.9  0.2052   67.6  0.3222  -56.7
 2.600  0.5137  128.6   1.665   41.0  0.2139   66.9  0.3221  -59.3
 2.700  0.5182  126.6   1.613   39.4  0.2229   66.1  0.3221  -61.8
 2.800  0.5233  124.7   1.563   37.6  0.2319   65.3  0.3227  -64.3
 2.900  0.5270  122.7   1.517   35.9  0.2410   64.4  0.3221  -66.8
 3.000  0.5314  120.8   1.473   34.1  0.2502   63.5  0.3221  -69.3
 3.100  0.5342  119.0   1.436   32.7  0.2594   62.5  0.3207  -71.7
 3.200  0.5375  117.2   1.399   31.2  0.2686   61.6  0.3199  -74.1
 3.300  0.5413  115.4   1.364   29.6  0.2779   60.7  0.3196  -76.5
 3.400  0.5456  113.6   1.329   27.9  0.2872   59.9  0.3199  -78.9
 3.500  0.5505  111.9   1.296   26.2  0.2966   59.2  0.3208  -81.3
 3.600  0.5542  110.2   1.269   24.9  0.3059   58.0  0.3177  -83.7
 3.700  0.5583  108.6   1.242   23.6  0.3152   56.9  0.3151  -86.2
 3.800  0.5630  107.0   1.216   22.2  0.3247   55.9  0.3132  -88.8
 3.900  0.5680  105.4   1.191   20.7  0.3343   54.9  0.3119  -91.3
 4.000  0.5735  103.8   1.167   19.2  0.3440   54.0  0.3112  -93.9
 4.100  0.5761  102.3   1.145   18.0  0.3529   52.8  0.3069  -96.8
 4.200  0.5790  100.9   1.124   16.7  0.3620   51.6  0.3034  -99.9
 4.300  0.5823   99.4   1.103   15.3  0.3713   50.5  0.3008 -102.9
 4.400  0.5860   98.0   1.083   13.9  0.3806   49.5  0.2990 -106.1
 4.500  0.5900   96.6   1.064   12.5  0.3901   48.5  0.2982 -109.2
 4.600  0.5947   95.2   1.045   11.5  0.3988   47.3  0.2954 -112.7
 4.700  0.5997   93.9   1.027   10.4  0.4076   46.2  0.2937 -116.3
 4.800  0.6051   92.6   1.009    9.3  0.4166   45.1  0.2932 -119.9
 4.900  0.6107   91.3   0.992    8.2  0.4257   44.0  0.2938 -123.4
 5.000  0.6167   90.0   0.975    7.0  0.4350   43.0  0.2956 -127.0
 5.100  0.6184   88.7   0.962    6.1  0.4432   41.8  0.2973 -130.6
 5.200  0.6203   87.5   0.949    5.1  0.4515   40.5  0.3001 -134.0
 5.300  0.6226   86.2   0.937    4.1  0.4601   39.4  0.3040 -137.5
 5.400  0.6251   84.9   0.925    3.1  0.4688   38.3  0.3089 -140.8
 5.500  0.6280   83.7   0.913    2.1  0.4777   37.2  0.3149 -144.0
 5.600  0.6289   82.6   0.901    1.3  0.4850   36.0  0.3179 -146.9
 5.700  0.6300   81.5   0.889    0.5  0.4925   34.8  0.3217 -149.7
 5.800  0.6313   80.4   0.878   -0.3  0.5003   33.6  0.3262 -152.5
 5.900  0.6329   79.4   0.866   -1.1  0.5082   32.5  0.3314 -155.1
 6.000  0.6347   78.3   0.855   -2.0  0.5163   31.4  0.3374 -157.7
!
!  f       NFmin   Gammaopt  rn/50
! GHz       dB    MAG  ANG    -
!
! noise parameter not available yet for this operation point!
!
! (c) 2017  Infineon Technologies AG, Munich