! Infineon Technologies  Discrete & RF Semiconductors
! BFR182W
! VCE =  3.0 V,  IC =  25 mA
! Common Emitter S-Parameters:                            Jan 2017
# GHz  S  MA  R  50
!  f         S11            S21            S12            S22
! GHz     MAG   ANG      MAG   ANG      MAG   ANG      MAG   ANG
 0.010  0.5063   -8.2  40.121  174.8  0.0016   86.0  0.9728   -3.0
 0.020  0.5121  -16.3  40.368  170.1  0.0036   89.5  0.9623   -6.5
 0.030  0.4919  -23.6  39.044  165.8  0.0054   82.1  0.9414   -9.4
 0.040  0.4802  -31.3  37.958  161.2  0.0072   78.4  0.9231  -12.5
 0.050  0.4776  -39.3  37.131  156.3  0.0091   76.2  0.9076  -15.7
 0.060  0.4597  -45.1  35.588  153.2  0.0106   74.3  0.8789  -17.5
 0.070  0.4469  -51.3  34.157  149.9  0.0121   72.8  0.8512  -19.5
 0.080  0.4396  -57.7  32.851  146.3  0.0136   71.7  0.8246  -21.5
 0.090  0.4380  -64.3  31.687  142.4  0.0151   70.7  0.7991  -23.7
 0.100  0.4422  -70.9  30.680  138.2  0.0166   70.0  0.7748  -26.1
 0.110  0.4288  -75.2  29.418  136.1  0.0175   68.7  0.7505  -27.0
 0.120  0.4180  -79.7  28.197  133.9  0.0184   67.4  0.7264  -28.0
 0.130  0.4100  -84.5  27.025  131.4  0.0193   66.3  0.7025  -29.0
 0.140  0.4049  -89.4  25.907  128.7  0.0202   65.3  0.6789  -30.1
 0.150  0.4028  -94.4  24.851  125.8  0.0211   64.4  0.6555  -31.3
 0.200  0.3819 -111.4  20.426  117.2  0.0244   64.0  0.5712  -33.3
 0.250  0.3697 -124.3  17.219  110.7  0.0287   63.5  0.5120  -33.6
 0.300  0.3582 -133.8  14.750  106.2  0.0315   64.9  0.4686  -33.3
 0.350  0.3522 -140.8  13.097  103.1  0.0349   65.8  0.4423  -32.7
 0.400  0.3515 -147.9  11.493   99.2  0.0384   66.5  0.4161  -32.0
 0.450  0.3482 -152.9  10.410   97.0  0.0424   67.5  0.4007  -31.4
 0.500  0.3476 -158.0   9.346   94.2  0.0465   68.4  0.3854  -30.7
 0.600  0.3477 -165.6   7.888   90.1  0.0535   69.2  0.3662  -29.8
 0.700  0.3491 -171.8   6.808   86.7  0.0610   70.7  0.3525  -29.3
 0.800  0.3509 -177.3   5.999   83.4  0.0694   71.4  0.3432  -29.4
 0.900  0.3523  178.1   5.348   80.6  0.0766   71.3  0.3358  -29.5
 1.000  0.3562  173.9   4.851   77.9  0.0843   71.6  0.3290  -30.0
 1.100  0.3602  170.0   4.429   75.5  0.0920   71.4  0.3248  -30.8
 1.200  0.3635  166.4   4.076   72.9  0.0993   71.2  0.3200  -31.5
 1.300  0.3667  163.2   3.777   70.5  0.1074   71.2  0.3164  -32.7
 1.400  0.3711  160.2   3.529   68.3  0.1159   70.9  0.3112  -34.1
 1.500  0.3767  157.8   3.305   66.2  0.1240   70.4  0.3080  -35.4
 1.600  0.3812  154.6   3.115   63.9  0.1322   70.0  0.3052  -36.9
 1.700  0.3828  152.2   2.946   61.9  0.1403   69.7  0.3019  -38.8
 1.800  0.3896  149.5   2.804   59.7  0.1481   69.2  0.2983  -40.4
 1.900  0.3941  147.3   2.670   57.9  0.1564   68.5  0.2956  -42.4
 2.000  0.3982  144.9   2.545   55.7  0.1647   67.9  0.2932  -44.6
 2.100  0.4038  142.6   2.440   53.8  0.1730   67.3  0.2908  -46.8
 2.200  0.4101  140.3   2.337   51.8  0.1814   66.7  0.2888  -49.1
 2.300  0.4150  138.3   2.251   49.9  0.1898   66.0  0.2872  -51.5
 2.400  0.4204  136.4   2.168   47.9  0.1983   65.3  0.2862  -53.9
 2.500  0.4241  134.4   2.092   46.2  0.2065   64.5  0.2852  -56.3
 2.600  0.4284  132.4   2.018   44.3  0.2147   63.8  0.2848  -58.7
 2.700  0.4338  130.5   1.955   42.6  0.2232   63.1  0.2846  -61.1
 2.800  0.4397  128.6   1.894   40.8  0.2318   62.4  0.2849  -63.5
 2.900  0.4439  126.7   1.839   39.1  0.2403   61.5  0.2846  -65.8
 3.000  0.4486  124.8   1.786   37.3  0.2489   60.7  0.2848  -68.2
 3.100  0.4524  122.9   1.741   35.9  0.2574   59.8  0.2837  -70.4
 3.200  0.4566  121.1   1.697   34.3  0.2660   58.9  0.2830  -72.7
 3.300  0.4613  119.4   1.654   32.7  0.2746   58.1  0.2828  -75.0
 3.400  0.4664  117.6   1.612   31.1  0.2833   57.3  0.2830  -77.2
 3.500  0.4720  115.9   1.572   29.3  0.2920   56.6  0.2836  -79.5
 3.600  0.4766  114.3   1.539   27.9  0.3006   55.6  0.2808  -81.8
 3.700  0.4816  112.7   1.507   26.5  0.3092   54.6  0.2785  -84.1
 3.800  0.4869  111.1   1.475   25.0  0.3180   53.6  0.2767  -86.5
 3.900  0.4926  109.6   1.445   23.4  0.3268   52.7  0.2753  -88.9
 4.000  0.4986  108.1   1.416   21.8  0.3357   51.9  0.2744  -91.3
 4.100  0.5031  106.7   1.389   20.4  0.3440   50.8  0.2704  -94.1
 4.200  0.5078  105.3   1.364   19.0  0.3524   49.7  0.2671  -97.0
 4.300  0.5129  103.9   1.339   17.6  0.3610   48.7  0.2646 -100.0
 4.400  0.5183  102.5   1.315   16.1  0.3696   47.7  0.2627 -103.0
 4.500  0.5239  101.2   1.292   14.5  0.3784   46.8  0.2616 -106.1
 4.600  0.5298   99.8   1.269   13.3  0.3867   45.7  0.2590 -109.6
 4.700  0.5359   98.4   1.247   12.1  0.3951   44.7  0.2575 -113.1
 4.800  0.5424   97.1   1.225   10.9  0.4036   43.7  0.2569 -116.7
 4.900  0.5492   95.8   1.204    9.5  0.4123   42.8  0.2573 -120.3
 5.000  0.5562   94.5   1.183    8.2  0.4210   41.9  0.2587 -123.8
 5.100  0.5593   93.2   1.166    7.1  0.4288   40.7  0.2607 -127.4
 5.200  0.5626   92.0   1.150    6.0  0.4368   39.6  0.2637 -131.0
 5.300  0.5662   90.8   1.134    4.9  0.4450   38.5  0.2676 -134.4
 5.400  0.5701   89.6   1.118    3.7  0.4533   37.4  0.2726 -137.8
 5.500  0.5742   88.4   1.103    2.5  0.4618   36.4  0.2784 -141.0
 5.600  0.5768   87.3   1.087    1.6  0.4691   35.3  0.2817 -143.9
 5.700  0.5797   86.2   1.071    0.6  0.4766   34.2  0.2858 -146.7
 5.800  0.5828   85.1   1.055   -0.4  0.4843   33.2  0.2905 -149.5
 5.900  0.5860   84.1   1.040   -1.4  0.4921   32.2  0.2959 -152.1
 6.000  0.5895   83.0   1.025   -2.5  0.5001   31.2  0.3019 -154.7
!
!  f       NFmin   Gammaopt  rn/50
! GHz       dB    MAG  ANG    -
 0.450      1.56  0.16 -169   0.15
 0.900      1.65  0.17 -163   0.16
 1.900      2.18  0.33 -138   0.18
 2.400      2.46  0.34 -127   0.29
!
! (c) 2017  Infineon Technologies AG, Munich