! Infineon Technologies  Discrete & RF Semiconductors
! BFR182W
! VCE =  9.0 V,  IC =  8.0 mA
! Common Emitter S-Parameters:                            Jan 2017
# GHz  S  MA  R  50
!  f         S11            S21            S12            S22
! GHz     MAG   ANG      MAG   ANG      MAG   ANG      MAG   ANG
 0.010  0.7796   -3.2  21.864  176.8  0.0017   92.8  0.9968   -1.6
 0.020  0.7928   -6.6  22.064  174.7  0.0036   91.2  0.9925   -3.4
 0.030  0.7777   -9.7  21.783  172.4  0.0056   85.7  0.9859   -5.0
 0.040  0.7649  -12.8  21.538  170.0  0.0076   83.0  0.9801   -6.6
 0.050  0.7545  -16.1  21.333  167.5  0.0096   81.5  0.9751   -8.2
 0.060  0.7448  -19.1  21.022  165.3  0.0114   79.4  0.9648   -9.6
 0.070  0.7373  -22.2  20.742  163.1  0.0132   77.9  0.9550  -11.0
 0.080  0.7319  -25.3  20.495  160.8  0.0150   76.8  0.9458  -12.4
 0.090  0.7288  -28.5  20.282  158.4  0.0169   75.9  0.9372  -13.9
 0.100  0.7279  -31.7  20.104  156.0  0.0187   75.2  0.9293  -15.4
 0.110  0.7135  -34.3  19.729  154.1  0.0202   73.5  0.9155  -16.5
 0.120  0.7007  -36.9  19.377  152.1  0.0217   72.1  0.9020  -17.7
 0.130  0.6894  -39.7  19.050  150.0  0.0232   70.9  0.8889  -18.9
 0.140  0.6797  -42.5  18.747  147.9  0.0248   69.8  0.8762  -20.1
 0.150  0.6717  -45.4  18.472  145.7  0.0263   68.8  0.8639  -21.4
 0.200  0.6164  -58.0  16.784  137.0  0.0318   66.3  0.7992  -25.7
 0.250  0.5653  -68.9  15.206  129.4  0.0369   62.0  0.7378  -28.9
 0.300  0.5172  -78.5  13.713  123.5  0.0404   60.2  0.6821  -31.0
 0.350  0.4780  -85.9  12.509  119.2  0.0439   59.3  0.6405  -32.1
 0.400  0.4482  -94.5  11.390  114.0  0.0474   58.5  0.5992  -33.4
 0.450  0.4207 -100.9  10.474  110.8  0.0506   58.6  0.5696  -33.9
 0.500  0.3991 -108.1   9.595  107.1  0.0539   58.6  0.5401  -34.4
 0.600  0.3647 -119.6   8.277  101.4  0.0601   58.3  0.4984  -34.6
 0.700  0.3403 -129.8   7.235   96.7  0.0651   59.7  0.4681  -34.6
 0.800  0.3240 -138.7   6.441   92.5  0.0712   60.7  0.4461  -34.6
 0.900  0.3123 -146.8   5.780   88.9  0.0769   61.2  0.4286  -34.7
 1.000  0.3063 -153.7   5.265   85.6  0.0831   61.8  0.4145  -35.0
 1.100  0.3020 -160.6   4.823   82.7  0.0891   62.6  0.4040  -35.2
 1.200  0.2982 -166.9   4.450   79.8  0.0955   62.9  0.3946  -35.7
 1.300  0.2953 -172.3   4.131   77.1  0.1014   63.5  0.3871  -36.4
 1.400  0.2986 -177.2   3.865   74.6  0.1083   63.8  0.3794  -37.2
 1.500  0.3016  178.3   3.626   72.2  0.1149   64.0  0.3738  -38.1
 1.600  0.3020  173.9   3.418   69.8  0.1215   64.1  0.3695  -39.1
 1.700  0.3040  169.9   3.236   67.6  0.1285   64.4  0.3643  -40.4
 1.800  0.3077  166.1   3.081   65.3  0.1357   64.2  0.3598  -41.7
 1.900  0.3144  162.8   2.938   63.3  0.1425   64.1  0.3557  -43.1
 2.000  0.3153  159.2   2.803   61.1  0.1504   64.0  0.3528  -44.7
 2.100  0.3204  155.9   2.688   59.1  0.1573   63.8  0.3497  -46.4
 2.200  0.3266  152.8   2.577   56.9  0.1643   63.6  0.3470  -48.2
 2.300  0.3311  150.2   2.483   55.0  0.1718   63.3  0.3450  -50.1
 2.400  0.3362  147.6   2.391   53.0  0.1793   63.0  0.3433  -52.0
 2.500  0.3410  145.1   2.308   51.2  0.1867   62.6  0.3419  -53.9
 2.600  0.3465  142.7   2.227   49.3  0.1942   62.2  0.3408  -55.8
 2.700  0.3517  140.2   2.158   47.5  0.2019   61.8  0.3405  -57.7
 2.800  0.3576  137.8   2.091   45.6  0.2096   61.4  0.3405  -59.7
 2.900  0.3627  135.4   2.032   43.9  0.2174   60.8  0.3397  -61.5
 3.000  0.3684  133.0   1.975   42.0  0.2252   60.3  0.3393  -63.4
 3.100  0.3721  130.9   1.925   40.5  0.2333   59.6  0.3382  -65.3
 3.200  0.3763  128.8   1.876   38.9  0.2415   59.0  0.3375  -67.1
 3.300  0.3811  126.7   1.828   37.3  0.2497   58.4  0.3371  -69.0
 3.400  0.3863  124.7   1.782   35.5  0.2579   57.8  0.3371  -70.9
 3.500  0.3919  122.8   1.738   33.7  0.2661   57.3  0.3375  -72.8
 3.600  0.3972  121.0   1.702   32.3  0.2745   56.5  0.3347  -74.7
 3.700  0.4029  119.2   1.667   30.8  0.2830   55.7  0.3322  -76.7
 3.800  0.4090  117.4   1.633   29.3  0.2915   55.0  0.3302  -78.7
 3.900  0.4155  115.7   1.600   27.7  0.3000   54.3  0.3286  -80.8
 4.000  0.4223  114.1   1.569   26.0  0.3086   53.6  0.3274  -82.8
 4.100  0.4277  112.5   1.540   24.6  0.3170   52.6  0.3232  -85.2
 4.200  0.4333  111.0   1.512   23.2  0.3254   51.7  0.3196  -87.6
 4.300  0.4393  109.5   1.485   21.7  0.3339   50.8  0.3166  -90.0
 4.400  0.4456  108.1   1.459   20.1  0.3425   50.0  0.3141  -92.6
 4.500  0.4521  106.7   1.434   18.5  0.3512   49.2  0.3123  -95.1
 4.600  0.4592  105.2   1.409   17.3  0.3597   48.2  0.3088  -98.1
 4.700  0.4666  103.7   1.384   16.0  0.3684   47.3  0.3061 -101.1
 4.800  0.4743  102.3   1.360   14.6  0.3771   46.4  0.3043 -104.2
 4.900  0.4823  100.9   1.336   13.2  0.3859   45.6  0.3034 -107.3
 5.000  0.4905   99.6   1.314   11.8  0.3948   44.8  0.3034 -110.4
 5.100  0.4947   98.3   1.295   10.6  0.4032   43.7  0.3038 -113.7
 5.200  0.4991   97.0   1.277    9.4  0.4117   42.7  0.3052 -117.0
 5.300  0.5039   95.7   1.259    8.2  0.4204   41.7  0.3076 -120.2
 5.400  0.5088   94.4   1.242    6.9  0.4292   40.7  0.3110 -123.4
 5.500  0.5140   93.2   1.225    5.6  0.4381   39.8  0.3153 -126.5
 5.600  0.5176   92.0   1.207    4.6  0.4459   38.7  0.3176 -129.4
 5.700  0.5215   90.9   1.189    3.5  0.4539   37.7  0.3207 -132.2
 5.800  0.5255   89.8   1.172    2.4  0.4621   36.6  0.3245 -134.9
 5.900  0.5298   88.7   1.155    1.3  0.4704   35.6  0.3290 -137.6
 6.000  0.5342   87.6   1.139    0.1  0.4788   34.7  0.3343 -140.2
!
!  f       NFmin   Gammaopt  rn/50
! GHz       dB    MAG  ANG    -
 0.450      1.00  0.12   39   0.15
 0.900      1.08  0.12   69   0.15
 1.900      1.59  0.18 -174   0.13
 2.400      1.85  0.18 -169   0.19
!
! (c) 2017  Infineon Technologies AG, Munich