! Infineon Technologies  Discrete & RF Semiconductors
! BFR182W
! VCE =  6.0 V,  IC =  28 mA
! Common Emitter S-Parameters:                            Jan 2017
# GHz  S  MA  R  50
!  f         S11            S21            S12            S22
! GHz     MAG   ANG      MAG   ANG      MAG   ANG      MAG   ANG
 0.010  0.5120   -7.0  43.202  174.6  0.0013   80.0  0.9782   -2.7
 0.020  0.5151  -14.5  42.997  170.2  0.0033   94.9  0.9707   -6.2
 0.030  0.4959  -21.1  41.753  166.0  0.0050   83.6  0.9506   -9.0
 0.040  0.4837  -28.1  40.744  161.6  0.0068   78.1  0.9328  -12.0
 0.050  0.4790  -35.3  39.988  157.0  0.0086   74.9  0.9176  -15.0
 0.060  0.4609  -40.5  38.392  154.0  0.0099   73.5  0.8897  -16.8
 0.070  0.4470  -46.1  36.913  150.7  0.0111   72.4  0.8627  -18.6
 0.080  0.4376  -52.0  35.566  147.1  0.0124   71.6  0.8366  -20.6
 0.090  0.4331  -58.1  34.367  143.3  0.0136   70.9  0.8117  -22.7
 0.100  0.4335  -64.3  33.331  139.2  0.0149   70.3  0.7879  -25.0
 0.110  0.4187  -68.3  31.997  137.1  0.0158   69.5  0.7645  -25.9
 0.120  0.4060  -72.6  30.709  134.8  0.0166   68.8  0.7413  -26.9
 0.130  0.3958  -77.1  29.473  132.4  0.0175   68.1  0.7183  -27.9
 0.140  0.3881  -81.8  28.297  129.7  0.0183   67.5  0.6956  -29.0
 0.150  0.3832  -86.7  27.187  126.8  0.0192   67.0  0.6731  -30.2
 0.200  0.3514 -103.2  22.448  118.2  0.0229   65.7  0.5884  -32.1
 0.250  0.3306 -116.4  18.969  111.8  0.0269   66.5  0.5290  -32.5
 0.300  0.3164 -126.6  16.281  107.2  0.0303   66.9  0.4851  -32.2
 0.350  0.3070 -133.8  14.456  104.1  0.0335   67.9  0.4586  -31.6
 0.400  0.3027 -141.3  12.684  100.2  0.0368   68.8  0.4321  -30.9
 0.450  0.2977 -146.9  11.503   98.0  0.0406   69.7  0.4165  -30.3
 0.500  0.2957 -152.7  10.342   95.3  0.0444   70.5  0.4009  -29.7
 0.600  0.2929 -161.1   8.738   91.2  0.0518   71.4  0.3808  -28.8
 0.700  0.2924 -168.2   7.543   87.8  0.0594   72.0  0.3673  -28.2
 0.800  0.2936 -174.0   6.650   84.7  0.0673   72.4  0.3578  -28.1
 0.900  0.2957 -178.9   5.930   81.9  0.0744   72.4  0.3500  -28.3
 1.000  0.2985  176.1   5.375   79.3  0.0819   72.9  0.3434  -28.6
 1.100  0.3020  172.1   4.910   76.9  0.0899   72.4  0.3393  -29.3
 1.200  0.3069  168.4   4.520   74.5  0.0976   72.0  0.3337  -29.9
 1.300  0.3087  164.7   4.185   72.2  0.1056   72.1  0.3298  -30.8
 1.400  0.3132  161.7   3.909   70.0  0.1133   71.6  0.3254  -32.1
 1.500  0.3193  159.0   3.661   68.0  0.1211   71.4  0.3221  -33.4
 1.600  0.3222  155.9   3.449   65.8  0.1291   70.6  0.3196  -34.7
 1.700  0.3261  153.1   3.261   63.8  0.1369   70.4  0.3155  -36.3
 1.800  0.3308  150.6   3.101   61.8  0.1448   69.5  0.3127  -38.0
 1.900  0.3357  148.1   2.955   60.0  0.1529   69.3  0.3092  -39.6
 2.000  0.3391  145.8   2.817   57.9  0.1608   68.6  0.3073  -41.7
 2.100  0.3445  143.5   2.700   56.1  0.1690   67.9  0.3045  -43.7
 2.200  0.3505  141.2   2.586   54.1  0.1773   67.2  0.3021  -45.7
 2.300  0.3556  139.2   2.491   52.3  0.1853   66.5  0.3003  -48.0
 2.400  0.3611  137.2   2.398   50.4  0.1934   65.8  0.2990  -50.3
 2.500  0.3660  135.2   2.314   48.7  0.2014   65.1  0.2978  -52.5
 2.600  0.3714  133.3   2.233   46.9  0.2095   64.4  0.2971  -54.7
 2.700  0.3764  131.4   2.164   45.3  0.2178   63.6  0.2968  -56.9
 2.800  0.3818  129.6   2.096   43.5  0.2261   62.9  0.2970  -59.1
 2.900  0.3873  127.6   2.036   41.8  0.2341   62.1  0.2963  -61.2
 3.000  0.3932  125.7   1.977   40.0  0.2422   61.3  0.2960  -63.4
 3.100  0.3968  123.9   1.927   38.6  0.2505   60.4  0.2948  -65.5
 3.200  0.4007  122.1   1.878   37.1  0.2588   59.5  0.2941  -67.6
 3.300  0.4050  120.4   1.830   35.5  0.2671   58.7  0.2937  -69.7
 3.400  0.4097  118.7   1.784   33.8  0.2755   58.0  0.2937  -71.8
 3.500  0.4148  117.0   1.739   32.1  0.2840   57.3  0.2941  -73.9
 3.600  0.4198  115.4   1.703   30.7  0.2923   56.3  0.2911  -76.0
 3.700  0.4251  113.9   1.667   29.3  0.3007   55.3  0.2885  -78.1
 3.800  0.4307  112.4   1.633   27.8  0.3092   54.5  0.2862  -80.2
 3.900  0.4365  110.9   1.600   26.2  0.3178   53.6  0.2844  -82.4
 4.000  0.4427  109.5   1.568   24.6  0.3264   52.8  0.2830  -84.6
 4.100  0.4482  108.1   1.539   23.3  0.3346   51.7  0.2788  -87.2
 4.200  0.4539  106.8   1.512   21.9  0.3429   50.7  0.2751  -89.8
 4.300  0.4599  105.5   1.485   20.4  0.3512   49.7  0.2720  -92.5
 4.400  0.4661  104.2   1.459   18.9  0.3597   48.8  0.2695  -95.2
 4.500  0.4725  103.0   1.434   17.4  0.3683   47.9  0.2677  -98.0
 4.600  0.4787  101.6   1.408   16.2  0.3764   46.9  0.2643 -101.3
 4.700  0.4853  100.3   1.383   14.9  0.3845   45.9  0.2619 -104.6
 4.800  0.4920   99.0   1.359   13.6  0.3928   45.0  0.2603 -108.0
 4.900  0.4990   97.7   1.336   12.2  0.4012   44.1  0.2596 -111.4
 5.000  0.5063   96.5   1.313   10.8  0.4097   43.2  0.2599 -114.8
 5.100  0.5102   95.3   1.294    9.7  0.4175   42.1  0.2609 -118.3
 5.200  0.5143   94.1   1.276    8.5  0.4255   41.0  0.2629 -121.9
 5.300  0.5187   93.0   1.259    7.3  0.4336   39.9  0.2658 -125.3
 5.400  0.5232   91.8   1.241    6.1  0.4418   38.9  0.2697 -128.7
 5.500  0.5280   90.7   1.225    4.8  0.4502   37.9  0.2745 -131.9
 5.600  0.5313   89.6   1.207    3.8  0.4575   36.8  0.2772 -134.8
 5.700  0.5348   88.5   1.190    2.7  0.4649   35.8  0.2806 -137.7
 5.800  0.5385   87.4   1.173    1.7  0.4724   34.7  0.2846 -140.5
 5.900  0.5424   86.3   1.157    0.5  0.4802   33.8  0.2894 -143.2
 6.000  0.5465   85.3   1.141   -0.6  0.4880   32.8  0.2947 -145.8
!
!  f       NFmin   Gammaopt  rn/50
! GHz       dB    MAG  ANG    -
!
! noise parameter not available yet for this operation point!
!
! (c) 2017  Infineon Technologies AG, Munich