! Infineon Technologies  Discrete & RF Semiconductors
! BFR93AW
! VCE =  5.0 V,  IC =  2.0 mA
! Common Emitter S-Parameters:                            Jan 2017
# GHz  S  MA  R  50
!  f         S11            S21            S12            S22
! GHz     MAG   ANG      MAG   ANG      MAG   ANG      MAG   ANG
 0.010  0.9338   -3.3   6.850  178.1  0.0033   90.8  1.0000   -1.0
 0.020  0.9551   -6.4   6.976  176.1  0.0066   87.5  1.0000   -2.4
 0.030  0.9384   -9.3   6.912  174.1  0.0103   83.5  1.0000   -3.4
 0.040  0.9241  -12.3   6.857  172.1  0.0141   81.6  0.9953   -4.4
 0.050  0.9125  -15.4   6.810  170.0  0.0179   80.5  0.9899   -5.4
 0.060  0.9073  -18.4   6.752  168.1  0.0213   78.3  0.9846   -6.4
 0.070  0.9046  -21.5   6.702  166.1  0.0247   76.7  0.9797   -7.4
 0.080  0.9045  -24.6   6.659  164.1  0.0281   75.4  0.9750   -8.4
 0.090  0.9071  -27.7   6.625  162.1  0.0316   74.5  0.9707   -9.5
 0.100  0.9122  -30.7   6.599  160.1  0.0350   73.7  0.9667  -10.5
 0.110  0.9015  -33.4   6.518  158.3  0.0378   71.7  0.9590  -11.4
 0.120  0.8929  -36.2   6.444  156.5  0.0406   70.0  0.9516  -12.3
 0.130  0.8864  -39.0   6.377  154.6  0.0434   68.5  0.9444  -13.2
 0.140  0.8821  -41.9   6.316  152.7  0.0462   67.2  0.9375  -14.2
 0.150  0.8801  -44.8   6.263  150.7  0.0491   66.1  0.9308  -15.1
 0.200  0.8457  -58.1   5.878  142.1  0.0604   59.8  0.8900  -18.7
 0.250  0.8155  -70.2   5.498  134.3  0.0708   53.8  0.8499  -21.8
 0.300  0.7795  -80.9   5.086  127.7  0.0780   49.0  0.8091  -24.2
 0.350  0.7470  -89.7   4.716  122.5  0.0829   45.3  0.7769  -25.9
 0.400  0.7335  -99.1   4.390  116.5  0.0881   42.1  0.7454  -27.7
 0.450  0.7077 -106.4   4.079  112.4  0.0908   39.7  0.7204  -28.9
 0.500  0.6942 -114.1   3.792  107.7  0.0937   37.4  0.6957  -30.1
 0.600  0.6694 -126.6   3.326  100.2  0.0975   34.3  0.6603  -31.8
 0.700  0.6504 -136.7   2.943   93.8  0.0979   32.7  0.6338  -33.4
 0.800  0.6389 -145.5   2.641   88.2  0.0988   32.1  0.6148  -35.1
 0.900  0.6292 -153.3   2.388   83.2  0.0986   31.8  0.6000  -36.7
 1.000  0.6237 -159.9   2.184   78.7  0.0979   32.9  0.5883  -38.5
 1.100  0.6262 -166.1   2.014   74.5  0.0982   34.3  0.5803  -40.3
 1.200  0.6237 -171.7   1.863   70.6  0.0979   36.1  0.5722  -42.4
 1.300  0.6221 -176.7   1.735   66.9  0.0980   38.7  0.5671  -44.5
 1.400  0.6259  178.7   1.629   63.4  0.0991   41.7  0.5613  -46.8
 1.500  0.6286  174.4   1.533   60.2  0.1008   44.5  0.5581  -49.2
 1.600  0.6308  170.4   1.448   57.0  0.1033   48.0  0.5560  -51.7
 1.700  0.6340  166.5   1.375   54.1  0.1063   51.5  0.5524  -54.4
 1.800  0.6380  162.7   1.314   51.2  0.1115   54.5  0.5508  -57.0
 1.900  0.6435  159.2   1.254   48.7  0.1174   57.7  0.5492  -59.7
 2.000  0.6452  155.8   1.197   45.9  0.1243   60.1  0.5496  -62.5
 2.100  0.6496  152.5   1.149   43.5  0.1328   62.3  0.5492  -65.5
 2.200  0.6560  149.3   1.103   40.9  0.1414   64.2  0.5503  -68.5
 2.300  0.6591  146.4   1.061   38.7  0.1515   65.7  0.5516  -71.6
 2.400  0.6639  143.6   1.021   36.4  0.1617   67.1  0.5544  -74.6
 2.500  0.6669  140.8   0.983   34.5  0.1731   67.8  0.5558  -77.7
 2.600  0.6714  138.0   0.947   32.5  0.1845   68.4  0.5588  -80.7
 2.700  0.6742  135.4   0.917   30.8  0.1971   68.6  0.5613  -83.7
 2.800  0.6783  132.8   0.888   29.0  0.2098   68.7  0.5652  -86.6
 2.900  0.6814  130.2   0.862   27.4  0.2231   68.3  0.5666  -89.6
 3.000  0.6860  127.6   0.836   25.8  0.2365   68.0  0.5695  -92.6
 3.100  0.6861  125.2   0.815   24.7  0.2509   67.0  0.5685  -95.6
 3.200  0.6874  122.8   0.793   23.6  0.2653   66.1  0.5690  -98.7
 3.300  0.6899  120.4   0.773   22.5  0.2798   65.4  0.5711 -101.7
 3.400  0.6936  118.0   0.752   21.2  0.2944   64.6  0.5749 -104.7
 3.500  0.6985  115.7   0.732   19.9  0.3090   64.0  0.5801 -107.6
 3.600  0.6987  113.5   0.719   19.2  0.3231   62.4  0.5765 -110.7
 3.700  0.6998  111.4   0.706   18.4  0.3375   61.0  0.5746 -113.9
 3.800  0.7019  109.2   0.693   17.6  0.3521   59.6  0.5744 -117.0
 3.900  0.7050  107.1   0.680   16.8  0.3668   58.4  0.5760 -120.2
 4.000  0.7091  105.0   0.667   16.0  0.3817   57.3  0.5793 -123.3
 4.100  0.7074  103.2   0.659   15.4  0.3945   55.5  0.5745 -126.7
 4.200  0.7064  101.3   0.651   14.8  0.4076   53.8  0.5717 -130.1
 4.300  0.7062   99.5   0.643   14.2  0.4211   52.3  0.5710 -133.6
 4.400  0.7067   97.6   0.636   13.6  0.4349   50.8  0.5723 -137.1
 4.500  0.7079   95.8   0.628   13.0  0.4489   49.4  0.5758 -140.5
 4.600  0.7084   94.3   0.623   12.6  0.4598   47.7  0.5731 -143.9
 4.700  0.7094   92.7   0.618   12.3  0.4711   46.0  0.5723 -147.3
 4.800  0.7110   91.2   0.614   11.9  0.4828   44.5  0.5736 -150.6
 4.900  0.7130   89.7   0.609   11.5  0.4949   43.0  0.5768 -154.0
 5.000  0.7155   88.2   0.604   11.1  0.5072   41.6  0.5820 -157.3
 5.100  0.7128   86.8   0.604   10.7  0.5162   39.9  0.5826 -160.3
 5.200  0.7105   85.4   0.604   10.3  0.5257   38.2  0.5847 -163.3
 5.300  0.7087   84.0   0.604    9.9  0.5357   36.6  0.5885 -166.3
 5.400  0.7073   82.6   0.604    9.5  0.5460   35.1  0.5938 -169.2
 5.500  0.7063   81.2   0.604    9.1  0.5567   33.6  0.6007 -172.1
 5.600  0.7040   80.1   0.604    8.7  0.5635   32.0  0.6007 -174.6
 5.700  0.7020   79.0   0.605    8.3  0.5707   30.5  0.6018 -177.0
 5.800  0.7003   77.9   0.605    7.8  0.5782   29.0  0.6041 -179.5
 5.900  0.6988   76.7   0.606    7.4  0.5862   27.6  0.6074  178.1
 6.000  0.6976   75.6   0.606    7.0  0.5945   26.2  0.6118  175.7
!
!  f       NFmin   Gammaopt  rn/50
! GHz       dB    MAG  ANG    -
 0.450      1.49  0.44   71   0.20
 0.900      1.76  0.41  128   0.21
 1.900      3.23  0.56 -159   0.25
 2.400      4.18  0.62 -139   0.45
!
! (c) 2017  Infineon Technologies AG, Munich