! Infineon Technologies  Discrete & RF Semiconductors
! BFR93AW
! VCE =  5.0 V,  IC =  5.0 mA
! Common Emitter S-Parameters:                            Jan 2017
# GHz  S  MA  R  50
!  f         S11            S21            S12            S22
! GHz     MAG   ANG      MAG   ANG      MAG   ANG      MAG   ANG
 0.010  0.8458   -5.0  15.403  176.9  0.0030   89.3  0.9991   -2.0
 0.020  0.8564   -9.7  15.491  174.0  0.0062   89.9  0.9879   -4.1
 0.030  0.8373  -14.2  15.290  171.0  0.0096   83.7  0.9805   -6.0
 0.040  0.8236  -18.8  15.132  167.9  0.0130   80.8  0.9742   -7.9
 0.050  0.8154  -23.6  15.018  164.8  0.0165   79.1  0.9690   -9.9
 0.060  0.8012  -27.9  14.720  162.2  0.0194   75.5  0.9546  -11.5
 0.070  0.7917  -32.3  14.453  159.5  0.0224   72.8  0.9410  -13.2
 0.080  0.7868  -36.7  14.219  156.7  0.0254   70.8  0.9282  -14.9
 0.090  0.7869  -41.2  14.020  153.9  0.0284   69.2  0.9162  -16.6
 0.100  0.7917  -45.7  13.857  150.9  0.0315   67.9  0.9051  -18.4
 0.110  0.7740  -49.2  13.517  148.8  0.0336   65.9  0.8881  -19.6
 0.120  0.7594  -52.9  13.196  146.5  0.0357   64.1  0.8714  -20.8
 0.130  0.7480  -56.8  12.897  144.2  0.0378   62.6  0.8552  -22.1
 0.140  0.7402  -60.7  12.620  141.8  0.0399   61.2  0.8394  -23.4
 0.150  0.7358  -64.7  12.367  139.2  0.0421   59.9  0.8241  -24.8
 0.200  0.6902  -81.0  10.944  129.6  0.0492   54.3  0.7484  -29.1
 0.250  0.6547  -94.6   9.700  121.8  0.0550   50.3  0.6843  -31.9
 0.300  0.6232 -105.9   8.597  115.7  0.0588   47.8  0.6303  -33.7
 0.350  0.5967 -114.3   7.755  111.4  0.0619   46.2  0.5928  -34.5
 0.400  0.5841 -123.3   6.969  106.0  0.0651   44.8  0.5555  -35.5
 0.450  0.5689 -129.9   6.367  102.8  0.0671   44.3  0.5308  -35.9
 0.500  0.5617 -136.8   5.789   98.9  0.0692   43.8  0.5062  -36.4
 0.600  0.5501 -147.2   4.948   93.0  0.0734   44.5  0.4738  -36.9
 0.700  0.5412 -155.3   4.302   88.2  0.0766   45.8  0.4516  -37.4
 0.800  0.5373 -162.6   3.814   83.7  0.0815   48.2  0.4358  -38.3
 0.900  0.5330 -168.5   3.417   79.7  0.0852   49.2  0.4242  -39.4
 1.000  0.5348 -174.0   3.109   76.1  0.0899   51.5  0.4143  -40.6
 1.100  0.5371 -178.8   2.849   72.8  0.0955   53.2  0.4078  -42.1
 1.200  0.5387  176.7   2.627   69.4  0.1003   54.6  0.4014  -43.8
 1.300  0.5386  172.7   2.438   66.3  0.1063   56.2  0.3966  -45.6
 1.400  0.5436  169.2   2.283   63.4  0.1127   57.9  0.3921  -47.7
 1.500  0.5491  165.7   2.145   60.6  0.1189   59.1  0.3888  -49.9
 1.600  0.5516  162.2   2.024   57.8  0.1255   60.1  0.3873  -52.1
 1.700  0.5561  159.2   1.920   55.3  0.1328   61.3  0.3839  -54.7
 1.800  0.5622  156.0   1.829   52.6  0.1412   61.9  0.3823  -57.2
 1.900  0.5668  153.4   1.744   50.4  0.1490   62.8  0.3809  -59.9
 2.000  0.5693  150.5   1.666   47.7  0.1577   63.1  0.3815  -62.7
 2.100  0.5739  147.7   1.598   45.4  0.1665   63.4  0.3815  -65.6
 2.200  0.5798  144.9   1.533   43.0  0.1753   63.7  0.3824  -68.5
 2.300  0.5846  142.5   1.476   40.8  0.1848   63.7  0.3840  -71.5
 2.400  0.5903  140.2   1.422   38.5  0.1944   63.7  0.3866  -74.5
 2.500  0.5946  137.8   1.372   36.5  0.2044   63.5  0.3887  -77.5
 2.600  0.5999  135.5   1.324   34.4  0.2144   63.4  0.3918  -80.4
 2.700  0.6037  133.2   1.283   32.6  0.2249   63.0  0.3948  -83.3
 2.800  0.6085  131.0   1.243   30.6  0.2355   62.7  0.3989  -86.2
 2.900  0.6122  128.7   1.206   28.8  0.2464   62.1  0.4014  -89.1
 3.000  0.6169  126.5   1.171   26.9  0.2573   61.6  0.4049  -91.9
 3.100  0.6190  124.4   1.140   25.5  0.2687   60.7  0.4060  -94.8
 3.200  0.6220  122.3   1.111   24.0  0.2802   59.9  0.4081  -97.7
 3.300  0.6258  120.2   1.081   22.4  0.2918   59.1  0.4112 -100.6
 3.400  0.6304  118.1   1.053   20.8  0.3034   58.4  0.4154 -103.4
 3.500  0.6358  116.1   1.026   19.0  0.3150   57.8  0.4205 -106.1
 3.600  0.6385  114.2   1.004   17.8  0.3267   56.6  0.4198 -109.1
 3.700  0.6419  112.2   0.982   16.5  0.3385   55.4  0.4204 -112.2
 3.800  0.6460  110.3   0.961   15.2  0.3504   54.3  0.4221 -115.2
 3.900  0.6508  108.4   0.940   13.8  0.3624   53.3  0.4249 -118.2
 4.000  0.6563  106.6   0.920   12.4  0.3746   52.4  0.4289 -121.1
 4.100  0.6575  104.9   0.903   11.3  0.3856   51.0  0.4275 -124.5
 4.200  0.6594  103.2   0.886   10.2  0.3969   49.6  0.4276 -127.9
 4.300  0.6618  101.5   0.870    9.1  0.4083   48.3  0.4293 -131.3
 4.400  0.6648   99.8   0.854    7.8  0.4200   47.1  0.4324 -134.6
 4.500  0.6684   98.1   0.838    6.6  0.4318   46.0  0.4369 -137.9
 4.600  0.6709   96.6   0.824    5.9  0.4419   44.6  0.4377 -141.4
 4.700  0.6739   95.1   0.809    5.1  0.4522   43.2  0.4401 -144.8
 4.800  0.6773   93.6   0.795    4.3  0.4627   41.9  0.4441 -148.2
 4.900  0.6812   92.1   0.781    3.5  0.4735   40.7  0.4496 -151.6
 5.000  0.6855   90.7   0.767    2.7  0.4845   39.5  0.4566 -154.8
 5.100  0.6857   89.3   0.759    2.1  0.4934   38.0  0.4609 -157.9
 5.200  0.6863   88.0   0.750    1.5  0.5025   36.6  0.4666 -160.9
 5.300  0.6872   86.6   0.742    0.8  0.5120   35.2  0.4735 -163.9
 5.400  0.6886   85.3   0.734    0.2  0.5218   33.9  0.4816 -166.7
 5.500  0.6903   83.9   0.726   -0.5  0.5318   32.6  0.4909 -169.5
 5.600  0.6897   82.7   0.719   -1.0  0.5391   31.2  0.4943 -172.0
 5.700  0.6895   81.6   0.712   -1.5  0.5468   29.8  0.4987 -174.5
 5.800  0.6895   80.4   0.705   -2.0  0.5547   28.5  0.5039 -176.9
 5.900  0.6897   79.3   0.699   -2.6  0.5629   27.2  0.5101 -179.3
 6.000  0.6903   78.1   0.692   -3.1  0.5714   26.0  0.5171  178.4
!
!  f       NFmin   Gammaopt  rn/50
! GHz       dB    MAG  ANG    -
 0.450      1.18  0.25   77   0.14
 0.900      1.50  0.29  137   0.15
 1.900      2.75  0.49 -153   0.19
 2.400      3.37  0.57 -135   0.38
!
! (c) 2017  Infineon Technologies AG, Munich