! Infineon Technologies  Discrete & RF Semiconductors
! BFR93AW
! VCE =  1.0 V,  IC =  15 mA
! Common Emitter S-Parameters:                            Jan 2017
# GHz  S  MA  R  50
!  f         S11            S21            S12            S22
! GHz     MAG   ANG      MAG   ANG      MAG   ANG      MAG   ANG
 0.010  0.6060  -12.6  34.868  173.3  0.0040   84.3  0.9757   -6.2
 0.020  0.6125  -24.7  34.570  166.9  0.0082   85.2  0.9541  -12.5
 0.030  0.5807  -35.1  32.925  161.5  0.0118   76.5  0.9119  -17.5
 0.040  0.5697  -46.2  31.599  155.6  0.0156   71.9  0.8773  -22.9
 0.050  0.5807  -57.4  30.633  149.3  0.0195   69.1  0.8511  -28.7
 0.060  0.5573  -64.7  28.915  146.1  0.0217   65.4  0.8057  -31.5
 0.070  0.5436  -72.5  27.298  142.5  0.0239   62.4  0.7626  -34.7
 0.080  0.5404  -80.5  25.799  138.5  0.0262   59.9  0.7221  -38.3
 0.090  0.5478  -88.5  24.442  134.1  0.0285   57.8  0.6846  -42.2
 0.100  0.5654  -96.1  23.251  129.1  0.0309   56.0  0.6508  -46.6
 0.110  0.5553 -100.6  22.094  127.1  0.0321   54.8  0.6199  -48.2
 0.120  0.5488 -105.3  20.965  124.9  0.0333   53.8  0.5895  -50.0
 0.130  0.5460 -110.1  19.871  122.5  0.0345   52.8  0.5597  -52.0
 0.140  0.5471 -114.9  18.816  119.8  0.0358   51.9  0.5307  -54.2
 0.150  0.5519 -119.6  17.808  116.8  0.0370   51.0  0.5026  -56.7
 0.200  0.5454 -134.5  14.164  108.9  0.0412   50.9  0.4056  -62.2
 0.250  0.5444 -144.9  11.710  103.1  0.0458   50.6  0.3405  -65.7
 0.300  0.5435 -152.3   9.923   98.9  0.0492   51.7  0.2931  -68.1
 0.350  0.5407 -157.5   8.758   96.1  0.0532   53.4  0.2638  -69.4
 0.400  0.5424 -162.7   7.620   92.5  0.0573   54.8  0.2347  -71.0
 0.450  0.5424 -166.5   6.880   90.3  0.0619   56.2  0.2169  -72.1
 0.500  0.5447 -170.2   6.153   87.6  0.0665   57.4  0.1992  -73.3
 0.600  0.5463 -175.8   5.177   83.5  0.0758   59.4  0.1768  -75.3
 0.700  0.5470  179.3   4.457   80.0  0.0843   61.3  0.1609  -77.0
 0.800  0.5499  175.4   3.926   76.5  0.0945   62.1  0.1506  -79.5
 0.900  0.5498  171.5   3.495   73.5  0.1041   62.5  0.1436  -82.2
 1.000  0.5555  168.0   3.174   70.5  0.1136   62.9  0.1371  -85.1
 1.100  0.5583  164.9   2.901   67.8  0.1243   63.0  0.1350  -87.9
 1.200  0.5628  161.8   2.672   64.9  0.1339   62.9  0.1321  -91.0
 1.300  0.5645  159.0   2.481   62.3  0.1438   62.7  0.1319  -94.6
 1.400  0.5684  156.4   2.324   59.8  0.1546   62.5  0.1321  -98.9
 1.500  0.5733  154.1   2.181   57.3  0.1644   62.1  0.1332 -102.7
 1.600  0.5773  151.5   2.059   54.8  0.1745   61.5  0.1366 -105.9
 1.700  0.5799  149.0   1.953   52.5  0.1846   61.0  0.1398 -110.3
 1.800  0.5851  146.6   1.863   50.0  0.1952   60.5  0.1435 -114.1
 1.900  0.5894  144.5   1.777   48.0  0.2052   59.7  0.1486 -117.7
 2.000  0.5910  142.1   1.699   45.5  0.2159   58.9  0.1549 -121.1
 2.100  0.5953  139.9   1.631   43.4  0.2259   58.1  0.1613 -124.5
 2.200  0.6004  137.7   1.566   41.2  0.2359   57.4  0.1682 -127.7
 2.300  0.6041  135.6   1.511   39.2  0.2461   56.5  0.1753 -130.7
 2.400  0.6085  133.6   1.458   37.1  0.2563   55.6  0.1829 -133.4
 2.500  0.6117  131.6   1.410   35.3  0.2660   54.6  0.1904 -135.9
 2.600  0.6157  129.7   1.363   33.3  0.2758   53.7  0.1982 -138.2
 2.700  0.6186  127.8   1.323   31.6  0.2857   52.7  0.2055 -140.5
 2.800  0.6222  125.9   1.284   29.7  0.2957   51.8  0.2132 -142.6
 2.900  0.6256  123.9   1.249   28.0  0.3053   50.8  0.2195 -144.9
 3.000  0.6297  122.0   1.215   26.2  0.3150   49.9  0.2262 -147.1
 3.100  0.6309  120.1   1.187   24.8  0.3243   48.8  0.2316 -149.4
 3.200  0.6328  118.3   1.159   23.3  0.3338   47.7  0.2373 -151.7
 3.300  0.6354  116.4   1.132   21.7  0.3434   46.7  0.2433 -153.8
 3.400  0.6386  114.6   1.106   20.0  0.3530   45.7  0.2497 -155.8
 3.500  0.6425  112.8   1.081   18.3  0.3628   44.8  0.2564 -157.7
 3.600  0.6450  111.1   1.060   17.0  0.3717   43.6  0.2609 -160.4
 3.700  0.6480  109.4   1.039   15.6  0.3807   42.4  0.2659 -162.9
 3.800  0.6515  107.8   1.019   14.2  0.3898   41.3  0.2715 -165.4
 3.900  0.6557  106.1   1.000   12.7  0.3992   40.2  0.2775 -167.7
 4.000  0.6603  104.5   0.981   11.2  0.4086   39.2  0.2840 -170.0
 4.100  0.6617  103.0   0.964   10.0  0.4165   37.9  0.2893 -172.9
 4.200  0.6636  101.5   0.946    8.8  0.4246   36.7  0.2953 -175.7
 4.300  0.6659  100.0   0.930    7.6  0.4329   35.5  0.3019 -178.4
 4.400  0.6687   98.5   0.914    6.3  0.4414   34.4  0.3092  179.0
 4.500  0.6719   97.0   0.898    4.9  0.4500   33.3  0.3171  176.6
 4.600  0.6750   95.7   0.884    4.0  0.4570   32.1  0.3244  174.1
 4.700  0.6785   94.3   0.869    3.1  0.4643   31.0  0.3323  171.7
 4.800  0.6824   93.0   0.855    2.2  0.4717   29.8  0.3407  169.4
 4.900  0.6866   91.7   0.842    1.2  0.4793   28.8  0.3497  167.3
 5.000  0.6912   90.4   0.828    0.2  0.4870   27.7  0.3591  165.2
 5.100  0.6917   89.1   0.819   -0.6  0.4934   26.5  0.3677  163.4
 5.200  0.6925   87.9   0.810   -1.5  0.5000   25.3  0.3767  161.6
 5.300  0.6937   86.6   0.802   -2.3  0.5068   24.2  0.3860  159.9
 5.400  0.6952   85.4   0.793   -3.2  0.5138   23.1  0.3956  158.3
 5.500  0.6970   84.1   0.785   -4.1  0.5210   22.0  0.4055  156.8
 5.600  0.6967   83.1   0.777   -4.8  0.5261   20.9  0.4112  155.3
 5.700  0.6967   82.0   0.768   -5.5  0.5313   19.8  0.4172  153.9
 5.800  0.6969   81.0   0.760   -6.2  0.5368   18.7  0.4234  152.5
 5.900  0.6973   79.9   0.752   -6.9  0.5424   17.6  0.4299  151.2
 6.000  0.6980   78.9   0.744   -7.6  0.5482   16.6  0.4366  149.9
!
!  f       NFmin   Gammaopt  rn/50
! GHz       dB    MAG  ANG    -
 0.450      1.37  0.12  133   0.13
 0.900      1.66  0.23  164   0.14
 1.900      2.67  0.47 -144   0.20
 2.400      3.30  0.54 -129   0.40
!
! (c) 2017  Infineon Technologies AG, Munich