! Infineon Technologies  Discrete & RF Semiconductors
! BFR93AW
! VCE =  4.0 V,  IC =  52 mA
! Common Emitter S-Parameters:                            Jan 2017
# GHz  S  MA  R  50
!  f         S11            S21            S12            S22
! GHz     MAG   ANG      MAG   ANG      MAG   ANG      MAG   ANG
 0.010  0.3764  -19.9  57.217  170.9  0.0025   87.2  0.9552   -6.8
 0.020  0.3877  -38.4  55.859  162.6  0.0054   82.8  0.9213  -14.1
 0.030  0.3683  -53.3  51.774  156.5  0.0073   72.9  0.8642  -18.9
 0.040  0.3752  -68.6  48.375  149.4  0.0093   67.2  0.8139  -24.3
 0.050  0.4072  -82.5  45.817  141.4  0.0113   63.5  0.7719  -30.4
 0.060  0.3981  -90.5  42.596  138.5  0.0126   62.9  0.7253  -32.3
 0.070  0.3969  -98.7  39.505  135.1  0.0139   62.4  0.6796  -34.4
 0.080  0.4039 -106.8  36.576  131.1  0.0151   62.0  0.6350  -36.9
 0.090  0.4186 -114.5  33.852  126.5  0.0164   61.7  0.5917  -39.7
 0.100  0.4402 -121.5  31.385  121.1  0.0177   61.4  0.5501  -42.9
 0.110  0.4386 -125.3  29.622  119.5  0.0187   61.4  0.5241  -43.5
 0.120  0.4389 -129.2  27.886  117.6  0.0196   61.4  0.4982  -44.1
 0.130  0.4412 -133.0  26.182  115.6  0.0206   61.5  0.4723  -44.8
 0.140  0.4455 -136.8  24.518  113.2  0.0215   61.5  0.4465  -45.6
 0.150  0.4517 -140.5  22.901  110.5  0.0225   61.5  0.4208  -46.5
 0.200  0.4582 -151.3  17.797  103.9  0.0265   64.2  0.3497  -46.6
 0.250  0.4647 -158.8  14.529   99.1  0.0303   65.3  0.3056  -45.6
 0.300  0.4643 -164.0  12.205   95.8  0.0344   66.9  0.2750  -44.4
 0.350  0.4659 -167.8  10.748   93.5  0.0390   68.3  0.2581  -43.5
 0.400  0.4695 -171.6   9.314   90.5  0.0436   69.4  0.2413  -42.4
 0.450  0.4705 -174.4   8.400   88.8  0.0484   70.5  0.2311  -41.9
 0.500  0.4727 -177.2   7.495   86.6  0.0533   71.4  0.2209  -41.3
 0.600  0.4761  178.3   6.297   83.1  0.0629   71.7  0.2095  -40.8
 0.700  0.4794  174.7   5.415   80.1  0.0721   73.0  0.2014  -41.0
 0.800  0.4824  171.2   4.761   77.0  0.0827   72.6  0.1954  -41.9
 0.900  0.4828  167.9   4.239   74.3  0.0917   72.1  0.1905  -43.2
 1.000  0.4897  165.0   3.840   71.7  0.1009   72.1  0.1855  -44.8
 1.100  0.4941  162.3   3.507   69.3  0.1110   71.6  0.1830  -46.6
 1.200  0.4976  159.6   3.230   66.7  0.1205   71.0  0.1800  -48.8
 1.300  0.5003  157.2   2.994   64.4  0.1297   70.4  0.1777  -51.3
 1.400  0.5045  154.8   2.800   62.0  0.1403   70.0  0.1743  -54.4
 1.500  0.5105  152.6   2.623   59.8  0.1499   69.1  0.1728  -57.5
 1.600  0.5140  150.2   2.476   57.4  0.1598   68.5  0.1727  -60.6
 1.700  0.5163  148.0   2.344   55.3  0.1694   67.7  0.1711  -64.3
 1.800  0.5232  145.7   2.234   53.0  0.1791   66.8  0.1706  -67.8
 1.900  0.5275  143.7   2.128   51.1  0.1889   66.1  0.1712  -71.6
 2.000  0.5300  141.7   2.032   48.8  0.1987   65.2  0.1725  -75.7
 2.100  0.5349  139.6   1.950   46.8  0.2083   64.2  0.1739  -79.7
 2.200  0.5405  137.5   1.870   44.6  0.2179   63.3  0.1761  -83.7
 2.300  0.5446  135.6   1.802   42.7  0.2277   62.3  0.1789  -87.6
 2.400  0.5493  133.8   1.736   40.6  0.2375   61.4  0.1826  -91.4
 2.500  0.5536  131.9   1.677   38.8  0.2470   60.5  0.1866  -95.0
 2.600  0.5586  130.0   1.619   36.9  0.2565   59.6  0.1913  -98.4
 2.700  0.5622  128.2   1.569   35.2  0.2659   58.6  0.1957 -101.7
 2.800  0.5664  126.4   1.521   33.3  0.2754   57.6  0.2007 -104.8
 2.900  0.5707  124.5   1.478   31.6  0.2848   56.6  0.2047 -107.9
 3.000  0.5757  122.6   1.437   29.8  0.2942   55.6  0.2092 -110.8
 3.100  0.5781  120.8   1.402   28.3  0.3034   54.5  0.2122 -113.8
 3.200  0.5811  119.0   1.367   26.8  0.3127   53.5  0.2157 -116.7
 3.300  0.5847  117.3   1.334   25.2  0.3221   52.5  0.2198 -119.5
 3.400  0.5888  115.5   1.302   23.5  0.3316   51.6  0.2244 -122.2
 3.500  0.5934  113.8   1.271   21.7  0.3412   50.7  0.2295 -124.8
 3.600  0.5968  112.2   1.245   20.3  0.3501   49.5  0.2312 -127.9
 3.700  0.6007  110.5   1.219   18.9  0.3592   48.3  0.2335 -130.9
 3.800  0.6051  108.9   1.194   17.4  0.3684   47.2  0.2365 -133.9
 3.900  0.6099  107.4   1.170   15.9  0.3778   46.1  0.2401 -136.8
 4.000  0.6152  105.8   1.147   14.3  0.3873   45.1  0.2443 -139.6
 4.100  0.6180  104.3   1.125   13.0  0.3955   43.9  0.2463 -143.1
 4.200  0.6213  102.8   1.104   11.7  0.4040   42.7  0.2493 -146.5
 4.300  0.6250  101.4   1.084   10.4  0.4126   41.5  0.2531 -149.9
 4.400  0.6290   99.9   1.064    9.0  0.4213   40.4  0.2578 -153.1
 4.500  0.6335   98.5   1.045    7.5  0.4302   39.4  0.2632 -156.2
 4.600  0.6378   97.1   1.026    6.5  0.4379   38.2  0.2681 -159.6
 4.700  0.6425   95.8   1.008    5.4  0.4458   37.1  0.2740 -162.9
 4.800  0.6475   94.5   0.990    4.3  0.4539   36.0  0.2807 -166.1
 4.900  0.6529   93.2   0.973    3.2  0.4621   34.9  0.2882 -169.1
 5.000  0.6586   91.9   0.956    2.0  0.4705   33.9  0.2965 -171.9
 5.100  0.6600   90.7   0.943    1.1  0.4775   32.7  0.3042 -174.5
 5.200  0.6616   89.4   0.931    0.2  0.4848   31.5  0.3126 -176.9
 5.300  0.6636   88.2   0.919   -0.8  0.4922   30.3  0.3214 -179.2
 5.400  0.6658   87.0   0.907   -1.8  0.4999   29.2  0.3308  178.6
 5.500  0.6684   85.8   0.896   -2.8  0.5077   28.1  0.3406  176.5
 5.600  0.6692   84.7   0.884   -3.6  0.5137   26.9  0.3469  174.6
 5.700  0.6703   83.6   0.873   -4.4  0.5199   25.8  0.3535  172.7
 5.800  0.6716   82.5   0.861   -5.2  0.5263   24.7  0.3605  171.0
 5.900  0.6731   81.5   0.850   -6.0  0.5329   23.6  0.3678  169.2
 6.000  0.6749   80.4   0.839   -6.9  0.5397   22.6  0.3754  167.6
!
!  f       NFmin   Gammaopt  rn/50
! GHz       dB    MAG  ANG    -
 0.450      2.34  0.27 -177   0.18
 0.900      2.64  0.32 -166   0.18
 1.900      3.79  0.54 -132   0.44
 2.400      4.52  0.58 -122   0.81
!
! (c) 2017  Infineon Technologies AG, Munich