! Infineon Technologies  Discrete & RF Semiconductors
! BFR93AW
! VCE =  8.0 V,  IC =  25 mA
! Common Emitter S-Parameters:                            Jan 2017
# GHz  S  MA  R  50
!  f         S11            S21            S12            S22
! GHz     MAG   ANG      MAG   ANG      MAG   ANG      MAG   ANG
 0.010  0.6007  -10.3  42.742  173.3  0.0027   82.9  0.9808   -4.6
 0.020  0.6072  -20.7  42.382  167.5  0.0053   85.6  0.9632   -9.3
 0.030  0.5758  -29.5  40.543  162.4  0.0077   78.6  0.9297  -13.0
 0.040  0.5592  -39.1  39.052  156.9  0.0101   74.9  0.9005  -17.0
 0.050  0.5589  -48.9  37.949  151.0  0.0126   72.7  0.8759  -21.3
 0.060  0.5332  -55.4  35.951  147.9  0.0142   69.6  0.8376  -23.4
 0.070  0.5149  -62.4  34.074  144.4  0.0158   67.2  0.8004  -25.6
 0.080  0.5049  -69.8  32.338  140.5  0.0175   65.2  0.7646  -28.1
 0.090  0.5035  -77.4  30.768  136.1  0.0191   63.6  0.7304  -30.7
 0.100  0.5110  -84.9  29.391  131.4  0.0208   62.2  0.6979  -33.7
 0.110  0.4969  -89.3  27.985  129.4  0.0218   61.4  0.6709  -34.6
 0.120  0.4859  -93.9  26.615  127.2  0.0227   60.7  0.6440  -35.6
 0.130  0.4782  -98.6  25.288  124.8  0.0237   60.1  0.6174  -36.6
 0.140  0.4738 -103.5  24.011  122.2  0.0246   59.5  0.5910  -37.7
 0.150  0.4730 -108.5  22.792  119.2  0.0256   58.9  0.5648  -39.0
 0.200  0.4555 -124.4  18.265  111.2  0.0294   58.4  0.4787  -40.6
 0.250  0.4463 -136.0  15.167  105.3  0.0334   59.0  0.4212  -40.8
 0.300  0.4390 -144.4  12.870  101.2  0.0366   61.0  0.3812  -40.2
 0.350  0.4341 -150.3  11.377   98.4  0.0407   62.2  0.3573  -39.5
 0.400  0.4339 -156.3   9.919   94.8  0.0448   63.1  0.3335  -38.7
 0.450  0.4313 -160.5   8.964   92.7  0.0486   64.3  0.3196  -38.2
 0.500  0.4310 -164.7   8.023   90.1  0.0525   65.4  0.3058  -37.6
 0.600  0.4317 -171.1   6.757   86.2  0.0606   66.5  0.2882  -37.0
 0.700  0.4335 -176.5   5.823   82.9  0.0686   67.6  0.2768  -36.8
 0.800  0.4369  179.0   5.124   79.6  0.0784   68.9  0.2686  -37.2
 0.900  0.4376  175.1   4.563   76.7  0.0868   68.9  0.2619  -38.0
 1.000  0.4418  171.3   4.139   73.9  0.0948   69.2  0.2558  -39.0
 1.100  0.4461  167.9   3.782   71.4  0.1038   69.3  0.2522  -40.3
 1.200  0.4502  164.9   3.479   68.7  0.1124   69.2  0.2481  -41.8
 1.300  0.4526  161.9   3.225   66.3  0.1210   68.8  0.2446  -43.7
 1.400  0.4581  159.2   3.017   63.9  0.1307   68.6  0.2412  -45.8
 1.500  0.4632  156.9   2.827   61.6  0.1393   68.3  0.2384  -48.1
 1.600  0.4665  154.0   2.666   59.2  0.1485   67.7  0.2375  -50.3
 1.700  0.4703  151.6   2.524   57.0  0.1574   67.2  0.2348  -53.1
 1.800  0.4758  149.3   2.404   54.7  0.1668   66.6  0.2327  -55.8
 1.900  0.4805  147.0   2.290   52.8  0.1758   66.1  0.2318  -58.7
 2.000  0.4842  144.8   2.185   50.5  0.1853   65.3  0.2317  -61.9
 2.100  0.4894  142.5   2.096   48.5  0.1945   64.6  0.2312  -65.1
 2.200  0.4953  140.3   2.010   46.3  0.2037   64.0  0.2314  -68.4
 2.300  0.4995  138.4   1.936   44.3  0.2130   63.2  0.2325  -71.7
 2.400  0.5043  136.5   1.865   42.2  0.2223   62.4  0.2343  -75.0
 2.500  0.5091  134.5   1.801   40.4  0.2313   61.6  0.2364  -78.2
 2.600  0.5145  132.6   1.739   38.5  0.2403   60.9  0.2392  -81.3
 2.700  0.5188  130.7   1.686   36.7  0.2497   60.1  0.2421  -84.3
 2.800  0.5237  128.8   1.634   34.8  0.2591   59.3  0.2456  -87.3
 2.900  0.5290  126.9   1.587   33.1  0.2683   58.4  0.2481  -90.2
 3.000  0.5349  125.0   1.541   31.2  0.2775   57.5  0.2512  -93.1
 3.100  0.5379  123.1   1.502   29.7  0.2868   56.5  0.2528  -95.9
 3.200  0.5414  121.3   1.465   28.1  0.2963   55.5  0.2550  -98.7
 3.300  0.5455  119.5   1.429   26.5  0.3058   54.6  0.2579 -101.4
 3.400  0.5502  117.7   1.394   24.7  0.3154   53.8  0.2613 -104.1
 3.500  0.5553  116.0   1.360   22.9  0.3250   53.0  0.2652 -106.7
 3.600  0.5595  114.3   1.331   21.5  0.3342   51.9  0.2654 -109.7
 3.700  0.5642  112.7   1.303   20.0  0.3435   50.8  0.2662 -112.6
 3.800  0.5693  111.1   1.276   18.5  0.3530   49.8  0.2678 -115.5
 3.900  0.5749  109.5   1.250   16.9  0.3625   48.8  0.2700 -118.4
 4.000  0.5809  108.0   1.225   15.3  0.3722   47.9  0.2729 -121.2
 4.100  0.5845  106.5   1.201   14.0  0.3810   46.7  0.2730 -124.7
 4.200  0.5886  105.0   1.178   12.6  0.3900   45.5  0.2740 -128.1
 4.300  0.5930  103.5   1.156   11.1  0.3992   44.4  0.2761 -131.5
 4.400  0.5979  102.0   1.135    9.7  0.4085   43.4  0.2791 -134.8
 4.500  0.6031  100.6   1.114    8.1  0.4179   42.4  0.2830 -138.1
 4.600  0.6081   99.2   1.094    7.0  0.4263   41.2  0.2858 -141.7
 4.700  0.6135   97.8   1.074    5.9  0.4348   40.1  0.2897 -145.3
 4.800  0.6192   96.4   1.054    4.8  0.4435   39.0  0.2948 -148.7
 4.900  0.6252   95.1   1.035    3.6  0.4524   38.0  0.3008 -152.0
 5.000  0.6316   93.8   1.016    2.4  0.4614   37.0  0.3078 -155.2
 5.100  0.6336   92.5   1.001    1.4  0.4692   35.8  0.3144 -158.3
 5.200  0.6360   91.2   0.987    0.4  0.4773   34.6  0.3218 -161.2
 5.300  0.6387   90.0   0.973   -0.6  0.4855   33.4  0.3301 -164.0
 5.400  0.6416   88.7   0.959   -1.7  0.4940   32.3  0.3391 -166.7
 5.500  0.6449   87.5   0.946   -2.8  0.5026   31.2  0.3488 -169.2
 5.600  0.6464   86.3   0.933   -3.6  0.5094   30.0  0.3547 -171.6
 5.700  0.6481   85.2   0.919   -4.4  0.5165   28.9  0.3611 -173.9
 5.800  0.6501   84.1   0.906   -5.3  0.5237   27.7  0.3681 -176.1
 5.900  0.6524   82.9   0.894   -6.2  0.5312   26.7  0.3756 -178.2
 6.000  0.6549   81.8   0.881   -7.1  0.5388   25.6  0.3836  179.8
!
!  f       NFmin   Gammaopt  rn/50
! GHz       dB    MAG  ANG    -
 0.450      1.66  0.17  171   0.16
 0.900      1.93  0.25 -177   0.16
 1.900      2.93  0.49 -136   0.25
 2.400      3.59  0.55 -125   0.50
!
! (c) 2017  Infineon Technologies AG, Munich