! Infineon Technologies  Discrete & RF Semiconductors
! BFR93AW
! VCE =  1.0 V,  IC =  45 mA
! Common Emitter S-Parameters:                            Jan 2017
# GHz  S  MA  R  50
!  f         S11            S21            S12            S22
! GHz     MAG   ANG      MAG   ANG      MAG   ANG      MAG   ANG
 0.010  0.3014  -46.7  49.729  165.6  0.0050   71.9  0.8047  -15.2
 0.020  0.3783  -78.9  46.068  153.1  0.0098   64.5  0.7457  -29.7
 0.030  0.3958  -98.1  40.501  146.7  0.0125   58.7  0.6539  -37.1
 0.040  0.4517 -114.0  35.602  138.3  0.0153   55.0  0.5763  -46.7
 0.050  0.5341 -125.8  31.684  127.6  0.0181   52.5  0.5194  -58.8
 0.060  0.5402 -131.6  28.947  125.3  0.0192   52.2  0.4745  -61.9
 0.070  0.5517 -137.1  26.265  122.5  0.0203   51.9  0.4313  -65.6
 0.080  0.5681 -142.4  23.660  119.1  0.0213   51.6  0.3903  -70.0
 0.090  0.5891 -147.4  21.157  114.9  0.0224   51.4  0.3522  -75.5
 0.100  0.6142 -152.0  18.800  109.6  0.0235   51.2  0.3181  -82.3
 0.110  0.6164 -154.3  17.620  108.4  0.0245   51.8  0.2997  -84.3
 0.120  0.6195 -156.5  16.450  107.0  0.0255   52.4  0.2816  -86.6
 0.130  0.6236 -158.7  15.290  105.5  0.0266   52.9  0.2641  -89.2
 0.140  0.6286 -160.9  14.143  103.6  0.0276   53.4  0.2472  -92.1
 0.150  0.6345 -163.1  13.013  101.5  0.0286   53.8  0.2311  -95.5
 0.200  0.6429 -169.2   9.906   96.5  0.0327   57.3  0.1869 -104.6
 0.250  0.6462 -173.7   7.994   92.8  0.0384   59.9  0.1608 -111.9
 0.300  0.6468 -177.0   6.680   90.2  0.0432   62.8  0.1444 -118.0
 0.350  0.6485 -179.4   5.869   88.3  0.0490   64.5  0.1357 -122.4
 0.400  0.6512  178.3   5.066   85.7  0.0548   65.8  0.1278 -127.3
 0.450  0.6511  176.1   4.567   84.1  0.0602   66.7  0.1240 -130.7
 0.500  0.6520  174.0   4.073   82.1  0.0656   67.4  0.1206 -134.3
 0.600  0.6558  170.5   3.424   78.9  0.0781   68.2  0.1184 -139.8
 0.700  0.6565  167.5   2.954   76.0  0.0895   68.9  0.1175 -143.9
 0.800  0.6578  164.5   2.605   73.0  0.1019   69.1  0.1195 -147.4
 0.900  0.6573  161.7   2.328   70.3  0.1133   68.2  0.1228 -150.2
 1.000  0.6618  159.0   2.120   67.7  0.1247   67.9  0.1258 -153.2
 1.100  0.6637  156.4   1.946   65.2  0.1372   67.2  0.1304 -155.3
 1.200  0.6650  154.0   1.801   62.7  0.1490   66.5  0.1342 -157.4
 1.300  0.6658  151.5   1.679   60.3  0.1603   65.6  0.1404 -159.3
 1.400  0.6691  149.2   1.582   57.9  0.1723   64.9  0.1474 -161.5
 1.500  0.6717  146.8   1.489   55.7  0.1836   63.8  0.1539 -163.3
 1.600  0.6746  144.5   1.416   53.3  0.1954   62.9  0.1601 -164.5
 1.700  0.6765  142.4   1.350   51.1  0.2066   61.9  0.1682 -166.2
 1.800  0.6800  140.0   1.295   48.8  0.2180   60.7  0.1755 -167.6
 1.900  0.6824  137.8   1.242   47.0  0.2294   59.8  0.1836 -168.9
 2.000  0.6817  135.7   1.193   44.7  0.2406   58.6  0.1918 -170.1
 2.100  0.6842  133.5   1.152   42.8  0.2512   57.3  0.2002 -171.5
 2.200  0.6877  131.4   1.113   40.7  0.2619   56.2  0.2088 -172.8
 2.300  0.6891  129.4   1.080   38.9  0.2726   55.0  0.2168 -173.9
 2.400  0.6913  127.5   1.048   37.0  0.2835   53.9  0.2248 -175.0
 2.500  0.6914  125.6   1.019   35.4  0.2936   52.7  0.2320 -176.1
 2.600  0.6922  123.7   0.991   33.7  0.3038   51.5  0.2393 -177.2
 2.700  0.6937  121.8   0.968   32.1  0.3136   50.3  0.2460 -178.3
 2.800  0.6960  120.0   0.945   30.4  0.3235   49.1  0.2527 -179.4
 2.900  0.6967  118.1   0.925   28.9  0.3333   47.9  0.2589  179.3
 3.000  0.6982  116.3   0.906   27.4  0.3432   46.8  0.2653  178.1
 3.100  0.6976  114.5   0.890   26.1  0.3520   45.5  0.2703  176.5
 3.200  0.6977  112.7   0.875   24.8  0.3609   44.3  0.2755  175.1
 3.300  0.6984  110.9   0.861   23.4  0.3700   43.1  0.2809  173.6
 3.400  0.6998  109.2   0.847   22.0  0.3792   42.0  0.2865  172.2
 3.500  0.7019  107.4   0.833   20.5  0.3886   40.9  0.2922  170.9
 3.600  0.7020  105.8   0.821   19.3  0.3966   39.6  0.2971  168.9
 3.700  0.7027  104.2   0.810   18.1  0.4048   38.3  0.3023  167.1
 3.800  0.7039  102.6   0.799   16.9  0.4132   37.1  0.3078  165.2
 3.900  0.7056  101.0   0.789   15.6  0.4218   35.9  0.3136  163.5
 4.000  0.7079   99.4   0.779   14.3  0.4305   34.8  0.3197  161.8
 4.100  0.7073   98.0   0.770   13.2  0.4372   33.5  0.3255  159.7
 4.200  0.7072   96.6   0.761   12.2  0.4441   32.2  0.3317  157.7
 4.300  0.7075   95.1   0.752   11.1  0.4513   31.0  0.3382  155.8
 4.400  0.7082   93.7   0.744   10.0  0.4586   29.8  0.3452  153.9
 4.500  0.7094   92.3   0.736    8.8  0.4661   28.7  0.3525  152.1
 4.600  0.7107   91.0   0.728    8.0  0.4718   27.5  0.3596  150.4
 4.700  0.7124   89.8   0.721    7.1  0.4777   26.4  0.3671  148.7
 4.800  0.7144   88.6   0.713    6.3  0.4839   25.3  0.3748  147.1
 4.900  0.7167   87.3   0.706    5.4  0.4901   24.2  0.3828  145.6
 5.000  0.7194   86.1   0.699    4.5  0.4966   23.1  0.3911  144.1
 5.100  0.7184   84.9   0.696    3.7  0.5017   21.9  0.3982  142.9
 5.200  0.7178   83.8   0.692    3.0  0.5070   20.8  0.4055  141.7
 5.300  0.7174   82.6   0.689    2.2  0.5125   19.7  0.4130  140.6
 5.400  0.7173   81.5   0.686    1.4  0.5181   18.6  0.4206  139.5
 5.500  0.7175   80.3   0.683    0.6  0.5240   17.5  0.4283  138.5
 5.600  0.7165   79.3   0.679   -0.1  0.5278   16.4  0.4322  137.5
 5.700  0.7156   78.4   0.675   -0.8  0.5319   15.4  0.4362  136.4
 5.800  0.7150   77.4   0.671   -1.5  0.5360   14.4  0.4403  135.4
 5.900  0.7145   76.5   0.667   -2.3  0.5404   13.4  0.4446  134.5
 6.000  0.7143   75.5   0.663   -3.0  0.5449   12.4  0.4490  133.5
!
!  f       NFmin   Gammaopt  rn/50
! GHz       dB    MAG  ANG    -
 0.450      2.16  0.24 -179   0.17
 0.900      2.46  0.30 -169   0.17
 1.900      3.55  0.53 -132   0.39
 2.400      4.27  0.57 -122   0.72
!
! (c) 2017  Infineon Technologies AG, Munich