! Infineon Technologies  Discrete & RF Semiconductors
! BFR93AW
! VCE =  1.0 V,  IC =  2.0 mA
! Common Emitter S-Parameters:                            Jan 2017
# GHz  S  MA  R  50
!  f         S11            S21            S12            S22
! GHz     MAG   ANG      MAG   ANG      MAG   ANG      MAG   ANG
 0.010  0.9276   -3.8   6.988  177.9  0.0048   85.2  1.0000   -1.6
 0.020  0.9374   -7.4   7.044  175.7  0.0097   89.7  0.9963   -3.3
 0.030  0.9232  -10.8   6.992  173.3  0.0150   84.2  0.9914   -4.8
 0.040  0.9125  -14.4   6.953  170.9  0.0203   81.6  0.9871   -6.2
 0.050  0.9053  -18.0   6.926  168.4  0.0257   80.1  0.9835   -7.7
 0.060  0.8967  -21.5   6.845  166.2  0.0303   77.0  0.9749   -9.1
 0.070  0.8915  -25.0   6.774  164.0  0.0351   74.7  0.9668  -10.5
 0.080  0.8896  -28.5   6.713  161.8  0.0398   72.9  0.9593  -11.9
 0.090  0.8911  -32.1   6.663  159.5  0.0446   71.5  0.9525  -13.3
 0.100  0.8961  -35.6   6.623  157.2  0.0494   70.4  0.9462  -14.8
 0.110  0.8838  -38.7   6.523  155.2  0.0532   68.3  0.9354  -16.0
 0.120  0.8742  -41.8   6.431  153.2  0.0571   66.4  0.9250  -17.3
 0.130  0.8673  -45.1   6.347  151.1  0.0611   64.8  0.9151  -18.6
 0.140  0.8631  -48.3   6.272  149.0  0.0651   63.4  0.9056  -19.9
 0.150  0.8618  -51.6   6.206  146.8  0.0691   62.1  0.8966  -21.2
 0.200  0.8267  -66.3   5.735  137.5  0.0843   54.9  0.8402  -26.2
 0.250  0.7976  -79.2   5.278  129.2  0.0966   49.1  0.7863  -30.2
 0.300  0.7629  -90.4   4.821  122.5  0.1052   44.0  0.7353  -33.3
 0.350  0.7322  -99.4   4.425  117.3  0.1105   40.3  0.6948  -35.4
 0.400  0.7207 -108.9   4.072  111.2  0.1162   37.0  0.6553  -37.8
 0.450  0.7001 -116.0   3.761  107.2  0.1192   34.5  0.6256  -39.2
 0.500  0.6910 -123.5   3.472  102.4  0.1224   32.1  0.5964  -40.8
 0.600  0.6703 -135.2   3.018   95.0  0.1258   29.1  0.5559  -43.1
 0.700  0.6584 -144.7   2.653   88.7  0.1263   27.3  0.5263  -45.1
 0.800  0.6520 -152.8   2.374   83.1  0.1266   26.6  0.5048  -47.1
 0.900  0.6441 -159.9   2.139   78.2  0.1257   26.0  0.4886  -49.3
 1.000  0.6433 -166.1   1.956   73.6  0.1253   26.7  0.4754  -51.6
 1.100  0.6442 -171.7   1.799   69.5  0.1244   27.7  0.4668  -54.0
 1.200  0.6442 -176.6   1.666   65.5  0.1238   28.9  0.4595  -56.6
 1.300  0.6444  178.8   1.552   61.8  0.1234   31.0  0.4542  -59.3
 1.400  0.6486  174.5   1.457   58.3  0.1237   33.4  0.4499  -62.4
 1.500  0.6540  170.6   1.373   55.1  0.1252   35.8  0.4465  -65.4
 1.600  0.6571  166.9   1.296   51.9  0.1274   38.7  0.4470  -68.4
 1.700  0.6606  163.3   1.233   49.0  0.1305   41.8  0.4442  -71.9
 1.800  0.6674  159.7   1.178   46.0  0.1353   44.4  0.4436  -75.1
 1.900  0.6716  156.5   1.124   43.5  0.1401   47.3  0.4446  -78.5
 2.000  0.6739  153.4   1.076   40.8  0.1471   49.6  0.4470  -81.9
 2.100  0.6779  150.2   1.032   38.5  0.1551   51.7  0.4493  -85.5
 2.200  0.6840  147.1   0.990   35.9  0.1633   53.5  0.4534  -89.0
 2.300  0.6872  144.4   0.954   33.8  0.1734   55.0  0.4574  -92.6
 2.400  0.6919  141.7   0.919   31.6  0.1836   56.4  0.4633  -96.2
 2.500  0.6952  139.0   0.887   29.8  0.1951   57.2  0.4675  -99.7
 2.600  0.6999  136.4   0.855   27.9  0.2066   57.9  0.4735 -103.2
 2.700  0.7024  133.8   0.828   26.4  0.2192   58.1  0.4784 -106.5
 2.800  0.7062  131.3   0.802   24.7  0.2318   58.3  0.4848 -109.7
 2.900  0.7088  128.8   0.780   23.3  0.2452   58.0  0.4886 -113.0
 3.000  0.7127  126.4   0.758   21.8  0.2587   57.8  0.4939 -116.2
 3.100  0.7123  124.0   0.741   20.9  0.2727   56.9  0.4950 -119.5
 3.200  0.7131  121.7   0.723   19.9  0.2867   56.0  0.4978 -122.8
 3.300  0.7151  119.3   0.706   18.9  0.3008   55.2  0.5021 -126.0
 3.400  0.7182  117.0   0.690   17.9  0.3149   54.5  0.5080 -129.1
 3.500  0.7226  114.7   0.673   16.8  0.3291   53.9  0.5154 -132.2
 3.600  0.7222  112.6   0.663   16.2  0.3425   52.4  0.5145 -135.5
 3.700  0.7228  110.6   0.653   15.5  0.3561   51.0  0.5153 -138.8
 3.800  0.7243  108.5   0.643   14.9  0.3699   49.8  0.5179 -142.1
 3.900  0.7268  106.4   0.634   14.2  0.3838   48.6  0.5222 -145.4
 4.000  0.7302  104.4   0.624   13.5  0.3979   47.5  0.5281 -148.6
 4.100  0.7282  102.6   0.618   12.9  0.4094   45.8  0.5270 -152.0
 4.200  0.7269  100.9   0.613   12.4  0.4212   44.3  0.5278 -155.5
 4.300  0.7262   99.1   0.608   11.8  0.4333   42.8  0.5305 -158.9
 4.400  0.7263   97.3   0.602   11.2  0.4457   41.4  0.5350 -162.3
 4.500  0.7271   95.5   0.597   10.6  0.4583   40.1  0.5414 -165.6
 4.600  0.7269   94.0   0.594   10.2  0.4678   38.5  0.5424 -168.8
 4.700  0.7272   92.5   0.591    9.9  0.4776   37.0  0.5450 -171.9
 4.800  0.7280   91.0   0.588    9.5  0.4877   35.5  0.5493 -175.1
 4.900  0.7293   89.6   0.585    9.1  0.4982   34.1  0.5552 -178.1
 5.000  0.7311   88.1   0.582    8.7  0.5089   32.8  0.5626  178.9
 5.100  0.7287   86.8   0.583    8.2  0.5165   31.2  0.5659  176.4
 5.200  0.7267   85.5   0.584    7.7  0.5244   29.7  0.5703  173.9
 5.300  0.7251   84.2   0.585    7.3  0.5327   28.3  0.5757  171.4
 5.400  0.7239   82.9   0.587    6.8  0.5413   26.9  0.5822  169.0
 5.500  0.7230   81.6   0.588    6.3  0.5503   25.5  0.5897  166.7
 5.600  0.7206   80.5   0.589    5.8  0.5557   24.1  0.5912  164.7
 5.700  0.7185   79.4   0.589    5.3  0.5615   22.7  0.5934  162.6
 5.800  0.7167   78.3   0.590    4.7  0.5676   21.3  0.5963  160.6
 5.900  0.7152   77.1   0.591    4.2  0.5740   20.0  0.5999  158.7
 6.000  0.7139   76.0   0.592    3.7  0.5807   18.7  0.6043  156.7
!
!  f       NFmin   Gammaopt  rn/50
! GHz       dB    MAG  ANG    -
 0.450      1.49  0.44   71   0.20
 0.900      1.76  0.41  128   0.21
 1.900      3.23  0.56 -159   0.25
 2.400      4.18  0.62 -139   0.45
!
! (c) 2017  Infineon Technologies AG, Munich