! Infineon Technologies  Discrete & RF Semiconductors
! BFR93AW
! VCE =  5.0 V,  IC =  11 mA
! Common Emitter S-Parameters:                            Jan 2017
# GHz  S  MA  R  50
!  f         S11            S21            S12            S22
! GHz     MAG   ANG      MAG   ANG      MAG   ANG      MAG   ANG
 0.010  0.7210   -7.5  27.633  175.3  0.0029   81.0  0.9923   -3.3
 0.020  0.7322  -14.9  27.868  170.9  0.0059   83.8  0.9889   -6.9
 0.030  0.7052  -21.5  27.073  166.8  0.0089   78.8  0.9668   -9.8
 0.040  0.6884  -28.6  26.426  162.4  0.0119   76.3  0.9473  -12.8
 0.050  0.6824  -35.9  25.938  157.9  0.0150   74.8  0.9305  -16.0
 0.060  0.6593  -41.4  24.982  154.8  0.0172   71.5  0.9026  -18.1
 0.070  0.6427  -47.3  24.103  151.6  0.0194   68.9  0.8759  -20.2
 0.080  0.6333  -53.5  23.309  148.0  0.0217   66.9  0.8506  -22.6
 0.090  0.6313  -59.7  22.609  144.3  0.0240   65.3  0.8267  -25.0
 0.100  0.6367  -65.9  22.012  140.3  0.0263   63.9  0.8045  -27.6
 0.110  0.6187  -70.1  21.175  138.1  0.0277   62.0  0.7791  -28.8
 0.120  0.6041  -74.5  20.370  135.8  0.0291   60.3  0.7541  -30.1
 0.130  0.5934  -79.1  19.603  133.3  0.0305   58.8  0.7295  -31.5
 0.140  0.5866  -83.9  18.876  130.5  0.0319   57.4  0.7054  -32.9
 0.150  0.5839  -88.7  18.196  127.6  0.0334   56.1  0.6817  -34.5
 0.200  0.5483 -105.9  15.141  118.5  0.0373   53.9  0.5902  -37.9
 0.250  0.5270 -119.2  12.863  111.5  0.0421   51.9  0.5221  -39.5
 0.300  0.5088 -129.3  11.079  106.6  0.0452   51.7  0.4714  -40.2
 0.350  0.4971 -136.6   9.851  103.2  0.0481   52.7  0.4395  -40.2
 0.400  0.4938 -144.1   8.669   98.8  0.0510   53.6  0.4076  -40.1
 0.450  0.4871 -149.4   7.859   96.2  0.0544   54.6  0.3882  -40.0
 0.500  0.4846 -154.7   7.068   93.1  0.0579   55.4  0.3688  -39.8
 0.600  0.4824 -162.7   5.976   88.5  0.0650   57.4  0.3451  -39.5
 0.700  0.4824 -169.0   5.160   84.5  0.0709   59.4  0.3284  -39.6
 0.800  0.4834 -174.5   4.550   80.8  0.0786   61.3  0.3169  -40.0
 0.900  0.4826 -179.4   4.060   77.5  0.0860   62.0  0.3082  -40.8
 1.000  0.4862  176.5   3.684   74.4  0.0932   63.1  0.3008  -42.0
 1.100  0.4904  172.5   3.369   71.6  0.1012   63.6  0.2960  -43.3
 1.200  0.4922  168.8   3.103   68.6  0.1086   64.2  0.2905  -44.8
 1.300  0.4953  165.5   2.878   66.0  0.1172   64.4  0.2869  -46.7
 1.400  0.5008  162.5   2.694   63.4  0.1254   64.9  0.2827  -48.7
 1.500  0.5052  159.7   2.525   60.9  0.1340   65.0  0.2800  -51.0
 1.600  0.5090  156.8   2.383   58.3  0.1426   65.1  0.2786  -53.3
 1.700  0.5129  154.1   2.257   56.0  0.1513   65.1  0.2762  -56.1
 1.800  0.5172  151.5   2.151   53.5  0.1604   64.6  0.2744  -58.7
 1.900  0.5241  149.1   2.049   51.4  0.1688   64.6  0.2735  -61.6
 2.000  0.5262  146.6   1.957   49.0  0.1779   64.2  0.2738  -64.6
 2.100  0.5312  144.2   1.878   46.9  0.1872   63.7  0.2738  -67.8
 2.200  0.5371  141.8   1.801   44.6  0.1966   63.3  0.2747  -70.9
 2.300  0.5413  139.7   1.735   42.5  0.2061   62.8  0.2762  -74.1
 2.400  0.5462  137.6   1.671   40.3  0.2157   62.4  0.2786  -77.3
 2.500  0.5505  135.5   1.614   38.4  0.2250   61.7  0.2811  -80.4
 2.600  0.5555  133.4   1.558   36.4  0.2344   61.1  0.2843  -83.4
 2.700  0.5602  131.3   1.510   34.6  0.2441   60.4  0.2875  -86.3
 2.800  0.5657  129.3   1.464   32.7  0.2538   59.7  0.2914  -89.2
 2.900  0.5698  127.3   1.422   30.9  0.2638   58.9  0.2942  -92.1
 3.000  0.5745  125.3   1.381   29.0  0.2738   58.1  0.2978  -95.0
 3.100  0.5773  123.3   1.346   27.5  0.2838   57.2  0.2995  -97.9
 3.200  0.5808  121.4   1.312   25.9  0.2939   56.3  0.3020 -100.7
 3.300  0.5850  119.5   1.279   24.3  0.3040   55.5  0.3052 -103.5
 3.400  0.5898  117.6   1.247   22.5  0.3142   54.7  0.3091 -106.2
 3.500  0.5952  115.7   1.216   20.7  0.3244   54.0  0.3137 -108.9
 3.600  0.5985  114.0   1.190   19.3  0.3344   52.8  0.3142 -111.9
 3.700  0.6024  112.2   1.165   17.9  0.3446   51.7  0.3155 -114.8
 3.800  0.6069  110.5   1.140   16.5  0.3549   50.7  0.3176 -117.8
 3.900  0.6118  108.8   1.116   14.9  0.3653   49.7  0.3205 -120.7
 4.000  0.6173  107.2   1.093   13.3  0.3758   48.8  0.3243 -123.5
 4.100  0.6198  105.6   1.072   12.1  0.3853   47.5  0.3244 -126.9
 4.200  0.6228  104.0   1.051   10.8  0.3950   46.3  0.3256 -130.4
 4.300  0.6263  102.5   1.031    9.4  0.4048   45.2  0.3281 -133.7
 4.400  0.6302  100.9   1.012    8.0  0.4148   44.0  0.3316 -137.1
 4.500  0.6346   99.4   0.993    6.6  0.4250   43.0  0.3362 -140.3
 4.600  0.6389   97.9   0.975    5.6  0.4340   41.7  0.3389 -143.9
 4.700  0.6435   96.5   0.957    4.6  0.4432   40.5  0.3430 -147.4
 4.800  0.6486   95.1   0.939    3.5  0.4527   39.4  0.3483 -150.8
 4.900  0.6541   93.7   0.922    2.4  0.4622   38.3  0.3547 -154.0
 5.000  0.6599   92.3   0.905    1.3  0.4720   37.2  0.3623 -157.2
 5.100  0.6611   91.0   0.893    0.4  0.4802   35.9  0.3685 -160.2
 5.200  0.6627   89.7   0.881   -0.4  0.4886   34.6  0.3758 -163.2
 5.300  0.6646   88.4   0.869   -1.3  0.4972   33.4  0.3840 -166.0
 5.400  0.6668   87.2   0.857   -2.3  0.5060   32.2  0.3930 -168.6
 5.500  0.6694   85.9   0.846   -3.2  0.5151   31.1  0.4029 -171.2
 5.600  0.6700   84.8   0.835   -3.8  0.5221   29.8  0.4082 -173.6
 5.700  0.6710   83.6   0.824   -4.5  0.5293   28.6  0.4142 -175.9
 5.800  0.6721   82.5   0.814   -5.2  0.5367   27.4  0.4209 -178.1
 5.900  0.6736   81.3   0.803   -5.9  0.5444   26.2  0.4281  179.7
 6.000  0.6753   80.2   0.793   -6.6  0.5523   25.1  0.4360  177.6
!
!  f       NFmin   Gammaopt  rn/50
! GHz       dB    MAG  ANG    -
 0.450      1.26  0.12  111   0.13
 0.900      1.57  0.23  157   0.14
 1.900      2.62  0.47 -146   0.18
 2.400      3.24  0.54 -130   0.37
!
! (c) 2017  Infineon Technologies AG, Munich