! Infineon Technologies  Discrete & RF Semiconductors
! BFR93AW
! VCE =  2.0 V,  IC =  24 mA
! Common Emitter S-Parameters:                            Jan 2017
# GHz  S  MA  R  50
!  f         S11            S21            S12            S22
! GHz     MAG   ANG      MAG   ANG      MAG   ANG      MAG   ANG
 0.010  0.4967  -14.8  44.889  172.5  0.0028   86.8  0.9731   -6.3
 0.020  0.5033  -29.2  44.485  165.3  0.0063   83.8  0.9520  -12.9
 0.030  0.4762  -41.1  41.898  159.6  0.0089   74.3  0.9029  -17.7
 0.040  0.4716  -53.8  39.773  153.3  0.0116   69.2  0.8608  -23.0
 0.050  0.4900  -66.2  38.188  146.3  0.0144   66.0  0.8268  -28.8
 0.060  0.4721  -73.9  35.828  143.2  0.0161   64.0  0.7804  -31.2
 0.070  0.4632  -82.0  33.589  139.7  0.0178   62.4  0.7355  -33.9
 0.080  0.4639  -90.2  31.495  135.6  0.0196   61.1  0.6925  -37.0
 0.090  0.4740  -98.3  29.578  131.1  0.0213   60.0  0.6517  -40.4
 0.100  0.4931 -105.9  27.874  125.9  0.0231   59.1  0.6136  -44.3
 0.110  0.4869 -110.3  26.410  124.1  0.0241   58.2  0.5843  -45.4
 0.120  0.4837 -114.7  24.976  122.1  0.0250   57.4  0.5553  -46.7
 0.130  0.4833 -119.2  23.577  119.8  0.0260   56.6  0.5266  -48.1
 0.140  0.4859 -123.6  22.219  117.3  0.0270   55.9  0.4982  -49.7
 0.150  0.4914 -128.0  20.910  114.4  0.0280   55.3  0.4703  -51.4
 0.200  0.4916 -141.6  16.460  107.0  0.0316   57.7  0.3827  -54.2
 0.250  0.4945 -150.6  13.525  101.6  0.0365   58.6  0.3250  -55.3
 0.300  0.4955 -157.3  11.431   97.8  0.0402   59.8  0.2847  -55.6
 0.350  0.4948 -161.9  10.076   95.2  0.0443   61.8  0.2606  -55.4
 0.400  0.4972 -166.4   8.748   91.9  0.0485   63.5  0.2365  -55.2
 0.450  0.4971 -169.8   7.894   89.9  0.0534   64.4  0.2220  -55.0
 0.500  0.4988 -173.1   7.051   87.5  0.0583   65.1  0.2076  -54.8
 0.600  0.5036 -178.3   5.927   83.7  0.0677   66.0  0.1898  -54.8
 0.700  0.5054  177.5   5.101   80.5  0.0768   67.7  0.1774  -55.1
 0.800  0.5084  173.6   4.486   77.2  0.0870   68.2  0.1691  -56.0
 0.900  0.5089  170.0   3.994   74.3  0.0966   68.0  0.1627  -57.5
 1.000  0.5149  167.0   3.623   71.5  0.1060   68.4  0.1569  -59.3
 1.100  0.5185  163.8   3.310   68.9  0.1160   68.0  0.1543  -61.6
 1.200  0.5215  161.1   3.047   66.3  0.1258   67.6  0.1506  -63.8
 1.300  0.5233  158.2   2.825   63.8  0.1358   67.5  0.1489  -66.8
 1.400  0.5273  155.9   2.644   61.4  0.1458   66.9  0.1460  -70.3
 1.500  0.5343  153.6   2.477   59.0  0.1555   66.2  0.1454  -73.7
 1.600  0.5373  151.0   2.340   56.6  0.1657   65.7  0.1466  -77.0
 1.700  0.5399  148.8   2.216   54.4  0.1754   65.0  0.1467  -81.3
 1.800  0.5470  146.4   2.112   52.0  0.1855   64.0  0.1475  -85.3
 1.900  0.5505  144.3   2.013   50.0  0.1956   63.4  0.1501  -89.2
 2.000  0.5535  142.2   1.922   47.7  0.2058   62.6  0.1533  -93.2
 2.100  0.5579  140.0   1.844   45.6  0.2156   61.7  0.1568  -97.4
 2.200  0.5632  137.8   1.769   43.4  0.2255   60.8  0.1612 -101.4
 2.300  0.5670  135.9   1.706   41.5  0.2352   59.9  0.1662 -105.2
 2.400  0.5715  134.0   1.645   39.4  0.2450   59.0  0.1718 -108.7
 2.500  0.5749  132.0   1.589   37.6  0.2546   58.0  0.1776 -112.1
 2.600  0.5790  130.1   1.535   35.7  0.2642   57.1  0.1839 -115.2
 2.700  0.5833  128.2   1.488   33.9  0.2739   56.1  0.1898 -118.1
 2.800  0.5882  126.4   1.443   32.0  0.2837   55.1  0.1961 -120.9
 2.900  0.5914  124.5   1.402   30.3  0.2934   54.1  0.2014 -123.7
 3.000  0.5952  122.6   1.363   28.5  0.3031   53.2  0.2071 -126.4
 3.100  0.5974  120.8   1.330   27.0  0.3122   52.1  0.2112 -129.2
 3.200  0.6003  119.0   1.298   25.5  0.3215   51.0  0.2159 -131.9
 3.300  0.6037  117.2   1.267   23.9  0.3309   50.0  0.2209 -134.4
 3.400  0.6077  115.4   1.237   22.2  0.3403   49.0  0.2264 -136.9
 3.500  0.6123  113.7   1.208   20.4  0.3499   48.1  0.2323 -139.2
 3.600  0.6154  112.1   1.183   19.0  0.3589   46.9  0.2354 -142.2
 3.700  0.6191  110.4   1.159   17.6  0.3680   45.7  0.2391 -145.0
 3.800  0.6232  108.8   1.136   16.1  0.3772   44.6  0.2434 -147.8
 3.900  0.6278  107.3   1.114   14.6  0.3866   43.6  0.2482 -150.5
 4.000  0.6329  105.7   1.092   13.0  0.3961   42.6  0.2536 -153.1
 4.100  0.6353  104.2   1.072   11.8  0.4042   41.3  0.2574 -156.4
 4.200  0.6381  102.7   1.052   10.5  0.4125   40.1  0.2621 -159.6
 4.300  0.6414  101.2   1.033    9.1  0.4210   39.0  0.2675 -162.7
 4.400  0.6451   99.7   1.014    7.7  0.4297   37.9  0.2737 -165.7
 4.500  0.6492   98.2   0.996    6.3  0.4385   36.8  0.2806 -168.5
 4.600  0.6526   96.8   0.979    5.3  0.4459   35.6  0.2869 -171.5
 4.700  0.6564   95.5   0.961    4.3  0.4536   34.5  0.2939 -174.4
 4.800  0.6605   94.1   0.945    3.2  0.4613   33.4  0.3016 -177.1
 4.900  0.6650   92.8   0.928    2.1  0.4693   32.3  0.3100 -179.7
 5.000  0.6699   91.5   0.912    1.0  0.4774   31.3  0.3190  177.9
 5.100  0.6711   90.3   0.901    0.1  0.4841   30.1  0.3275  175.7
 5.200  0.6726   89.0   0.889   -0.8  0.4911   28.9  0.3365  173.6
 5.300  0.6744   87.8   0.878   -1.7  0.4983   27.7  0.3459  171.6
 5.400  0.6765   86.6   0.868   -2.6  0.5056   26.6  0.3556  169.7
 5.500  0.6789   85.4   0.857   -3.6  0.5132   25.5  0.3658  167.9
 5.600  0.6795   84.3   0.847   -4.3  0.5189   24.3  0.3722  166.2
 5.700  0.6804   83.2   0.836   -5.1  0.5248   23.2  0.3789  164.5
 5.800  0.6815   82.1   0.826   -5.8  0.5309   22.1  0.3859  162.9
 5.900  0.6829   81.1   0.816   -6.6  0.5372   21.0  0.3931  161.4
 6.000  0.6845   80.0   0.806   -7.4  0.5437   20.0  0.4007  159.9
!
!  f       NFmin   Gammaopt  rn/50
! GHz       dB    MAG  ANG    -
 0.450      1.63  0.16  169   0.16
 0.900      1.90  0.24  180   0.16
 1.900      2.91  0.49 -137   0.25
 2.400      3.56  0.55 -125   0.49
!
! (c) 2017  Infineon Technologies AG, Munich