! Infineon Technologies  Discrete & RF Semiconductors
! BFR93AW
! VCE =  1.0 V,  IC =  70 mA
! Common Emitter S-Parameters:                            Jan 2017
# GHz  S  MA  R  50
!  f         S11            S21            S12            S22
! GHz     MAG   ANG      MAG   ANG      MAG   ANG      MAG   ANG
 0.010  0.3029 -107.6  37.136  157.0  0.0078   55.8  0.4709  -33.7
 0.020  0.5039 -128.0  30.928  139.8  0.0134   49.7  0.4159  -62.0
 0.030  0.5542 -139.1  25.876  134.4  0.0154   46.1  0.3537  -74.3
 0.040  0.6215 -148.0  21.166  126.4  0.0174   43.3  0.3138  -90.7
 0.050  0.7009 -155.1  17.086  114.3  0.0194   41.1  0.3051 -109.8
 0.060  0.7083 -158.0  15.465  112.7  0.0204   42.3  0.2901 -115.0
 0.070  0.7176 -160.9  13.858  110.8  0.0215   43.3  0.2778 -120.8
 0.080  0.7286 -163.7  12.272  108.3  0.0226   44.3  0.2685 -127.0
 0.090  0.7412 -166.4  10.714  105.1  0.0236   45.2  0.2626 -133.6
 0.100  0.7555 -169.0   9.201  100.9  0.0247   46.0  0.2603 -140.4
 0.110  0.7567 -170.2   8.602  100.1  0.0257   47.4  0.2571 -142.8
 0.120  0.7582 -171.3   8.004   99.2  0.0268   48.6  0.2544 -145.3
 0.130  0.7600 -172.5   7.409   98.1  0.0278   49.8  0.2522 -147.8
 0.140  0.7622 -173.7   6.817   96.8  0.0289   50.9  0.2505 -150.4
 0.150  0.7646 -174.8   6.229   95.3  0.0300   51.9  0.2493 -153.0
 0.200  0.7694 -178.2   4.702   91.7  0.0347   56.6  0.2461 -159.7
 0.250  0.7709  178.9   3.784   88.8  0.0412   60.1  0.2441 -164.0
 0.300  0.7691  176.7   3.167   86.7  0.0471   63.3  0.2434 -167.2
 0.350  0.7692  174.8   2.789   85.0  0.0536   64.9  0.2440 -169.1
 0.400  0.7702  172.9   2.414   82.7  0.0601   66.2  0.2449 -170.9
 0.450  0.7692  171.3   2.184   81.2  0.0669   66.8  0.2463 -172.3
 0.500  0.7688  169.6   1.956   79.4  0.0737   67.3  0.2478 -173.6
 0.600  0.7711  166.7   1.662   76.3  0.0874   68.0  0.2519 -175.6
 0.700  0.7694  163.9   1.452   73.6  0.1002   68.5  0.2544 -177.3
 0.800  0.7693  161.1   1.296   70.5  0.1138   68.2  0.2589 -178.7
 0.900  0.7667  158.4   1.173   67.8  0.1268   67.4  0.2639  179.9
 1.000  0.7705  155.9   1.085   65.2  0.1405   66.8  0.2695  178.5
 1.100  0.7720  153.3   1.011   62.7  0.1535   66.1  0.2751  177.3
 1.200  0.7703  150.9   0.948   60.0  0.1664   64.9  0.2799  175.9
 1.300  0.7714  148.5   0.899   57.7  0.1797   63.9  0.2863  174.9
 1.400  0.7734  146.1   0.860   55.3  0.1930   63.0  0.2938  173.5
 1.500  0.7743  144.0   0.822   53.1  0.2059   61.6  0.3009  172.3
 1.600  0.7762  141.6   0.792   50.9  0.2187   60.5  0.3067  171.2
 1.700  0.7762  139.2   0.768   48.7  0.2308   59.3  0.3143  170.1
 1.800  0.7783  136.9   0.746   46.4  0.2436   58.0  0.3218  168.8
 1.900  0.7794  134.7   0.725   44.9  0.2558   56.7  0.3289  167.7
 2.000  0.7756  132.5   0.708   42.7  0.2675   55.4  0.3364  166.7
 2.100  0.7760  130.3   0.692   40.9  0.2789   53.9  0.3433  165.6
 2.200  0.7775  128.1   0.677   39.1  0.2904   52.6  0.3504  164.5
 2.300  0.7768  126.2   0.665   37.5  0.3014   51.3  0.3565  163.4
 2.400  0.7771  124.2   0.654   35.8  0.3125   50.0  0.3628  162.4
 2.500  0.7759  122.3   0.644   34.5  0.3228   48.6  0.3682  161.3
 2.600  0.7755  120.4   0.634   33.1  0.3333   47.2  0.3737  160.3
 2.700  0.7744  118.5   0.626   31.7  0.3433   45.8  0.3781  159.2
 2.800  0.7741  116.5   0.619   30.3  0.3534   44.5  0.3826  158.1
 2.900  0.7729  114.7   0.613   29.1  0.3628   43.2  0.3866  156.9
 3.000  0.7726  112.8   0.608   27.9  0.3724   41.9  0.3908  155.7
 3.100  0.7696  111.0   0.604   26.8  0.3805   40.5  0.3935  154.3
 3.200  0.7674  109.2   0.600   25.7  0.3888   39.2  0.3964  153.0
 3.300  0.7659  107.4   0.597   24.5  0.3973   37.9  0.3996  151.7
 3.400  0.7652  105.6   0.594   23.4  0.4060   36.7  0.4029  150.4
 3.500  0.7652  103.8   0.591   22.2  0.4149   35.5  0.4065  149.1
 3.600  0.7632  102.2   0.589   21.2  0.4220   34.1  0.4096  147.5
 3.700  0.7619  100.6   0.587   20.1  0.4292   32.8  0.4131  145.9
 3.800  0.7611   98.9   0.585   19.1  0.4368   31.5  0.4168  144.3
 3.900  0.7609   97.3   0.583   18.1  0.4445   30.3  0.4209  142.8
 4.000  0.7614   95.7   0.582   17.0  0.4524   29.1  0.4252  141.3
 4.100  0.7584   94.3   0.581   16.0  0.4578   27.8  0.4293  139.6
 4.200  0.7559   92.9   0.579   15.1  0.4633   26.5  0.4337  138.0
 4.300  0.7538   91.5   0.578   14.1  0.4691   25.3  0.4385  136.4
 4.400  0.7522   90.1   0.578   13.1  0.4752   24.1  0.4436  134.8
 4.500  0.7510   88.7   0.577   12.1  0.4814   22.9  0.4490  133.3
 4.600  0.7509   87.5   0.576   11.3  0.4858   21.7  0.4539  132.0
 4.700  0.7510   86.4   0.574   10.6  0.4903   20.6  0.4591  130.7
 4.800  0.7515   85.2   0.573    9.8  0.4951   19.5  0.4645  129.4
 4.900  0.7523   84.1   0.572    9.1  0.5000   18.4  0.4701  128.1
 5.000  0.7534   82.9   0.571    8.3  0.5051   17.3  0.4759  126.9
 5.100  0.7512   81.8   0.572    7.5  0.5088   16.2  0.4802  126.0
 5.200  0.7493   80.7   0.573    6.8  0.5127   15.1  0.4845  125.1
 5.300  0.7477   79.6   0.574    6.0  0.5167   14.0  0.4890  124.2
 5.400  0.7463   78.4   0.576    5.3  0.5210   12.9  0.4937  123.3
 5.500  0.7453   77.3   0.577    4.5  0.5254   11.9  0.4984  122.4
 5.600  0.7435   76.4   0.577    3.8  0.5282   10.9  0.4995  121.6
 5.700  0.7419   75.5   0.577    3.0  0.5310   10.0  0.5007  120.8
 5.800  0.7404   74.6   0.577    2.3  0.5341    9.0  0.5019  120.0
 5.900  0.7392   73.7   0.578    1.5  0.5373    8.1  0.5033  119.2
 6.000  0.7381   72.8   0.578    0.8  0.5406    7.2  0.5048  118.4
!
!  f       NFmin   Gammaopt  rn/50
! GHz       dB    MAG  ANG    -
!
! noise parameter not available yet for this operation point!
!
! (c) 2017  Infineon Technologies AG, Munich