! Infineon Technologies  Discrete & RF Semiconductors
! BFR93AW
! VCE =  2.0 V,  IC =  72 mA
! Common Emitter S-Parameters:                            Jan 2017
# GHz  S  MA  R  50
!  f         S11            S21            S12            S22
! GHz     MAG   ANG      MAG   ANG      MAG   ANG      MAG   ANG
 0.010  0.2213  -63.9  51.991  165.1  0.0039   67.4  0.7684  -13.5
 0.020  0.3363  -95.4  48.128  152.1  0.0070   65.6  0.7029  -26.4
 0.030  0.3761 -112.4  42.031  145.7  0.0093   58.4  0.6196  -32.3
 0.040  0.4418 -125.3  36.623  137.4  0.0117   54.0  0.5447  -39.9
 0.050  0.5236 -134.5  32.250  126.4  0.0141   51.2  0.4824  -49.7
 0.060  0.5337 -139.5  29.418  124.2  0.0151   52.7  0.4426  -51.4
 0.070  0.5477 -144.3  26.639  121.5  0.0162   53.9  0.4033  -53.5
 0.080  0.5652 -148.8  23.930  118.3  0.0172   55.0  0.3647  -56.1
 0.090  0.5861 -153.0  21.318  114.2  0.0182   56.0  0.3269  -59.2
 0.100  0.6099 -156.9  18.845  109.0  0.0193   56.9  0.2904  -63.1
 0.110  0.6128 -158.8  17.664  107.9  0.0201   57.0  0.2738  -63.7
 0.120  0.6164 -160.8  16.491  106.6  0.0210   57.0  0.2572  -64.4
 0.130  0.6206 -162.7  15.328  105.1  0.0218   57.1  0.2407  -65.2
 0.140  0.6256 -164.6  14.176  103.4  0.0227   57.1  0.2242  -66.1
 0.150  0.6312 -166.4  13.039  101.4  0.0235   57.2  0.2078  -67.2
 0.200  0.6382 -171.9   9.916   96.8  0.0271   62.5  0.1660  -68.3
 0.250  0.6454 -175.8   8.002   93.4  0.0330   64.6  0.1414  -68.7
 0.300  0.6438 -178.8   6.697   91.0  0.0376   67.3  0.1249  -69.4
 0.350  0.6454  178.9   5.890   89.2  0.0432   68.7  0.1158  -70.0
 0.400  0.6480  176.7   5.090   86.9  0.0488   69.8  0.1068  -70.8
 0.450  0.6476  174.8   4.594   85.4  0.0539   70.7  0.1024  -72.0
 0.500  0.6479  172.8   4.101   83.6  0.0591   71.4  0.0981  -73.3
 0.600  0.6507  169.4   3.459   80.7  0.0706   71.8  0.0926  -76.8
 0.700  0.6500  166.6   2.993   78.1  0.0808   72.3  0.0902  -80.4
 0.800  0.6534  163.6   2.646   75.2  0.0923   72.6  0.0901  -84.7
 0.900  0.6517  160.6   2.368   72.7  0.1033   71.5  0.0904  -89.6
 1.000  0.6544  158.2   2.164   70.2  0.1147   71.4  0.0914  -94.9
 1.100  0.6577  155.8   1.991   67.8  0.1256   70.9  0.0943  -99.3
 1.200  0.6585  153.2   1.846   65.3  0.1362   70.1  0.0969 -104.2
 1.300  0.6586  150.7   1.725   63.0  0.1474   69.3  0.1007 -109.3
 1.400  0.6604  148.4   1.627   60.6  0.1590   68.4  0.1054 -114.6
 1.500  0.6642  146.2   1.535   58.4  0.1701   67.5  0.1107 -119.1
 1.600  0.6663  143.8   1.462   56.1  0.1813   66.6  0.1168 -122.7
 1.700  0.6666  141.7   1.396   53.9  0.1927   65.8  0.1238 -127.2
 1.800  0.6719  139.3   1.340   51.6  0.2032   64.5  0.1304 -131.1
 1.900  0.6732  137.3   1.288   49.8  0.2146   63.5  0.1383 -134.6
 2.000  0.6725  135.3   1.237   47.4  0.2255   62.5  0.1468 -137.8
 2.100  0.6743  133.1   1.196   45.5  0.2362   61.3  0.1549 -141.0
 2.200  0.6771  131.0   1.156   43.4  0.2469   60.2  0.1635 -143.8
 2.300  0.6786  129.0   1.122   41.6  0.2575   59.0  0.1720 -146.4
 2.400  0.6809  127.1   1.089   39.6  0.2683   57.9  0.1808 -148.8
 2.500  0.6827  125.3   1.059   37.9  0.2786   56.7  0.1890 -150.9
 2.600  0.6851  123.5   1.030   36.0  0.2890   55.5  0.1975 -152.9
 2.700  0.6858  121.6   1.006   34.4  0.2990   54.3  0.2050 -154.9
 2.800  0.6873  119.7   0.982   32.7  0.3092   53.2  0.2128 -156.8
 2.900  0.6879  117.9   0.960   31.1  0.3188   52.0  0.2197 -158.9
 3.000  0.6892  116.1   0.939   29.5  0.3286   50.8  0.2269 -160.8
 3.100  0.6891  114.3   0.922   28.1  0.3378   49.5  0.2320 -163.0
 3.200  0.6897  112.6   0.906   26.7  0.3471   48.2  0.2374 -165.1
 3.300  0.6910  110.8   0.890   25.3  0.3565   47.1  0.2431 -167.1
 3.400  0.6929  109.0   0.875   23.8  0.3662   46.0  0.2490 -169.1
 3.500  0.6954  107.3   0.861   22.2  0.3759   44.9  0.2553 -170.9
 3.600  0.6958  105.7   0.848   21.0  0.3844   43.5  0.2598 -173.4
 3.700  0.6967  104.1   0.836   19.7  0.3931   42.3  0.2648 -175.8
 3.800  0.6981  102.5   0.824   18.5  0.4019   41.0  0.2703 -178.1
 3.900  0.7002  100.9   0.813   17.2  0.4110   39.8  0.2761  179.6
 4.000  0.7027   99.3   0.802   15.8  0.4202   38.7  0.2824  177.5
 4.100  0.7021   97.9   0.792   14.7  0.4275   37.4  0.2877  174.9
 4.200  0.7019   96.5   0.782   13.6  0.4350   36.1  0.2936  172.4
 4.300  0.7022   95.0   0.773   12.5  0.4428   34.9  0.3001  170.1
 4.400  0.7029   93.6   0.764   11.3  0.4507   33.7  0.3070  167.8
 4.500  0.7040   92.2   0.755   10.1  0.4588   32.6  0.3144  165.6
 4.600  0.7058   91.0   0.746    9.3  0.4651   31.4  0.3216  163.4
 4.700  0.7080   89.7   0.738    8.4  0.4717   30.2  0.3292  161.3
 4.800  0.7105   88.5   0.730    7.5  0.4784   29.0  0.3373  159.3
 4.900  0.7133   87.3   0.722    6.6  0.4853   27.9  0.3457  157.4
 5.000  0.7164   86.1   0.714    5.7  0.4924   26.8  0.3545  155.6
 5.100  0.7153   84.9   0.710    4.9  0.4980   25.6  0.3623  154.0
 5.200  0.7145   83.7   0.706    4.1  0.5038   24.4  0.3703  152.5
 5.300  0.7140   82.6   0.702    3.3  0.5098   23.2  0.3786  151.1
 5.400  0.7138   81.4   0.698    2.5  0.5161   22.1  0.3871  149.7
 5.500  0.7139   80.2   0.694    1.7  0.5225   21.0  0.3958  148.4
 5.600  0.7128   79.2   0.689    1.0  0.5269   19.9  0.4006  147.2
 5.700  0.7120   78.2   0.685    0.3  0.5315   18.8  0.4056  146.0
 5.800  0.7114   77.1   0.680   -0.4  0.5363   17.8  0.4108  144.8
 5.900  0.7110   76.1   0.676   -1.1  0.5413   16.7  0.4162  143.6
 6.000  0.7108   75.1   0.672   -1.8  0.5464   15.7  0.4217  142.5
!
!  f       NFmin   Gammaopt  rn/50
! GHz       dB    MAG  ANG    -
!
! noise parameter not available yet for this operation point!
!
! (c) 2017  Infineon Technologies AG, Munich