! Infineon Technologies  Discrete & RF Semiconductors
! BFR93AW
! VCE =  5.0 V,  IC =  40 mA
! Common Emitter S-Parameters:                            Jan 2017
# GHz  S  MA  R  50
!  f         S11            S21            S12            S22
! GHz     MAG   ANG      MAG   ANG      MAG   ANG      MAG   ANG
 0.010  0.4675  -14.8  51.944  171.9  0.0023   80.3  0.9689   -5.8
 0.020  0.4739  -29.4  51.324  164.6  0.0049   83.3  0.9441  -12.1
 0.030  0.4456  -41.3  48.155  158.9  0.0073   75.6  0.8960  -16.5
 0.040  0.4385  -54.2  45.530  152.4  0.0097   71.7  0.8539  -21.4
 0.050  0.4535  -66.8  43.547  145.3  0.0122   69.4  0.8187  -26.8
 0.060  0.4360  -74.4  40.771  142.2  0.0135   66.8  0.7741  -28.8
 0.070  0.4267  -82.4  38.127  138.8  0.0149   64.8  0.7306  -31.0
 0.080  0.4261  -90.7  35.646  134.8  0.0163   63.0  0.6884  -33.6
 0.090  0.4342  -98.7  33.363  130.2  0.0177   61.5  0.6476  -36.4
 0.100  0.4505 -106.4  31.322  125.0  0.0191   60.3  0.6087  -39.6
 0.110  0.4440 -110.7  29.650  123.2  0.0201   60.1  0.5818  -40.3
 0.120  0.4400 -115.1  28.010  121.3  0.0210   60.0  0.5550  -41.1
 0.130  0.4387 -119.5  26.408  119.0  0.0220   59.8  0.5283  -42.0
 0.140  0.4399 -123.9  24.850  116.5  0.0229   59.7  0.5018  -42.9
 0.150  0.4438 -128.3  23.346  113.7  0.0239   59.6  0.4754  -44.0
 0.200  0.4437 -141.5  18.336  106.5  0.0270   62.3  0.3962  -44.8
 0.250  0.4453 -150.5  15.048  101.4  0.0316   62.7  0.3469  -44.2
 0.300  0.4437 -157.3  12.687   97.8  0.0357   64.4  0.3122  -43.3
 0.350  0.4438 -161.8  11.185   95.3  0.0398   66.0  0.2923  -42.4
 0.400  0.4465 -166.2   9.710   92.1  0.0440   67.3  0.2724  -41.3
 0.450  0.4468 -169.5   8.763   90.2  0.0485   67.8  0.2611  -40.7
 0.500  0.4485 -172.8   7.828   87.9  0.0531   68.3  0.2499  -40.1
 0.600  0.4519 -178.1   6.579   84.3  0.0622   69.7  0.2355  -39.5
 0.700  0.4556  177.8   5.662   81.1  0.0714   71.0  0.2256  -39.4
 0.800  0.4605  174.1   4.978   78.0  0.0808   70.9  0.2190  -40.1
 0.900  0.4595  170.6   4.432   75.2  0.0902   71.0  0.2134  -41.1
 1.000  0.4649  167.4   4.018   72.6  0.0996   71.1  0.2079  -42.3
 1.100  0.4685  164.3   3.671   70.1  0.1095   70.6  0.2050  -44.1
 1.200  0.4735  161.5   3.379   67.5  0.1183   70.1  0.2012  -45.7
 1.300  0.4759  158.8   3.131   65.2  0.1276   69.7  0.1989  -48.0
 1.400  0.4794  156.4   2.927   62.8  0.1374   69.4  0.1952  -50.6
 1.500  0.4859  154.0   2.743   60.6  0.1467   68.7  0.1931  -53.3
 1.600  0.4895  151.6   2.588   58.2  0.1565   68.0  0.1922  -55.9
 1.700  0.4930  149.4   2.450   56.1  0.1661   67.3  0.1900  -59.3
 1.800  0.4991  147.0   2.334   53.8  0.1760   66.7  0.1890  -62.5
 1.900  0.5035  144.8   2.225   51.8  0.1850   66.0  0.1889  -65.9
 2.000  0.5059  142.8   2.122   49.6  0.1950   65.1  0.1894  -69.6
 2.100  0.5110  140.7   2.036   47.6  0.2042   64.2  0.1902  -73.3
 2.200  0.5168  138.6   1.953   45.4  0.2135   63.4  0.1917  -77.0
 2.300  0.5216  136.7   1.881   43.5  0.2232   62.5  0.1936  -80.7
 2.400  0.5270  134.8   1.812   41.4  0.2329   61.7  0.1964  -84.4
 2.500  0.5312  132.9   1.750   39.6  0.2421   60.8  0.1994  -87.9
 2.600  0.5360  131.1   1.689   37.6  0.2514   59.9  0.2032  -91.2
 2.700  0.5402  129.2   1.638   35.9  0.2608   58.9  0.2070  -94.4
 2.800  0.5449  127.4   1.588   34.0  0.2702   58.0  0.2114  -97.5
 2.900  0.5494  125.5   1.543   32.3  0.2796   57.0  0.2149 -100.7
 3.000  0.5545  123.7   1.500   30.5  0.2890   56.1  0.2190 -103.7
 3.100  0.5573  121.9   1.463   29.0  0.2982   55.0  0.2214 -106.6
 3.200  0.5607  120.1   1.426   27.5  0.3075   54.0  0.2243 -109.5
 3.300  0.5647  118.3   1.391   25.8  0.3169   53.0  0.2278 -112.2
 3.400  0.5692  116.5   1.357   24.1  0.3264   52.1  0.2318 -114.9
 3.500  0.5742  114.8   1.324   22.3  0.3360   51.3  0.2363 -117.5
 3.600  0.5778  113.2   1.296   20.9  0.3450   50.1  0.2373 -120.6
 3.700  0.5819  111.6   1.269   19.5  0.3541   49.0  0.2390 -123.7
 3.800  0.5864  110.0   1.243   18.0  0.3633   47.9  0.2414 -126.7
 3.900  0.5913  108.4   1.218   16.4  0.3727   46.9  0.2444 -129.6
 4.000  0.5967  106.9   1.194   14.8  0.3822   45.9  0.2481 -132.5
 4.100  0.5999  105.4   1.171   13.5  0.3907   44.7  0.2495 -136.0
 4.200  0.6036  103.9   1.150   12.2  0.3993   43.5  0.2518 -139.5
 4.300  0.6077  102.4   1.128   10.8  0.4081   42.4  0.2551 -142.9
 4.400  0.6121  100.9   1.108    9.3  0.4171   41.3  0.2592 -146.2
 4.500  0.6170   99.5   1.088    7.8  0.4262   40.3  0.2641 -149.4
 4.600  0.6218   98.1   1.068    6.7  0.4341   39.1  0.2683 -152.9
 4.700  0.6269   96.8   1.049    5.6  0.4422   38.0  0.2736 -156.3
 4.800  0.6324   95.4   1.030    4.5  0.4504   36.9  0.2797 -159.6
 4.900  0.6382   94.1   1.012    3.3  0.4589   35.9  0.2868 -162.7
 5.000  0.6443   92.8   0.994    2.1  0.4674   34.9  0.2946 -165.7
 5.100  0.6461   91.5   0.980    1.2  0.4748   33.7  0.3021 -168.5
 5.200  0.6483   90.3   0.967    0.2  0.4823   32.5  0.3103 -171.2
 5.300  0.6508   89.1   0.954   -0.8  0.4901   31.3  0.3192 -173.7
 5.400  0.6535   87.8   0.941   -1.8  0.4981   30.2  0.3286 -176.1
 5.500  0.6566   86.6   0.929   -2.9  0.5062   29.1  0.3386 -178.4
 5.600  0.6579   85.5   0.916   -3.7  0.5125   27.9  0.3449  179.5
 5.700  0.6595   84.4   0.904   -4.5  0.5191   26.8  0.3517  177.6
 5.800  0.6613   83.3   0.891   -5.4  0.5258   25.7  0.3588  175.7
 5.900  0.6634   82.2   0.879   -6.2  0.5327   24.6  0.3663  173.8
 6.000  0.6657   81.1   0.867   -7.1  0.5398   23.6  0.3742  172.1
!
!  f       NFmin   Gammaopt  rn/50
! GHz       dB    MAG  ANG    -
 0.450      2.04  0.23 -180   0.16
 0.900      2.33  0.29 -170   0.17
 1.900      3.40  0.52 -133   0.35
 2.400      4.10  0.57 -123   0.66
!
! (c) 2017  Infineon Technologies AG, Munich