! Infineon Technologies  Discrete & RF Semiconductors
! BFR93AW
! VCE =  4.0 V,  IC =  2.0 mA
! Common Emitter S-Parameters:                            Jan 2017
# GHz  S  MA  R  50
!  f         S11            S21            S12            S22
! GHz     MAG   ANG      MAG   ANG      MAG   ANG      MAG   ANG
 0.010  0.9324   -3.3   6.898  178.1  0.0035   87.9  1.0000   -1.1
 0.020  0.9458   -6.5   6.981  176.2  0.0076   93.5  0.9981   -2.5
 0.030  0.9312   -9.5   6.930  174.1  0.0112   86.7  0.9946   -3.6
 0.040  0.9193  -12.6   6.888  172.0  0.0150   83.2  0.9914   -4.6
 0.050  0.9101  -15.8   6.856  169.8  0.0187   81.1  0.9886   -5.7
 0.060  0.9043  -18.9   6.792  167.8  0.0222   78.8  0.9831   -6.7
 0.070  0.9011  -22.0   6.736  165.8  0.0258   77.1  0.9779   -7.8
 0.080  0.9006  -25.1   6.689  163.8  0.0293   75.9  0.9730   -8.8
 0.090  0.9027  -28.2   6.650  161.8  0.0329   74.9  0.9685   -9.9
 0.100  0.9075  -31.3   6.619  159.7  0.0365   74.1  0.9643  -11.0
 0.110  0.8969  -34.1   6.538  157.9  0.0394   71.8  0.9563  -11.9
 0.120  0.8885  -36.9   6.465  156.0  0.0423   69.8  0.9486  -12.8
 0.130  0.8822  -39.8   6.398  154.1  0.0453   68.1  0.9411  -13.8
 0.140  0.8782  -42.7   6.338  152.2  0.0483   66.6  0.9339  -14.7
 0.150  0.8765  -45.6   6.286  150.2  0.0514   65.3  0.9269  -15.7
 0.200  0.8427  -59.2   5.885  141.5  0.0630   59.0  0.8849  -19.5
 0.250  0.8130  -71.2   5.497  133.6  0.0733   53.0  0.8434  -22.6
 0.300  0.7780  -82.3   5.076  127.1  0.0802   48.7  0.8012  -25.0
 0.350  0.7451  -91.1   4.698  121.9  0.0852   44.9  0.7678  -26.7
 0.400  0.7310 -100.4   4.365  115.9  0.0906   41.6  0.7351  -28.6
 0.450  0.7067 -107.8   4.053  111.8  0.0937   39.1  0.7098  -29.8
 0.500  0.6947 -115.5   3.766  107.0  0.0970   36.8  0.6849  -31.0
 0.600  0.6693 -127.7   3.301   99.6  0.1000   33.8  0.6490  -32.8
 0.700  0.6523 -137.8   2.914   93.2  0.1002   32.1  0.6223  -34.5
 0.800  0.6418 -146.7   2.617   87.5  0.1010   31.5  0.6025  -36.1
 0.900  0.6320 -154.3   2.364   82.6  0.1008   31.1  0.5883  -37.8
 1.000  0.6302 -160.9   2.163   78.1  0.1006   31.9  0.5760  -39.7
 1.100  0.6295 -167.0   1.990   73.9  0.1001   33.1  0.5677  -41.6
 1.200  0.6270 -172.5   1.843   70.0  0.0999   35.0  0.5597  -43.6
 1.300  0.6274 -177.2   1.716   66.3  0.0999   37.5  0.5544  -45.8
 1.400  0.6301  178.2   1.611   62.8  0.1012   40.4  0.5491  -48.2
 1.500  0.6345  173.9   1.518   59.6  0.1022   43.8  0.5458  -50.7
 1.600  0.6372  169.8   1.432   56.4  0.1051   46.8  0.5442  -53.1
 1.700  0.6399  165.9   1.360   53.6  0.1085   50.4  0.5404  -55.9
 1.800  0.6449  162.2   1.299   50.6  0.1135   53.3  0.5383  -58.7
 1.900  0.6481  158.9   1.239   48.1  0.1191   56.4  0.5374  -61.5
 2.000  0.6497  155.5   1.185   45.3  0.1262   59.0  0.5376  -64.3
 2.100  0.6540  152.3   1.136   43.0  0.1346   61.3  0.5377  -67.4
 2.200  0.6603  149.1   1.090   40.4  0.1431   63.3  0.5394  -70.4
 2.300  0.6640  146.2   1.049   38.2  0.1532   64.7  0.5408  -73.6
 2.400  0.6695  143.3   1.010   35.8  0.1634   65.9  0.5438  -76.7
 2.500  0.6725  140.6   0.973   34.0  0.1747   66.6  0.5454  -79.8
 2.600  0.6770  137.9   0.938   32.0  0.1861   67.3  0.5485  -82.8
 2.700  0.6799  135.3   0.908   30.3  0.1987   67.5  0.5511  -85.9
 2.800  0.6842  132.7   0.878   28.5  0.2114   67.7  0.5552  -88.9
 2.900  0.6864  130.1   0.852   26.9  0.2249   67.3  0.5570  -91.9
 3.000  0.6901  127.5   0.827   25.3  0.2385   67.0  0.5604  -94.9
 3.100  0.6905  125.1   0.806   24.3  0.2528   66.0  0.5594  -98.0
 3.200  0.6922  122.7   0.785   23.2  0.2671   65.1  0.5601 -101.0
 3.300  0.6950  120.3   0.764   22.0  0.2815   64.4  0.5623 -104.1
 3.400  0.6991  117.9   0.744   20.8  0.2959   63.6  0.5661 -107.1
 3.500  0.7043  115.6   0.724   19.5  0.3104   63.0  0.5715 -110.1
 3.600  0.7040  113.4   0.711   18.8  0.3244   61.4  0.5682 -113.3
 3.700  0.7047  111.3   0.698   18.1  0.3387   59.9  0.5667 -116.5
 3.800  0.7064  109.1   0.686   17.3  0.3532   58.6  0.5669 -119.7
 3.900  0.7091  107.0   0.673   16.5  0.3678   57.3  0.5689 -122.8
 4.000  0.7128  104.9   0.661   15.7  0.3826   56.2  0.5726 -126.0
 4.100  0.7111  103.1   0.653   15.1  0.3953   54.4  0.5682 -129.4
 4.200  0.7101  101.3   0.646   14.5  0.4083   52.8  0.5659 -132.8
 4.300  0.7098   99.5   0.638   13.9  0.4217   51.2  0.5655 -136.3
 4.400  0.7102   97.7   0.630   13.2  0.4354   49.8  0.5673 -139.7
 4.500  0.7113   95.9   0.623   12.6  0.4493   48.4  0.5710 -143.1
 4.600  0.7115   94.4   0.618   12.3  0.4600   46.7  0.5687 -146.5
 4.700  0.7122   92.8   0.613   11.9  0.4712   45.1  0.5684 -149.9
 4.800  0.7134   91.3   0.609   11.6  0.4827   43.5  0.5701 -153.3
 4.900  0.7151   89.7   0.604   11.3  0.4945   42.0  0.5737 -156.6
 5.000  0.7173   88.2   0.599   10.9  0.5067   40.6  0.5793 -159.9
 5.100  0.7150   86.9   0.599   10.5  0.5156   38.9  0.5802 -162.9
 5.200  0.7131   85.5   0.600   10.0  0.5250   37.3  0.5826 -165.9
 5.300  0.7115   84.1   0.600    9.6  0.5347   35.7  0.5866 -168.8
 5.400  0.7104   82.8   0.601    9.1  0.5449   34.2  0.5921 -171.7
 5.500  0.7097   81.4   0.601    8.7  0.5554   32.7  0.5991 -174.5
 5.600  0.7075   80.3   0.601    8.3  0.5620   31.2  0.5994 -176.9
 5.700  0.7056   79.1   0.602    7.8  0.5690   29.7  0.6007 -179.3
 5.800  0.7040   77.9   0.602    7.4  0.5764   28.2  0.6031  178.3
 5.900  0.7026   76.8   0.603    6.9  0.5841   26.8  0.6065  175.9
 6.000  0.7016   75.6   0.603    6.5  0.5922   25.4  0.6109  173.6
!
!  f       NFmin   Gammaopt  rn/50
! GHz       dB    MAG  ANG    -
 0.450      1.49  0.44   71   0.20
 0.900      1.76  0.41  128   0.21
 1.900      3.23  0.56 -159   0.25
 2.400      4.18  0.62 -139   0.45
!
! (c) 2017  Infineon Technologies AG, Munich