! Infineon Technologies  Discrete & RF Semiconductors
! BFR93AW
! VCE =  3.0 V,  IC =  25 mA
! Common Emitter S-Parameters:                            Jan 2017
# GHz  S  MA  R  50
!  f         S11            S21            S12            S22
! GHz     MAG   ANG      MAG   ANG      MAG   ANG      MAG   ANG
 0.010  0.5044  -13.8  45.555  172.6  0.0029   89.4  0.9766   -5.8
 0.020  0.5112  -27.3  45.232  165.8  0.0057   77.4  0.9593  -11.9
 0.030  0.4832  -38.5  42.728  160.2  0.0084   72.9  0.9130  -16.3
 0.040  0.4754  -50.5  40.673  154.1  0.0112   70.6  0.8728  -21.2
 0.050  0.4887  -62.4  39.139  147.3  0.0140   69.2  0.8394  -26.5
 0.060  0.4697  -69.9  36.790  144.2  0.0155   66.8  0.7952  -28.7
 0.070  0.4593  -77.9  34.566  140.6  0.0170   64.8  0.7524  -31.2
 0.080  0.4583  -86.2  32.491  136.6  0.0185   63.1  0.7111  -34.0
 0.090  0.4666  -94.2  30.596  132.1  0.0201   61.7  0.6717  -37.1
 0.100  0.4838 -101.9  28.917  127.0  0.0216   60.5  0.6346  -40.6
 0.110  0.4762 -106.3  27.423  125.1  0.0226   59.8  0.6060  -41.6
 0.120  0.4716 -110.8  25.962  123.1  0.0236   59.2  0.5776  -42.7
 0.130  0.4699 -115.4  24.537  120.8  0.0246   58.6  0.5494  -43.9
 0.140  0.4712 -120.0  23.158  118.2  0.0256   58.1  0.5215  -45.2
 0.150  0.4755 -124.5  21.831  115.3  0.0266   57.6  0.4939  -46.7
 0.200  0.4754 -138.5  17.233  107.8  0.0299   58.9  0.4077  -48.7
 0.250  0.4749 -148.1  14.192  102.4  0.0343   59.5  0.3513  -49.0
 0.300  0.4738 -155.1  11.991   98.6  0.0381   60.8  0.3118  -48.7
 0.350  0.4731 -160.0  10.582   96.0  0.0423   62.8  0.2885  -48.1
 0.400  0.4757 -164.8   9.202   92.6  0.0465   64.4  0.2653  -47.5
 0.450  0.4760 -168.3   8.304   90.6  0.0511   65.4  0.2515  -47.1
 0.500  0.4780 -171.7   7.419   88.1  0.0557   66.2  0.2377  -46.6
 0.600  0.4808 -177.0   6.238   84.3  0.0647   67.4  0.2210  -46.1
 0.700  0.4836  178.6   5.370   81.1  0.0736   68.5  0.2097  -46.1
 0.800  0.4866  174.4   4.722   77.8  0.0836   69.2  0.2016  -46.7
 0.900  0.4870  171.0   4.205   74.9  0.0921   68.8  0.1956  -47.9
 1.000  0.4929  167.7   3.816   72.2  0.1020   69.2  0.1893  -49.3
 1.100  0.4971  164.6   3.484   69.7  0.1109   69.0  0.1862  -51.0
 1.200  0.4997  161.7   3.205   67.1  0.1202   68.6  0.1826  -52.9
 1.300  0.5014  159.3   2.971   64.6  0.1297   68.3  0.1800  -55.3
 1.400  0.5071  156.7   2.781   62.2  0.1400   67.7  0.1768  -58.2
 1.500  0.5121  154.3   2.607   59.8  0.1490   67.3  0.1748  -61.2
 1.600  0.5168  151.8   2.460   57.4  0.1591   66.7  0.1751  -64.2
 1.700  0.5191  149.3   2.328   55.2  0.1685   66.2  0.1740  -67.8
 1.800  0.5245  147.0   2.219   52.9  0.1788   65.3  0.1729  -71.4
 1.900  0.5293  145.0   2.114   50.9  0.1881   64.7  0.1740  -74.9
 2.000  0.5325  142.8   2.018   48.6  0.1978   63.9  0.1761  -78.9
 2.100  0.5379  140.6   1.936   46.6  0.2074   63.1  0.1778  -82.8
 2.200  0.5440  138.5   1.857   44.4  0.2170   62.3  0.1803  -86.6
 2.300  0.5476  136.6   1.789   42.4  0.2267   61.4  0.1839  -90.4
 2.400  0.5519  134.7   1.724   40.3  0.2365   60.6  0.1882  -94.1
 2.500  0.5555  132.7   1.666   38.5  0.2460   59.6  0.1922  -97.6
 2.600  0.5598  130.8   1.609   36.5  0.2555   58.7  0.1968 -100.9
 2.700  0.5640  129.0   1.560   34.8  0.2649   57.8  0.2016 -104.1
 2.800  0.5687  127.2   1.512   32.9  0.2744   56.9  0.2070 -107.1
 2.900  0.5726  125.2   1.469   31.2  0.2839   55.9  0.2113 -110.1
 3.000  0.5771  123.3   1.427   29.4  0.2935   54.9  0.2162 -113.0
 3.100  0.5797  121.5   1.392   27.9  0.3028   53.8  0.2194 -115.9
 3.200  0.5830  119.7   1.358   26.4  0.3122   52.8  0.2232 -118.8
 3.300  0.5867  117.9   1.325   24.7  0.3217   51.8  0.2275 -121.5
 3.400  0.5911  116.1   1.293   23.0  0.3312   50.9  0.2323 -124.2
 3.500  0.5960  114.4   1.262   21.2  0.3409   50.0  0.2376 -126.7
 3.600  0.5993  112.7   1.235   19.8  0.3500   48.8  0.2396 -129.7
 3.700  0.6031  111.1   1.210   18.4  0.3592   47.7  0.2423 -132.7
 3.800  0.6074  109.4   1.185   16.9  0.3686   46.7  0.2456 -135.6
 3.900  0.6121  107.8   1.160   15.3  0.3780   45.7  0.2495 -138.5
 4.000  0.6174  106.2   1.137   13.7  0.3876   44.7  0.2540 -141.2
 4.100  0.6202  104.7   1.116   12.4  0.3959   43.4  0.2565 -144.7
 4.200  0.6235  103.3   1.096   11.1  0.4044   42.2  0.2599 -148.1
 4.300  0.6271  101.9   1.076    9.8  0.4131   41.1  0.2642 -151.4
 4.400  0.6311  100.5   1.057    8.4  0.4219   40.0  0.2694 -154.5
 4.500  0.6355   99.1   1.038    6.9  0.4309   38.9  0.2753 -157.6
 4.600  0.6396   97.7   1.019    5.9  0.4386   37.7  0.2805 -160.9
 4.700  0.6442   96.3   1.001    4.8  0.4466   36.6  0.2867 -164.1
 4.800  0.6491   95.0   0.982    3.7  0.4546   35.5  0.2937 -167.2
 4.900  0.6543   93.6   0.964    2.6  0.4629   34.4  0.3015 -170.1
 5.000  0.6599   92.3   0.947    1.4  0.4713   33.4  0.3100 -172.8
 5.100  0.6614   91.0   0.935    0.5  0.4785   32.2  0.3180 -175.4
 5.200  0.6632   89.8   0.923   -0.4  0.4859   31.0  0.3267 -177.8
 5.300  0.6653   88.6   0.911   -1.4  0.4936   29.8  0.3358  179.9
 5.400  0.6678   87.3   0.899   -2.4  0.5014   28.7  0.3455  177.8
 5.500  0.6705   86.1   0.888   -3.4  0.5094   27.6  0.3557  175.7
 5.600  0.6715   85.0   0.876   -4.2  0.5155   26.4  0.3621  173.8
 5.700  0.6727   83.9   0.864   -4.9  0.5219   25.3  0.3690  171.9
 5.800  0.6742   82.8   0.853   -5.7  0.5284   24.2  0.3762  170.2
 5.900  0.6759   81.7   0.841   -6.6  0.5351   23.1  0.3837  168.4
 6.000  0.6779   80.6   0.830   -7.4  0.5420   22.1  0.3916  166.8
!
!  f       NFmin   Gammaopt  rn/50
! GHz       dB    MAG  ANG    -
 0.450      1.66  0.17  171   0.16
 0.900      1.93  0.25 -177   0.16
 1.900      2.93  0.49 -136   0.25
 2.400      3.59  0.55 -125   0.50
!
! (c) 2017  Infineon Technologies AG, Munich