! Infineon Technologies  Discrete & RF Semiconductors
! BFR93AW
! VCE =  2.0 V,  IC =  23 mA
! Common Emitter S-Parameters:                            Jan 2017
# GHz  S  MA  R  50
!  f         S11            S21            S12            S22
! GHz     MAG   ANG      MAG   ANG      MAG   ANG      MAG   ANG
 0.010  0.5082  -14.4  43.971  172.6  0.0032   85.7  0.9740   -6.3
 0.020  0.5151  -28.2  43.379  165.6  0.0065   84.0  0.9492  -12.6
 0.030  0.4870  -39.8  40.994  160.0  0.0092   75.1  0.9030  -17.4
 0.040  0.4806  -52.2  39.050  153.7  0.0120   70.3  0.8639  -22.7
 0.050  0.4968  -64.4  37.616  146.9  0.0149   67.3  0.8327  -28.4
 0.060  0.4781  -72.1  35.325  143.8  0.0165   65.1  0.7865  -30.8
 0.070  0.4686  -80.2  33.154  140.2  0.0181   63.3  0.7418  -33.5
 0.080  0.4687  -88.5  31.128  136.2  0.0198   61.8  0.6990  -36.5
 0.090  0.4785  -96.6  29.275  131.6  0.0214   60.5  0.6584  -39.9
 0.100  0.4974 -104.2  27.633  126.5  0.0231   59.4  0.6205  -43.8
 0.110  0.4907 -108.6  26.191  124.7  0.0242   58.7  0.5912  -45.0
 0.120  0.4869 -113.1  24.780  122.6  0.0253   58.0  0.5623  -46.2
 0.130  0.4862 -117.7  23.405  120.3  0.0263   57.4  0.5336  -47.7
 0.140  0.4886 -122.2  22.071  117.7  0.0274   56.8  0.5053  -49.2
 0.150  0.4940 -126.7  20.789  114.8  0.0285   56.3  0.4774  -51.0
 0.200  0.4955 -140.2  16.402  107.3  0.0318   57.3  0.3890  -53.9
 0.250  0.4969 -149.7  13.484  101.9  0.0364   58.1  0.3310  -55.1
 0.300  0.4948 -156.4  11.402   98.1  0.0405   59.2  0.2899  -55.4
 0.350  0.4959 -161.1  10.053   95.5  0.0448   61.4  0.2650  -55.2
 0.400  0.5003 -165.8   8.731   92.1  0.0492   63.3  0.2402  -55.0
 0.450  0.4989 -169.1   7.878   90.1  0.0537   64.1  0.2259  -54.9
 0.500  0.4992 -172.5   7.037   87.6  0.0583   64.8  0.2116  -54.8
 0.600  0.5025 -177.8   5.919   83.8  0.0673   65.7  0.1930  -54.6
 0.700  0.5049  177.8   5.093   80.5  0.0764   67.5  0.1807  -54.9
 0.800  0.5086  174.0   4.480   77.2  0.0872   68.1  0.1725  -55.8
 0.900  0.5087  170.4   3.989   74.3  0.0959   67.6  0.1653  -57.5
 1.000  0.5139  167.3   3.618   71.6  0.1063   68.0  0.1598  -59.1
 1.100  0.5171  164.2   3.306   69.0  0.1155   67.9  0.1567  -61.1
 1.200  0.5226  161.3   3.044   66.3  0.1256   67.5  0.1527  -63.6
 1.300  0.5240  158.7   2.822   63.8  0.1353   67.1  0.1514  -66.5
 1.400  0.5284  156.1   2.642   61.4  0.1456   66.7  0.1484  -69.9
 1.500  0.5344  153.8   2.474   59.1  0.1555   66.1  0.1480  -73.3
 1.600  0.5373  151.2   2.337   56.6  0.1653   65.5  0.1484  -76.5
 1.700  0.5396  148.7   2.213   54.4  0.1751   64.8  0.1489  -80.8
 1.800  0.5463  146.6   2.110   52.0  0.1851   64.1  0.1498  -84.7
 1.900  0.5510  144.5   2.011   50.1  0.1950   63.2  0.1516  -88.7
 2.000  0.5529  142.3   1.920   47.7  0.2055   62.5  0.1555  -92.9
 2.100  0.5579  140.1   1.843   45.6  0.2151   61.6  0.1589  -96.9
 2.200  0.5637  137.9   1.768   43.4  0.2248   60.7  0.1630 -100.8
 2.300  0.5669  136.0   1.704   41.4  0.2349   59.8  0.1679 -104.6
 2.400  0.5707  134.1   1.643   39.3  0.2451   59.0  0.1735 -108.2
 2.500  0.5747  132.1   1.587   37.5  0.2544   58.0  0.1793 -111.5
 2.600  0.5793  130.2   1.532   35.6  0.2638   57.1  0.1856 -114.6
 2.700  0.5831  128.3   1.486   33.9  0.2733   56.1  0.1914 -117.5
 2.800  0.5875  126.5   1.442   32.0  0.2829   55.2  0.1977 -120.3
 2.900  0.5913  124.6   1.401   30.3  0.2927   54.2  0.2030 -123.2
 3.000  0.5958  122.7   1.361   28.4  0.3026   53.2  0.2089 -126.0
 3.100  0.5979  120.9   1.328   26.9  0.3118   52.1  0.2130 -128.8
 3.200  0.6007  119.0   1.296   25.4  0.3211   51.0  0.2175 -131.4
 3.300  0.6040  117.2   1.265   23.8  0.3306   50.0  0.2225 -134.0
 3.400  0.6080  115.5   1.235   22.1  0.3401   49.0  0.2279 -136.4
 3.500  0.6125  113.7   1.206   20.3  0.3497   48.1  0.2337 -138.7
 3.600  0.6158  112.1   1.181   19.0  0.3586   46.9  0.2367 -141.7
 3.700  0.6195  110.4   1.157   17.6  0.3677   45.8  0.2403 -144.6
 3.800  0.6238  108.8   1.134   16.1  0.3769   44.7  0.2446 -147.4
 3.900  0.6285  107.3   1.112   14.6  0.3862   43.7  0.2494 -150.1
 4.000  0.6337  105.7   1.090   13.0  0.3957   42.7  0.2547 -152.7
 4.100  0.6359  104.2   1.070   11.8  0.4038   41.4  0.2585 -156.0
 4.200  0.6385  102.7   1.051   10.5  0.4121   40.2  0.2630 -159.2
 4.300  0.6415  101.2   1.032    9.1  0.4206   39.1  0.2684 -162.3
 4.400  0.6449   99.8   1.014    7.7  0.4293   38.0  0.2746 -165.3
 4.500  0.6488   98.3   0.996    6.3  0.4381   36.9  0.2814 -168.1
 4.600  0.6525   96.9   0.979    5.3  0.4456   35.7  0.2877 -171.1
 4.700  0.6566   95.6   0.961    4.3  0.4532   34.5  0.2948 -174.0
 4.800  0.6610   94.2   0.945    3.2  0.4610   33.4  0.3026 -176.8
 4.900  0.6658   92.9   0.928    2.1  0.4690   32.3  0.3111 -179.4
 5.000  0.6709   91.6   0.912    1.0  0.4772   31.3  0.3202  178.1
 5.100  0.6720   90.3   0.900    0.1  0.4840   30.1  0.3287  175.9
 5.200  0.6735   89.1   0.889   -0.8  0.4911   28.9  0.3377  173.8
 5.300  0.6753   87.9   0.878   -1.7  0.4983   27.8  0.3471  171.8
 5.400  0.6774   86.6   0.867   -2.7  0.5058   26.7  0.3569  170.0
 5.500  0.6798   85.4   0.856   -3.7  0.5134   25.6  0.3670  168.2
 5.600  0.6801   84.3   0.846   -4.4  0.5191   24.4  0.3733  166.5
 5.700  0.6806   83.2   0.835   -5.2  0.5249   23.3  0.3799  164.8
 5.800  0.6814   82.1   0.825   -5.9  0.5310   22.2  0.3869  163.2
 5.900  0.6824   81.0   0.815   -6.7  0.5373   21.1  0.3941  161.7
 6.000  0.6837   79.9   0.805   -7.5  0.5437   20.1  0.4016  160.2
!
!  f       NFmin   Gammaopt  rn/50
! GHz       dB    MAG  ANG    -
 0.450      1.60  0.15  166   0.15
 0.900      1.88  0.24  177   0.16
 1.900      2.89  0.48 -138   0.24
 2.400      3.53  0.55 -126   0.48
!
! (c) 2017  Infineon Technologies AG, Munich