! Infineon Technologies  Discrete & RF Semiconductors
! BFR93AW
! VCE =  2.0 V,  IC =  55 mA
! Common Emitter S-Parameters:                            Jan 2017
# GHz  S  MA  R  50
!  f         S11            S21            S12            S22
! GHz     MAG   ANG      MAG   ANG      MAG   ANG      MAG   ANG
 0.010  0.2767  -33.3  57.388  168.9  0.0030   75.2  0.9092   -9.4
 0.020  0.3200  -60.9  55.157  158.7  0.0059   76.2  0.8681  -19.0
 0.030  0.3244  -79.8  49.926  152.2  0.0080   68.7  0.7927  -24.5
 0.040  0.3613  -96.5  45.468  144.4  0.0102   64.4  0.7263  -31.2
 0.050  0.4222 -109.2  42.031  135.1  0.0125   61.6  0.6714  -39.0
 0.060  0.4264 -116.4  38.726  132.4  0.0137   61.0  0.6229  -41.0
 0.070  0.4371 -123.3  35.521  129.2  0.0149   60.5  0.5753  -43.2
 0.080  0.4539 -129.8  32.446  125.5  0.0160   60.1  0.5288  -45.9
 0.090  0.4759 -135.7  29.542  120.9  0.0172   59.7  0.4836  -49.1
 0.100  0.5027 -141.1  26.865  115.4  0.0184   59.4  0.4403  -53.0
 0.110  0.5051 -144.0  25.259  114.0  0.0193   59.5  0.4168  -53.7
 0.120  0.5088 -146.8  23.669  112.4  0.0202   59.7  0.3933  -54.4
 0.130  0.5137 -149.6  22.102  110.6  0.0212   59.8  0.3699  -55.3
 0.140  0.5198 -152.3  20.560  108.4  0.0221   59.9  0.3467  -56.3
 0.150  0.5270 -155.0  19.050  106.0  0.0230   60.0  0.3235  -57.4
 0.200  0.5379 -162.8  14.629  100.2  0.0270   62.9  0.2607  -58.1
 0.250  0.5450 -168.2  11.883   96.0  0.0323   65.2  0.2225  -57.8
 0.300  0.5454 -172.2   9.955   93.0  0.0371   67.1  0.1962  -57.3
 0.350  0.5476 -175.1   8.749   90.9  0.0419   68.7  0.1816  -56.9
 0.400  0.5512 -177.9   7.558   88.2  0.0467   69.9  0.1671  -56.4
 0.450  0.5525  179.8   6.813   86.5  0.0520   70.6  0.1585  -56.4
 0.500  0.5546  177.6   6.075   84.4  0.0573   71.2  0.1499  -56.3
 0.600  0.5584  173.7   5.101   81.0  0.0675   72.2  0.1392  -57.0
 0.700  0.5602  170.6   4.389   78.1  0.0775   72.5  0.1324  -58.4
 0.800  0.5629  167.5   3.859   75.0  0.0887   72.9  0.1280  -60.5
 0.900  0.5632  164.6   3.436   72.4  0.0992   72.0  0.1244  -63.2
 1.000  0.5689  161.8   3.119   69.7  0.1093   71.7  0.1212  -66.6
 1.100  0.5720  159.1   2.852   67.3  0.1197   71.0  0.1208  -69.8
 1.200  0.5734  156.7   2.628   64.7  0.1304   70.3  0.1191  -73.3
 1.300  0.5776  154.3   2.440   62.3  0.1409   69.7  0.1192  -77.5
 1.400  0.5818  152.0   2.286   59.9  0.1518   69.0  0.1190  -82.4
 1.500  0.5848  149.7   2.144   57.6  0.1619   68.1  0.1208  -86.7
 1.600  0.5885  147.4   2.026   55.3  0.1724   67.3  0.1237  -91.0
 1.700  0.5925  145.2   1.921   53.1  0.1827   66.5  0.1261  -96.1
 1.800  0.5964  143.0   1.833   50.8  0.1939   65.4  0.1294 -100.7
 1.900  0.6002  141.0   1.750   48.9  0.2039   64.5  0.1339 -105.0
 2.000  0.6023  138.9   1.672   46.6  0.2145   63.5  0.1399 -109.5
 2.100  0.6059  136.7   1.606   44.6  0.2248   62.4  0.1454 -113.7
 2.200  0.6104  134.6   1.543   42.5  0.2352   61.4  0.1517 -117.5
 2.300  0.6135  132.7   1.490   40.6  0.2456   60.3  0.1587 -121.2
 2.400  0.6172  130.8   1.438   38.5  0.2560   59.3  0.1663 -124.5
 2.500  0.6199  128.9   1.391   36.7  0.2659   58.2  0.1733 -127.6
 2.600  0.6233  127.0   1.345   34.8  0.2758   57.1  0.1808 -130.4
 2.700  0.6263  125.2   1.306   33.1  0.2857   56.0  0.1877 -133.1
 2.800  0.6298  123.5   1.269   31.4  0.2956   55.0  0.1949 -135.6
 2.900  0.6325  121.6   1.235   29.7  0.3054   53.9  0.2012 -138.3
 3.000  0.6358  119.7   1.202   28.0  0.3153   52.8  0.2079 -140.8
 3.100  0.6373  117.9   1.175   26.6  0.3245   51.6  0.2126 -143.4
 3.200  0.6394  116.1   1.148   25.1  0.3339   50.4  0.2178 -145.9
 3.300  0.6421  114.4   1.122   23.6  0.3434   49.3  0.2234 -148.2
 3.400  0.6454  112.6   1.097   22.0  0.3530   48.3  0.2293 -150.5
 3.500  0.6493  110.9   1.073   20.3  0.3627   47.3  0.2355 -152.6
 3.600  0.6513  109.3   1.053   19.0  0.3714   46.0  0.2393 -155.5
 3.700  0.6538  107.6   1.033   17.7  0.3803   44.8  0.2436 -158.2
 3.800  0.6568  106.0   1.014   16.4  0.3894   43.6  0.2485 -160.9
 3.900  0.6603  104.4   0.995   15.0  0.3986   42.5  0.2539 -163.5
 4.000  0.6644  102.8   0.977   13.5  0.4080   41.4  0.2598 -165.9
 4.100  0.6654  101.3   0.961   12.3  0.4159   40.1  0.2644 -169.0
 4.200  0.6669   99.9   0.944   11.1  0.4240   38.8  0.2698 -172.0
 4.300  0.6688   98.5   0.929    9.8  0.4323   37.6  0.2759 -174.8
 4.400  0.6711   97.0   0.914    8.5  0.4407   36.4  0.2826 -177.5
 4.500  0.6738   95.6   0.899    7.2  0.4494   35.3  0.2899  179.9
 4.600  0.6769   94.3   0.885    6.3  0.4563   34.1  0.2968  177.2
 4.700  0.6803   93.0   0.872    5.4  0.4634   33.0  0.3044  174.7
 4.800  0.6840   91.7   0.859    4.4  0.4707   31.8  0.3125  172.3
 4.900  0.6881   90.4   0.846    3.4  0.4782   30.8  0.3211  170.1
 5.000  0.6926   89.1   0.833    2.4  0.4858   29.7  0.3302  167.9
 5.100  0.6926   87.9   0.824    1.6  0.4920   28.5  0.3385  166.0
 5.200  0.6928   86.7   0.816    0.7  0.4984   27.2  0.3472  164.2
 5.300  0.6933   85.6   0.807   -0.1  0.5050   26.1  0.3561  162.5
 5.400  0.6942   84.4   0.799   -1.0  0.5119   24.9  0.3654  160.8
 5.500  0.6953   83.2   0.791   -1.9  0.5189   23.8  0.3750  159.3
 5.600  0.6955   82.1   0.783   -2.6  0.5241   22.7  0.3807  157.8
 5.700  0.6959   81.0   0.775   -3.3  0.5295   21.5  0.3866  156.3
 5.800  0.6966   80.0   0.768   -4.1  0.5351   20.4  0.3928  154.9
 5.900  0.6975   78.9   0.760   -4.8  0.5409   19.4  0.3993  153.5
 6.000  0.6987   77.8   0.753   -5.6  0.5469   18.3  0.4059  152.2
!
!  f       NFmin   Gammaopt  rn/50
! GHz       dB    MAG  ANG    -
 0.450      2.42  0.28 -177   0.18
 0.900      2.73  0.33 -166   0.19
 1.900      3.88  0.54 -131   0.46
 2.400      4.64  0.58 -122   0.86
!
! (c) 2017  Infineon Technologies AG, Munich