! Infineon Technologies  Discrete & RF Semiconductors
! BFR93AW
! VCE =  9.0 V,  IC =  33 mA
! Common Emitter S-Parameters:                            Jan 2017
# GHz  S  MA  R  50
!  f         S11            S21            S12            S22
! GHz     MAG   ANG      MAG   ANG      MAG   ANG      MAG   ANG
 0.010  0.5721  -11.4  47.486  172.6  0.0026   85.3  0.9748   -4.9
 0.020  0.5757  -22.7  47.022  166.3  0.0048   80.5  0.9535  -10.1
 0.030  0.5431  -32.3  44.646  161.0  0.0073   74.0  0.9153  -14.0
 0.040  0.5275  -42.8  42.695  155.1  0.0098   70.9  0.8818  -18.3
 0.050  0.5303  -53.6  41.228  148.8  0.0123   69.0  0.8536  -22.9
 0.060  0.5058  -60.2  38.874  145.7  0.0138   66.9  0.8134  -24.9
 0.070  0.4886  -67.4  36.649  142.2  0.0153   65.3  0.7742  -27.0
 0.080  0.4797  -75.0  34.579  138.2  0.0168   63.9  0.7363  -29.4
 0.090  0.4795  -82.8  32.692  133.8  0.0183   62.8  0.6998  -32.1
 0.100  0.4879  -90.4  31.023  128.9  0.0198   61.8  0.6649  -35.0
 0.110  0.4747  -94.8  29.465  127.0  0.0207   61.3  0.6383  -35.8
 0.120  0.4644  -99.5  27.943  124.9  0.0217   60.8  0.6117  -36.6
 0.130  0.4573 -104.3  26.464  122.5  0.0226   60.3  0.5854  -37.5
 0.140  0.4536 -109.2  25.035  119.9  0.0236   59.9  0.5591  -38.5
 0.150  0.4532 -114.2  23.666  116.9  0.0245   59.5  0.5331  -39.6
 0.200  0.4390 -129.5  18.799  109.3  0.0276   59.7  0.4509  -40.6
 0.250  0.4323 -140.2  15.530  103.8  0.0322   60.7  0.3980  -40.2
 0.300  0.4266 -148.2  13.141   99.9  0.0353   62.4  0.3611  -39.4
 0.350  0.4229 -153.7  11.604   97.2  0.0393   64.1  0.3396  -38.5
 0.400  0.4231 -159.2  10.099   93.8  0.0433   65.4  0.3182  -37.5
 0.450  0.4209 -163.1   9.121   91.8  0.0475   66.3  0.3060  -36.9
 0.500  0.4207 -167.1   8.156   89.4  0.0518   67.0  0.2938  -36.2
 0.600  0.4235 -173.2   6.861   85.6  0.0605   68.4  0.2784  -35.7
 0.700  0.4259 -178.0   5.911   82.3  0.0685   69.9  0.2683  -35.5
 0.800  0.4284  177.6   5.200   79.2  0.0775   70.2  0.2608  -36.0
 0.900  0.4293  173.6   4.631   76.3  0.0867   70.1  0.2550  -36.8
 1.000  0.4352  170.3   4.199   73.7  0.0953   70.3  0.2495  -37.9
 1.100  0.4404  167.0   3.834   71.2  0.1045   70.4  0.2461  -39.2
 1.200  0.4429  164.0   3.529   68.6  0.1132   69.8  0.2425  -40.7
 1.300  0.4448  161.1   3.270   66.2  0.1221   69.6  0.2394  -42.7
 1.400  0.4505  158.5   3.059   63.8  0.1318   69.3  0.2353  -44.8
 1.500  0.4572  156.1   2.865   61.6  0.1405   68.7  0.2327  -47.0
 1.600  0.4604  153.4   2.703   59.2  0.1500   68.4  0.2315  -49.5
 1.700  0.4631  151.2   2.557   57.1  0.1586   67.8  0.2293  -52.2
 1.800  0.4697  148.9   2.437   54.8  0.1676   66.9  0.2274  -55.0
 1.900  0.4754  146.6   2.321   52.9  0.1769   66.4  0.2261  -57.9
 2.000  0.4770  144.5   2.215   50.6  0.1862   65.7  0.2260  -61.1
 2.100  0.4822  142.2   2.125   48.6  0.1953   64.9  0.2255  -64.4
 2.200  0.4881  140.0   2.037   46.4  0.2045   64.1  0.2258  -67.7
 2.300  0.4936  138.1   1.963   44.5  0.2139   63.3  0.2268  -71.0
 2.400  0.4996  136.3   1.891   42.4  0.2233   62.5  0.2285  -74.3
 2.500  0.5040  134.3   1.826   40.6  0.2323   61.7  0.2306  -77.5
 2.600  0.5089  132.4   1.762   38.7  0.2414   60.9  0.2335  -80.7
 2.700  0.5130  130.5   1.708   36.9  0.2505   60.1  0.2362  -83.7
 2.800  0.5177  128.7   1.655   35.0  0.2597   59.3  0.2396  -86.7
 2.900  0.5229  126.8   1.608   33.3  0.2689   58.4  0.2419  -89.6
 3.000  0.5286  124.9   1.562   31.5  0.2781   57.5  0.2448  -92.5
 3.100  0.5316  123.1   1.523   30.0  0.2873   56.5  0.2464  -95.3
 3.200  0.5352  121.3   1.485   28.4  0.2965   55.5  0.2486  -98.2
 3.300  0.5392  119.5   1.448   26.8  0.3059   54.6  0.2514 -100.9
 3.400  0.5438  117.7   1.412   25.0  0.3153   53.7  0.2547 -103.6
 3.500  0.5489  116.0   1.378   23.2  0.3248   52.9  0.2586 -106.2
 3.600  0.5534  114.3   1.349   21.8  0.3340   51.8  0.2587 -109.1
 3.700  0.5584  112.7   1.321   20.3  0.3432   50.7  0.2595 -112.1
 3.800  0.5639  111.1   1.294   18.8  0.3526   49.7  0.2609 -115.0
 3.900  0.5697  109.5   1.267   17.2  0.3621   48.7  0.2630 -117.9
 4.000  0.5760  108.0   1.242   15.6  0.3717   47.8  0.2658 -120.7
 4.100  0.5796  106.5   1.218   14.3  0.3804   46.6  0.2658 -124.2
 4.200  0.5835  105.0   1.195   12.9  0.3893   45.4  0.2668 -127.6
 4.300  0.5879  103.6   1.173   11.4  0.3983   44.4  0.2687 -131.1
 4.400  0.5926  102.1   1.151   10.0  0.4075   43.3  0.2716 -134.4
 4.500  0.5977  100.7   1.130    8.4  0.4168   42.3  0.2754 -137.7
 4.600  0.6030   99.3   1.109    7.3  0.4250   41.2  0.2781 -141.4
 4.700  0.6087   97.9   1.089    6.2  0.4334   40.1  0.2820 -144.9
 4.800  0.6147   96.5   1.069    5.0  0.4420   39.0  0.2868 -148.4
 4.900  0.6210   95.2   1.049    3.8  0.4507   38.0  0.2928 -151.7
 5.000  0.6277   93.9   1.030    2.6  0.4595   37.0  0.2996 -154.9
 5.100  0.6299   92.6   1.015    1.6  0.4672   35.8  0.3062 -158.0
 5.200  0.6324   91.4   1.001    0.6  0.4752   34.6  0.3136 -161.0
 5.300  0.6353   90.1   0.987   -0.5  0.4833   33.4  0.3218 -163.8
 5.400  0.6384   88.9   0.973   -1.6  0.4917   32.3  0.3308 -166.5
 5.500  0.6418   87.7   0.960   -2.7  0.5002   31.2  0.3404 -169.0
 5.600  0.6436   86.5   0.946   -3.5  0.5071   30.0  0.3463 -171.3
 5.700  0.6457   85.4   0.933   -4.3  0.5142   28.9  0.3528 -173.6
 5.800  0.6481   84.3   0.920   -5.2  0.5215   27.8  0.3599 -175.8
 5.900  0.6507   83.1   0.907   -6.1  0.5289   26.7  0.3674 -177.9
 6.000  0.6535   82.0   0.894   -7.0  0.5366   25.7  0.3754 -179.9
!
!  f       NFmin   Gammaopt  rn/50
! GHz       dB    MAG  ANG    -
 0.450      1.88  0.20  177   0.16
 0.900      2.14  0.27 -173   0.16
 1.900      3.19  0.51 -134   0.30
 2.400      3.85  0.56 -124   0.58
!
! (c) 2017  Infineon Technologies AG, Munich