! Infineon Technologies  Discrete & RF Semiconductors
! BFR93AW
! VCE =  4.0 V,  IC =  33 mA
! Common Emitter S-Parameters:                            Jan 2017
# GHz  S  MA  R  50
!  f         S11            S21            S12            S22
! GHz     MAG   ANG      MAG   ANG      MAG   ANG      MAG   ANG
 0.010  0.4711  -14.8  49.999  172.1  0.0027   86.4  0.9720   -5.9
 0.020  0.4767  -29.1  49.431  165.0  0.0056   83.5  0.9454  -12.1
 0.030  0.4500  -41.0  46.472  159.3  0.0079   75.8  0.8989  -16.6
 0.040  0.4445  -53.7  44.029  152.9  0.0104   71.6  0.8585  -21.5
 0.050  0.4609  -66.2  42.191  145.9  0.0128   69.0  0.8251  -26.9
 0.060  0.4435  -73.8  39.550  142.8  0.0142   66.8  0.7804  -29.0
 0.070  0.4345  -81.9  37.041  139.3  0.0156   65.1  0.7369  -31.4
 0.080  0.4344  -90.1  34.691  135.3  0.0170   63.6  0.6949  -34.0
 0.090  0.4431  -98.2  32.537  130.7  0.0185   62.4  0.6545  -37.0
 0.100  0.4602 -105.8  30.618  125.5  0.0199   61.3  0.6161  -40.4
 0.110  0.4537 -110.1  28.992  123.7  0.0208   60.9  0.5883  -41.2
 0.120  0.4499 -114.6  27.397  121.7  0.0217   60.5  0.5607  -42.1
 0.130  0.4488 -119.1  25.839  119.5  0.0227   60.2  0.5332  -43.1
 0.140  0.4505 -123.6  24.327  117.0  0.0236   59.9  0.5059  -44.2
 0.150  0.4549 -128.0  22.867  114.1  0.0245   59.6  0.4788  -45.4
 0.200  0.4559 -141.3  17.980  106.9  0.0280   60.3  0.3970  -46.6
 0.250  0.4587 -150.3  14.770  101.6  0.0325   61.5  0.3452  -46.3
 0.300  0.4571 -157.0  12.459   98.0  0.0362   63.3  0.3082  -45.5
 0.350  0.4557 -161.6  10.987   95.5  0.0403   65.4  0.2871  -44.7
 0.400  0.4573 -166.2   9.543   92.2  0.0444   67.1  0.2660  -43.8
 0.450  0.4580 -169.6   8.612   90.3  0.0491   67.8  0.2541  -43.2
 0.500  0.4604 -173.0   7.692   87.9  0.0539   68.4  0.2422  -42.6
 0.600  0.4653 -178.0   6.467   84.2  0.0628   69.4  0.2270  -42.1
 0.700  0.4664  177.8   5.564   81.1  0.0719   70.2  0.2164  -42.0
 0.800  0.4694  173.9   4.892   77.9  0.0817   70.7  0.2095  -42.6
 0.900  0.4716  170.3   4.357   75.1  0.0912   70.3  0.2039  -43.7
 1.000  0.4775  167.2   3.950   72.4  0.1002   70.6  0.1984  -45.1
 1.100  0.4810  164.4   3.607   69.9  0.1100   70.2  0.1950  -46.7
 1.200  0.4833  161.5   3.320   67.4  0.1190   70.0  0.1913  -48.4
 1.300  0.4867  158.7   3.078   64.9  0.1284   69.4  0.1891  -50.8
 1.400  0.4926  156.4   2.879   62.6  0.1384   68.9  0.1856  -53.6
 1.500  0.4965  154.0   2.698   60.3  0.1478   68.3  0.1833  -56.3
 1.600  0.5014  151.6   2.545   57.9  0.1576   67.6  0.1832  -59.3
 1.700  0.5036  149.3   2.409   55.7  0.1669   66.9  0.1812  -62.6
 1.800  0.5090  146.9   2.294   53.4  0.1766   66.3  0.1806  -66.1
 1.900  0.5137  144.9   2.186   51.5  0.1863   65.5  0.1806  -69.4
 2.000  0.5185  142.8   2.087   49.2  0.1960   64.7  0.1816  -73.3
 2.100  0.5225  140.6   2.002   47.2  0.2055   63.8  0.1826  -77.1
 2.200  0.5272  138.5   1.920   45.0  0.2150   63.0  0.1845  -80.9
 2.300  0.5321  136.6   1.850   43.1  0.2247   62.1  0.1871  -84.7
 2.400  0.5376  134.7   1.782   41.0  0.2344   61.2  0.1905  -88.4
 2.500  0.5417  132.8   1.721   39.2  0.2437   60.3  0.1940  -91.9
 2.600  0.5464  131.0   1.662   37.2  0.2531   59.4  0.1983  -95.3
 2.700  0.5504  129.1   1.611   35.5  0.2624   58.4  0.2026  -98.5
 2.800  0.5551  127.2   1.562   33.6  0.2718   57.5  0.2075 -101.5
 2.900  0.5588  125.3   1.517   31.9  0.2813   56.6  0.2111 -104.6
 3.000  0.5630  123.5   1.474   30.1  0.2908   55.7  0.2153 -107.5
 3.100  0.5658  121.7   1.438   28.6  0.3000   54.6  0.2182 -110.4
 3.200  0.5692  119.9   1.402   27.1  0.3092   53.6  0.2216 -113.3
 3.300  0.5731  118.1   1.368   25.4  0.3186   52.6  0.2255 -116.1
 3.400  0.5776  116.4   1.335   23.7  0.3281   51.7  0.2300 -118.7
 3.500  0.5826  114.7   1.303   21.9  0.3376   50.8  0.2349 -121.3
 3.600  0.5862  113.1   1.276   20.5  0.3467   49.6  0.2364 -124.4
 3.700  0.5904  111.4   1.249   19.1  0.3559   48.5  0.2387 -127.4
 3.800  0.5950  109.8   1.224   17.6  0.3652   47.4  0.2416 -130.4
 3.900  0.6000  108.2   1.199   16.0  0.3746   46.4  0.2451 -133.3
 4.000  0.6055  106.7   1.175   14.4  0.3842   45.4  0.2492 -136.1
 4.100  0.6085  105.2   1.153   13.1  0.3926   44.2  0.2510 -139.6
 4.200  0.6119  103.7   1.131   11.8  0.4011   43.0  0.2537 -143.1
 4.300  0.6158  102.3   1.110   10.4  0.4098   41.8  0.2573 -146.5
 4.400  0.6200  100.8   1.090    8.9  0.4187   40.7  0.2618 -149.7
 4.500  0.6246   99.4   1.070    7.4  0.4277   39.7  0.2671 -152.9
 4.600  0.6292   98.0   1.051    6.4  0.4355   38.5  0.2718 -156.3
 4.700  0.6341   96.7   1.032    5.3  0.4435   37.4  0.2775 -159.7
 4.800  0.6394   95.3   1.013    4.2  0.4516   36.3  0.2840 -162.8
 4.900  0.6450   94.0   0.995    3.0  0.4599   35.2  0.2914 -165.8
 5.000  0.6510   92.7   0.977    1.8  0.4684   34.2  0.2995 -168.7
 5.100  0.6526   91.4   0.964    0.9  0.4757   33.0  0.3072 -171.4
 5.200  0.6546   90.2   0.951   -0.1  0.4832   31.8  0.3155 -174.0
 5.300  0.6568   89.0   0.938   -1.1  0.4909   30.7  0.3245 -176.5
 5.400  0.6593   87.7   0.926   -2.1  0.4987   29.6  0.3340 -178.8
 5.500  0.6622   86.5   0.914   -3.1  0.5068   28.5  0.3440  179.0
 5.600  0.6634   85.4   0.902   -3.9  0.5130   27.3  0.3504  177.0
 5.700  0.6649   84.2   0.889   -4.7  0.5194   26.2  0.3573  175.1
 5.800  0.6667   83.1   0.877   -5.6  0.5260   25.1  0.3645  173.3
 5.900  0.6687   82.0   0.866   -6.4  0.5327   24.0  0.3721  171.6
 6.000  0.6709   80.9   0.854   -7.3  0.5397   23.0  0.3800  169.9
!
!  f       NFmin   Gammaopt  rn/50
! GHz       dB    MAG  ANG    -
 0.450      1.88  0.20  177   0.16
 0.900      2.14  0.27 -173   0.16
 1.900      3.19  0.51 -134   0.30
 2.400      3.85  0.56 -124   0.58
!
! (c) 2017  Infineon Technologies AG, Munich