! Infineon Technologies  Discrete & RF Semiconductors
! BFR93AW
! VCE =  2.0 V,  IC =  38 mA
! Common Emitter S-Parameters:                            Jan 2017
# GHz  S  MA  R  50
!  f         S11            S21            S12            S22
! GHz     MAG   ANG      MAG   ANG      MAG   ANG      MAG   ANG
 0.010  0.3739  -21.3  53.693  170.9  0.0027   83.6  0.9546   -7.6
 0.020  0.3888  -41.1  52.581  162.3  0.0064   82.5  0.9282  -15.6
 0.030  0.3721  -56.5  48.642  156.2  0.0087   73.2  0.8645  -20.9
 0.040  0.3834  -72.0  45.352  149.1  0.0111   67.9  0.8092  -26.9
 0.050  0.4205  -85.8  42.860  141.0  0.0136   64.5  0.7641  -33.7
 0.060  0.4140  -93.9  39.837  138.1  0.0148   63.2  0.7146  -35.9
 0.070  0.4158 -102.0  36.935  134.7  0.0161   62.1  0.6664  -38.5
 0.080  0.4259 -109.9  34.185  130.7  0.0174   61.2  0.6197  -41.5
 0.090  0.4436 -117.4  31.625  126.1  0.0186   60.4  0.5750  -44.9
 0.100  0.4682 -124.1  29.307  120.7  0.0199   59.7  0.5326  -48.9
 0.110  0.4670 -127.9  27.647  119.1  0.0209   59.7  0.5054  -49.8
 0.120  0.4680 -131.7  26.012  117.2  0.0219   59.6  0.4784  -50.8
 0.130  0.4709 -135.5  24.408  115.1  0.0228   59.6  0.4516  -52.0
 0.140  0.4759 -139.2  22.841  112.7  0.0238   59.5  0.4249  -53.2
 0.150  0.4828 -142.8  21.320  110.0  0.0248   59.5  0.3985  -54.7
 0.200  0.4937 -153.3  16.547  103.5  0.0287   61.0  0.3212  -56.5
 0.250  0.4997 -160.4  13.499   98.6  0.0336   62.7  0.2728  -56.8
 0.300  0.5014 -165.3  11.359   95.4  0.0375   64.8  0.2392  -56.7
 0.350  0.5027 -169.0   9.995   93.1  0.0423   66.5  0.2194  -56.3
 0.400  0.5060 -172.6   8.653   90.0  0.0471   67.9  0.1996  -55.9
 0.450  0.5065 -175.4   7.802   88.2  0.0518   68.7  0.1884  -55.7
 0.500  0.5082 -178.2   6.960   86.0  0.0566   69.3  0.1773  -55.4
 0.600  0.5121  177.5   5.841   82.4  0.0669   70.5  0.1625  -55.5
 0.700  0.5153  174.0   5.025   79.3  0.0774   70.9  0.1528  -55.8
 0.800  0.5186  170.4   4.419   76.2  0.0880   71.3  0.1460  -57.2
 0.900  0.5202  167.3   3.934   73.4  0.0969   70.7  0.1412  -59.2
 1.000  0.5241  164.7   3.568   70.8  0.1077   70.5  0.1364  -61.3
 1.100  0.5281  161.7   3.258   68.3  0.1183   70.2  0.1341  -63.8
 1.200  0.5316  159.0   3.000   65.7  0.1281   69.6  0.1316  -66.4
 1.300  0.5354  156.5   2.781   63.3  0.1380   68.9  0.1303  -69.9
 1.400  0.5382  154.1   2.604   60.9  0.1487   68.1  0.1286  -73.9
 1.500  0.5426  151.8   2.440   58.6  0.1586   67.4  0.1285  -77.7
 1.600  0.5482  149.6   2.304   56.2  0.1692   66.7  0.1301  -81.4
 1.700  0.5506  147.1   2.182   54.0  0.1790   65.9  0.1313  -86.0
 1.800  0.5562  145.0   2.081   51.7  0.1894   65.0  0.1331  -90.4
 1.900  0.5603  143.1   1.982   49.7  0.1995   64.1  0.1361  -94.6
 2.000  0.5625  141.0   1.892   47.4  0.2093   63.1  0.1408  -99.0
 2.100  0.5666  138.8   1.816   45.4  0.2195   62.1  0.1450 -103.2
 2.200  0.5714  136.7   1.743   43.2  0.2298   61.2  0.1499 -107.2
 2.300  0.5761  134.8   1.680   41.3  0.2397   60.2  0.1555 -110.9
 2.400  0.5814  132.9   1.620   39.2  0.2497   59.2  0.1617 -114.4
 2.500  0.5843  131.0   1.565   37.4  0.2594   58.2  0.1679 -117.7
 2.600  0.5879  129.2   1.512   35.5  0.2691   57.2  0.1747 -120.8
 2.700  0.5918  127.3   1.466   33.8  0.2787   56.2  0.1810 -123.6
 2.800  0.5964  125.5   1.422   31.9  0.2883   55.2  0.1877 -126.3
 2.900  0.5997  123.6   1.382   30.2  0.2979   54.1  0.1933 -129.1
 3.000  0.6036  121.8   1.344   28.4  0.3075   53.1  0.1993 -131.7
 3.100  0.6055  120.0   1.312   27.0  0.3167   51.9  0.2037 -134.4
 3.200  0.6080  118.2   1.280   25.4  0.3259   50.8  0.2085 -137.0
 3.300  0.6111  116.4   1.250   23.8  0.3353   49.8  0.2137 -139.4
 3.400  0.6148  114.6   1.220   22.2  0.3448   48.8  0.2193 -141.8
 3.500  0.6191  112.9   1.192   20.4  0.3544   47.9  0.2252 -144.0
 3.600  0.6221  111.3   1.168   19.1  0.3631   46.6  0.2286 -146.9
 3.700  0.6256  109.6   1.145   17.7  0.3720   45.5  0.2326 -149.8
 3.800  0.6296  108.0   1.122   16.3  0.3811   44.3  0.2372 -152.5
 3.900  0.6341  106.5   1.100   14.8  0.3903   43.2  0.2422 -155.2
 4.000  0.6391  104.9   1.079   13.2  0.3996   42.2  0.2478 -157.7
 4.100  0.6411  103.4   1.059   12.0  0.4076   40.9  0.2520 -161.0
 4.200  0.6435  101.9   1.040   10.7  0.4157   39.7  0.2569 -164.1
 4.300  0.6464  100.5   1.021    9.3  0.4240   38.5  0.2626 -167.1
 4.400  0.6496   99.0   1.003    7.9  0.4325   37.4  0.2690 -170.0
 4.500  0.6533   97.6   0.986    6.5  0.4412   36.3  0.2760 -172.7
 4.600  0.6570   96.2   0.969    5.5  0.4485   35.1  0.2826 -175.6
 4.700  0.6610   94.9   0.953    4.5  0.4559   34.0  0.2899 -178.3
 4.800  0.6654   93.6   0.936    3.5  0.4635   32.9  0.2978  179.1
 4.900  0.6702   92.3   0.921    2.4  0.4713   31.8  0.3064  176.6
 5.000  0.6753   91.0   0.905    1.3  0.4792   30.8  0.3154  174.3
 5.100  0.6761   89.8   0.894    0.4  0.4857   29.6  0.3239  172.2
 5.200  0.6772   88.6   0.883   -0.4  0.4925   28.4  0.3328  170.2
 5.300  0.6786   87.4   0.873   -1.3  0.4994   27.3  0.3421  168.4
 5.400  0.6803   86.2   0.862   -2.3  0.5066   26.2  0.3517  166.6
 5.500  0.6823   85.0   0.852   -3.2  0.5139   25.1  0.3617  164.9
 5.600  0.6828   83.9   0.842   -3.9  0.5194   24.0  0.3679  163.3
 5.700  0.6835   82.8   0.832   -4.7  0.5252   22.8  0.3744  161.7
 5.800  0.6845   81.7   0.822   -5.5  0.5311   21.7  0.3812  160.2
 5.900  0.6857   80.6   0.812   -6.3  0.5372   20.7  0.3882  158.8
 6.000  0.6872   79.5   0.802   -7.1  0.5435   19.6  0.3954  157.4
!
!  f       NFmin   Gammaopt  rn/50
! GHz       dB    MAG  ANG    -
 0.450      1.99  0.22  179   0.16
 0.900      2.27  0.28 -171   0.17
 1.900      3.33  0.52 -133   0.34
 2.400      4.02  0.56 -123   0.63
!
! (c) 2017  Infineon Technologies AG, Munich