! Infineon Technologies  Discrete & RF Semiconductors
! BFR93AW
! VCE =  12. V,  IC =  11 mA
! Common Emitter S-Parameters:                            Jan 2017
# GHz  S  MA  R  50
!  f         S11            S21            S12            S22
! GHz     MAG   ANG      MAG   ANG      MAG   ANG      MAG   ANG
 0.010  0.7661   -6.5  26.909  175.3  0.0026   82.7  0.9879   -2.8
 0.020  0.7756  -12.9  27.119  171.4  0.0058   81.0  0.9824   -5.9
 0.030  0.7502  -18.8  26.433  167.6  0.0084   77.7  0.9647   -8.5
 0.040  0.7333  -25.0  25.866  163.7  0.0110   75.9  0.9491  -11.1
 0.050  0.7254  -31.5  25.427  159.6  0.0136   74.8  0.9356  -13.9
 0.060  0.7027  -36.5  24.595  156.6  0.0158   72.0  0.9118  -15.8
 0.070  0.6858  -41.8  23.834  153.5  0.0179   69.8  0.8890  -17.7
 0.080  0.6750  -47.4  23.150  150.1  0.0201   68.1  0.8674  -19.8
 0.090  0.6706  -53.0  22.551  146.5  0.0224   66.8  0.8468  -21.9
 0.100  0.6729  -58.7  22.043  142.8  0.0246   65.7  0.8276  -24.2
 0.110  0.6527  -62.6  21.267  140.6  0.0260   63.8  0.8046  -25.3
 0.120  0.6357  -66.7  20.524  138.3  0.0274   62.0  0.7819  -26.5
 0.130  0.6221  -71.1  19.818  135.8  0.0288   60.4  0.7597  -27.8
 0.140  0.6123  -75.6  19.152  133.1  0.0302   59.0  0.7378  -29.2
 0.150  0.6064  -80.2  18.532  130.2  0.0317   57.7  0.7163  -30.6
 0.200  0.5610  -96.8  15.609  121.0  0.0359   55.1  0.6289  -33.9
 0.250  0.5292 -110.6  13.363  113.8  0.0400   52.9  0.5641  -35.5
 0.300  0.5040 -121.0  11.570  108.7  0.0433   52.3  0.5137  -36.1
 0.350  0.4865 -128.7  10.312  105.2  0.0464   53.0  0.4819  -36.1
 0.400  0.4783 -136.8   9.103  100.7  0.0495   53.7  0.4501  -36.0
 0.450  0.4682 -142.4   8.263   98.0  0.0526   54.5  0.4308  -35.9
 0.500  0.4627 -148.2   7.445   94.8  0.0557   55.3  0.4115  -35.7
 0.600  0.4574 -157.1   6.306   90.0  0.0623   57.0  0.3873  -35.4
 0.700  0.4531 -164.3   5.454   86.0  0.0682   59.7  0.3706  -35.4
 0.800  0.4517 -170.3   4.815   82.3  0.0752   61.2  0.3590  -35.8
 0.900  0.4506 -175.6   4.295   78.9  0.0818   61.9  0.3501  -36.5
 1.000  0.4552  179.7   3.900   75.9  0.0891   63.3  0.3429  -37.5
 1.100  0.4577  175.5   3.566   73.0  0.0960   63.8  0.3372  -38.6
 1.200  0.4600  171.6   3.283   70.1  0.1033   64.5  0.3322  -39.9
 1.300  0.4611  168.2   3.046   67.4  0.1108   64.9  0.3284  -41.6
 1.400  0.4678  165.0   2.850   64.9  0.1190   65.3  0.3238  -43.4
 1.500  0.4715  161.9   2.671   62.4  0.1270   65.6  0.3214  -45.3
 1.600  0.4750  159.0   2.519   59.8  0.1351   65.8  0.3199  -47.3
 1.700  0.4778  156.0   2.386   57.5  0.1430   65.8  0.3167  -49.8
 1.800  0.4848  153.3   2.273   55.1  0.1521   65.7  0.3144  -52.1
 1.900  0.4884  150.8   2.166   53.0  0.1603   65.7  0.3128  -54.7
 2.000  0.4930  148.2   2.067   50.6  0.1689   65.3  0.3126  -57.3
 2.100  0.4982  145.8   1.983   48.5  0.1778   64.9  0.3118  -60.1
 2.200  0.5043  143.4   1.902   46.2  0.1867   64.6  0.3117  -62.9
 2.300  0.5089  141.2   1.832   44.2  0.1958   64.2  0.3123  -65.8
 2.400  0.5143  139.1   1.765   42.0  0.2049   63.8  0.3137  -68.7
 2.500  0.5193  136.9   1.704   40.1  0.2141   63.2  0.3151  -71.6
 2.600  0.5251  134.8   1.644   38.1  0.2233   62.7  0.3172  -74.4
 2.700  0.5287  132.8   1.593   36.3  0.2326   62.0  0.3197  -77.2
 2.800  0.5329  130.8   1.544   34.4  0.2420   61.4  0.3230  -79.9
 2.900  0.5380  128.7   1.499   32.6  0.2518   60.7  0.3247  -82.7
 3.000  0.5439  126.6   1.456   30.6  0.2617   60.1  0.3271  -85.4
 3.100  0.5470  124.6   1.419   29.1  0.2715   59.2  0.3282  -88.1
 3.200  0.5508  122.7   1.383   27.5  0.2815   58.4  0.3300  -90.8
 3.300  0.5552  120.7   1.347   25.8  0.2914   57.6  0.3325  -93.4
 3.400  0.5603  118.9   1.314   24.1  0.3014   56.9  0.3358  -96.1
 3.500  0.5659  117.0   1.281   22.2  0.3115   56.2  0.3397  -98.6
 3.600  0.5699  115.2   1.253   20.8  0.3215   55.1  0.3391 -101.4
 3.700  0.5745  113.5   1.227   19.4  0.3317   54.0  0.3394 -104.2
 3.800  0.5796  111.8   1.200   17.9  0.3419   53.0  0.3404 -107.1
 3.900  0.5851  110.1   1.175   16.3  0.3523   52.1  0.3423 -109.8
 4.000  0.5912  108.5   1.151   14.7  0.3627   51.2  0.3450 -112.6
 4.100  0.5943  106.9   1.129   13.4  0.3724   50.0  0.3438 -115.9
 4.200  0.5979  105.3   1.107   12.1  0.3823   48.8  0.3437 -119.2
 4.300  0.6020  103.7   1.085   10.7  0.3923   47.7  0.3448 -122.5
 4.400  0.6065  102.1   1.065    9.3  0.4025   46.6  0.3471 -125.8
 4.500  0.6115  100.6   1.045    7.8  0.4128   45.6  0.3504 -129.0
 4.600  0.6160   99.1   1.025    6.8  0.4222   44.4  0.3515 -132.5
 4.700  0.6208   97.7   1.006    5.7  0.4318   43.2  0.3538 -136.0
 4.800  0.6261   96.3   0.987    4.6  0.4415   42.1  0.3575 -139.5
 4.900  0.6317   94.9   0.968    3.4  0.4514   41.0  0.3624 -142.8
 5.000  0.6377   93.5   0.950    2.2  0.4615   40.0  0.3686 -146.1
 5.100  0.6395   92.2   0.936    1.3  0.4701   38.7  0.3738 -149.3
 5.200  0.6417   90.8   0.923    0.4  0.4790   37.4  0.3802 -152.4
 5.300  0.6442   89.5   0.910   -0.5  0.4881   36.2  0.3876 -155.4
 5.400  0.6471   88.2   0.897   -1.5  0.4974   35.0  0.3961 -158.3
 5.500  0.6503   86.9   0.884   -2.5  0.5069   33.9  0.4055 -161.1
 5.600  0.6517   85.7   0.872   -3.2  0.5145   32.6  0.4103 -163.7
 5.700  0.6534   84.6   0.860   -3.9  0.5223   31.4  0.4159 -166.2
 5.800  0.6553   83.4   0.848   -4.7  0.5303   30.2  0.4223 -168.7
 5.900  0.6575   82.2   0.836   -5.4  0.5386   29.0  0.4295 -171.1
 6.000  0.6600   81.1   0.824   -6.2  0.5471   27.9  0.4374 -173.4
!
!  f       NFmin   Gammaopt  rn/50
! GHz       dB    MAG  ANG    -
 0.450      1.26  0.12  111   0.13
 0.900      1.57  0.23  157   0.14
 1.900      2.62  0.47 -146   0.18
 2.400      3.24  0.54 -130   0.37
!
! (c) 2017  Infineon Technologies AG, Munich