! Infineon Technologies  Discrete & RF Semiconductors
! BFR93AW
! VCE =  10. V,  IC =  5.0 mA
! Common Emitter S-Parameters:                            Jan 2017
# GHz  S  MA  R  50
!  f         S11            S21            S12            S22
! GHz     MAG   ANG      MAG   ANG      MAG   ANG      MAG   ANG
 0.010  0.8592   -4.6  15.209  176.9  0.0031   87.7  0.9992   -1.8
 0.020  0.8700   -8.9  15.346  174.3  0.0057   89.7  0.9890   -3.7
 0.030  0.8520  -13.1  15.142  171.5  0.0088   83.5  0.9826   -5.4
 0.040  0.8388  -17.4  14.976  168.6  0.0119   80.5  0.9772   -7.2
 0.050  0.8305  -21.9  14.850  165.6  0.0151   78.8  0.9727   -9.0
 0.060  0.8170  -25.9  14.579  163.1  0.0178   75.7  0.9596  -10.4
 0.070  0.8076  -30.0  14.337  160.5  0.0205   73.5  0.9472  -11.9
 0.080  0.8024  -34.2  14.125  157.9  0.0232   71.8  0.9354  -13.4
 0.090  0.8015  -38.4  13.945  155.1  0.0259   70.4  0.9243  -15.0
 0.100  0.8050  -42.6  13.797  152.3  0.0287   69.3  0.9139  -16.6
 0.110  0.7879  -46.0  13.485  150.2  0.0307   67.2  0.8989  -17.7
 0.120  0.7737  -49.5  13.193  148.0  0.0328   65.3  0.8842  -18.9
 0.130  0.7626  -53.2  12.920  145.7  0.0349   63.7  0.8699  -20.1
 0.140  0.7546  -56.9  12.669  143.4  0.0370   62.2  0.8560  -21.3
 0.150  0.7499  -60.7  12.440  140.9  0.0391   60.9  0.8425  -22.6
 0.200  0.7016  -76.4  11.095  131.5  0.0458   55.8  0.7730  -26.6
 0.250  0.6613  -89.8   9.903  123.6  0.0519   51.5  0.7122  -29.2
 0.300  0.6241 -100.9   8.815  117.4  0.0559   48.5  0.6602  -30.9
 0.350  0.5953 -109.5   7.976  113.0  0.0586   47.1  0.6236  -31.7
 0.400  0.5810 -118.7   7.193  107.7  0.0614   45.8  0.5872  -32.7
 0.450  0.5631 -125.4   6.584  104.4  0.0639   45.2  0.5633  -33.1
 0.500  0.5533 -132.4   6.001  100.5  0.0664   44.7  0.5395  -33.6
 0.600  0.5364 -143.0   5.141   94.5  0.0706   45.4  0.5071  -34.1
 0.700  0.5265 -151.7   4.476   89.6  0.0734   47.1  0.4847  -34.7
 0.800  0.5212 -159.3   3.970   85.0  0.0777   49.1  0.4693  -35.5
 0.900  0.5160 -165.6   3.558   81.1  0.0820   50.3  0.4573  -36.4
 1.000  0.5168 -171.3   3.237   77.5  0.0864   52.3  0.4476  -37.6
 1.100  0.5191 -176.4   2.967   74.1  0.0909   54.0  0.4406  -39.0
 1.200  0.5198  178.9   2.737   70.8  0.0961   55.7  0.4346  -40.5
 1.300  0.5202  174.7   2.542   67.7  0.1010   57.5  0.4299  -42.1
 1.400  0.5254  171.1   2.380   64.8  0.1068   58.9  0.4248  -44.0
 1.500  0.5293  167.4   2.233   62.0  0.1133   60.1  0.4215  -46.0
 1.600  0.5321  164.0   2.109   59.2  0.1201   61.4  0.4201  -48.1
 1.700  0.5356  160.8   1.999   56.7  0.1271   62.5  0.4165  -50.5
 1.800  0.5422  157.5   1.906   54.1  0.1346   63.4  0.4139  -52.8
 1.900  0.5456  154.6   1.816   51.8  0.1423   64.0  0.4124  -55.3
 2.000  0.5489  151.9   1.735   49.2  0.1504   64.6  0.4128  -57.9
 2.100  0.5535  149.0   1.664   46.9  0.1590   65.0  0.4122  -60.6
 2.200  0.5594  146.2   1.596   44.4  0.1677   65.3  0.4125  -63.3
 2.300  0.5645  143.7   1.537   42.3  0.1771   65.5  0.4134  -66.2
 2.400  0.5707  141.2   1.481   40.0  0.1866   65.6  0.4154  -69.0
 2.500  0.5746  138.8   1.429   38.0  0.1963   65.4  0.4169  -71.8
 2.600  0.5794  136.5   1.379   35.9  0.2060   65.3  0.4193  -74.6
 2.700  0.5837  134.2   1.336   34.1  0.2163   65.0  0.4217  -77.4
 2.800  0.5890  131.9   1.294   32.1  0.2267   64.7  0.4250  -80.1
 2.900  0.5930  129.6   1.255   30.3  0.2374   64.2  0.4271  -82.8
 3.000  0.5980  127.4   1.218   28.3  0.2481   63.7  0.4301  -85.5
 3.100  0.6003  125.2   1.186   26.9  0.2594   62.8  0.4307  -88.3
 3.200  0.6034  123.0   1.155   25.4  0.2708   62.0  0.4323  -91.0
 3.300  0.6074  120.9   1.124   23.8  0.2823   61.3  0.4348  -93.8
 3.400  0.6122  118.8   1.095   22.1  0.2938   60.6  0.4384  -96.5
 3.500  0.6179  116.7   1.066   20.3  0.3053   60.0  0.4429  -99.1
 3.600  0.6209  114.8   1.043   19.1  0.3170   58.8  0.4416 -102.0
 3.700  0.6246  112.8   1.020   17.8  0.3289   57.7  0.4414 -105.0
 3.800  0.6290  110.9   0.998   16.4  0.3409   56.7  0.4424 -107.9
 3.900  0.6341  109.0   0.976   15.0  0.3529   55.7  0.4446 -110.8
 4.000  0.6399  107.2   0.955   13.5  0.3651   54.8  0.4479 -113.7
 4.100  0.6416  105.5   0.937   12.4  0.3764   53.4  0.4456 -117.0
 4.200  0.6439  103.8   0.919   11.2  0.3879   52.1  0.4447 -120.3
 4.300  0.6468  102.1   0.902   10.0  0.3996   50.8  0.4454 -123.6
 4.400  0.6502  100.4   0.885    8.8  0.4115   49.6  0.4475 -126.9
 4.500  0.6541   98.8   0.868    7.5  0.4235   48.5  0.4511 -130.2
 4.600  0.6571   97.3   0.852    6.7  0.4340   47.1  0.4508 -133.7
 4.700  0.6607   95.7   0.837    5.9  0.4447   45.7  0.4521 -137.1
 4.800  0.6646   94.2   0.822    5.1  0.4557   44.4  0.4551 -140.5
 4.900  0.6690   92.8   0.807    4.2  0.4669   43.2  0.4597 -143.9
 5.000  0.6739   91.3   0.792    3.3  0.4783   42.0  0.4658 -147.2
 5.100  0.6742   89.9   0.783    2.7  0.4876   40.5  0.4693 -150.4
 5.200  0.6749   88.6   0.773    2.0  0.4973   39.1  0.4742 -153.5
 5.300  0.6759   87.2   0.764    1.3  0.5073   37.7  0.4804 -156.5
 5.400  0.6774   85.8   0.755    0.6  0.5175   36.4  0.4880 -159.4
 5.500  0.6792   84.5   0.746   -0.1  0.5280   35.1  0.4968 -162.3
 5.600  0.6786   83.3   0.738   -0.6  0.5358   33.7  0.4996 -164.9
 5.700  0.6784   82.1   0.730   -1.1  0.5439   32.3  0.5034 -167.6
 5.800  0.6784   81.0   0.722   -1.6  0.5524   31.0  0.5083 -170.1
 5.900  0.6787   79.8   0.715   -2.1  0.5611   29.7  0.5142 -172.6
 6.000  0.6793   78.6   0.707   -2.6  0.5701   28.4  0.5210 -175.1
!
!  f       NFmin   Gammaopt  rn/50
! GHz       dB    MAG  ANG    -
 0.450      1.18  0.25   77   0.14
 0.900      1.50  0.29  137   0.15
 1.900      2.75  0.49 -153   0.19
 2.400      3.37  0.57 -135   0.38
!
! (c) 2017  Infineon Technologies AG, Munich