! Infineon Technologies  Discrete & RF Semiconductors
! BFR93AW
! VCE =  2.0 V,  IC =  45 mA
! Common Emitter S-Parameters:                            Jan 2017
# GHz  S  MA  R  50
!  f         S11            S21            S12            S22
! GHz     MAG   ANG      MAG   ANG      MAG   ANG      MAG   ANG
 0.010  0.3283  -25.2  56.115  170.2  0.0031   79.7  0.9414   -8.3
 0.020  0.3518  -47.7  54.416  161.1  0.0060   79.8  0.9035  -16.7
 0.030  0.3422  -64.8  49.993  154.8  0.0081   71.3  0.8371  -22.2
 0.040  0.3631  -81.3  46.289  147.4  0.0104   66.4  0.7796  -28.5
 0.050  0.4098  -95.0  43.488  138.8  0.0127   63.3  0.7330  -35.7
 0.060  0.4083 -102.9  40.281  136.0  0.0140   62.4  0.6836  -37.8
 0.070  0.4144 -110.6  37.191  132.6  0.0153   61.6  0.6352  -40.3
 0.080  0.4278 -118.1  34.249  128.7  0.0167   61.0  0.5882  -43.1
 0.090  0.4480 -124.9  31.497  124.1  0.0180   60.5  0.5429  -46.5
 0.100  0.4739 -131.1  28.988  118.6  0.0193   60.0  0.4998  -50.4
 0.110  0.4744 -134.5  27.305  117.1  0.0202   59.9  0.4737  -51.2
 0.120  0.4766 -138.0  25.645  115.3  0.0211   59.8  0.4477  -52.2
 0.130  0.4805 -141.4  24.012  113.3  0.0219   59.7  0.4219  -53.2
 0.140  0.4861 -144.7  22.413  111.0  0.0228   59.6  0.3962  -54.4
 0.150  0.4932 -147.9  20.854  108.4  0.0237   59.5  0.3707  -55.7
 0.200  0.5042 -157.1  16.111  102.2  0.0278   62.4  0.2988  -57.1
 0.250  0.5105 -163.7  13.118   97.6  0.0329   64.0  0.2541  -57.1
 0.300  0.5122 -168.3  11.017   94.4  0.0370   66.7  0.2229  -56.7
 0.350  0.5139 -171.7   9.690   92.2  0.0420   68.2  0.2051  -56.2
 0.400  0.5174 -175.0   8.381   89.3  0.0471   69.3  0.1873  -55.7
 0.450  0.5188 -177.5   7.556   87.5  0.0520   70.0  0.1770  -55.6
 0.500  0.5211 -180.0   6.741   85.3  0.0569   70.5  0.1667  -55.5
 0.600  0.5251  176.0   5.657   81.8  0.0674   70.8  0.1540  -55.7
 0.700  0.5272  172.6   4.866   78.8  0.0769   71.9  0.1450  -56.3
 0.800  0.5302  169.4   4.277   75.7  0.0880   72.0  0.1394  -57.9
 0.900  0.5324  166.2   3.809   73.0  0.0983   71.4  0.1344  -60.1
 1.000  0.5366  163.5   3.453   70.4  0.1078   70.9  0.1311  -62.5
 1.100  0.5414  160.9   3.156   67.9  0.1186   70.8  0.1290  -65.2
 1.200  0.5435  158.1   2.905   65.3  0.1289   69.9  0.1267  -68.1
 1.300  0.5466  155.7   2.693   62.9  0.1387   69.3  0.1257  -71.7
 1.400  0.5505  153.5   2.522   60.5  0.1498   68.7  0.1250  -76.2
 1.500  0.5559  151.2   2.363   58.2  0.1600   67.9  0.1250  -80.2
 1.600  0.5586  148.9   2.232   55.8  0.1698   67.0  0.1272  -84.0
 1.700  0.5614  146.5   2.115   53.6  0.1801   66.2  0.1290  -88.7
 1.800  0.5681  144.5   2.016   51.3  0.1906   65.1  0.1309  -93.2
 1.900  0.5721  142.4   1.921   49.4  0.2009   64.4  0.1345  -97.4
 2.000  0.5736  140.3   1.835   47.1  0.2110   63.4  0.1389 -102.0
 2.100  0.5783  138.1   1.762   45.1  0.2212   62.4  0.1436 -106.2
 2.200  0.5838  136.0   1.691   42.9  0.2315   61.4  0.1490 -110.1
 2.300  0.5873  134.1   1.630   41.0  0.2415   60.3  0.1550 -114.0
 2.400  0.5914  132.3   1.571   38.9  0.2516   59.3  0.1617 -117.5
 2.500  0.5948  130.4   1.519   37.1  0.2614   58.2  0.1683 -120.7
 2.600  0.5989  128.6   1.468   35.2  0.2712   57.2  0.1754 -123.7
 2.700  0.6022  126.7   1.424   33.5  0.2810   56.2  0.1819 -126.5
 2.800  0.6061  124.9   1.382   31.6  0.2908   55.2  0.1888 -129.1
 2.900  0.6095  123.0   1.343   29.9  0.3003   54.1  0.1946 -131.8
 3.000  0.6135  121.2   1.306   28.2  0.3099   53.0  0.2008 -134.4
 3.100  0.6153  119.4   1.275   26.8  0.3190   51.8  0.2053 -137.1
 3.200  0.6177  117.6   1.245   25.3  0.3283   50.7  0.2103 -139.6
 3.300  0.6207  115.8   1.216   23.7  0.3377   49.6  0.2156 -142.0
 3.400  0.6243  114.0   1.188   22.0  0.3472   48.6  0.2213 -144.3
 3.500  0.6285  112.3   1.161   20.3  0.3568   47.7  0.2274 -146.5
 3.600  0.6311  110.7   1.138   19.0  0.3656   46.4  0.2309 -149.4
 3.700  0.6343  109.0   1.115   17.6  0.3746   45.3  0.2350 -152.3
 3.800  0.6379  107.4   1.093   16.2  0.3837   44.1  0.2396 -155.0
 3.900  0.6421  105.9   1.072   14.7  0.3930   43.0  0.2448 -157.7
 4.000  0.6467  104.3   1.051   13.2  0.4024   42.0  0.2505 -160.2
 4.100  0.6487  102.8   1.032   12.0  0.4103   40.7  0.2548 -163.4
 4.200  0.6511  101.3   1.013   10.7  0.4183   39.5  0.2599 -166.5
 4.300  0.6539   99.9   0.995    9.4  0.4266   38.3  0.2657 -169.5
 4.400  0.6571   98.4   0.978    8.0  0.4350   37.2  0.2722 -172.3
 4.500  0.6608   97.0   0.961    6.6  0.4436   36.1  0.2793 -175.0
 4.600  0.6639   95.7   0.945    5.6  0.4507   34.9  0.2861 -177.8
 4.700  0.6674   94.4   0.930    4.7  0.4581   33.8  0.2935  179.6
 4.800  0.6713   93.1   0.915    3.6  0.4656   32.6  0.3015  177.0
 4.900  0.6755   91.8   0.900    2.6  0.4733   31.5  0.3101  174.7
 5.000  0.6800   90.5   0.886    1.5  0.4811   30.5  0.3192  172.4
 5.100  0.6808   89.3   0.875    0.6  0.4876   29.3  0.3277  170.4
 5.200  0.6820   88.0   0.865   -0.2  0.4944   28.1  0.3367  168.4
 5.300  0.6835   86.8   0.855   -1.1  0.5013   26.9  0.3459  166.6
 5.400  0.6852   85.6   0.845   -2.1  0.5085   25.8  0.3556  164.8
 5.500  0.6873   84.4   0.835   -3.0  0.5158   24.7  0.3655  163.2
 5.600  0.6880   83.3   0.826   -3.7  0.5212   23.6  0.3715  161.6
 5.700  0.6890   82.2   0.816   -4.5  0.5268   22.4  0.3777  160.1
 5.800  0.6902   81.1   0.807   -5.2  0.5326   21.3  0.3841  158.7
 5.900  0.6916   80.1   0.798   -6.0  0.5385   20.3  0.3909  157.3
 6.000  0.6933   79.0   0.789   -6.8  0.5447   19.2  0.3978  155.9
!
!  f       NFmin   Gammaopt  rn/50
! GHz       dB    MAG  ANG    -
 0.450      2.16  0.24 -179   0.17
 0.900      2.46  0.30 -169   0.17
 1.900      3.55  0.53 -132   0.39
 2.400      4.27  0.57 -122   0.72
!
! (c) 2017  Infineon Technologies AG, Munich