! Infineon Technologies  Discrete & RF Semiconductors
! BFR93AW
! VCE =  2.0 V,  IC =  2.0 mA
! Common Emitter S-Parameters:                            Jan 2017
# GHz  S  MA  R  50
!  f         S11            S21            S12            S22
! GHz     MAG   ANG      MAG   ANG      MAG   ANG      MAG   ANG
 0.010  0.9289   -3.6   6.983  178.0  0.0042   90.7  1.0000   -1.3
 0.020  0.9384   -6.9   7.041  176.0  0.0087   92.1  0.9953   -2.8
 0.030  0.9249  -10.1   6.993  173.8  0.0129   85.7  0.9918   -4.1
 0.040  0.9143  -13.4   6.955  171.5  0.0172   82.5  0.9888   -5.3
 0.050  0.9069  -16.8   6.929  169.2  0.0215   80.6  0.9863   -6.6
 0.060  0.8999  -20.0   6.857  167.2  0.0256   77.8  0.9793   -7.8
 0.070  0.8958  -23.3   6.794  165.1  0.0297   75.8  0.9727   -9.0
 0.080  0.8947  -26.6   6.741  162.9  0.0338   74.3  0.9666  -10.2
 0.090  0.8966  -29.9   6.697  160.8  0.0380   73.1  0.9609  -11.5
 0.100  0.9014  -33.2   6.662  158.6  0.0422   72.1  0.9557  -12.7
 0.110  0.8902  -36.1   6.572  156.7  0.0456   70.0  0.9465  -13.8
 0.120  0.8814  -39.1   6.489  154.8  0.0490   68.1  0.9377  -14.8
 0.130  0.8751  -42.2   6.413  152.8  0.0524   66.5  0.9292  -15.9
 0.140  0.8713  -45.3   6.345  150.8  0.0559   65.1  0.9211  -17.1
 0.150  0.8700  -48.4   6.286  148.7  0.0594   63.9  0.9133  -18.2
 0.200  0.8352  -62.6   5.850  139.7  0.0726   57.4  0.8645  -22.5
 0.250  0.8046  -75.1   5.427  131.7  0.0838   51.3  0.8169  -26.0
 0.300  0.7711  -86.2   4.986  125.0  0.0915   46.1  0.7704  -28.8
 0.350  0.7398  -95.0   4.598  119.8  0.0969   42.6  0.7336  -30.7
 0.400  0.7273 -104.4   4.254  113.7  0.1026   39.4  0.6976  -32.7
 0.450  0.7038 -111.7   3.939  109.6  0.1053   37.0  0.6701  -34.0
 0.500  0.6923 -119.3   3.647  104.9  0.1082   34.7  0.6429  -35.4
 0.600  0.6697 -131.3   3.184   97.4  0.1119   31.5  0.6042  -37.4
 0.700  0.6564 -141.2   2.806   91.2  0.1125   29.8  0.5762  -39.2
 0.800  0.6475 -149.6   2.515   85.5  0.1126   29.2  0.5547  -41.0
 0.900  0.6376 -157.0   2.266   80.6  0.1121   28.7  0.5397  -42.9
 1.000  0.6370 -163.5   2.074   76.1  0.1119   29.4  0.5273  -45.0
 1.100  0.6367 -169.2   1.908   72.0  0.1118   30.7  0.5186  -47.0
 1.200  0.6359 -174.5   1.767   67.9  0.1108   32.1  0.5107  -49.4
 1.300  0.6359 -179.2   1.645   64.3  0.1111   34.3  0.5053  -51.8
 1.400  0.6401  176.5   1.545   60.8  0.1114   37.0  0.4999  -54.5
 1.500  0.6436  172.2   1.454   57.6  0.1131   39.8  0.4965  -57.1
 1.600  0.6467  168.4   1.373   54.3  0.1154   42.7  0.4954  -59.9
 1.700  0.6502  164.6   1.304   51.5  0.1187   46.1  0.4920  -63.0
 1.800  0.6558  161.0   1.247   48.6  0.1235   49.1  0.4908  -66.0
 1.900  0.6604  157.8   1.188   46.1  0.1286   52.1  0.4906  -69.1
 2.000  0.6613  154.5   1.137   43.3  0.1359   54.4  0.4914  -72.1
 2.100  0.6661  151.3   1.091   40.9  0.1440   56.6  0.4923  -75.5
 2.200  0.6730  148.1   1.047   38.3  0.1523   58.5  0.4948  -78.8
 2.300  0.6766  145.3   1.008   36.2  0.1625   60.0  0.4973  -82.2
 2.400  0.6817  142.6   0.971   33.9  0.1728   61.4  0.5015  -85.5
 2.500  0.6840  139.8   0.936   32.1  0.1843   62.1  0.5043  -88.8
 2.600  0.6878  137.1   0.901   30.2  0.1959   62.8  0.5087  -92.1
 2.700  0.6906  134.5   0.873   28.6  0.2085   63.0  0.5123  -95.3
 2.800  0.6947  132.0   0.846   26.8  0.2212   63.1  0.5174  -98.4
 2.900  0.6971  129.5   0.821   25.3  0.2347   62.8  0.5199 -101.6
 3.000  0.7008  127.1   0.797   23.7  0.2482   62.5  0.5239 -104.7
 3.100  0.7009  124.7   0.777   22.7  0.2624   61.5  0.5238 -107.9
 3.200  0.7022  122.3   0.758   21.7  0.2767   60.7  0.5254 -111.1
 3.300  0.7047  120.0   0.739   20.6  0.2910   59.9  0.5286 -114.3
 3.400  0.7083  117.6   0.720   19.5  0.3054   59.1  0.5334 -117.4
 3.500  0.7132  115.3   0.702   18.3  0.3198   58.5  0.5398 -120.5
 3.600  0.7131  113.2   0.691   17.6  0.3335   57.0  0.5376 -123.8
 3.700  0.7140  111.0   0.679   16.9  0.3474   55.6  0.5372 -127.1
 3.800  0.7160  108.9   0.668   16.2  0.3616   54.3  0.5385 -130.3
 3.900  0.7188  106.8   0.657   15.5  0.3759   53.1  0.5416 -133.6
 4.000  0.7227  104.7   0.646   14.7  0.3903   52.0  0.5464 -136.8
 4.100  0.7206  102.9   0.639   14.1  0.4024   50.3  0.5435 -140.3
 4.200  0.7192  101.1   0.633   13.6  0.4149   48.6  0.5426 -143.7
 4.300  0.7185   99.3   0.626   13.0  0.4277   47.1  0.5438 -147.2
 4.400  0.7185   97.5   0.619   12.4  0.4408   45.7  0.5469 -150.7
 4.500  0.7192   95.7   0.613   11.8  0.4541   44.3  0.5520 -154.1
 4.600  0.7194   94.2   0.609   11.4  0.4643   42.7  0.5514 -157.4
 4.700  0.7200   92.7   0.605   11.1  0.4748   41.1  0.5527 -160.7
 4.800  0.7212   91.2   0.601   10.7  0.4856   39.6  0.5558 -164.0
 4.900  0.7229   89.7   0.597   10.3  0.4968   38.2  0.5607 -167.2
 5.000  0.7250   88.2   0.593    9.9  0.5083   36.8  0.5673 -170.4
 5.100  0.7225   86.9   0.594    9.4  0.5164   35.2  0.5695 -173.2
 5.200  0.7203   85.5   0.594    8.9  0.5250   33.6  0.5731 -176.0
 5.300  0.7186   84.2   0.595    8.5  0.5339   32.0  0.5780 -178.7
 5.400  0.7172   82.9   0.595    8.0  0.5432   30.5  0.5842  178.6
 5.500  0.7163   81.5   0.596    7.5  0.5529   29.1  0.5917  176.0
 5.600  0.7138   80.4   0.597    7.0  0.5589   27.6  0.5927  173.8
 5.700  0.7116   79.3   0.597    6.6  0.5653   26.2  0.5946  171.6
 5.800  0.7097   78.2   0.598    6.1  0.5721   24.7  0.5974  169.4
 5.900  0.7080   77.0   0.598    5.7  0.5792   23.4  0.6010  167.2
 6.000  0.7066   75.9   0.599    5.2  0.5866   22.0  0.6055  165.1
!
!  f       NFmin   Gammaopt  rn/50
! GHz       dB    MAG  ANG    -
 0.450      1.49  0.44   71   0.20
 0.900      1.76  0.41  128   0.21
 1.900      3.23  0.56 -159   0.25
 2.400      4.18  0.62 -139   0.45
!
! (c) 2017  Infineon Technologies AG, Munich