! Infineon Technologies  Discrete & RF Semiconductors
! BFR93AW
! VCE =  6.0 V,  IC =  30 mA
! Common Emitter S-Parameters:                            Jan 2017
# GHz  S  MA  R  50
!  f         S11            S21            S12            S22
! GHz     MAG   ANG      MAG   ANG      MAG   ANG      MAG   ANG
 0.010  0.5404  -12.1  46.612  172.7  0.0023   81.1  0.9770   -5.1
 0.020  0.5455  -24.4  46.353  166.2  0.0051   85.0  0.9572  -10.5
 0.030  0.5154  -34.4  43.936  160.9  0.0076   76.2  0.9171  -14.6
 0.040  0.5026  -45.3  41.939  155.0  0.0102   71.8  0.8822  -19.0
 0.050  0.5084  -56.3  40.426  148.6  0.0129   69.2  0.8529  -23.8
 0.060  0.4861  -63.3  38.100  145.5  0.0143   67.4  0.8116  -25.8
 0.070  0.4715  -70.8  35.903  141.9  0.0156   65.9  0.7714  -28.1
 0.080  0.4655  -78.6  33.859  137.9  0.0170   64.7  0.7326  -30.6
 0.090  0.4684  -86.5  32.000  133.5  0.0184   63.6  0.6953  -33.4
 0.100  0.4800  -94.2  30.358  128.5  0.0198   62.7  0.6599  -36.5
 0.110  0.4690  -98.6  28.821  126.6  0.0209   61.7  0.6324  -37.3
 0.120  0.4610 -103.3  27.319  124.5  0.0219   60.7  0.6050  -38.3
 0.130  0.4561 -108.0  25.858  122.2  0.0230   59.9  0.5778  -39.3
 0.140  0.4545 -112.9  24.444  119.6  0.0241   59.1  0.5508  -40.4
 0.150  0.4560 -117.7  23.086  116.7  0.0252   58.4  0.5240  -41.6
 0.200  0.4492 -132.6  18.323  109.1  0.0283   60.5  0.4402  -43.0
 0.250  0.4432 -143.1  15.123  103.5  0.0329   59.4  0.3854  -42.8
 0.300  0.4390 -150.7  12.785   99.6  0.0361   62.4  0.3468  -42.1
 0.350  0.4377 -155.9  11.291   96.9  0.0402   63.8  0.3249  -41.3
 0.400  0.4401 -161.1   9.828   93.5  0.0443   64.9  0.3031  -40.4
 0.450  0.4394 -165.1   8.875   91.5  0.0486   66.0  0.2898  -39.9
 0.500  0.4408 -169.0   7.934   89.1  0.0529   67.0  0.2765  -39.3
 0.600  0.4423 -174.4   6.677   85.3  0.0618   68.1  0.2609  -38.6
 0.700  0.4452 -179.4   5.748   82.0  0.0703   69.5  0.2504  -38.4
 0.800  0.4485  176.4   5.056   78.8  0.0797   70.2  0.2424  -39.0
 0.900  0.4502  172.7   4.503   76.0  0.0886   69.7  0.2365  -39.8
 1.000  0.4537  169.4   4.081   73.3  0.0979   70.2  0.2303  -40.9
 1.100  0.4593  166.1   3.729   70.8  0.1069   69.8  0.2273  -42.4
 1.200  0.4615  163.2   3.432   68.1  0.1157   69.7  0.2230  -44.0
 1.300  0.4636  160.3   3.181   65.8  0.1248   69.2  0.2206  -46.0
 1.400  0.4695  157.9   2.975   63.4  0.1345   69.0  0.2164  -48.4
 1.500  0.4743  155.5   2.788   61.1  0.1436   68.4  0.2141  -50.8
 1.600  0.4773  152.7   2.630   58.7  0.1526   67.8  0.2133  -53.3
 1.700  0.4823  150.5   2.490   56.5  0.1620   67.3  0.2109  -56.3
 1.800  0.4883  148.1   2.371   54.3  0.1713   66.5  0.2089  -59.3
 1.900  0.4936  146.1   2.259   52.3  0.1810   65.9  0.2084  -62.3
 2.000  0.4957  143.8   2.156   50.0  0.1899   65.1  0.2087  -65.7
 2.100  0.5011  141.6   2.069   48.0  0.1994   64.3  0.2088  -69.3
 2.200  0.5072  139.4   1.984   45.8  0.2090   63.6  0.2097  -72.8
 2.300  0.5114  137.5   1.911   43.9  0.2183   62.8  0.2112  -76.3
 2.400  0.5162  135.6   1.840   41.8  0.2277   62.0  0.2134  -79.7
 2.500  0.5207  133.7   1.777   40.0  0.2370   61.1  0.2162  -83.0
 2.600  0.5257  131.9   1.716   38.0  0.2464   60.3  0.2197  -86.3
 2.700  0.5298  130.0   1.663   36.3  0.2559   59.4  0.2228  -89.4
 2.800  0.5344  128.1   1.612   34.4  0.2655   58.6  0.2266  -92.5
 2.900  0.5393  126.2   1.566   32.7  0.2748   57.6  0.2296  -95.5
 3.000  0.5447  124.3   1.522   30.8  0.2841   56.6  0.2332  -98.5
 3.100  0.5476  122.5   1.484   29.3  0.2933   55.6  0.2352 -101.4
 3.200  0.5510  120.7   1.447   27.8  0.3025   54.6  0.2378 -104.2
 3.300  0.5550  118.9   1.412   26.1  0.3118   53.7  0.2410 -107.0
 3.400  0.5596  117.1   1.377   24.4  0.3212   52.9  0.2447 -109.7
 3.500  0.5646  115.4   1.344   22.6  0.3307   52.1  0.2489 -112.3
 3.600  0.5686  113.7   1.315   21.2  0.3399   50.9  0.2495 -115.3
 3.700  0.5730  112.1   1.288   19.8  0.3492   49.8  0.2508 -118.4
 3.800  0.5780  110.5   1.261   18.2  0.3586   48.8  0.2528 -121.3
 3.900  0.5833  108.9   1.235   16.6  0.3681   47.8  0.2555 -124.2
 4.000  0.5891  107.4   1.210   15.0  0.3778   46.8  0.2588 -127.1
 4.100  0.5924  105.9   1.187   13.7  0.3864   45.6  0.2596 -130.6
 4.200  0.5962  104.4   1.165   12.3  0.3953   44.4  0.2613 -134.1
 4.300  0.6003  103.0   1.144   10.9  0.4042   43.3  0.2640 -137.5
 4.400  0.6048  101.5   1.123    9.4  0.4133   42.2  0.2676 -140.8
 4.500  0.6097  100.1   1.103    7.9  0.4226   41.2  0.2721 -144.0
 4.600  0.6147   98.7   1.083    6.8  0.4307   40.0  0.2757 -147.6
 4.700  0.6201   97.3   1.063    5.7  0.4390   38.9  0.2804 -151.1
 4.800  0.6258   95.9   1.043    4.6  0.4475   37.8  0.2860 -154.4
 4.900  0.6319   94.6   1.024    3.4  0.4561   36.8  0.2926 -157.6
 5.000  0.6383   93.3   1.005    2.2  0.4649   35.8  0.3001 -160.7
 5.100  0.6402   92.0   0.991    1.3  0.4725   34.6  0.3072 -163.6
 5.200  0.6424   90.8   0.978    0.3  0.4804   33.4  0.3151 -166.4
 5.300  0.6449   89.6   0.965   -0.7  0.4884   32.3  0.3237 -169.1
 5.400  0.6477   88.3   0.952   -1.7  0.4966   31.2  0.3329 -171.6
 5.500  0.6508   87.1   0.939   -2.8  0.5050   30.1  0.3428 -174.0
 5.600  0.6521   86.0   0.926   -3.6  0.5115   28.9  0.3489 -176.2
 5.700  0.6536   84.9   0.913   -4.5  0.5182   27.8  0.3555 -178.4
 5.800  0.6553   83.8   0.901   -5.4  0.5251   26.7  0.3626  179.6
 5.900  0.6573   82.8   0.888   -6.3  0.5322   25.6  0.3701  177.6
 6.000  0.6595   81.7   0.876   -7.2  0.5395   24.5  0.3781  175.7
!
!  f       NFmin   Gammaopt  rn/50
! GHz       dB    MAG  ANG    -
 0.450      1.79  0.18  173   0.16
 0.900      2.06  0.26 -175   0.16
 1.900      3.10  0.50 -135   0.29
 2.400      3.75  0.55 -124   0.55
!
! (c) 2017  Infineon Technologies AG, Munich