! Infineon Technologies  Discrete & RF Semiconductors
! BFR93AW
! VCE =  1.0 V,  IC =  60 mA
! Common Emitter S-Parameters:                            Jan 2017
# GHz  S  MA  R  50
!  f         S11            S21            S12            S22
! GHz     MAG   ANG      MAG   ANG      MAG   ANG      MAG   ANG
 0.010  0.2799  -86.5  41.745  159.8  0.0074   58.7  0.5751  -26.2
 0.020  0.4579 -115.1  36.243  143.6  0.0125   52.8  0.5046  -49.1
 0.030  0.5024 -128.7  30.609  137.8  0.0147   48.8  0.4262  -59.2
 0.040  0.5700 -139.6  25.419  129.6  0.0169   45.9  0.3662  -73.1
 0.050  0.6537 -148.0  21.004  117.6  0.0192   43.6  0.3349  -90.9
 0.060  0.6615 -151.7  19.042  115.9  0.0202   44.3  0.3098  -95.7
 0.070  0.6719 -155.2  17.101  113.7  0.0211   44.9  0.2871 -101.2
 0.080  0.6848 -158.7  15.189  111.1  0.0221   45.4  0.2676 -107.7
 0.090  0.7000 -162.0  13.321  107.6  0.0230   45.9  0.2520 -115.0
 0.100  0.7175 -165.1  11.515  103.1  0.0240   46.4  0.2411 -123.2
 0.110  0.7193 -166.5  10.770  102.2  0.0250   47.6  0.2345 -126.1
 0.120  0.7215 -167.9  10.028  101.2  0.0261   48.8  0.2285 -129.2
 0.130  0.7241 -169.3   9.289  100.0  0.0271   49.8  0.2232 -132.4
 0.140  0.7272 -170.7   8.555   98.6  0.0281   50.8  0.2187 -135.7
 0.150  0.7307 -172.1   7.827   97.0  0.0292   51.7  0.2149 -139.2
 0.200  0.7326 -176.3   5.912   93.1  0.0339   56.3  0.2034 -148.3
 0.250  0.7368 -179.4   4.760   90.1  0.0403   60.1  0.1984 -154.4
 0.300  0.7356  178.0   3.980   87.9  0.0461   62.5  0.1965 -158.8
 0.350  0.7359  176.0   3.502   86.2  0.0523   64.5  0.1957 -161.5
 0.400  0.7370  174.1   3.028   84.0  0.0586   66.1  0.1954 -164.3
 0.450  0.7365  172.3   2.736   82.6  0.0650   66.8  0.1958 -166.2
 0.500  0.7368  170.5   2.446   80.8  0.0715   67.3  0.1965 -168.0
 0.600  0.7392  167.4   2.072   77.9  0.0840   68.1  0.1999 -170.5
 0.700  0.7379  164.6   1.801   75.2  0.0961   68.4  0.2018 -172.7
 0.800  0.7394  161.9   1.600   72.3  0.1096   68.2  0.2063 -174.3
 0.900  0.7360  159.1   1.445   69.7  0.1226   67.7  0.2103 -175.7
 1.000  0.7398  156.5   1.328   67.2  0.1346   67.2  0.2150 -177.4
 1.100  0.7414  153.9   1.233   64.7  0.1475   66.3  0.2202 -178.5
 1.200  0.7402  151.5   1.152   62.2  0.1605   65.4  0.2251  180.0
 1.300  0.7419  149.0   1.087   59.9  0.1728   64.5  0.2308  178.9
 1.400  0.7407  146.7   1.034   57.5  0.1857   63.4  0.2382  177.6
 1.500  0.7440  144.5   0.984   55.4  0.1977   62.3  0.2443  176.4
 1.600  0.7451  142.1   0.945   53.0  0.2100   61.2  0.2504  175.4
 1.700  0.7463  139.7   0.911   50.9  0.2217   60.1  0.2574  174.3
 1.800  0.7502  137.5   0.883   48.6  0.2337   58.8  0.2649  173.2
 1.900  0.7501  135.3   0.856   46.9  0.2457   57.6  0.2719  172.3
 2.000  0.7470  133.2   0.830   44.7  0.2570   56.4  0.2792  171.5
 2.100  0.7475  131.0   0.809   42.8  0.2683   55.0  0.2863  170.4
 2.200  0.7491  128.8   0.789   40.8  0.2797   53.8  0.2934  169.4
 2.300  0.7489  126.8   0.773   39.1  0.2906   52.5  0.3004  168.4
 2.400  0.7495  124.9   0.757   37.4  0.3017   51.2  0.3074  167.5
 2.500  0.7491  122.9   0.742   35.9  0.3118   49.9  0.3133  166.6
 2.600  0.7495  121.0   0.728   34.3  0.3220   48.6  0.3192  165.7
 2.700  0.7489  119.2   0.717   32.9  0.3317   47.3  0.3243  164.7
 2.800  0.7491  117.3   0.706   31.4  0.3416   46.1  0.3295  163.8
 2.900  0.7485  115.5   0.697   30.1  0.3510   44.8  0.3343  162.6
 3.000  0.7486  113.6   0.688   28.7  0.3606   43.6  0.3393  161.5
 3.100  0.7464  111.8   0.681   27.5  0.3690   42.2  0.3429  160.2
 3.200  0.7450  110.1   0.675   26.2  0.3776   40.9  0.3467  158.9
 3.300  0.7442  108.3   0.668   24.9  0.3864   39.7  0.3507  157.6
 3.400  0.7442  106.5   0.663   23.6  0.3954   38.5  0.3548  156.3
 3.500  0.7449  104.7   0.657   22.3  0.4045   37.4  0.3591  155.1
 3.600  0.7436  103.1   0.653   21.2  0.4119   36.0  0.3630  153.4
 3.700  0.7429  101.5   0.648   20.1  0.4195   34.7  0.3673  151.8
 3.800  0.7427   99.9   0.644   19.0  0.4274   33.5  0.3718  150.2
 3.900  0.7432   98.3   0.641   17.8  0.4354   32.3  0.3765  148.7
 4.000  0.7442   96.7   0.637   16.7  0.4436   31.1  0.3816  147.2
 4.100  0.7421   95.3   0.633   15.7  0.4495   29.8  0.3865  145.4
 4.200  0.7404   93.9   0.630   14.7  0.4557   28.5  0.3918  143.7
 4.300  0.7392   92.5   0.626   13.7  0.4621   27.3  0.3974  142.1
 4.400  0.7384   91.1   0.623   12.6  0.4687   26.1  0.4033  140.5
 4.500  0.7380   89.7   0.620   11.6  0.4755   24.9  0.4095  138.9
 4.600  0.7381   88.5   0.617   10.8  0.4804   23.8  0.4154  137.5
 4.700  0.7385   87.3   0.614   10.0  0.4856   22.6  0.4215  136.1
 4.800  0.7392   86.1   0.612    9.2  0.4909   21.5  0.4279  134.7
 4.900  0.7402   84.9   0.609    8.4  0.4963   20.5  0.4346  133.4
 5.000  0.7416   83.7   0.607    7.6  0.5020   19.4  0.4414  132.1
 5.100  0.7401   82.6   0.607    6.8  0.5061   18.3  0.4468  131.1
 5.200  0.7389   81.5   0.607    6.0  0.5105   17.1  0.4523  130.2
 5.300  0.7379   80.3   0.607    5.3  0.5150   16.0  0.4580  129.3
 5.400  0.7373   79.2   0.607    4.5  0.5197   15.0  0.4637  128.4
 5.500  0.7369   78.1   0.607    3.7  0.5246   13.9  0.4696  127.5
 5.600  0.7349   77.2   0.606    3.0  0.5277   12.9  0.4718  126.6
 5.700  0.7332   76.2   0.605    2.3  0.5310   11.9  0.4740  125.8
 5.800  0.7316   75.3   0.604    1.5  0.5344   10.9  0.4764  124.9
 5.900  0.7303   74.3   0.604    0.8  0.5380   10.0  0.4789  124.0
 6.000  0.7291   73.4   0.603    0.1  0.5417    9.0  0.4815  123.2
!
!  f       NFmin   Gammaopt  rn/50
! GHz       dB    MAG  ANG    -
!
! noise parameter not available yet for this operation point!
!
! (c) 2017  Infineon Technologies AG, Munich