! Infineon Technologies  Discrete & RF Semiconductors
! BFR93AW
! VCE =  2.0 V,  IC =  40 mA
! Common Emitter S-Parameters:                            Jan 2017
# GHz  S  MA  R  50
!  f         S11            S21            S12            S22
! GHz     MAG   ANG      MAG   ANG      MAG   ANG      MAG   ANG
 0.010  0.3604  -22.1  54.497  170.7  0.0029   84.7  0.9518   -7.8
 0.020  0.3755  -42.6  53.196  162.0  0.0057   75.4  0.9184  -15.9
 0.030  0.3605  -58.6  49.127  155.8  0.0082   69.7  0.8550  -21.2
 0.040  0.3747  -74.7  45.730  148.6  0.0107   66.6  0.8001  -27.3
 0.050  0.4152  -88.6  43.162  140.4  0.0132   64.7  0.7555  -34.2
 0.060  0.4105  -96.6  40.072  137.5  0.0145   63.4  0.7061  -36.4
 0.070  0.4140 -104.7  37.102  134.1  0.0157   62.3  0.6580  -39.0
 0.080  0.4255 -112.5  34.284  130.2  0.0170   61.3  0.6114  -41.9
 0.090  0.4443 -119.7  31.657  125.5  0.0183   60.5  0.5666  -45.3
 0.100  0.4696 -126.3  29.273  120.1  0.0196   59.8  0.5242  -49.3
 0.110  0.4687 -130.0  27.606  118.5  0.0206   59.5  0.4972  -50.2
 0.120  0.4698 -133.6  25.964  116.7  0.0216   59.2  0.4702  -51.2
 0.130  0.4727 -137.2  24.351  114.6  0.0226   59.0  0.4435  -52.3
 0.140  0.4776 -140.8  22.774  112.3  0.0236   58.7  0.4169  -53.6
 0.150  0.4842 -144.3  21.240  109.6  0.0246   58.5  0.3906  -55.0
 0.200  0.4946 -154.4  16.462  103.1  0.0280   62.6  0.3150  -56.6
 0.250  0.5019 -161.3  13.410   98.3  0.0331   63.4  0.2670  -56.9
 0.300  0.5033 -166.4  11.278   95.1  0.0374   65.7  0.2342  -56.8
 0.350  0.5046 -169.9   9.924   92.8  0.0422   67.2  0.2150  -56.3
 0.400  0.5077 -173.4   8.591   89.8  0.0470   68.4  0.1959  -55.8
 0.450  0.5097 -176.0   7.746   88.0  0.0520   69.2  0.1850  -55.6
 0.500  0.5127 -178.5   6.910   85.7  0.0570   69.9  0.1741  -55.4
 0.600  0.5149  177.0   5.802   82.2  0.0671   70.5  0.1599  -55.5
 0.700  0.5188  173.4   4.990   79.2  0.0771   71.5  0.1502  -55.9
 0.800  0.5212  170.2   4.386   76.1  0.0882   71.4  0.1440  -57.4
 0.900  0.5223  166.9   3.905   73.4  0.0982   70.7  0.1392  -59.4
 1.000  0.5272  164.1   3.541   70.7  0.1075   70.7  0.1346  -61.6
 1.100  0.5322  161.4   3.236   68.2  0.1183   70.3  0.1322  -64.2
 1.200  0.5341  158.7   2.978   65.6  0.1286   69.6  0.1298  -67.0
 1.300  0.5360  156.1   2.761   63.1  0.1384   69.0  0.1291  -70.5
 1.400  0.5420  153.9   2.585   60.8  0.1488   68.3  0.1277  -74.5
 1.500  0.5461  151.8   2.420   58.5  0.1589   67.4  0.1274  -78.4
 1.600  0.5505  149.2   2.286   56.1  0.1695   66.7  0.1292  -82.1
 1.700  0.5528  147.2   2.166   53.9  0.1796   66.0  0.1306  -86.7
 1.800  0.5588  144.9   2.064   51.6  0.1896   65.0  0.1324  -91.0
 1.900  0.5626  142.9   1.968   49.6  0.1999   64.2  0.1353  -95.5
 2.000  0.5650  140.8   1.881   47.3  0.2101   63.1  0.1399  -99.7
 2.100  0.5696  138.7   1.805   45.3  0.2200   62.2  0.1442 -104.0
 2.200  0.5749  136.6   1.732   43.1  0.2299   61.3  0.1493 -108.0
 2.300  0.5787  134.7   1.669   41.2  0.2400   60.3  0.1551 -111.7
 2.400  0.5831  132.8   1.609   39.1  0.2502   59.3  0.1616 -115.2
 2.500  0.5864  130.8   1.555   37.3  0.2599   58.2  0.1677 -118.5
 2.600  0.5903  128.9   1.502   35.4  0.2696   57.2  0.1743 -121.5
 2.700  0.5938  127.1   1.456   33.7  0.2793   56.2  0.1807 -124.4
 2.800  0.5978  125.3   1.412   31.8  0.2890   55.2  0.1876 -127.0
 2.900  0.6015  123.4   1.373   30.1  0.2985   54.1  0.1933 -129.8
 3.000  0.6059  121.6   1.335   28.4  0.3081   53.1  0.1995 -132.4
 3.100  0.6079  119.8   1.303   26.9  0.3173   51.9  0.2040 -135.1
 3.200  0.6104  118.0   1.272   25.4  0.3266   50.8  0.2088 -137.7
 3.300  0.6135  116.3   1.242   23.8  0.3360   49.7  0.2141 -140.1
 3.400  0.6172  114.5   1.213   22.2  0.3455   48.7  0.2198 -142.5
 3.500  0.6215  112.8   1.185   20.4  0.3551   47.8  0.2258 -144.7
 3.600  0.6243  111.2   1.161   19.1  0.3639   46.6  0.2292 -147.6
 3.700  0.6277  109.5   1.138   17.7  0.3728   45.4  0.2332 -150.4
 3.800  0.6315  107.9   1.115   16.3  0.3819   44.3  0.2377 -153.2
 3.900  0.6359  106.4   1.093   14.8  0.3911   43.2  0.2428 -155.8
 4.000  0.6407  104.8   1.072   13.2  0.4005   42.2  0.2483 -158.3
 4.100  0.6427  103.3   1.053   12.0  0.4084   40.9  0.2525 -161.5
 4.200  0.6452  101.8   1.034   10.7  0.4165   39.7  0.2574 -164.7
 4.300  0.6480  100.4   1.015    9.4  0.4248   38.5  0.2631 -167.7
 4.400  0.6513   98.9   0.997    8.0  0.4332   37.4  0.2695 -170.6
 4.500  0.6550   97.5   0.980    6.6  0.4418   36.3  0.2765 -173.3
 4.600  0.6587   96.1   0.963    5.6  0.4490   35.1  0.2832 -176.2
 4.700  0.6628   94.8   0.947    4.6  0.4564   34.0  0.2905 -178.9
 4.800  0.6673   93.5   0.931    3.6  0.4640   32.9  0.2985  178.5
 4.900  0.6721   92.2   0.915    2.5  0.4717   31.8  0.3070  176.1
 5.000  0.6772   90.9   0.900    1.4  0.4796   30.8  0.3161  173.8
 5.100  0.6781   89.7   0.889    0.5  0.4862   29.6  0.3246  171.7
 5.200  0.6793   88.4   0.879   -0.4  0.4930   28.3  0.3335  169.8
 5.300  0.6808   87.2   0.868   -1.3  0.5000   27.2  0.3428  167.9
 5.400  0.6826   86.0   0.858   -2.2  0.5073   26.0  0.3525  166.2
 5.500  0.6847   84.8   0.848   -3.2  0.5147   24.9  0.3624  164.5
 5.600  0.6851   83.7   0.838   -3.9  0.5201   23.8  0.3685  162.9
 5.700  0.6857   82.7   0.828   -4.7  0.5257   22.7  0.3749  161.3
 5.800  0.6866   81.6   0.818   -5.4  0.5315   21.6  0.3815  159.8
 5.900  0.6877   80.6   0.809   -6.2  0.5375   20.5  0.3884  158.4
 6.000  0.6890   79.5   0.799   -7.0  0.5436   19.5  0.3955  157.0
!
!  f       NFmin   Gammaopt  rn/50
! GHz       dB    MAG  ANG    -
 0.450      2.04  0.23 -180   0.16
 0.900      2.33  0.29 -170   0.17
 1.900      3.40  0.52 -133   0.35
 2.400      4.10  0.57 -123   0.66
!
! (c) 2017  Infineon Technologies AG, Munich