! Infineon Technologies  Discrete & RF Semiconductors
! BFR93AW
! VCE =  6.0 V,  IC =  16 mA
! Common Emitter S-Parameters:                            Jan 2017
# GHz  S  MA  R  50
!  f         S11            S21            S12            S22
! GHz     MAG   ANG      MAG   ANG      MAG   ANG      MAG   ANG
 0.010  0.6594   -8.8  34.472  174.4  0.0026   88.1  0.9884   -3.9
 0.020  0.6678  -17.6  34.579  169.3  0.0060   86.2  0.9779   -8.1
 0.030  0.6389  -25.2  33.339  164.7  0.0085   78.1  0.9505  -11.5
 0.040  0.6222  -33.4  32.326  159.9  0.0111   73.8  0.9266  -15.0
 0.050  0.6188  -41.9  31.562  154.7  0.0138   71.1  0.9064  -18.7
 0.060  0.5944  -47.9  30.155  151.6  0.0157   68.5  0.8731  -20.8
 0.070  0.5771  -54.4  28.847  148.1  0.0177   66.4  0.8411  -23.0
 0.080  0.5675  -61.2  27.654  144.4  0.0196   64.8  0.8105  -25.5
 0.090  0.5660  -68.1  26.589  140.3  0.0216   63.4  0.7815  -28.1
 0.100  0.5727  -74.9  25.669  135.9  0.0236   62.3  0.7542  -30.9
 0.110  0.5556  -79.3  24.562  133.8  0.0247   61.0  0.7274  -32.0
 0.120  0.5419  -83.9  23.491  131.5  0.0259   59.9  0.7009  -33.1
 0.130  0.5319  -88.8  22.461  129.0  0.0270   58.8  0.6748  -34.4
 0.140  0.5259  -93.7  21.478  126.3  0.0281   57.8  0.6489  -35.7
 0.150  0.5239  -98.8  20.548  123.3  0.0293   56.9  0.6235  -37.2
 0.200  0.4988 -115.6  16.761  114.7  0.0335   55.9  0.5323  -40.0
 0.250  0.4839 -128.1  14.056  108.2  0.0376   55.1  0.4683  -40.9
 0.300  0.4708 -137.4  12.006  103.7  0.0402   55.8  0.4222  -40.9
 0.350  0.4639 -143.9  10.643  100.6  0.0436   57.3  0.3940  -40.6
 0.400  0.4632 -150.6   9.320   96.7  0.0470   58.5  0.3659  -40.2
 0.450  0.4589 -155.3   8.434   94.4  0.0507   59.5  0.3493  -39.8
 0.500  0.4578 -160.1   7.566   91.5  0.0545   60.4  0.3328  -39.4
 0.600  0.4568 -167.4   6.377   87.2  0.0624   62.0  0.3119  -38.9
 0.700  0.4580 -173.1   5.501   83.6  0.0697   64.1  0.2976  -38.7
 0.800  0.4611 -178.2   4.847   80.1  0.0787   65.4  0.2874  -39.2
 0.900  0.4600  177.5   4.319   77.0  0.0862   65.9  0.2799  -39.9
 1.000  0.4645  173.7   3.921   74.2  0.0947   66.4  0.2732  -40.9
 1.100  0.4689  169.9   3.581   71.5  0.1030   66.7  0.2689  -42.3
 1.200  0.4728  166.5   3.297   68.7  0.1112   66.9  0.2649  -43.7
 1.300  0.4735  163.5   3.057   66.1  0.1200   66.9  0.2611  -45.6
 1.400  0.4785  160.6   2.860   63.6  0.1292   67.1  0.2570  -47.7
 1.500  0.4853  157.8   2.680   61.2  0.1373   66.6  0.2539  -50.0
 1.600  0.4876  155.4   2.529   58.8  0.1460   66.6  0.2537  -52.3
 1.700  0.4916  152.7   2.394   56.5  0.1551   66.3  0.2504  -55.1
 1.800  0.4988  150.2   2.282   54.2  0.1645   65.7  0.2490  -57.8
 1.900  0.5024  147.9   2.174   52.1  0.1735   65.4  0.2477  -60.7
 2.000  0.5056  145.6   2.075   49.8  0.1829   64.9  0.2479  -63.8
 2.100  0.5107  143.2   1.991   47.7  0.1920   64.2  0.2477  -67.0
 2.200  0.5166  140.9   1.909   45.4  0.2011   63.6  0.2483  -70.2
 2.300  0.5213  138.9   1.839   43.4  0.2105   62.9  0.2498  -73.4
 2.400  0.5266  136.9   1.772   41.3  0.2200   62.3  0.2520  -76.6
 2.500  0.5307  134.8   1.711   39.5  0.2294   61.5  0.2542  -79.8
 2.600  0.5354  132.8   1.652   37.5  0.2389   60.8  0.2572  -82.9
 2.700  0.5400  130.9   1.601   35.7  0.2484   60.0  0.2602  -85.9
 2.800  0.5451  129.0   1.551   33.8  0.2580   59.3  0.2640  -88.9
 2.900  0.5493  127.0   1.508   32.0  0.2676   58.5  0.2669  -91.8
 3.000  0.5541  125.0   1.466   30.1  0.2773   57.8  0.2705  -94.7
 3.100  0.5571  123.1   1.429   28.6  0.2868   56.8  0.2722  -97.5
 3.200  0.5607  121.3   1.393   27.0  0.2964   55.8  0.2746 -100.4
 3.300  0.5649  119.5   1.358   25.4  0.3061   54.9  0.2776 -103.1
 3.400  0.5696  117.7   1.324   23.6  0.3158   54.1  0.2813 -105.8
 3.500  0.5749  115.9   1.292   21.8  0.3256   53.3  0.2855 -108.4
 3.600  0.5788  114.2   1.264   20.4  0.3352   52.1  0.2858 -111.4
 3.700  0.5833  112.5   1.237   19.0  0.3449   51.0  0.2868 -114.3
 3.800  0.5883  110.8   1.211   17.4  0.3547   50.0  0.2886 -117.3
 3.900  0.5937  109.1   1.186   15.9  0.3647   49.0  0.2911 -120.2
 4.000  0.5997  107.5   1.162   14.2  0.3747   48.1  0.2944 -123.0
 4.100  0.6028  106.0   1.140   12.9  0.3838   46.9  0.2947 -126.4
 4.200  0.6064  104.4   1.118   11.6  0.3931   45.7  0.2960 -129.9
 4.300  0.6104  102.9   1.097   10.2  0.4026   44.6  0.2983 -133.2
 4.400  0.6148  101.5   1.077    8.8  0.4122   43.5  0.3017 -136.6
 4.500  0.6196  100.0   1.057    7.3  0.4219   42.5  0.3061 -139.8
 4.600  0.6240   98.6   1.037    6.3  0.4306   41.3  0.3090 -143.4
 4.700  0.6289   97.1   1.018    5.2  0.4395   40.2  0.3131 -146.8
 4.800  0.6341   95.7   0.999    4.1  0.4486   39.1  0.3183 -150.2
 4.900  0.6397   94.4   0.981    2.9  0.4578   38.0  0.3245 -153.5
 5.000  0.6456   93.0   0.963    1.7  0.4672   37.0  0.3318 -156.6
 5.100  0.6475   91.7   0.949    0.8  0.4752   35.7  0.3383 -159.7
 5.200  0.6497   90.5   0.936   -0.1  0.4834   34.5  0.3458 -162.6
 5.300  0.6522   89.2   0.923   -1.1  0.4918   33.3  0.3542 -165.4
 5.400  0.6551   87.9   0.910   -2.1  0.5004   32.1  0.3633 -168.1
 5.500  0.6582   86.7   0.898   -3.1  0.5092   31.0  0.3732 -170.6
 5.600  0.6592   85.6   0.886   -3.9  0.5160   29.8  0.3790 -173.0
 5.700  0.6605   84.4   0.873   -4.6  0.5230   28.6  0.3854 -175.2
 5.800  0.6620   83.3   0.861   -5.4  0.5302   27.4  0.3924 -177.4
 5.900  0.6638   82.1   0.850   -6.3  0.5377   26.3  0.3999 -179.6
 6.000  0.6658   81.0   0.838   -7.1  0.5453   25.2  0.4080  178.4
!
!  f       NFmin   Gammaopt  rn/50
! GHz       dB    MAG  ANG    -
 0.450      1.41  0.12  146   0.13
 0.900      1.69  0.23  168   0.14
 1.900      2.69  0.47 -141   0.21
 2.400      3.31  0.54 -127   0.41
!
! (c) 2017  Infineon Technologies AG, Munich