! Infineon Technologies  Discrete & RF Semiconductors
! BFR93AW
! VCE =  9.0 V,  IC =  11 mA
! Common Emitter S-Parameters:                            Jan 2017
# GHz  S  MA  R  50
!  f         S11            S21            S12            S22
! GHz     MAG   ANG      MAG   ANG      MAG   ANG      MAG   ANG
 0.010  0.7461   -6.8  27.142  175.3  0.0024   83.0  0.9924   -3.0
 0.020  0.7566  -13.6  27.347  171.2  0.0054   87.7  0.9845   -6.2
 0.030  0.7310  -19.7  26.640  167.3  0.0083   80.6  0.9666   -8.9
 0.040  0.7141  -26.1  26.060  163.3  0.0112   77.2  0.9509  -11.6
 0.050  0.7065  -32.7  25.615  159.1  0.0142   75.2  0.9375  -14.5
 0.060  0.6841  -37.9  24.746  156.1  0.0164   72.3  0.9122  -16.4
 0.070  0.6677  -43.4  23.950  152.9  0.0185   70.1  0.8880  -18.4
 0.080  0.6577  -49.2  23.233  149.5  0.0207   68.3  0.8649  -20.6
 0.090  0.6546  -55.0  22.603  145.9  0.0230   66.9  0.8431  -22.8
 0.100  0.6583  -60.9  22.068  142.1  0.0252   65.7  0.8227  -25.2
 0.110  0.6387  -64.9  21.270  139.9  0.0264   63.8  0.7992  -26.4
 0.120  0.6225  -69.1  20.505  137.6  0.0277   62.0  0.7760  -27.6
 0.130  0.6098  -73.6  19.778  135.0  0.0289   60.4  0.7532  -28.9
 0.140  0.6009  -78.2  19.092  132.3  0.0302   58.9  0.7308  -30.2
 0.150  0.5960  -82.9  18.452  129.4  0.0315   57.6  0.7089  -31.7
 0.200  0.5525 -100.0  15.479  120.2  0.0360   54.9  0.6190  -35.0
 0.250  0.5253 -113.4  13.219  113.1  0.0406   52.9  0.5535  -36.6
 0.300  0.5035 -123.8  11.429  108.0  0.0432   52.4  0.5025  -37.2
 0.350  0.4879 -131.4  10.179  104.5  0.0466   53.4  0.4706  -37.2
 0.400  0.4815 -139.4   8.976  100.1  0.0500   54.2  0.4387  -37.1
 0.450  0.4733 -144.9   8.144   97.5  0.0529   54.9  0.4195  -36.9
 0.500  0.4695 -150.5   7.333   94.3  0.0559   55.6  0.4004  -36.7
 0.600  0.4634 -159.0   6.208   89.6  0.0623   57.6  0.3760  -36.5
 0.700  0.4614 -165.7   5.366   85.6  0.0686   59.7  0.3594  -36.4
 0.800  0.4643 -171.9   4.736   81.8  0.0756   61.3  0.3479  -36.9
 0.900  0.4612 -176.9   4.225   78.5  0.0829   62.0  0.3390  -37.7
 1.000  0.4638  178.5   3.837   75.4  0.0900   63.1  0.3315  -38.6
 1.100  0.4685  174.5   3.507   72.6  0.0977   64.1  0.3269  -39.9
 1.200  0.4705  170.7   3.231   69.7  0.1049   64.5  0.3218  -41.1
 1.300  0.4721  167.3   2.995   67.0  0.1124   65.0  0.3175  -42.9
 1.400  0.4774  164.1   2.803   64.4  0.1206   65.5  0.3133  -44.9
 1.500  0.4831  161.1   2.627   61.9  0.1289   65.7  0.3101  -46.8
 1.600  0.4862  158.0   2.478   59.4  0.1373   65.6  0.3090  -49.0
 1.700  0.4896  155.4   2.347   57.0  0.1454   65.8  0.3057  -51.4
 1.800  0.4953  152.6   2.237   54.6  0.1541   65.6  0.3033  -53.8
 1.900  0.4993  150.2   2.132   52.5  0.1632   65.5  0.3024  -56.5
 2.000  0.5037  147.7   2.035   50.1  0.1714   65.2  0.3020  -59.3
 2.100  0.5086  145.2   1.952   48.0  0.1804   64.7  0.3015  -62.1
 2.200  0.5144  142.8   1.872   45.7  0.1894   64.3  0.3017  -65.0
 2.300  0.5192  140.7   1.804   43.7  0.1987   63.9  0.3025  -68.0
 2.400  0.5247  138.6   1.738   41.5  0.2080   63.5  0.3042  -71.0
 2.500  0.5296  136.4   1.677   39.6  0.2173   62.9  0.3059  -73.9
 2.600  0.5352  134.3   1.618   37.6  0.2266   62.4  0.3083  -76.8
 2.700  0.5392  132.3   1.569   35.8  0.2362   61.7  0.3112  -79.6
 2.800  0.5439  130.3   1.521   33.8  0.2458   61.1  0.3148  -82.4
 2.900  0.5484  128.2   1.477   32.0  0.2555   60.3  0.3166  -85.2
 3.000  0.5536  126.2   1.434   30.1  0.2653   59.6  0.3192  -87.9
 3.100  0.5566  124.2   1.397   28.6  0.2752   58.7  0.3204  -90.7
 3.200  0.5603  122.3   1.362   27.0  0.2852   57.8  0.3224  -93.4
 3.300  0.5647  120.3   1.327   25.4  0.2953   57.0  0.3251  -96.1
 3.400  0.5696  118.5   1.294   23.6  0.3054   56.3  0.3285  -98.8
 3.500  0.5752  116.6   1.262   21.8  0.3155   55.6  0.3326 -101.4
 3.600  0.5791  114.8   1.235   20.4  0.3256   54.5  0.3323 -104.3
 3.700  0.5835  113.1   1.209   19.0  0.3358   53.4  0.3328 -107.2
 3.800  0.5884  111.4   1.183   17.5  0.3462   52.4  0.3342 -110.1
 3.900  0.5939  109.7   1.159   15.9  0.3566   51.5  0.3364 -112.9
 4.000  0.5999  108.0   1.135   14.3  0.3671   50.6  0.3394 -115.7
 4.100  0.6031  106.4   1.113   13.0  0.3768   49.4  0.3386 -119.0
 4.200  0.6068  104.8   1.091   11.7  0.3868   48.2  0.3389 -122.4
 4.300  0.6109  103.3   1.070   10.3  0.3968   47.1  0.3404 -125.7
 4.400  0.6155  101.7   1.049    8.9  0.4071   46.0  0.3430 -129.0
 4.500  0.6205  100.2   1.029    7.4  0.4174   45.0  0.3467 -132.2
 4.600  0.6249   98.7   1.010    6.4  0.4266   43.8  0.3482 -135.8
 4.700  0.6296   97.3   0.991    5.4  0.4361   42.6  0.3511 -139.3
 4.800  0.6348   95.9   0.973    4.3  0.4457   41.4  0.3553 -142.7
 4.900  0.6403   94.5   0.955    3.2  0.4555   40.3  0.3607 -146.1
 5.000  0.6462   93.1   0.937    2.0  0.4654   39.3  0.3673 -149.3
 5.100  0.6478   91.8   0.924    1.1  0.4740   38.0  0.3728 -152.5
 5.200  0.6497   90.4   0.911    0.2  0.4828   36.7  0.3794 -155.5
 5.300  0.6520   89.1   0.898   -0.7  0.4918   35.4  0.3871 -158.5
 5.400  0.6546   87.8   0.885   -1.7  0.5011   34.2  0.3957 -161.3
 5.500  0.6576   86.5   0.873   -2.7  0.5106   33.1  0.4053 -164.0
 5.600  0.6589   85.3   0.861   -3.4  0.5180   31.8  0.4101 -166.6
 5.700  0.6605   84.2   0.849   -4.1  0.5256   30.6  0.4158 -169.1
 5.800  0.6624   83.1   0.838   -4.9  0.5334   29.4  0.4222 -171.5
 5.900  0.6645   81.9   0.826   -5.6  0.5415   28.2  0.4294 -173.8
 6.000  0.6669   80.8   0.815   -6.4  0.5498   27.1  0.4372 -176.1
!
!  f       NFmin   Gammaopt  rn/50
! GHz       dB    MAG  ANG    -
 0.450      1.26  0.12  111   0.13
 0.900      1.57  0.23  157   0.14
 1.900      2.62  0.47 -146   0.18
 2.400      3.24  0.54 -130   0.37
!
! (c) 2017  Infineon Technologies AG, Munich