! Infineon Technologies  Discrete & RF Semiconductors
! BFR93AW
! VCE =  6.0 V,  IC =  45 mA
! Common Emitter S-Parameters:                            Jan 2017
# GHz  S  MA  R  50
!  f         S11            S21            S12            S22
! GHz     MAG   ANG      MAG   ANG      MAG   ANG      MAG   ANG
 0.010  0.4707  -14.8  53.289  171.7  0.0022   79.1  0.9665   -5.8
 0.020  0.4753  -29.8  52.702  164.3  0.0048   82.5  0.9394  -12.0
 0.030  0.4474  -41.6  49.363  158.6  0.0072   74.0  0.8915  -16.4
 0.040  0.4405  -54.4  46.583  152.1  0.0096   69.8  0.8494  -21.3
 0.050  0.4554  -66.9  44.470  144.9  0.0121   67.3  0.8140  -26.6
 0.060  0.4370  -74.3  41.601  141.9  0.0133   66.0  0.7699  -28.5
 0.070  0.4265  -82.2  38.866  138.4  0.0145   64.9  0.7268  -30.7
 0.080  0.4245  -90.4  36.296  134.4  0.0157   64.0  0.6848  -33.1
 0.090  0.4310  -98.4  33.928  129.8  0.0170   63.3  0.6442  -35.8
 0.100  0.4457 -106.1  31.807  124.6  0.0182   62.6  0.6053  -38.9
 0.110  0.4391 -110.5  30.100  122.8  0.0192   62.0  0.5789  -39.5
 0.120  0.4350 -114.9  28.425  120.9  0.0201   61.5  0.5525  -40.2
 0.130  0.4337 -119.4  26.788  118.6  0.0211   61.0  0.5262  -41.0
 0.140  0.4350 -123.9  25.196  116.1  0.0220   60.5  0.5000  -41.9
 0.150  0.4390 -128.4  23.659  113.3  0.0230   60.1  0.4740  -42.8
 0.200  0.4370 -141.5  18.549  106.3  0.0263   62.4  0.3974  -43.2
 0.250  0.4402 -150.7  15.213  101.2  0.0309   63.0  0.3490  -42.4
 0.300  0.4374 -157.2  12.821   97.6  0.0346   65.7  0.3160  -41.3
 0.350  0.4373 -161.7  11.304   95.2  0.0390   67.1  0.2972  -40.4
 0.400  0.4400 -166.2   9.814   92.0  0.0435   68.2  0.2785  -39.3
 0.450  0.4394 -169.6   8.855   90.1  0.0480   69.0  0.2678  -38.7
 0.500  0.4404 -172.9   7.907   87.8  0.0525   69.6  0.2571  -38.1
 0.600  0.4454 -178.1   6.646   84.2  0.0616   70.9  0.2433  -37.5
 0.700  0.4480  178.0   5.719   81.2  0.0709   71.5  0.2345  -37.4
 0.800  0.4517  174.1   5.032   78.1  0.0803   71.7  0.2275  -38.1
 0.900  0.4526  170.6   4.479   75.3  0.0894   71.4  0.2228  -39.1
 1.000  0.4575  167.4   4.060   72.7  0.0984   71.4  0.2173  -40.4
 1.100  0.4620  164.3   3.709   70.3  0.1079   71.0  0.2142  -41.9
 1.200  0.4645  161.6   3.412   67.7  0.1171   70.6  0.2107  -43.7
 1.300  0.4680  158.9   3.163   65.3  0.1265   70.1  0.2083  -45.9
 1.400  0.4736  156.5   2.959   62.9  0.1361   69.6  0.2045  -48.4
 1.500  0.4781  154.1   2.771   60.7  0.1454   69.1  0.2023  -51.0
 1.600  0.4823  151.8   2.615   58.4  0.1546   68.3  0.2012  -53.6
 1.700  0.4861  149.4   2.474   56.2  0.1642   67.8  0.1991  -56.8
 1.800  0.4918  147.1   2.359   54.0  0.1740   66.9  0.1976  -60.0
 1.900  0.4967  144.9   2.247   52.1  0.1832   66.3  0.1972  -63.3
 2.000  0.5000  142.9   2.144   49.8  0.1930   65.5  0.1976  -66.8
 2.100  0.5054  140.8   2.057   47.8  0.2024   64.6  0.1978  -70.4
 2.200  0.5115  138.7   1.972   45.6  0.2119   63.8  0.1988  -73.9
 2.300  0.5157  136.8   1.900   43.7  0.2212   62.9  0.2005  -77.6
 2.400  0.5204  134.9   1.830   41.6  0.2306   62.1  0.2031  -81.3
 2.500  0.5246  133.0   1.767   39.8  0.2399   61.1  0.2058  -84.7
 2.600  0.5294  131.2   1.706   37.9  0.2493   60.2  0.2092  -88.0
 2.700  0.5341  129.3   1.654   36.2  0.2587   59.3  0.2128  -91.2
 2.800  0.5393  127.5   1.603   34.3  0.2681   58.4  0.2170  -94.3
 2.900  0.5433  125.6   1.558   32.6  0.2774   57.4  0.2200  -97.4
 3.000  0.5478  123.8   1.514   30.7  0.2867   56.5  0.2237 -100.5
 3.100  0.5509  122.0   1.476   29.2  0.2958   55.4  0.2258 -103.4
 3.200  0.5545  120.2   1.440   27.7  0.3051   54.4  0.2285 -106.3
 3.300  0.5587  118.4   1.404   26.0  0.3144   53.5  0.2317 -109.1
 3.400  0.5635  116.6   1.370   24.3  0.3238   52.6  0.2355 -111.8
 3.500  0.5687  114.9   1.337   22.5  0.3333   51.8  0.2398 -114.4
 3.600  0.5726  113.3   1.309   21.1  0.3423   50.6  0.2406 -117.4
 3.700  0.5770  111.7   1.282   19.7  0.3515   49.5  0.2420 -120.5
 3.800  0.5818  110.1   1.256   18.2  0.3608   48.5  0.2441 -123.4
 3.900  0.5871  108.5   1.230   16.6  0.3702   47.5  0.2468 -126.4
 4.000  0.5928  107.0   1.206   15.0  0.3797   46.5  0.2502 -129.2
 4.100  0.5960  105.5   1.183   13.7  0.3882   45.3  0.2512 -132.7
 4.200  0.5997  104.0   1.161   12.4  0.3970   44.1  0.2531 -136.3
 4.300  0.6038  102.6   1.139   11.0  0.4058   43.0  0.2559 -139.7
 4.400  0.6082  101.1   1.118    9.6  0.4148   41.9  0.2597 -143.1
 4.500  0.6130   99.7   1.098    8.1  0.4240   40.9  0.2643 -146.3
 4.600  0.6179   98.3   1.078    7.0  0.4320   39.7  0.2680 -149.9
 4.700  0.6232   96.9   1.058    5.9  0.4402   38.6  0.2728 -153.4
 4.800  0.6289   95.6   1.039    4.7  0.4486   37.5  0.2785 -156.7
 4.900  0.6349   94.3   1.020    3.5  0.4571   36.5  0.2852 -159.9
 5.000  0.6412   93.0   1.002    2.3  0.4657   35.5  0.2927 -163.0
 5.100  0.6432   91.8   0.988    1.3  0.4731   34.3  0.2999 -165.9
 5.200  0.6454   90.5   0.975    0.3  0.4808   33.1  0.3079 -168.6
 5.300  0.6480   89.3   0.961   -0.7  0.4886   31.9  0.3165 -171.2
 5.400  0.6509   88.1   0.949   -1.7  0.4967   30.8  0.3257 -173.7
 5.500  0.6540   86.9   0.936   -2.8  0.5049   29.7  0.3355 -176.0
 5.600  0.6551   85.8   0.923   -3.6  0.5113   28.5  0.3417 -178.2
 5.700  0.6564   84.6   0.911   -4.4  0.5179   27.4  0.3483  179.8
 5.800  0.6579   83.5   0.898   -5.3  0.5247   26.3  0.3554  177.8
 5.900  0.6597   82.4   0.886   -6.1  0.5316   25.2  0.3629  175.8
 6.000  0.6618   81.3   0.874   -7.0  0.5388   24.2  0.3708  174.0
!
!  f       NFmin   Gammaopt  rn/50
! GHz       dB    MAG  ANG    -
 0.450      2.16  0.24 -179   0.17
 0.900      2.46  0.30 -169   0.17
 1.900      3.55  0.53 -132   0.39
 2.400      4.27  0.57 -122   0.72
!
! (c) 2017  Infineon Technologies AG, Munich