! Infineon Technologies  Discrete & RF Semiconductors
! BFR93AW
! VCE =  6.0 V,  IC =  40 mA
! Common Emitter S-Parameters:                            Jan 2017
# GHz  S  MA  R  50
!  f         S11            S21            S12            S22
! GHz     MAG   ANG      MAG   ANG      MAG   ANG      MAG   ANG
 0.010  0.4908  -14.0  51.524  172.0  0.0025   79.7  0.9695   -5.6
 0.020  0.4952  -27.7  50.730  165.0  0.0050   82.7  0.9455  -11.6
 0.030  0.4658  -39.1  47.749  159.3  0.0072   74.7  0.8998  -15.9
 0.040  0.4568  -51.4  45.300  152.9  0.0096   70.5  0.8597  -20.6
 0.050  0.4692  -63.7  43.472  145.9  0.0119   67.9  0.8260  -25.8
 0.060  0.4493  -71.0  40.755  142.8  0.0132   66.2  0.7822  -27.8
 0.070  0.4373  -78.9  38.170  139.3  0.0146   64.7  0.7395  -30.0
 0.080  0.4339  -87.0  35.747  135.4  0.0160   63.5  0.6980  -32.4
 0.090  0.4394  -95.1  33.521  130.8  0.0173   62.5  0.6579  -35.2
 0.100  0.4533 -102.9  31.533  125.7  0.0187   61.7  0.6196  -38.3
 0.110  0.4456 -107.3  29.867  123.9  0.0197   61.4  0.5929  -39.0
 0.120  0.4405 -111.7  28.233  121.9  0.0206   61.1  0.5664  -39.8
 0.130  0.4382 -116.3  26.638  119.7  0.0216   60.9  0.5399  -40.7
 0.140  0.4387 -120.9  25.089  117.1  0.0225   60.6  0.5136  -41.6
 0.150  0.4420 -125.4  23.595  114.3  0.0235   60.4  0.4875  -42.7
 0.200  0.4394 -139.0  18.562  107.0  0.0273   61.2  0.4083  -43.3
 0.250  0.4388 -148.5  15.242  101.8  0.0316   62.1  0.3588  -42.7
 0.300  0.4363 -155.4  12.862   98.2  0.0351   64.6  0.3238  -41.8
 0.350  0.4359 -160.1  11.344   95.7  0.0397   66.6  0.3040  -40.8
 0.400  0.4385 -164.8   9.854   92.4  0.0444   68.1  0.2843  -39.7
 0.450  0.4381 -168.3   8.893   90.5  0.0487   68.7  0.2728  -39.1
 0.500  0.4392 -171.7   7.944   88.2  0.0530   69.2  0.2613  -38.5
 0.600  0.4423 -177.1   6.682   84.6  0.0618   69.9  0.2468  -37.9
 0.700  0.4451  178.6   5.747   81.4  0.0702   71.1  0.2374  -37.8
 0.800  0.4486  174.8   5.055   78.3  0.0802   71.4  0.2311  -38.3
 0.900  0.4505  171.1   4.501   75.5  0.0892   71.2  0.2251  -39.3
 1.000  0.4548  167.8   4.079   72.9  0.0984   71.1  0.2198  -40.7
 1.100  0.4599  164.9   3.727   70.5  0.1078   71.0  0.2170  -42.2
 1.200  0.4628  162.1   3.429   67.8  0.1166   70.3  0.2129  -43.7
 1.300  0.4666  159.4   3.180   65.5  0.1260   69.9  0.2103  -46.0
 1.400  0.4708  156.9   2.972   63.1  0.1359   69.5  0.2067  -48.4
 1.500  0.4758  154.7   2.783   60.9  0.1448   68.8  0.2042  -50.8
 1.600  0.4807  152.0   2.629   58.5  0.1548   68.2  0.2037  -53.5
 1.700  0.4835  149.8   2.488   56.4  0.1637   67.6  0.2015  -56.6
 1.800  0.4893  147.4   2.369   54.1  0.1732   66.9  0.1997  -59.8
 1.900  0.4941  145.2   2.258   52.1  0.1828   66.2  0.1993  -62.9
 2.000  0.4982  143.4   2.154   49.9  0.1922   65.3  0.1998  -66.5
 2.100  0.5030  141.1   2.066   47.9  0.2015   64.5  0.2000  -70.1
 2.200  0.5086  138.9   1.981   45.7  0.2108   63.7  0.2009  -73.7
 2.300  0.5129  137.0   1.909   43.8  0.2205   62.8  0.2025  -77.3
 2.400  0.5178  135.2   1.839   41.7  0.2303   62.0  0.2049  -80.9
 2.500  0.5219  133.3   1.776   39.9  0.2393   61.1  0.2076  -84.4
 2.600  0.5265  131.5   1.714   38.0  0.2483   60.2  0.2111  -87.7
 2.700  0.5312  129.6   1.662   36.3  0.2577   59.3  0.2145  -90.9
 2.800  0.5365  127.7   1.611   34.4  0.2672   58.4  0.2186  -93.9
 2.900  0.5409  125.8   1.565   32.7  0.2765   57.5  0.2216  -97.0
 3.000  0.5459  123.9   1.521   30.8  0.2859   56.6  0.2252 -100.0
 3.100  0.5490  122.1   1.483   29.3  0.2951   55.5  0.2274 -102.9
 3.200  0.5526  120.3   1.446   27.8  0.3044   54.5  0.2301 -105.7
 3.300  0.5568  118.6   1.410   26.1  0.3138   53.5  0.2334 -108.5
 3.400  0.5614  116.9   1.375   24.4  0.3233   52.6  0.2373 -111.2
 3.500  0.5666  115.2   1.342   22.6  0.3329   51.8  0.2416 -113.8
 3.600  0.5704  113.5   1.314   21.2  0.3420   50.6  0.2423 -116.9
 3.700  0.5746  111.9   1.287   19.8  0.3512   49.5  0.2437 -119.9
 3.800  0.5794  110.3   1.261   18.3  0.3606   48.5  0.2457 -122.9
 3.900  0.5846  108.7   1.235   16.7  0.3700   47.5  0.2484 -125.8
 4.000  0.5902  107.1   1.211   15.1  0.3796   46.5  0.2518 -128.7
 4.100  0.5937  105.6   1.188   13.8  0.3881   45.3  0.2527 -132.2
 4.200  0.5977  104.2   1.165   12.4  0.3968   44.1  0.2545 -135.7
 4.300  0.6020  102.7   1.143   11.0  0.4056   43.0  0.2573 -139.1
 4.400  0.6066  101.3   1.122    9.5  0.4146   41.9  0.2610 -142.5
 4.500  0.6117   99.9   1.102    8.0  0.4237   40.9  0.2655 -145.7
 4.600  0.6165   98.5   1.082    6.9  0.4316   39.7  0.2693 -149.3
 4.700  0.6216   97.1   1.062    5.8  0.4397   38.6  0.2740 -152.8
 4.800  0.6271   95.8   1.043    4.6  0.4479   37.5  0.2798 -156.1
 4.900  0.6329   94.5   1.024    3.4  0.4563   36.5  0.2865 -159.3
 5.000  0.6391   93.2   1.006    2.2  0.4648   35.5  0.2940 -162.4
 5.100  0.6412   91.9   0.992    1.3  0.4723   34.3  0.3013 -165.3
 5.200  0.6436   90.7   0.979    0.3  0.4800   33.1  0.3093 -168.1
 5.300  0.6462   89.4   0.966   -0.7  0.4879   32.0  0.3180 -170.7
 5.400  0.6492   88.2   0.953   -1.7  0.4960   30.9  0.3274 -173.2
 5.500  0.6525   87.0   0.940   -2.8  0.5043   29.8  0.3373 -175.5
 5.600  0.6537   85.8   0.927   -3.6  0.5108   28.6  0.3435 -177.7
 5.700  0.6552   84.7   0.915   -4.4  0.5175   27.5  0.3502 -179.7
 5.800  0.6569   83.6   0.902   -5.3  0.5245   26.4  0.3573  178.3
 5.900  0.6589   82.4   0.890   -6.2  0.5316   25.3  0.3648  176.3
 6.000  0.6611   81.3   0.878   -7.1  0.5389   24.2  0.3727  174.5
!
!  f       NFmin   Gammaopt  rn/50
! GHz       dB    MAG  ANG    -
 0.450      2.04  0.23 -180   0.16
 0.900      2.33  0.29 -170   0.17
 1.900      3.40  0.52 -133   0.35
 2.400      4.10  0.57 -123   0.66
!
! (c) 2017  Infineon Technologies AG, Munich