! Infineon Technologies  Discrete & RF Semiconductors
! BFR93AW
! VCE =  3.0 V,  IC =  15 mA
! Common Emitter S-Parameters:                            Jan 2017
# GHz  S  MA  R  50
!  f         S11            S21            S12            S22
! GHz     MAG   ANG      MAG   ANG      MAG   ANG      MAG   ANG
 0.010  0.6297  -10.0  34.728  174.1  0.0030   87.4  0.9869   -4.5
 0.020  0.6357  -19.7  34.827  168.7  0.0063   82.8  0.9764   -9.3
 0.030  0.6073  -28.4  33.436  163.8  0.0092   76.4  0.9438  -13.1
 0.040  0.5941  -37.7  32.307  158.6  0.0122   73.1  0.9156  -17.1
 0.050  0.5971  -47.2  31.467  153.0  0.0152   71.1  0.8921  -21.3
 0.060  0.5728  -53.8  29.959  149.8  0.0173   68.0  0.8548  -23.6
 0.070  0.5565  -60.8  28.552  146.3  0.0194   65.6  0.8189  -26.1
 0.080  0.5491  -68.1  27.262  142.5  0.0215   63.7  0.7848  -28.8
 0.090  0.5509  -75.6  26.108  138.3  0.0236   62.1  0.7526  -31.8
 0.100  0.5617  -82.8  25.106  133.7  0.0258   60.8  0.7226  -35.0
 0.110  0.5472  -87.3  23.960  131.7  0.0268   59.4  0.6944  -36.2
 0.120  0.5362  -91.9  22.848  129.4  0.0279   58.2  0.6664  -37.5
 0.130  0.5289  -96.8  21.775  126.9  0.0289   57.0  0.6389  -38.8
 0.140  0.5255 -101.7  20.747  124.2  0.0300   55.9  0.6117  -40.4
 0.150  0.5260 -106.7  19.770  121.2  0.0311   54.9  0.5850  -42.0
 0.200  0.5117 -123.1  15.986  112.7  0.0350   53.8  0.4900  -45.2
 0.250  0.5037 -134.9  13.331  106.4  0.0395   53.7  0.4258  -46.4
 0.300  0.4951 -143.3  11.363  102.1  0.0426   54.7  0.3786  -46.7
 0.350  0.4903 -149.4  10.052   99.1  0.0462   56.4  0.3503  -46.5
 0.400  0.4910 -155.5   8.777   95.2  0.0498   57.8  0.3220  -46.2
 0.450  0.4890 -159.9   7.936   93.0  0.0536   58.9  0.3051  -45.9
 0.500  0.4899 -164.3   7.109   90.2  0.0574   59.8  0.2882  -45.6
 0.600  0.4909 -170.9   5.992   86.0  0.0654   61.2  0.2669  -45.3
 0.700  0.4920 -176.2   5.163   82.4  0.0730   63.2  0.2524  -45.3
 0.800  0.4939  179.3   4.547   78.9  0.0825   64.5  0.2425  -45.8
 0.900  0.4944  175.1   4.052   75.8  0.0904   64.9  0.2346  -46.9
 1.000  0.5005  171.5   3.675   72.9  0.0993   65.6  0.2276  -48.1
 1.100  0.5041  168.1   3.359   70.2  0.1079   66.0  0.2240  -49.7
 1.200  0.5063  164.8   3.092   67.4  0.1164   65.9  0.2195  -51.4
 1.300  0.5090  161.8   2.868   64.8  0.1255   66.0  0.2165  -53.7
 1.400  0.5139  159.0   2.683   62.3  0.1354   66.0  0.2128  -56.3
 1.500  0.5192  156.6   2.515   59.9  0.1439   65.6  0.2105  -59.0
 1.600  0.5228  153.9   2.373   57.4  0.1530   65.3  0.2105  -61.7
 1.700  0.5269  151.4   2.248   55.1  0.1628   65.0  0.2086  -64.9
 1.800  0.5313  148.9   2.141   52.7  0.1721   64.5  0.2077  -68.2
 1.900  0.5362  146.7   2.042   50.7  0.1816   64.0  0.2083  -71.5
 2.000  0.5389  144.5   1.950   48.3  0.1908   63.4  0.2096  -75.0
 2.100  0.5437  142.1   1.871   46.2  0.2004   62.7  0.2109  -78.7
 2.200  0.5494  139.7   1.794   43.9  0.2101   62.1  0.2130  -82.3
 2.300  0.5543  137.7   1.729   41.9  0.2198   61.4  0.2159  -85.9
 2.400  0.5598  135.8   1.666   39.8  0.2296   60.7  0.2197  -89.3
 2.500  0.5632  133.8   1.609   38.0  0.2391   59.9  0.2233  -92.7
 2.600  0.5672  131.8   1.553   36.0  0.2487   59.1  0.2277  -95.9
 2.700  0.5713  129.9   1.506   34.2  0.2582   58.2  0.2323  -99.0
 2.800  0.5760  128.0   1.460   32.3  0.2677   57.4  0.2376 -102.0
 2.900  0.5803  126.0   1.418   30.6  0.2775   56.5  0.2415 -105.1
 3.000  0.5852  124.1   1.378   28.7  0.2873   55.7  0.2461 -108.0
 3.100  0.5875  122.2   1.344   27.2  0.2969   54.6  0.2490 -110.9
 3.200  0.5905  120.3   1.310   25.6  0.3066   53.6  0.2525 -113.7
 3.300  0.5941  118.5   1.278   24.0  0.3163   52.7  0.2567 -116.5
 3.400  0.5984  116.6   1.247   22.2  0.3262   51.8  0.2614 -119.1
 3.500  0.6032  114.8   1.217   20.4  0.3361   51.0  0.2666 -121.7
 3.600  0.6066  113.1   1.192   19.1  0.3455   49.8  0.2682 -124.8
 3.700  0.6104  111.5   1.167   17.7  0.3551   48.7  0.2705 -127.8
 3.800  0.6148  109.8   1.143   16.2  0.3648   47.6  0.2735 -130.8
 3.900  0.6197  108.2   1.120   14.7  0.3747   46.6  0.2773 -133.7
 4.000  0.6251  106.6   1.098   13.1  0.3846   45.6  0.2818 -136.5
 4.100  0.6277  105.0   1.077   11.8  0.3934   44.4  0.2838 -140.0
 4.200  0.6308  103.5   1.057   10.5  0.4024   43.2  0.2868 -143.4
 4.300  0.6344  101.9   1.037    9.2  0.4115   42.0  0.2909 -146.7
 4.400  0.6384  100.4   1.018    7.8  0.4208   40.9  0.2959 -150.0
 4.500  0.6428   98.9   0.999    6.3  0.4303   39.9  0.3018 -153.1
 4.600  0.6467   97.5   0.981    5.3  0.4385   38.7  0.3065 -156.5
 4.700  0.6511   96.1   0.963    4.3  0.4468   37.5  0.3122 -159.8
 4.800  0.6557   94.8   0.945    3.2  0.4553   36.4  0.3189 -162.9
 4.900  0.6608   93.4   0.928    2.1  0.4640   35.3  0.3265 -165.9
 5.000  0.6662   92.1   0.911    1.0  0.4729   34.3  0.3350 -168.8
 5.100  0.6672   90.8   0.899    0.1  0.4805   33.0  0.3425 -171.5
 5.200  0.6685   89.6   0.887   -0.7  0.4883   31.8  0.3508 -174.1
 5.300  0.6701   88.3   0.876   -1.6  0.4964   30.6  0.3598 -176.6
 5.400  0.6721   87.0   0.864   -2.6  0.5046   29.4  0.3694 -179.0
 5.500  0.6744   85.8   0.853   -3.5  0.5131   28.3  0.3796  178.8
 5.600  0.6753   84.7   0.842   -4.2  0.5193   27.1  0.3857  176.8
 5.700  0.6764   83.6   0.831   -5.0  0.5257   26.0  0.3923  174.8
 5.800  0.6778   82.5   0.820   -5.7  0.5323   24.9  0.3993  172.9
 5.900  0.6794   81.4   0.810   -6.5  0.5391   23.8  0.4068  171.1
 6.000  0.6813   80.3   0.799   -7.3  0.5461   22.7  0.4146  169.3
!
!  f       NFmin   Gammaopt  rn/50
! GHz       dB    MAG  ANG    -
 0.450      1.37  0.12  133   0.13
 0.900      1.66  0.23  164   0.14
 1.900      2.67  0.47 -144   0.20
 2.400      3.30  0.54 -129   0.40
!
! (c) 2017  Infineon Technologies AG, Munich