! Infineon Technologies  Discrete & RF Semiconductors
! BFR93AW
! VCE =  11. V,  IC =  2.0 mA
! Common Emitter S-Parameters:                            Jan 2017
# GHz  S  MA  R  50
!  f         S11            S21            S12            S22
! GHz     MAG   ANG      MAG   ANG      MAG   ANG      MAG   ANG
 0.010  0.9410   -3.1   6.799  178.1  0.0032   87.1  1.0000   -1.0
 0.020  0.9549   -6.0   6.882  176.4  0.0060   90.9  0.9920   -2.0
 0.030  0.9407   -8.8   6.835  174.5  0.0093   85.4  0.9912   -3.0
 0.040  0.9288  -11.7   6.795  172.5  0.0126   82.8  0.9906   -3.9
 0.050  0.9193  -14.6   6.764  170.5  0.0159   81.3  0.9903   -4.9
 0.060  0.9141  -17.5   6.708  168.7  0.0190   79.3  0.9858   -5.8
 0.070  0.9112  -20.3   6.659  166.8  0.0220   77.8  0.9816   -6.7
 0.080  0.9106  -23.2   6.618  164.9  0.0251   76.7  0.9776   -7.6
 0.090  0.9124  -26.1   6.584  162.9  0.0282   75.9  0.9739   -8.6
 0.100  0.9164  -29.0   6.557  161.0  0.0313   75.2  0.9704   -9.5
 0.110  0.9068  -31.6   6.484  159.3  0.0339   73.0  0.9636  -10.3
 0.120  0.8991  -34.3   6.418  157.5  0.0365   71.1  0.9570  -11.1
 0.130  0.8933  -37.0   6.358  155.6  0.0392   69.5  0.9506  -11.9
 0.140  0.8896  -39.7   6.304  153.8  0.0419   68.1  0.9443  -12.8
 0.150  0.8880  -42.5   6.257  151.9  0.0446   66.8  0.9383  -13.6
 0.200  0.8549  -55.2   5.904  143.6  0.0558   61.1  0.9030  -17.0
 0.250  0.8235  -66.9   5.548  135.9  0.0647   55.1  0.8665  -19.8
 0.300  0.7884  -77.5   5.158  129.5  0.0712   50.7  0.8291  -22.0
 0.350  0.7534  -86.1   4.797  124.3  0.0763   47.0  0.7990  -23.6
 0.400  0.7367  -95.3   4.481  118.3  0.0816   43.7  0.7696  -25.4
 0.450  0.7098 -102.6   4.173  114.2  0.0844   41.3  0.7459  -26.5
 0.500  0.6952 -110.3   3.889  109.5  0.0874   39.1  0.7225  -27.6
 0.600  0.6652 -123.0   3.425  102.0  0.0903   36.4  0.6893  -29.3
 0.700  0.6443 -133.3   3.036   95.6  0.0918   34.2  0.6639  -30.9
 0.800  0.6310 -142.5   2.732   89.9  0.0924   34.0  0.6451  -32.4
 0.900  0.6199 -150.4   2.471   84.9  0.0923   33.5  0.6311  -34.0
 1.000  0.6164 -157.5   2.263   80.5  0.0915   34.2  0.6188  -35.7
 1.100  0.6115 -163.7   2.085   76.4  0.0914   36.3  0.6106  -37.4
 1.200  0.6090 -169.6   1.930   72.3  0.0915   38.0  0.6032  -39.3
 1.300  0.6076 -174.7   1.798   68.7  0.0919   40.7  0.5979  -41.2
 1.400  0.6115 -179.5   1.690   65.3  0.0930   43.7  0.5920  -43.5
 1.500  0.6140  176.1   1.590   62.1  0.0946   46.9  0.5880  -45.6
 1.600  0.6166  171.8   1.500   58.9  0.0967   50.3  0.5868  -47.9
 1.700  0.6186  167.9   1.425   56.0  0.1006   53.8  0.5824  -50.4
 1.800  0.6229  164.0   1.361   53.1  0.1058   56.8  0.5805  -52.9
 1.900  0.6282  160.4   1.299   50.6  0.1110   60.2  0.5788  -55.5
 2.000  0.6297  156.9   1.241   47.8  0.1184   62.7  0.5783  -58.0
 2.100  0.6335  153.6   1.190   45.4  0.1265   64.9  0.5779  -60.8
 2.200  0.6394  150.3   1.142   42.8  0.1348   66.8  0.5789  -63.6
 2.300  0.6425  147.3   1.099   40.6  0.1447   68.3  0.5793  -66.6
 2.400  0.6474  144.4   1.058   38.3  0.1546   69.7  0.5813  -69.5
 2.500  0.6510  141.6   1.019   36.4  0.1658   70.4  0.5824  -72.4
 2.600  0.6562  138.8   0.981   34.4  0.1770   71.1  0.5850  -75.2
 2.700  0.6593  136.1   0.950   32.7  0.1893   71.3  0.5869  -78.1
 2.800  0.6639  133.5   0.920   30.8  0.2017   71.5  0.5903  -80.9
 2.900  0.6670  130.9   0.893   29.2  0.2150   71.2  0.5915  -83.8
 3.000  0.6714  128.3   0.866   27.5  0.2283   70.9  0.5942  -86.6
 3.100  0.6717  125.8   0.844   26.4  0.2425   69.9  0.5927  -89.5
 3.200  0.6733  123.4   0.822   25.2  0.2568   69.0  0.5927  -92.4
 3.300  0.6761  120.9   0.800   24.0  0.2712   68.2  0.5942  -95.4
 3.400  0.6801  118.5   0.779   22.7  0.2856   67.5  0.5973  -98.2
 3.500  0.6853  116.1   0.758   21.3  0.3000   66.9  0.6019 -101.1
 3.600  0.6857  113.9   0.744   20.5  0.3142   65.3  0.5978 -104.1
 3.700  0.6872  111.7   0.730   19.7  0.3287   63.9  0.5954 -107.1
 3.800  0.6896  109.6   0.716   18.9  0.3433   62.6  0.5947 -110.2
 3.900  0.6930  107.4   0.702   18.0  0.3581   61.4  0.5956 -113.3
 4.000  0.6974  105.3   0.688   17.1  0.3731   60.3  0.5983 -116.3
 4.100  0.6958  103.4   0.679   16.5  0.3862   58.5  0.5928 -119.6
 4.200  0.6949  101.6   0.670   15.9  0.3997   56.8  0.5893 -122.9
 4.300  0.6947   99.7   0.661   15.3  0.4135   55.2  0.5878 -126.3
 4.400  0.6953   97.9   0.653   14.7  0.4276   53.8  0.5883 -129.6
 4.500  0.6966   96.0   0.644   14.0  0.4419   52.4  0.5909 -133.0
 4.600  0.6971   94.4   0.638   13.6  0.4534   50.6  0.5871 -136.4
 4.700  0.6982   92.9   0.632   13.2  0.4653   48.9  0.5854 -139.8
 4.800  0.6997   91.3   0.627   12.8  0.4775   47.4  0.5857 -143.2
 4.900  0.7018   89.7   0.621   12.4  0.4902   45.8  0.5881 -146.6
 5.000  0.7044   88.2   0.615   12.0  0.5031   44.4  0.5925 -149.9
 5.100  0.7022   86.8   0.615   11.6  0.5126   42.7  0.5923 -153.0
 5.200  0.7005   85.5   0.615   11.2  0.5226   41.0  0.5938 -156.0
 5.300  0.6991   84.1   0.614   10.7  0.5330   39.4  0.5970 -159.1
 5.400  0.6981   82.7   0.614   10.3  0.5437   37.9  0.6018 -162.1
 5.500  0.6976   81.3   0.614    9.9  0.5549   36.4  0.6083 -165.0
 5.600  0.6956   80.1   0.614    9.5  0.5623   34.8  0.6077 -167.6
 5.700  0.6939   79.0   0.614    9.1  0.5702   33.2  0.6083 -170.2
 5.800  0.6925   77.8   0.613    8.6  0.5784   31.7  0.6102 -172.8
 5.900  0.6914   76.6   0.613    8.2  0.5871   30.2  0.6133 -175.4
 6.000  0.6906   75.4   0.613    7.8  0.5961   28.8  0.6176 -177.9
!
!  f       NFmin   Gammaopt  rn/50
! GHz       dB    MAG  ANG    -
 0.450      1.49  0.44   71   0.20
 0.900      1.76  0.41  128   0.21
 1.900      3.23  0.56 -159   0.25
 2.400      4.18  0.62 -139   0.45
!
! (c) 2017  Infineon Technologies AG, Munich