! Infineon Technologies  Discrete & RF Semiconductors
! BFR93AW
! VCE =  4.0 V,  IC =  40 mA
! Common Emitter S-Parameters:                            Jan 2017
# GHz  S  MA  R  50
!  f         S11            S21            S12            S22
! GHz     MAG   ANG      MAG   ANG      MAG   ANG      MAG   ANG
 0.010  0.4307  -16.6  53.380  171.6  0.0025   81.2  0.9660   -6.3
 0.020  0.4373  -32.8  52.728  163.9  0.0054   82.2  0.9458  -13.0
 0.030  0.4125  -45.8  49.229  158.1  0.0076   74.4  0.8916  -17.6
 0.040  0.4108  -59.6  46.315  151.4  0.0099   70.1  0.8438  -22.7
 0.050  0.4325  -72.8  44.101  144.0  0.0122   67.5  0.8036  -28.4
 0.060  0.4189  -80.6  41.192  141.0  0.0136   65.3  0.7575  -30.4
 0.070  0.4136  -88.8  38.415  137.5  0.0150   63.5  0.7125  -32.7
 0.080  0.4169  -97.1  35.801  133.5  0.0164   62.0  0.6687  -35.3
 0.090  0.4285 -105.0  33.389  128.9  0.0178   60.8  0.6265  -38.2
 0.100  0.4479 -112.4  31.225  123.6  0.0192   59.7  0.5862  -41.6
 0.110  0.4432 -116.6  29.524  121.9  0.0200   59.7  0.5595  -42.3
 0.120  0.4410 -120.8  27.853  119.9  0.0208   59.7  0.5328  -43.1
 0.130  0.4411 -125.0  26.218  117.8  0.0215   59.8  0.5063  -44.0
 0.140  0.4437 -129.3  24.626  115.3  0.0223   59.8  0.4799  -45.0
 0.150  0.4486 -133.4  23.085  112.5  0.0231   59.8  0.4537  -46.1
 0.200  0.4542 -145.8  18.059  105.5  0.0270   61.7  0.3754  -46.8
 0.250  0.4567 -154.3  14.790  100.5  0.0320   63.8  0.3263  -46.3
 0.300  0.4564 -160.4  12.453   97.0  0.0351   65.3  0.2927  -45.5
 0.350  0.4573 -164.5  10.976   94.6  0.0399   66.9  0.2735  -44.5
 0.400  0.4604 -168.5   9.523   91.5  0.0448   68.2  0.2543  -43.4
 0.450  0.4612 -171.7   8.591   89.6  0.0493   68.7  0.2431  -42.8
 0.500  0.4634 -174.8   7.670   87.3  0.0538   69.2  0.2320  -42.2
 0.600  0.4668 -179.6   6.445   83.8  0.0630   70.4  0.2179  -41.7
 0.700  0.4693  176.4   5.544   80.7  0.0721   71.6  0.2085  -41.7
 0.800  0.4724  172.9   4.875   77.5  0.0824   71.7  0.2015  -42.3
 0.900  0.4742  169.5   4.340   74.8  0.0913   71.3  0.1961  -43.6
 1.000  0.4796  166.4   3.934   72.2  0.1012   71.2  0.1914  -45.0
 1.100  0.4839  163.4   3.593   69.7  0.1108   70.8  0.1884  -46.6
 1.200  0.4864  160.7   3.306   67.1  0.1201   70.4  0.1849  -48.7
 1.300  0.4889  158.1   3.064   64.7  0.1293   69.8  0.1827  -51.1
 1.400  0.4934  155.8   2.868   62.4  0.1396   69.3  0.1792  -53.9
 1.500  0.4995  153.5   2.686   60.1  0.1487   68.7  0.1773  -56.7
 1.600  0.5038  150.9   2.535   57.8  0.1584   68.0  0.1771  -59.7
 1.700  0.5073  148.7   2.401   55.6  0.1680   67.3  0.1752  -63.2
 1.800  0.5132  146.4   2.285   53.3  0.1780   66.5  0.1744  -66.9
 1.900  0.5176  144.5   2.178   51.4  0.1875   65.7  0.1747  -70.3
 2.000  0.5198  142.4   2.079   49.1  0.1975   64.8  0.1759  -74.4
 2.100  0.5246  140.2   1.994   47.1  0.2070   63.9  0.1771  -78.3
 2.200  0.5301  138.1   1.912   44.9  0.2165   63.0  0.1791  -82.2
 2.300  0.5350  136.2   1.843   43.0  0.2261   62.1  0.1819  -86.0
 2.400  0.5404  134.4   1.776   40.9  0.2357   61.2  0.1855  -89.6
 2.500  0.5444  132.5   1.715   39.1  0.2450   60.3  0.1891  -93.2
 2.600  0.5490  130.6   1.656   37.2  0.2544   59.4  0.1934  -96.6
 2.700  0.5528  128.7   1.605   35.5  0.2639   58.4  0.1977  -99.9
 2.800  0.5571  126.9   1.555   33.6  0.2734   57.5  0.2026 -103.0
 2.900  0.5616  125.1   1.511   31.9  0.2828   56.5  0.2065 -106.0
 3.000  0.5666  123.3   1.469   30.0  0.2923   55.5  0.2110 -108.9
 3.100  0.5691  121.5   1.433   28.5  0.3014   54.4  0.2140 -111.9
 3.200  0.5721  119.7   1.397   27.0  0.3106   53.4  0.2175 -114.7
 3.300  0.5757  117.9   1.363   25.4  0.3199   52.5  0.2215 -117.5
 3.400  0.5798  116.1   1.330   23.7  0.3293   51.6  0.2260 -120.1
 3.500  0.5845  114.4   1.298   21.9  0.3388   50.7  0.2310 -122.7
 3.600  0.5882  112.8   1.271   20.5  0.3478   49.5  0.2325 -125.8
 3.700  0.5924  111.1   1.245   19.1  0.3570   48.3  0.2347 -128.9
 3.800  0.5971  109.5   1.219   17.6  0.3662   47.2  0.2376 -131.9
 3.900  0.6022  107.9   1.195   16.0  0.3757   46.2  0.2411 -134.8
 4.000  0.6078  106.4   1.171   14.4  0.3852   45.2  0.2452 -137.6
 4.100  0.6109  104.9   1.149   13.1  0.3936   44.0  0.2472 -141.1
 4.200  0.6144  103.4   1.128   11.8  0.4021   42.8  0.2501 -144.6
 4.300  0.6184  102.0   1.107   10.4  0.4108   41.7  0.2539 -148.0
 4.400  0.6227  100.5   1.087    9.0  0.4196   40.6  0.2586 -151.3
 4.500  0.6274   99.1   1.068    7.5  0.4286   39.6  0.2641 -154.4
 4.600  0.6318   97.7   1.048    6.5  0.4364   38.4  0.2690 -157.8
 4.700  0.6365   96.4   1.029    5.4  0.4443   37.3  0.2748 -161.1
 4.800  0.6415   95.1   1.010    4.3  0.4525   36.2  0.2814 -164.3
 4.900  0.6469   93.8   0.992    3.1  0.4608   35.1  0.2889 -167.3
 5.000  0.6526   92.5   0.974    1.9  0.4692   34.1  0.2971 -170.1
 5.100  0.6542   91.2   0.961    1.0  0.4764   32.9  0.3049 -172.7
 5.200  0.6561   90.0   0.948    0.0  0.4837   31.7  0.3133 -175.3
 5.300  0.6583   88.8   0.935   -1.0  0.4913   30.5  0.3222 -177.6
 5.400  0.6608   87.5   0.923   -2.0  0.4990   29.4  0.3317 -179.9
 5.500  0.6636   86.3   0.911   -3.0  0.5070   28.3  0.3417  178.0
 5.600  0.6647   85.2   0.899   -3.8  0.5131   27.1  0.3482  176.1
 5.700  0.6660   84.1   0.888   -4.6  0.5194   26.0  0.3551  174.2
 5.800  0.6675   83.0   0.876   -5.4  0.5259   24.9  0.3624  172.4
 5.900  0.6693   82.0   0.865   -6.2  0.5326   23.8  0.3700  170.7
 6.000  0.6713   80.9   0.854   -7.1  0.5395   22.8  0.3779  169.0
!
!  f       NFmin   Gammaopt  rn/50
! GHz       dB    MAG  ANG    -
 0.450      2.04  0.23 -180   0.16
 0.900      2.33  0.29 -170   0.17
 1.900      3.40  0.52 -133   0.35
 2.400      4.10  0.57 -123   0.66
!
! (c) 2017  Infineon Technologies AG, Munich