! Infineon Technologies  Discrete & RF Semiconductors
! BFR93AW
! VCE =  1.0 V,  IC =  75 mA
! Common Emitter S-Parameters:                            Jan 2017
# GHz  S  MA  R  50
!  f         S11            S21            S12            S22
! GHz     MAG   ANG      MAG   ANG      MAG   ANG      MAG   ANG
 0.010  0.3199 -116.3  35.198  156.0  0.0086   52.8  0.4297  -37.7
 0.020  0.5332 -133.9  29.026  138.2  0.0134   48.5  0.3869  -68.6
 0.030  0.5830 -143.5  24.183  132.9  0.0154   44.8  0.3334  -81.8
 0.040  0.6463 -151.3  19.643  125.2  0.0175   42.0  0.3033  -98.8
 0.050  0.7195 -157.7  15.671  113.1  0.0196   39.8  0.3038 -117.5
 0.060  0.7262 -160.3  14.176  111.6  0.0207   41.1  0.2925 -122.6
 0.070  0.7345 -162.9  12.693  109.7  0.0217   42.3  0.2837 -128.1
 0.080  0.7442 -165.5  11.228  107.4  0.0228   43.4  0.2777 -133.9
 0.090  0.7553 -167.9   9.787  104.3  0.0239   44.4  0.2747 -139.9
 0.100  0.7678 -170.3   8.383  100.2  0.0250   45.3  0.2747 -146.0
 0.110  0.7695 -171.4   7.836   99.4  0.0259   46.8  0.2726 -148.2
 0.120  0.7716 -172.5   7.291   98.5  0.0269   48.3  0.2709 -150.4
 0.130  0.7739 -173.6   6.749   97.4  0.0279   49.6  0.2696 -152.6
 0.140  0.7765 -174.6   6.209   96.2  0.0289   50.8  0.2687 -154.8
 0.150  0.7793 -175.7   5.672   94.7  0.0299   52.0  0.2682 -157.1
 0.200  0.7824 -179.0   4.282   91.0  0.0353   58.4  0.2656 -162.8
 0.250  0.7837  178.4   3.445   88.1  0.0420   60.0  0.2646 -166.7
 0.300  0.7801  176.3   2.886   86.0  0.0476   63.1  0.2645 -169.3
 0.350  0.7811  174.4   2.542   84.3  0.0544   65.0  0.2656 -171.0
 0.400  0.7829  172.5   2.201   82.0  0.0613   66.5  0.2669 -172.7
 0.450  0.7821  170.9   1.994   80.5  0.0679   67.0  0.2682 -173.9
 0.500  0.7819  169.3   1.788   78.6  0.0746   67.5  0.2696 -175.1
 0.600  0.7833  166.3   1.521   75.4  0.0885   68.1  0.2744 -177.0
 0.700  0.7811  163.8   1.330   72.5  0.1017   68.6  0.2775 -178.5
 0.800  0.7825  160.9   1.188   69.3  0.1160   68.3  0.2829 -179.9
 0.900  0.7797  158.3   1.079   66.6  0.1299   67.5  0.2881  178.9
 1.000  0.7824  155.8   0.999   63.8  0.1430   66.9  0.2935  177.4
 1.100  0.7854  153.3   0.932   61.4  0.1569   65.9  0.2999  176.2
 1.200  0.7825  150.8   0.877   58.6  0.1694   64.8  0.3053  174.8
 1.300  0.7842  148.4   0.831   56.3  0.1826   63.8  0.3120  173.7
 1.400  0.7855  146.1   0.796   53.9  0.1965   62.7  0.3194  172.4
 1.500  0.7873  143.7   0.763   51.8  0.2094   61.5  0.3268  171.1
 1.600  0.7895  141.4   0.735   49.4  0.2225   60.1  0.3331  169.9
 1.700  0.7887  139.0   0.714   47.4  0.2347   59.0  0.3408  168.7
 1.800  0.7920  136.6   0.696   45.2  0.2477   57.6  0.3482  167.4
 1.900  0.7914  134.5   0.677   43.6  0.2598   56.3  0.3552  166.3
 2.000  0.7888  132.4   0.660   41.6  0.2721   54.9  0.3626  165.3
 2.100  0.7888  130.1   0.647   39.8  0.2837   53.4  0.3696  164.0
 2.200  0.7900  127.9   0.635   38.0  0.2955   52.1  0.3768  162.8
 2.300  0.7887  125.9   0.625   36.5  0.3065   50.6  0.3829  161.7
 2.400  0.7884  123.9   0.615   35.0  0.3177   49.3  0.3892  160.6
 2.500  0.7872  122.0   0.607   33.7  0.3280   47.9  0.3942  159.5
 2.600  0.7870  120.0   0.599   32.3  0.3385   46.5  0.3993  158.4
 2.700  0.7856  118.1   0.592   31.0  0.3484   45.1  0.4034  157.2
 2.800  0.7850  116.2   0.586   29.7  0.3584   43.8  0.4076  156.1
 2.900  0.7832  114.4   0.581   28.6  0.3677   42.4  0.4112  154.8
 3.000  0.7823  112.5   0.577   27.5  0.3773   41.1  0.4149  153.6
 3.100  0.7792  110.7   0.575   26.4  0.3853   39.7  0.4172  152.2
 3.200  0.7768  108.9   0.572   25.4  0.3936   38.3  0.4197  150.8
 3.300  0.7753  107.1   0.570   24.3  0.4021   37.0  0.4225  149.5
 3.400  0.7745  105.2   0.569   23.2  0.4107   35.8  0.4255  148.1
 3.500  0.7745  103.4   0.567   22.1  0.4196   34.6  0.4287  146.8
 3.600  0.7721  101.8   0.566   21.1  0.4264   33.2  0.4313  145.2
 3.700  0.7703  100.3   0.565   20.1  0.4335   31.9  0.4343  143.7
 3.800  0.7691   98.7   0.565   19.1  0.4408   30.6  0.4376  142.1
 3.900  0.7685   97.1   0.564   18.1  0.4483   29.3  0.4412  140.6
 4.000  0.7685   95.5   0.564   17.1  0.4560   28.1  0.4451  139.1
 4.100  0.7653   94.1   0.563   16.1  0.4613   26.8  0.4488  137.4
 4.200  0.7625   92.7   0.563   15.1  0.4668   25.5  0.4528  135.8
 4.300  0.7602   91.3   0.562   14.2  0.4725   24.3  0.4572  134.2
 4.400  0.7584   89.8   0.562   13.2  0.4784   23.1  0.4619  132.6
 4.500  0.7570   88.4   0.562   12.2  0.4846   21.9  0.4670  131.1
 4.600  0.7567   87.2   0.561   11.5  0.4887   20.8  0.4714  129.8
 4.700  0.7567   86.1   0.560   10.8  0.4930   19.7  0.4760  128.5
 4.800  0.7570   84.9   0.559   10.0  0.4975   18.6  0.4809  127.3
 4.900  0.7576   83.8   0.559    9.3  0.5021   17.5  0.4860  126.1
 5.000  0.7585   82.6   0.558    8.6  0.5069   16.5  0.4913  124.9
 5.100  0.7560   81.5   0.560    7.8  0.5104   15.4  0.4951  124.0
 5.200  0.7538   80.4   0.562    7.0  0.5140   14.3  0.4990  123.1
 5.300  0.7518   79.3   0.564    6.2  0.5179   13.2  0.5031  122.2
 5.400  0.7502   78.2   0.566    5.4  0.5220   12.1  0.5073  121.3
 5.500  0.7488   77.1   0.568    4.6  0.5262   11.0  0.5116  120.4
 5.600  0.7467   76.2   0.568    3.9  0.5287   10.0  0.5122  119.6
 5.700  0.7448   75.3   0.569    3.2  0.5313    9.1  0.5129  118.8
 5.800  0.7431   74.4   0.570    2.5  0.5341    8.2  0.5138  118.0
 5.900  0.7415   73.4   0.570    1.8  0.5370    7.2  0.5147  117.2
 6.000  0.7402   72.5   0.571    1.1  0.5400    6.3  0.5157  116.4
!
!  f       NFmin   Gammaopt  rn/50
! GHz       dB    MAG  ANG    -
!
! noise parameter not available yet for this operation point!
!
! (c) 2017  Infineon Technologies AG, Munich