! Infineon Technologies  Discrete & RF Semiconductors
! BFR93AW
! VCE =  2.0 V,  IC =  10 mA
! Common Emitter S-Parameters:                            Jan 2017
# GHz  S  MA  R  50
!  f         S11            S21            S12            S22
! GHz     MAG   ANG      MAG   ANG      MAG   ANG      MAG   ANG
 0.010  0.7122   -8.4  26.787  175.1  0.0034   84.0  0.9897   -4.0
 0.020  0.7226  -16.6  26.972  170.3  0.0076   89.1  0.9790   -8.1
 0.030  0.6945  -23.9  26.138  165.9  0.0111   80.0  0.9548  -11.6
 0.040  0.6784  -31.7  25.464  161.3  0.0148   75.3  0.9343  -15.2
 0.050  0.6754  -39.7  24.964  156.5  0.0185   72.5  0.9177  -19.0
 0.060  0.6513  -45.7  23.964  153.4  0.0209   69.2  0.8852  -21.4
 0.070  0.6350  -52.1  23.042  150.0  0.0233   66.7  0.8543  -23.9
 0.080  0.6269  -58.8  22.208  146.3  0.0258   64.6  0.8252  -26.6
 0.090  0.6275  -65.6  21.470  142.4  0.0283   62.8  0.7980  -29.5
 0.100  0.6367  -72.2  20.841  138.2  0.0308   61.4  0.7731  -32.6
 0.110  0.6196  -76.6  20.000  136.0  0.0323   59.7  0.7457  -34.0
 0.120  0.6064  -81.2  19.189  133.7  0.0339   58.1  0.7188  -35.6
 0.130  0.5972  -86.0  18.414  131.2  0.0354   56.7  0.6924  -37.2
 0.140  0.5922  -90.9  17.678  128.4  0.0370   55.4  0.6667  -39.0
 0.150  0.5917  -95.8  16.986  125.4  0.0386   54.2  0.6416  -40.9
 0.200  0.5657 -112.9  14.012  116.4  0.0431   51.2  0.5428  -45.3
 0.250  0.5526 -125.8  11.841  109.6  0.0474   49.2  0.4714  -47.8
 0.300  0.5388 -135.5  10.153  104.7  0.0513   48.8  0.4176  -49.1
 0.350  0.5304 -142.2   9.011  101.4  0.0544   49.8  0.3838  -49.5
 0.400  0.5296 -149.1   7.909   97.1  0.0576   50.6  0.3501  -50.0
 0.450  0.5252 -154.0   7.163   94.6  0.0608   51.5  0.3293  -50.1
 0.500  0.5247 -158.9   6.433   91.5  0.0640   52.4  0.3085  -50.2
 0.600  0.5230 -166.5   5.434   86.8  0.0712   54.4  0.2824  -50.4
 0.700  0.5223 -172.4   4.688   82.9  0.0782   56.9  0.2642  -50.6
 0.800  0.5238 -177.5   4.133   79.2  0.0865   58.3  0.2516  -51.6
 0.900  0.5239  177.9   3.684   75.8  0.0938   59.2  0.2421  -52.7
 1.000  0.5273  174.0   3.346   72.7  0.1022   60.5  0.2346  -54.1
 1.100  0.5320  170.3   3.060   69.8  0.1103   61.2  0.2294  -55.9
 1.200  0.5346  166.8   2.820   66.9  0.1186   61.4  0.2244  -57.8
 1.300  0.5361  163.8   2.614   64.2  0.1271   61.9  0.2216  -60.2
 1.400  0.5412  160.8   2.448   61.5  0.1365   62.2  0.2176  -63.1
 1.500  0.5463  158.0   2.296   59.0  0.1450   62.3  0.2158  -65.8
 1.600  0.5507  155.1   2.168   56.4  0.1543   62.1  0.2157  -68.7
 1.700  0.5536  152.6   2.055   54.0  0.1628   62.1  0.2143  -72.1
 1.800  0.5601  149.9   1.960   51.5  0.1726   61.9  0.2143  -75.5
 1.900  0.5642  147.5   1.869   49.4  0.1820   61.6  0.2157  -78.9
 2.000  0.5663  145.2   1.784   46.9  0.1919   61.2  0.2176  -82.5
 2.100  0.5710  142.8   1.712   44.7  0.2013   60.6  0.2198  -86.2
 2.200  0.5767  140.5   1.643   42.4  0.2108   60.1  0.2228  -89.8
 2.300  0.5812  138.4   1.583   40.4  0.2206   59.5  0.2267  -93.3
 2.400  0.5865  136.3   1.526   38.2  0.2305   59.0  0.2315  -96.7
 2.500  0.5897  134.2   1.474   36.3  0.2401   58.3  0.2363 -100.0
 2.600  0.5936  132.2   1.423   34.3  0.2498   57.6  0.2418 -103.2
 2.700  0.5972  130.1   1.380   32.5  0.2599   56.8  0.2471 -106.3
 2.800  0.6016  128.1   1.338   30.6  0.2700   56.1  0.2531 -109.2
 2.900  0.6055  126.1   1.300   28.9  0.2800   55.2  0.2577 -112.2
 3.000  0.6101  124.1   1.264   27.0  0.2901   54.4  0.2629 -115.1
 3.100  0.6123  122.1   1.233   25.5  0.3000   53.4  0.2664 -118.0
 3.200  0.6152  120.2   1.202   24.0  0.3100   52.4  0.2706 -120.9
 3.300  0.6188  118.3   1.173   22.4  0.3201   51.5  0.2754 -123.6
 3.400  0.6231  116.4   1.144   20.7  0.3302   50.7  0.2808 -126.3
 3.500  0.6281  114.5   1.117   18.9  0.3404   49.9  0.2868 -128.8
 3.600  0.6309  112.7   1.094   17.6  0.3501   48.7  0.2892 -131.9
 3.700  0.6343  111.0   1.071   16.2  0.3600   47.6  0.2923 -134.9
 3.800  0.6383  109.3   1.049   14.8  0.3700   46.5  0.2963 -137.9
 3.900  0.6429  107.6   1.028   13.3  0.3802   45.5  0.3010 -140.7
 4.000  0.6480  105.9   1.007   11.8  0.3904   44.5  0.3065 -143.5
 4.100  0.6501  104.3   0.988   10.6  0.3994   43.2  0.3092 -147.0
 4.200  0.6527  102.8   0.970    9.4  0.4087   42.0  0.3129 -150.3
 4.300  0.6557  101.2   0.952    8.1  0.4181   40.8  0.3177 -153.6
 4.400  0.6592   99.7   0.935    6.8  0.4277   39.7  0.3236 -156.8
 4.500  0.6632   98.2   0.918    5.4  0.4374   38.6  0.3304 -159.9
 4.600  0.6663   96.8   0.902    4.5  0.4456   37.4  0.3356 -163.1
 4.700  0.6698   95.4   0.887    3.6  0.4541   36.1  0.3419 -166.3
 4.800  0.6737   94.0   0.872    2.6  0.4627   35.0  0.3492 -169.3
 4.900  0.6780   92.6   0.857    1.6  0.4715   33.9  0.3574 -172.2
 5.000  0.6827   91.2   0.842    0.6  0.4805   32.8  0.3664 -174.9
 5.100  0.6832   89.9   0.832   -0.2  0.4879   31.5  0.3742 -177.4
 5.200  0.6841   88.6   0.822   -0.9  0.4955   30.3  0.3827 -179.9
 5.300  0.6853   87.3   0.812   -1.7  0.5034   29.1  0.3918  177.8
 5.400  0.6868   86.1   0.802   -2.6  0.5114   27.9  0.4016  175.6
 5.500  0.6887   84.8   0.792   -3.4  0.5197   26.8  0.4119  173.5
 5.600  0.6887   83.7   0.783   -4.0  0.5258   25.6  0.4178  171.5
 5.700  0.6889   82.6   0.774   -4.7  0.5321   24.4  0.4241  169.6
 5.800  0.6893   81.5   0.765   -5.3  0.5386   23.2  0.4309  167.7
 5.900  0.6900   80.4   0.756   -6.0  0.5453   22.1  0.4381  165.9
 6.000  0.6910   79.3   0.747   -6.7  0.5523   21.0  0.4458  164.2
!
!  f       NFmin   Gammaopt  rn/50
! GHz       dB    MAG  ANG    -
 0.450      1.25  0.15   94   0.13
 0.900      1.55  0.24  150   0.14
 1.900      2.61  0.47 -148   0.18
 2.400      3.24  0.54 -131   0.36
!
! (c) 2017  Infineon Technologies AG, Munich