! Infineon Technologies  Discrete & RF Semiconductors
! BFR93AW
! VCE =  8.0 V,  IC =  11 mA
! Common Emitter S-Parameters:                            Jan 2017
# GHz  S  MA  R  50
!  f         S11            S21            S12            S22
! GHz     MAG   ANG      MAG   ANG      MAG   ANG      MAG   ANG
 0.010  0.7410   -7.0  27.229  175.3  0.0028   86.9  0.9927   -3.1
 0.020  0.7504  -13.9  27.423  171.2  0.0057   90.6  0.9907   -6.4
 0.030  0.7257  -20.1  26.702  167.3  0.0085   81.8  0.9700   -9.1
 0.040  0.7099  -26.6  26.111  163.2  0.0114   77.4  0.9515  -11.8
 0.050  0.7037  -33.3  25.661  158.9  0.0143   74.8  0.9353  -14.7
 0.060  0.6809  -38.6  24.782  155.9  0.0164   72.0  0.9099  -16.7
 0.070  0.6643  -44.1  23.977  152.6  0.0185   69.7  0.8857  -18.7
 0.080  0.6542  -50.0  23.254  149.2  0.0206   68.0  0.8626  -20.9
 0.090  0.6510  -55.9  22.619  145.5  0.0227   66.6  0.8409  -23.2
 0.100  0.6548  -61.8  22.082  141.7  0.0249   65.4  0.8206  -25.6
 0.110  0.6350  -65.9  21.273  139.5  0.0263   63.5  0.7966  -26.8
 0.120  0.6185  -70.2  20.496  137.2  0.0278   61.8  0.7730  -28.0
 0.130  0.6057  -74.7  19.755  134.7  0.0292   60.3  0.7497  -29.3
 0.140  0.5968  -79.3  19.056  132.0  0.0307   58.9  0.7269  -30.7
 0.150  0.5919  -84.1  18.402  129.1  0.0322   57.7  0.7045  -32.2
 0.200  0.5517 -101.1  15.416  119.9  0.0366   54.8  0.6141  -35.5
 0.250  0.5247 -114.5  13.147  112.9  0.0408   52.5  0.5477  -37.1
 0.300  0.5031 -124.9  11.363  107.8  0.0435   52.6  0.4970  -37.7
 0.350  0.4888 -132.4  10.119  104.3  0.0469   53.0  0.4653  -37.7
 0.400  0.4832 -140.2   8.924   99.8  0.0503   53.4  0.4336  -37.6
 0.450  0.4755 -145.7   8.092   97.2  0.0535   54.5  0.4144  -37.5
 0.500  0.4723 -151.4   7.280   94.1  0.0567   55.5  0.3952  -37.3
 0.600  0.4677 -160.0   6.165   89.4  0.0625   57.5  0.3706  -36.9
 0.700  0.4664 -166.5   5.328   85.4  0.0685   59.5  0.3544  -36.9
 0.800  0.4672 -172.5   4.700   81.6  0.0766   61.4  0.3423  -37.4
 0.900  0.4659 -177.4   4.194   78.3  0.0830   61.9  0.3337  -38.2
 1.000  0.4691  178.2   3.807   75.2  0.0907   63.0  0.3261  -39.2
 1.100  0.4735  174.1   3.481   72.4  0.0980   63.9  0.3210  -40.4
 1.200  0.4747  170.3   3.205   69.5  0.1055   64.4  0.3163  -41.8
 1.300  0.4775  166.8   2.974   66.8  0.1132   65.1  0.3124  -43.5
 1.400  0.4812  163.9   2.782   64.2  0.1217   65.4  0.3082  -45.5
 1.500  0.4873  160.8   2.607   61.7  0.1297   65.5  0.3051  -47.5
 1.600  0.4912  157.9   2.461   59.2  0.1380   65.5  0.3035  -49.7
 1.700  0.4947  155.1   2.330   56.8  0.1467   65.8  0.3005  -52.2
 1.800  0.4998  152.4   2.221   54.4  0.1552   65.4  0.2987  -54.7
 1.900  0.5046  149.9   2.117   52.3  0.1640   65.4  0.2974  -57.2
 2.000  0.5077  147.6   2.020   49.9  0.1726   65.1  0.2973  -60.1
 2.100  0.5128  145.1   1.938   47.8  0.1817   64.7  0.2966  -63.0
 2.200  0.5188  142.6   1.858   45.5  0.1908   64.3  0.2967  -66.0
 2.300  0.5241  140.5   1.790   43.5  0.2002   63.8  0.2978  -69.0
 2.400  0.5302  138.4   1.724   41.3  0.2096   63.4  0.2998  -72.0
 2.500  0.5336  136.2   1.665   39.4  0.2187   62.8  0.3015  -75.0
 2.600  0.5377  134.1   1.608   37.4  0.2278   62.2  0.3041  -77.9
 2.700  0.5427  132.1   1.558   35.6  0.2374   61.5  0.3067  -80.8
 2.800  0.5484  130.1   1.509   33.6  0.2470   60.9  0.3101  -83.6
 2.900  0.5527  128.0   1.466   31.8  0.2569   60.1  0.3123  -86.4
 3.000  0.5578  126.0   1.424   29.9  0.2668   59.4  0.3153  -89.2
 3.100  0.5607  124.0   1.387   28.4  0.2768   58.5  0.3167  -92.0
 3.200  0.5642  122.1   1.352   26.8  0.2868   57.6  0.3188  -94.7
 3.300  0.5683  120.2   1.317   25.2  0.2969   56.8  0.3216  -97.4
 3.400  0.5731  118.3   1.284   23.4  0.3070   56.1  0.3252 -100.1
 3.500  0.5785  116.4   1.252   21.6  0.3172   55.4  0.3294 -102.7
 3.600  0.5825  114.6   1.225   20.2  0.3273   54.3  0.3291 -105.6
 3.700  0.5870  112.9   1.200   18.8  0.3375   53.2  0.3297 -108.5
 3.800  0.5920  111.2   1.175   17.3  0.3478   52.2  0.3311 -111.4
 3.900  0.5976  109.5   1.150   15.7  0.3583   51.2  0.3334 -114.3
 4.000  0.6037  107.8   1.127   14.1  0.3688   50.3  0.3365 -117.1
 4.100  0.6066  106.2   1.105   12.8  0.3785   49.0  0.3358 -120.5
 4.200  0.6100  104.7   1.083   11.5  0.3884   47.8  0.3363 -123.8
 4.300  0.6138  103.1   1.062   10.2  0.3984   46.7  0.3379 -127.2
 4.400  0.6181  101.6   1.042    8.8  0.4086   45.6  0.3406 -130.5
 4.500  0.6228  100.1   1.022    7.3  0.4189   44.6  0.3445 -133.7
 4.600  0.6273   98.6   1.003    6.3  0.4281   43.3  0.3463 -137.2
 4.700  0.6321   97.2   0.985    5.2  0.4375   42.1  0.3494 -140.7
 4.800  0.6374   95.8   0.966    4.1  0.4470   41.0  0.3537 -144.2
 4.900  0.6431   94.4   0.948    3.0  0.4568   39.9  0.3593 -147.5
 5.000  0.6491   93.0   0.931    1.8  0.4667   38.8  0.3661 -150.7
 5.100  0.6505   91.7   0.918    1.0  0.4752   37.5  0.3717 -153.9
 5.200  0.6522   90.3   0.905    0.1  0.4840   36.2  0.3785 -156.9
 5.300  0.6543   89.0   0.892   -0.8  0.4930   35.0  0.3863 -159.9
 5.400  0.6567   87.7   0.879   -1.7  0.5023   33.8  0.3950 -162.7
 5.500  0.6595   86.4   0.867   -2.7  0.5117   32.7  0.4047 -165.4
 5.600  0.6605   85.2   0.855   -3.4  0.5190   31.4  0.4097 -167.9
 5.700  0.6617   84.1   0.844   -4.2  0.5265   30.2  0.4154 -170.4
 5.800  0.6632   82.9   0.832   -4.9  0.5343   29.0  0.4219 -172.8
 5.900  0.6650   81.7   0.821   -5.7  0.5423   27.8  0.4290 -175.1
 6.000  0.6670   80.6   0.810   -6.5  0.5505   26.7  0.4369 -177.3
!
!  f       NFmin   Gammaopt  rn/50
! GHz       dB    MAG  ANG    -
 0.450      1.26  0.12  111   0.13
 0.900      1.57  0.23  157   0.14
 1.900      2.62  0.47 -146   0.18
 2.400      3.24  0.54 -130   0.37
!
! (c) 2017  Infineon Technologies AG, Munich