! Infineon Technologies  Discrete & RF Semiconductors
! BFR93AW
! VCE =  3.0 V,  IC =  50 mA
! Common Emitter S-Parameters:                            Jan 2017
# GHz  S  MA  R  50
!  f         S11            S21            S12            S22
! GHz     MAG   ANG      MAG   ANG      MAG   ANG      MAG   ANG
 0.010  0.3375  -23.0  57.923  170.5  0.0027   74.0  0.9481   -7.5
 0.020  0.3551  -44.2  56.704  161.6  0.0051   82.1  0.9150  -15.3
 0.030  0.3422  -60.4  52.208  155.4  0.0072   73.3  0.8524  -20.3
 0.040  0.3574  -76.5  48.425  148.2  0.0094   68.5  0.7973  -26.1
 0.050  0.3975  -90.3  45.534  139.9  0.0117   65.6  0.7514  -32.6
 0.060  0.3931  -98.3  42.243  137.0  0.0130   63.9  0.7034  -34.6
 0.070  0.3965 -106.3  39.075  133.7  0.0143   62.6  0.6563  -36.8
 0.080  0.4073 -114.0  36.065  129.7  0.0156   61.5  0.6103  -39.4
 0.090  0.4251 -121.2  33.255  125.1  0.0170   60.5  0.5659  -42.4
 0.100  0.4490 -127.7  30.699  119.7  0.0183   59.7  0.5232  -45.9
 0.110  0.4493 -131.3  28.938  118.1  0.0191   59.9  0.4976  -46.5
 0.120  0.4514 -134.8  27.202  116.3  0.0200   60.1  0.4720  -47.2
 0.130  0.4552 -138.3  25.497  114.3  0.0208   60.2  0.4465  -47.9
 0.140  0.4606 -141.8  23.828  112.0  0.0217   60.4  0.4211  -48.8
 0.150  0.4677 -145.1  22.204  109.3  0.0225   60.5  0.3958  -49.7
 0.200  0.4759 -155.2  17.199  102.9  0.0263   63.2  0.3243  -50.1
 0.250  0.4841 -161.9  14.020   98.3  0.0310   65.9  0.2816  -49.4
 0.300  0.4860 -166.7  11.782   95.1  0.0349   67.6  0.2514  -48.3
 0.350  0.4871 -170.2  10.364   92.9  0.0398   68.9  0.2347  -47.4
 0.400  0.4900 -173.6   8.967   89.9  0.0447   70.0  0.2180  -46.4
 0.450  0.4913 -176.3   8.087   88.2  0.0495   70.9  0.2079  -45.9
 0.500  0.4937 -179.0   7.217   86.0  0.0544   71.7  0.1978  -45.3
 0.600  0.4972  176.9   6.057   82.5  0.0642   72.0  0.1861  -45.1
 0.700  0.4996  173.6   5.210   79.5  0.0741   72.7  0.1776  -45.4
 0.800  0.5026  170.1   4.581   76.5  0.0843   72.8  0.1720  -46.5
 0.900  0.5047  166.9   4.076   73.8  0.0935   72.0  0.1671  -48.2
 1.000  0.5106  164.2   3.695   71.2  0.1036   72.1  0.1625  -50.0
 1.100  0.5135  161.6   3.374   68.7  0.1137   71.5  0.1606  -52.2
 1.200  0.5162  158.9   3.106   66.1  0.1235   70.8  0.1577  -54.4
 1.300  0.5189  156.2   2.880   63.8  0.1334   70.2  0.1557  -57.5
 1.400  0.5233  154.0   2.695   61.4  0.1434   69.8  0.1531  -60.8
 1.500  0.5292  151.9   2.524   59.1  0.1535   68.9  0.1519  -64.3
 1.600  0.5325  149.6   2.383   56.8  0.1633   68.1  0.1527  -67.7
 1.700  0.5354  147.3   2.257   54.6  0.1734   67.4  0.1523  -72.0
 1.800  0.5410  145.1   2.150   52.3  0.1834   66.3  0.1526  -75.9
 1.900  0.5465  143.0   2.049   50.4  0.1932   65.6  0.1538  -80.0
 2.000  0.5487  141.0   1.957   48.1  0.2033   64.6  0.1566  -84.3
 2.100  0.5532  138.9   1.879   46.1  0.2130   63.6  0.1590  -88.6
 2.200  0.5585  136.8   1.803   43.9  0.2228   62.7  0.1623  -92.8
 2.300  0.5626  134.9   1.737   42.0  0.2326   61.7  0.1664  -96.8
 2.400  0.5673  133.1   1.673   39.9  0.2424   60.8  0.1713 -100.5
 2.500  0.5710  131.2   1.617   38.2  0.2521   59.8  0.1763 -104.2
 2.600  0.5753  129.4   1.562   36.3  0.2618   58.9  0.1820 -107.6
 2.700  0.5791  127.5   1.514   34.6  0.2714   57.8  0.1873 -110.8
 2.800  0.5836  125.7   1.468   32.7  0.2810   56.8  0.1931 -113.9
 2.900  0.5867  123.8   1.427   31.0  0.2906   55.8  0.1980 -116.9
 3.000  0.5905  122.0   1.387   29.2  0.3002   54.8  0.2035 -119.7
 3.100  0.5930  120.2   1.353   27.7  0.3093   53.7  0.2071 -122.6
 3.200  0.5960  118.4   1.320   26.2  0.3186   52.6  0.2112 -125.4
 3.300  0.5996  116.6   1.288   24.6  0.3280   51.6  0.2158 -128.1
 3.400  0.6038  114.8   1.258   22.9  0.3374   50.6  0.2209 -130.7
 3.500  0.6086  113.1   1.228   21.1  0.3470   49.7  0.2264 -133.2
 3.600  0.6119  111.5   1.203   19.8  0.3559   48.4  0.2288 -136.3
 3.700  0.6157  109.9   1.179   18.4  0.3650   47.2  0.2319 -139.3
 3.800  0.6199  108.4   1.155   17.0  0.3743   46.1  0.2355 -142.2
 3.900  0.6246  106.8   1.132   15.5  0.3837   45.0  0.2398 -145.0
 4.000  0.6297  105.3   1.110   13.9  0.3932   44.0  0.2446 -147.7
 4.100  0.6320  103.8   1.090   12.6  0.4013   42.7  0.2477 -151.1
 4.200  0.6348  102.3   1.070   11.3  0.4096   41.5  0.2516 -154.4
 4.300  0.6379  100.9   1.051   10.0  0.4181   40.4  0.2564 -157.7
 4.400  0.6415   99.4   1.032    8.6  0.4268   39.3  0.2619 -160.7
 4.500  0.6455   98.0   1.014    7.1  0.4356   38.2  0.2682 -163.7
 4.600  0.6494   96.6   0.997    6.1  0.4431   37.0  0.2740 -166.9
 4.700  0.6537   95.3   0.979    5.1  0.4508   35.8  0.2807 -170.0
 4.800  0.6583   94.0   0.963    4.0  0.4587   34.7  0.2881 -172.9
 4.900  0.6632   92.7   0.946    2.9  0.4668   33.6  0.2963 -175.7
 5.000  0.6685   91.4   0.930    1.8  0.4750   32.6  0.3051 -178.3
 5.100  0.6695   90.1   0.918    0.9  0.4818   31.4  0.3133  179.4
 5.200  0.6709   88.9   0.907   -0.0  0.4888   30.2  0.3220  177.1
 5.300  0.6726   87.7   0.896   -0.9  0.4961   29.0  0.3312  175.1
 5.400  0.6746   86.4   0.885   -1.9  0.5035   27.9  0.3408  173.1
 5.500  0.6769   85.2   0.874   -2.9  0.5111   26.8  0.3508  171.2
 5.600  0.6773   84.1   0.863   -3.7  0.5169   25.6  0.3570  169.4
 5.700  0.6780   83.0   0.852   -4.4  0.5228   24.5  0.3636  167.7
 5.800  0.6789   82.0   0.841   -5.2  0.5290   23.4  0.3705  166.0
 5.900  0.6801   80.9   0.830   -6.1  0.5354   22.3  0.3776  164.4
 6.000  0.6815   79.8   0.820   -6.9  0.5419   21.3  0.3851  162.9
!
!  f       NFmin   Gammaopt  rn/50
! GHz       dB    MAG  ANG    -
 0.450      2.30  0.26 -178   0.17
 0.900      2.59  0.31 -167   0.18
 1.900      3.72  0.53 -132   0.42
 2.400      4.45  0.58 -122   0.79
!
! (c) 2017  Infineon Technologies AG, Munich