! Infineon Technologies  Discrete & RF Semiconductors
! BFR93AW
! VCE =  7.0 V,  IC =  2.0 mA
! Common Emitter S-Parameters:                            Jan 2017
# GHz  S  MA  R  50
!  f         S11            S21            S12            S22
! GHz     MAG   ANG      MAG   ANG      MAG   ANG      MAG   ANG
 0.010  0.9363   -3.2   6.817  178.1  0.0029   83.9  1.0000   -1.0
 0.020  0.9486   -6.1   6.896  176.4  0.0065   90.2  0.9987   -2.2
 0.030  0.9349   -9.0   6.849  174.4  0.0100   85.4  0.9956   -3.2
 0.040  0.9236  -12.0   6.810  172.3  0.0135   83.1  0.9929   -4.2
 0.050  0.9149  -15.0   6.781  170.2  0.0171   81.7  0.9904   -5.2
 0.060  0.9097  -17.9   6.723  168.3  0.0203   79.1  0.9853   -6.2
 0.070  0.9069  -20.9   6.673  166.4  0.0236   77.2  0.9805   -7.1
 0.080  0.9066  -23.9   6.630  164.5  0.0268   75.7  0.9759   -8.1
 0.090  0.9087  -26.9   6.595  162.6  0.0301   74.6  0.9717   -9.1
 0.100  0.9132  -29.8   6.567  160.6  0.0334   73.7  0.9677  -10.1
 0.110  0.9025  -32.5   6.491  158.8  0.0361   71.8  0.9606  -10.9
 0.120  0.8939  -35.2   6.422  157.0  0.0388   70.2  0.9536  -11.8
 0.130  0.8874  -38.0   6.359  155.1  0.0415   68.7  0.9469  -12.6
 0.140  0.8829  -40.9   6.304  153.2  0.0443   67.5  0.9404  -13.5
 0.150  0.8807  -43.7   6.255  151.3  0.0471   66.4  0.9341  -14.4
 0.200  0.8491  -56.7   5.884  142.8  0.0578   60.5  0.8961  -17.9
 0.250  0.8184  -68.7   5.518  135.0  0.0683   54.9  0.8578  -20.8
 0.300  0.7828  -79.3   5.115  128.5  0.0747   50.0  0.8192  -23.1
 0.350  0.7494  -88.0   4.749  123.4  0.0796   46.2  0.7878  -24.7
 0.400  0.7346  -97.3   4.427  117.4  0.0849   42.9  0.7570  -26.5
 0.450  0.7085 -104.6   4.119  113.3  0.0878   40.4  0.7329  -27.7
 0.500  0.6946 -112.3   3.835  108.5  0.0909   38.1  0.7091  -28.9
 0.600  0.6686 -124.8   3.369  101.0  0.0939   35.0  0.6741  -30.6
 0.700  0.6476 -135.1   2.983   94.7  0.0947   33.5  0.6484  -32.2
 0.800  0.6351 -144.1   2.681   89.0  0.0953   33.1  0.6295  -33.7
 0.900  0.6226 -152.0   2.422   84.0  0.0953   33.0  0.6149  -35.4
 1.000  0.6215 -158.9   2.220   79.5  0.0953   33.7  0.6033  -37.1
 1.100  0.6200 -165.1   2.045   75.4  0.0950   35.2  0.5951  -38.9
 1.200  0.6166 -170.7   1.893   71.3  0.0945   36.9  0.5878  -40.8
 1.300  0.6170 -175.9   1.763   67.7  0.0946   39.7  0.5816  -42.9
 1.400  0.6187  179.5   1.655   64.2  0.0963   42.7  0.5765  -45.2
 1.500  0.6227  175.2   1.559   61.1  0.0977   45.7  0.5728  -47.5
 1.600  0.6238  170.9   1.469   57.9  0.1004   49.3  0.5713  -49.8
 1.700  0.6282  167.1   1.397   55.0  0.1039   52.8  0.5671  -52.4
 1.800  0.6316  163.2   1.336   52.1  0.1087   55.7  0.5650  -55.0
 1.900  0.6352  159.7   1.274   49.5  0.1144   58.9  0.5636  -57.6
 2.000  0.6390  156.4   1.217   46.7  0.1217   61.4  0.5633  -60.4
 2.100  0.6422  153.0   1.167   44.4  0.1299   63.7  0.5631  -63.3
 2.200  0.6476  149.7   1.120   41.8  0.1383   65.7  0.5642  -66.1
 2.300  0.6519  146.8   1.078   39.6  0.1485   67.1  0.5651  -69.1
 2.400  0.6578  143.9   1.037   37.3  0.1588   68.4  0.5675  -72.1
 2.500  0.6604  141.1   0.999   35.4  0.1702   69.1  0.5688  -75.1
 2.600  0.6646  138.4   0.963   33.3  0.1817   69.8  0.5716  -78.1
 2.700  0.6675  135.7   0.932   31.6  0.1941   70.0  0.5738  -81.0
 2.800  0.6719  133.1   0.902   29.8  0.2066   70.1  0.5775  -83.9
 2.900  0.6750  130.5   0.875   28.2  0.2201   69.8  0.5791  -86.8
 3.000  0.6795  127.9   0.849   26.5  0.2337   69.5  0.5821  -89.7
 3.100  0.6796  125.5   0.827   25.4  0.2480   68.5  0.5806  -92.7
 3.200  0.6809  123.0   0.806   24.3  0.2623   67.6  0.5807  -95.7
 3.300  0.6835  120.6   0.784   23.1  0.2767   66.8  0.5823  -98.7
 3.400  0.6873  118.2   0.763   21.8  0.2911   66.1  0.5856 -101.7
 3.500  0.6923  115.8   0.743   20.5  0.3056   65.4  0.5904 -104.6
 3.600  0.6924  113.6   0.729   19.8  0.3198   63.8  0.5866 -107.7
 3.700  0.6936  111.4   0.716   19.0  0.3342   62.4  0.5845 -110.8
 3.800  0.6957  109.3   0.702   18.2  0.3489   61.0  0.5841 -113.9
 3.900  0.6988  107.1   0.689   17.4  0.3637   59.8  0.5854 -117.0
 4.000  0.7029  105.0   0.676   16.6  0.3786   58.7  0.5885 -120.1
 4.100  0.7014  103.2   0.668   16.0  0.3916   56.9  0.5833 -123.4
 4.200  0.7005  101.4   0.659   15.4  0.4050   55.2  0.5802 -126.8
 4.300  0.7004   99.5   0.651   14.7  0.4187   53.6  0.5790 -130.2
 4.400  0.7010   97.7   0.643   14.1  0.4327   52.2  0.5799 -133.6
 4.500  0.7023   95.9   0.635   13.4  0.4470   50.8  0.5829 -137.0
 4.600  0.7027   94.3   0.630   13.0  0.4582   49.1  0.5796 -140.4
 4.700  0.7036   92.8   0.625   12.7  0.4697   47.4  0.5783 -143.8
 4.800  0.7051   91.2   0.619   12.3  0.4816   45.8  0.5791 -147.2
 4.900  0.7070   89.6   0.614   11.9  0.4939   44.3  0.5819 -150.6
 5.000  0.7095   88.1   0.609   11.5  0.5065   42.9  0.5867 -153.9
 5.100  0.7072   86.7   0.609   11.1  0.5157   41.2  0.5870 -157.0
 5.200  0.7053   85.3   0.609   10.7  0.5254   39.5  0.5889 -160.0
 5.300  0.7038   83.9   0.609   10.3  0.5355   37.9  0.5925 -163.0
 5.400  0.7027   82.5   0.609    9.9  0.5460   36.4  0.5977 -166.0
 5.500  0.7021   81.1   0.609    9.5  0.5569   34.9  0.6045 -168.9
 5.600  0.7000   80.0   0.609    9.1  0.5640   33.3  0.6042 -171.4
 5.700  0.6981   78.8   0.609    8.6  0.5716   31.7  0.6050 -174.0
 5.800  0.6966   77.6   0.609    8.2  0.5795   30.2  0.6070 -176.5
 5.900  0.6953   76.5   0.610    7.7  0.5879   28.7  0.6102 -179.0
 6.000  0.6943   75.3   0.610    7.3  0.5966   27.3  0.6146  178.5
!
!  f       NFmin   Gammaopt  rn/50
! GHz       dB    MAG  ANG    -
 0.450      1.49  0.44   71   0.20
 0.900      1.76  0.41  128   0.21
 1.900      3.23  0.56 -159   0.25
 2.400      4.18  0.62 -139   0.45
!
! (c) 2017  Infineon Technologies AG, Munich