! Infineon Technologies  Discrete & RF Semiconductors
! BFR93AW
! VCE =  1.0 V,  IC =  25 mA
! Common Emitter S-Parameters:                            Jan 2017
# GHz  S  MA  R  50
!  f         S11            S21            S12            S22
! GHz     MAG   ANG      MAG   ANG      MAG   ANG      MAG   ANG
 0.010  0.4640  -18.8  45.359  171.3  0.0039   83.1  0.9537   -8.3
 0.020  0.4766  -36.6  44.690  163.0  0.0079   77.2  0.9240  -16.6
 0.030  0.4504  -50.8  41.504  157.0  0.0110   70.4  0.8623  -22.5
 0.040  0.4539  -65.6  38.850  150.0  0.0142   66.7  0.8110  -29.1
 0.050  0.4865  -79.4  36.843  142.2  0.0175   64.3  0.7721  -36.6
 0.060  0.4740  -87.4  34.311  139.2  0.0190   61.8  0.7205  -39.4
 0.070  0.4713  -95.7  31.889  135.7  0.0206   59.6  0.6709  -42.7
 0.080  0.4784 -104.0  29.603  131.7  0.0222   57.8  0.6239  -46.5
 0.090  0.4950 -111.8  27.487  127.0  0.0238   56.2  0.5800  -50.9
 0.100  0.5202 -119.0  25.584  121.6  0.0254   54.8  0.5400  -55.9
 0.110  0.5174 -123.0  24.156  119.9  0.0265   54.5  0.5110  -57.4
 0.120  0.5171 -127.0  22.751  118.0  0.0276   54.2  0.4823  -59.1
 0.130  0.5193 -130.9  21.374  115.9  0.0286   54.0  0.4542  -61.1
 0.140  0.5239 -134.9  20.030  113.5  0.0297   53.7  0.4266  -63.2
 0.150  0.5310 -138.7  18.728  110.7  0.0308   53.5  0.3997  -65.7
 0.200  0.5397 -150.3  14.582  103.8  0.0346   55.7  0.3162  -71.1
 0.250  0.5435 -157.9  11.919   98.9  0.0398   57.2  0.2624  -74.7
 0.300  0.5439 -163.5  10.021   95.4  0.0444   58.7  0.2249  -77.4
 0.350  0.5442 -167.4   8.823   93.0  0.0492   60.8  0.2018  -79.2
 0.400  0.5471 -171.3   7.645   89.8  0.0540   62.5  0.1789  -81.4
 0.450  0.5474 -174.2   6.894   87.9  0.0590   63.3  0.1653  -82.9
 0.500  0.5492 -177.1   6.153   85.5  0.0640   64.0  0.1519  -84.6
 0.600  0.5533  178.2   5.168   81.8  0.0748   65.6  0.1344  -88.1
 0.700  0.5560  174.5   4.445   78.6  0.0843   66.4  0.1235  -90.9
 0.800  0.5586  170.9   3.909   75.3  0.0958   66.7  0.1167  -94.2
 0.900  0.5588  167.6   3.482   72.4  0.1062   66.8  0.1122  -97.7
 1.000  0.5648  164.5   3.158   69.6  0.1170   66.6  0.1088 -101.5
 1.100  0.5674  161.6   2.887   67.0  0.1275   66.4  0.1081 -104.9
 1.200  0.5701  158.9   2.659   64.3  0.1381   65.9  0.1074 -108.6
 1.300  0.5732  156.3   2.470   61.8  0.1486   65.4  0.1094 -112.5
 1.400  0.5778  154.0   2.314   59.3  0.1599   64.7  0.1120 -116.9
 1.500  0.5818  151.7   2.170   56.9  0.1707   63.9  0.1152 -120.6
 1.600  0.5854  149.2   2.051   54.5  0.1814   63.1  0.1195 -123.7
 1.700  0.5877  147.0   1.944   52.2  0.1920   62.5  0.1246 -127.5
 1.800  0.5935  144.6   1.854   49.8  0.2029   61.5  0.1298 -130.7
 1.900  0.5980  142.5   1.769   47.8  0.2132   60.6  0.1364 -133.8
 2.000  0.5984  140.4   1.691   45.5  0.2238   59.7  0.1440 -136.6
 2.100  0.6034  138.2   1.624   43.4  0.2341   58.7  0.1514 -139.5
 2.200  0.6092  136.0   1.560   41.2  0.2444   57.7  0.1592 -142.2
 2.300  0.6121  134.1   1.505   39.3  0.2545   56.6  0.1670 -144.5
 2.400  0.6157  132.2   1.452   37.2  0.2647   55.6  0.1750 -146.6
 2.500  0.6187  130.3   1.404   35.4  0.2747   54.6  0.1826 -148.5
 2.600  0.6223  128.4   1.358   33.4  0.2847   53.6  0.1904 -150.3
 2.700  0.6249  126.5   1.318   31.7  0.2944   52.5  0.1977 -152.1
 2.800  0.6281  124.6   1.280   29.9  0.3042   51.5  0.2052 -153.8
 2.900  0.6311  122.7   1.245   28.2  0.3138   50.4  0.2120 -155.7
 3.000  0.6347  120.8   1.212   26.4  0.3235   49.3  0.2191 -157.5
 3.100  0.6360  119.0   1.184   25.0  0.3326   48.1  0.2244 -159.6
 3.200  0.6380  117.2   1.157   23.5  0.3417   47.0  0.2299 -161.5
 3.300  0.6405  115.4   1.130   22.0  0.3511   46.0  0.2358 -163.4
 3.400  0.6438  113.6   1.105   20.4  0.3605   44.9  0.2418 -165.2
 3.500  0.6476  111.8   1.080   18.7  0.3700   44.0  0.2481 -166.9
 3.600  0.6497  110.2   1.059   17.4  0.3785   42.7  0.2529 -169.3
 3.700  0.6524  108.6   1.039   16.1  0.3873   41.5  0.2582 -171.7
 3.800  0.6556  107.0   1.020   14.7  0.3962   40.4  0.2638 -173.9
 3.900  0.6592  105.4   1.001   13.2  0.4052   39.3  0.2699 -176.1
 4.000  0.6634  103.8   0.983   11.7  0.4144   38.2  0.2763 -178.1
 4.100  0.6647  102.3   0.966   10.5  0.4219   36.9  0.2820  179.3
 4.200  0.6664  100.8   0.950    9.3  0.4296   35.7  0.2882  176.8
 4.300  0.6686   99.3   0.934    8.0  0.4374   34.5  0.2949  174.4
 4.400  0.6713   97.8   0.918    6.7  0.4455   33.4  0.3022  172.1
 4.500  0.6744   96.3   0.903    5.3  0.4537   32.3  0.3099  169.9
 4.600  0.6773   95.0   0.889    4.4  0.4603   31.1  0.3174  167.6
 4.700  0.6805   93.7   0.875    3.5  0.4671   30.0  0.3254  165.5
 4.800  0.6841   92.4   0.861    2.6  0.4741   28.9  0.3338  163.4
 4.900  0.6880   91.2   0.847    1.6  0.4812   27.8  0.3427  161.5
 5.000  0.6923   89.9   0.834    0.6  0.4885   26.8  0.3519  159.6
 5.100  0.6927   88.7   0.825   -0.2  0.4944   25.6  0.3603  158.0
 5.200  0.6934   87.5   0.816   -1.1  0.5006   24.4  0.3690  156.4
 5.300  0.6944   86.3   0.808   -2.0  0.5069   23.3  0.3780  154.9
 5.400  0.6958   85.1   0.799   -2.9  0.5135   22.2  0.3872  153.5
 5.500  0.6974   83.9   0.791   -3.8  0.5202   21.1  0.3966  152.2
 5.600  0.6976   82.8   0.783   -4.5  0.5250   20.0  0.4021  150.9
 5.700  0.6980   81.8   0.774   -5.2  0.5300   18.9  0.4079  149.7
 5.800  0.6987   80.7   0.766   -5.9  0.5352   17.9  0.4138  148.4
 5.900  0.6996   79.7   0.758   -6.6  0.5406   16.8  0.4199  147.3
 6.000  0.7007   78.6   0.750   -7.4  0.5461   15.8  0.4262  146.1
!
!  f       NFmin   Gammaopt  rn/50
! GHz       dB    MAG  ANG    -
 0.450      1.66  0.17  171   0.16
 0.900      1.93  0.25 -177   0.16
 1.900      2.93  0.49 -136   0.25
 2.400      3.59  0.55 -125   0.50
!
! (c) 2017  Infineon Technologies AG, Munich