! Infineon Technologies  Discrete & RF Semiconductors
! BFR93AW
! VCE =  7.0 V,  IC =  15 mA
! Common Emitter S-Parameters:                            Jan 2017
# GHz  S  MA  R  50
!  f         S11            S21            S12            S22
! GHz     MAG   ANG      MAG   ANG      MAG   ANG      MAG   ANG
 0.010  0.6795   -8.3  33.103  174.5  0.0025   87.6  0.9895   -3.7
 0.020  0.6873  -16.6  33.267  169.7  0.0054   86.0  0.9796   -7.6
 0.030  0.6596  -23.8  32.149  165.3  0.0081   78.9  0.9543  -10.8
 0.040  0.6431  -31.5  31.232  160.6  0.0108   75.3  0.9321  -14.2
 0.050  0.6388  -39.5  30.536  155.7  0.0136   73.2  0.9133  -17.7
 0.060  0.6139  -45.3  29.242  152.6  0.0156   69.8  0.8819  -19.7
 0.070  0.5959  -51.6  28.043  149.2  0.0176   67.2  0.8517  -21.9
 0.080  0.5854  -58.2  26.950  145.5  0.0196   65.1  0.8228  -24.3
 0.090  0.5828  -64.9  25.977  141.6  0.0217   63.4  0.7954  -26.8
 0.100  0.5883  -71.6  25.138  137.3  0.0238   62.0  0.7697  -29.5
 0.110  0.5708  -75.9  24.089  135.2  0.0249   61.0  0.7436  -30.6
 0.120  0.5568  -80.4  23.077  132.9  0.0260   60.1  0.7177  -31.8
 0.130  0.5463  -85.2  22.105  130.3  0.0271   59.3  0.6922  -33.1
 0.140  0.5398  -90.0  21.181  127.6  0.0283   58.6  0.6670  -34.4
 0.150  0.5372  -95.0  20.309  124.6  0.0294   57.9  0.6423  -35.9
 0.200  0.5051 -111.9  16.649  115.9  0.0333   56.2  0.5513  -38.7
 0.250  0.4880 -124.6  14.030  109.3  0.0371   54.4  0.4869  -39.7
 0.300  0.4739 -134.4  12.010  104.6  0.0407   55.0  0.4397  -39.8
 0.350  0.4649 -141.2  10.650  101.5  0.0440   56.7  0.4109  -39.4
 0.400  0.4625 -148.1   9.332   97.4  0.0473   58.2  0.3821  -39.0
 0.450  0.4582 -153.0   8.449   95.0  0.0509   59.0  0.3654  -38.7
 0.500  0.4574 -158.0   7.583   92.1  0.0546   59.6  0.3487  -38.4
 0.600  0.4552 -165.5   6.399   87.7  0.0622   61.6  0.3267  -37.9
 0.700  0.4551 -171.5   5.521   84.1  0.0692   63.6  0.3123  -37.7
 0.800  0.4570 -176.7   4.868   80.5  0.0776   64.8  0.3019  -38.3
 0.900  0.4569  178.7   4.337   77.4  0.0851   65.4  0.2945  -39.0
 1.000  0.4625  174.7   3.937   74.5  0.0930   66.0  0.2873  -40.0
 1.100  0.4637  171.0   3.598   71.8  0.1016   66.6  0.2834  -41.3
 1.200  0.4671  167.4   3.312   69.0  0.1096   66.7  0.2785  -42.6
 1.300  0.4701  164.3   3.070   66.4  0.1177   66.6  0.2751  -44.5
 1.400  0.4750  161.5   2.872   63.9  0.1269   66.9  0.2706  -46.5
 1.500  0.4800  158.8   2.691   61.5  0.1353   66.6  0.2675  -48.6
 1.600  0.4840  155.9   2.540   59.1  0.1441   66.5  0.2665  -50.9
 1.700  0.4878  153.3   2.404   56.8  0.1530   66.3  0.2639  -53.6
 1.800  0.4931  150.8   2.291   54.4  0.1617   65.8  0.2616  -56.2
 1.900  0.4978  148.4   2.183   52.4  0.1709   65.5  0.2611  -59.0
 2.000  0.5005  146.0   2.084   50.0  0.1797   65.0  0.2608  -62.0
 2.100  0.5055  143.7   1.999   47.9  0.1888   64.4  0.2603  -65.0
 2.200  0.5113  141.4   1.916   45.7  0.1980   63.9  0.2606  -68.1
 2.300  0.5161  139.3   1.846   43.7  0.2075   63.2  0.2617  -71.3
 2.400  0.5216  137.3   1.779   41.5  0.2171   62.6  0.2637  -74.5
 2.500  0.5262  135.3   1.717   39.7  0.2262   61.9  0.2659  -77.6
 2.600  0.5315  133.3   1.657   37.7  0.2354   61.3  0.2689  -80.7
 2.700  0.5356  131.3   1.606   35.9  0.2449   60.5  0.2718  -83.6
 2.800  0.5404  129.3   1.557   33.9  0.2545   59.8  0.2753  -86.5
 2.900  0.5450  127.3   1.513   32.2  0.2640   59.0  0.2778  -89.4
 3.000  0.5502  125.4   1.470   30.3  0.2736   58.2  0.2809  -92.2
 3.100  0.5532  123.5   1.433   28.8  0.2832   57.2  0.2825  -95.0
 3.200  0.5569  121.6   1.397   27.2  0.2930   56.3  0.2847  -97.8
 3.300  0.5611  119.7   1.362   25.5  0.3027   55.5  0.2877 -100.5
 3.400  0.5659  117.9   1.328   23.8  0.3126   54.7  0.2912 -103.2
 3.500  0.5713  116.1   1.296   21.9  0.3225   53.9  0.2954 -105.8
 3.600  0.5753  114.4   1.268   20.5  0.3322   52.8  0.2955 -108.7
 3.700  0.5798  112.7   1.241   19.1  0.3420   51.7  0.2963 -111.7
 3.800  0.5849  111.0   1.215   17.6  0.3519   50.7  0.2980 -114.6
 3.900  0.5904  109.3   1.189   16.0  0.3620   49.7  0.3004 -117.5
 4.000  0.5964  107.7   1.165   14.4  0.3721   48.8  0.3035 -120.3
 4.100  0.5995  106.1   1.143   13.1  0.3814   47.6  0.3033 -123.7
 4.200  0.6031  104.6   1.121   11.8  0.3908   46.4  0.3042 -127.1
 4.300  0.6071  103.1   1.100   10.4  0.4005   45.3  0.3062 -130.5
 4.400  0.6115  101.6   1.080    8.9  0.4102   44.2  0.3092 -133.8
 4.500  0.6163  100.1   1.060    7.4  0.4201   43.2  0.3132 -137.1
 4.600  0.6211   98.7   1.040    6.4  0.4289   42.0  0.3157 -140.7
 4.700  0.6264   97.3   1.021    5.3  0.4378   40.8  0.3194 -144.2
 4.800  0.6319   95.9   1.002    4.2  0.4470   39.7  0.3243 -147.6
 4.900  0.6378   94.6   0.984    3.0  0.4563   38.6  0.3303 -150.9
 5.000  0.6441   93.3   0.966    1.8  0.4657   37.6  0.3374 -154.1
 5.100  0.6457   92.0   0.952    0.9  0.4738   36.3  0.3437 -157.2
 5.200  0.6476   90.7   0.939   -0.0  0.4821   35.1  0.3510 -160.2
 5.300  0.6499   89.4   0.926   -1.0  0.4906   33.9  0.3592 -163.0
 5.400  0.6525   88.1   0.913   -2.0  0.4994   32.8  0.3682 -165.7
 5.500  0.6554   86.8   0.900   -3.0  0.5083   31.7  0.3780 -168.3
 5.600  0.6566   85.7   0.888   -3.7  0.5153   30.5  0.3835 -170.7
 5.700  0.6580   84.5   0.876   -4.5  0.5225   29.2  0.3897 -173.1
 5.800  0.6596   83.4   0.864   -5.3  0.5300   28.1  0.3965 -175.4
 5.900  0.6615   82.3   0.852   -6.1  0.5376   26.9  0.4039 -177.6
 6.000  0.6637   81.2   0.840   -6.9  0.5455   25.8  0.4119 -179.7
!
!  f       NFmin   Gammaopt  rn/50
! GHz       dB    MAG  ANG    -
 0.450      1.37  0.12  133   0.13
 0.900      1.66  0.23  164   0.14
 1.900      2.67  0.47 -144   0.20
 2.400      3.30  0.54 -129   0.40
!
! (c) 2017  Infineon Technologies AG, Munich