! Infineon Technologies  Discrete & RF Semiconductors
! BFR93AW
! VCE =  5.0 V,  IC =  38 mA
! Common Emitter S-Parameters:                            Jan 2017
# GHz  S  MA  R  50
!  f         S11            S21            S12            S22
! GHz     MAG   ANG      MAG   ANG      MAG   ANG      MAG   ANG
 0.010  0.4776  -14.6  51.099  172.0  0.0026   81.3  0.9696   -5.8
 0.020  0.4840  -28.8  50.575  164.8  0.0051   84.3  0.9452  -11.9
 0.030  0.4558  -40.3  47.513  159.2  0.0074   76.8  0.8987  -16.3
 0.040  0.4480  -52.8  44.973  152.8  0.0099   72.9  0.8579  -21.1
 0.050  0.4615  -65.1  43.045  145.8  0.0123   70.5  0.8239  -26.4
 0.060  0.4429  -72.6  40.343  142.7  0.0137   68.1  0.7797  -28.4
 0.070  0.4326  -80.7  37.773  139.2  0.0151   66.1  0.7365  -30.7
 0.080  0.4311  -88.9  35.365  135.2  0.0165   64.4  0.6946  -33.2
 0.090  0.4384  -97.1  33.153  130.7  0.0179   63.0  0.6543  -36.1
 0.100  0.4543 -104.8  31.180  125.5  0.0193   61.8  0.6158  -39.3
 0.110  0.4473 -109.1  29.526  123.7  0.0202   61.4  0.5888  -40.1
 0.120  0.4429 -113.5  27.904  121.7  0.0211   60.9  0.5619  -40.9
 0.130  0.4412 -118.0  26.320  119.5  0.0219   60.6  0.5351  -41.8
 0.140  0.4421 -122.5  24.781  117.0  0.0228   60.2  0.5085  -42.8
 0.150  0.4458 -126.9  23.297  114.1  0.0237   59.9  0.4820  -43.9
 0.200  0.4453 -140.4  18.310  106.9  0.0273   62.7  0.4021  -44.8
 0.250  0.4458 -149.7  15.047  101.7  0.0315   61.8  0.3515  -44.3
 0.300  0.4446 -156.4  12.690   98.0  0.0354   64.7  0.3157  -43.4
 0.350  0.4438 -161.1  11.191   95.5  0.0399   66.0  0.2957  -42.5
 0.400  0.4460 -165.7   9.720   92.3  0.0445   67.1  0.2757  -41.4
 0.450  0.4457 -169.1   8.772   90.4  0.0488   68.0  0.2642  -40.8
 0.500  0.4469 -172.4   7.836   88.0  0.0531   68.7  0.2527  -40.2
 0.600  0.4503 -177.6   6.586   84.4  0.0624   69.6  0.2375  -39.5
 0.700  0.4556  178.1   5.667   81.2  0.0714   70.6  0.2274  -39.5
 0.800  0.4572  174.2   4.987   78.1  0.0814   71.1  0.2206  -40.1
 0.900  0.4598  170.8   4.439   75.3  0.0904   71.2  0.2149  -41.2
 1.000  0.4630  167.6   4.023   72.7  0.0992   71.0  0.2097  -42.5
 1.100  0.4680  164.5   3.676   70.2  0.1088   70.8  0.2066  -44.0
 1.200  0.4716  161.8   3.382   67.6  0.1181   70.2  0.2032  -45.8
 1.300  0.4752  159.0   3.136   65.2  0.1273   69.7  0.2002  -48.0
 1.400  0.4793  156.6   2.932   62.9  0.1374   69.2  0.1969  -50.5
 1.500  0.4859  154.3   2.747   60.6  0.1468   68.7  0.1944  -53.2
 1.600  0.4889  151.8   2.592   58.2  0.1559   68.1  0.1938  -55.8
 1.700  0.4921  149.5   2.454   56.1  0.1657   67.4  0.1919  -59.2
 1.800  0.4978  147.1   2.337   53.8  0.1753   66.6  0.1905  -62.4
 1.900  0.5023  145.2   2.227   51.9  0.1846   65.8  0.1901  -65.7
 2.000  0.5068  143.0   2.125   49.6  0.1942   65.0  0.1906  -69.5
 2.100  0.5114  140.8   2.038   47.6  0.2036   64.2  0.1914  -73.2
 2.200  0.5167  138.6   1.954   45.4  0.2130   63.4  0.1929  -76.8
 2.300  0.5206  136.7   1.883   43.5  0.2226   62.5  0.1949  -80.5
 2.400  0.5251  134.9   1.815   41.4  0.2323   61.6  0.1977  -84.1
 2.500  0.5298  133.0   1.753   39.6  0.2415   60.7  0.2007  -87.6
 2.600  0.5351  131.2   1.692   37.7  0.2508   59.8  0.2044  -91.0
 2.700  0.5397  129.3   1.640   35.9  0.2602   58.9  0.2081  -94.2
 2.800  0.5448  127.5   1.590   34.0  0.2697   58.0  0.2124  -97.3
 2.900  0.5484  125.5   1.545   32.3  0.2791   57.0  0.2158 -100.4
 3.000  0.5526  123.6   1.501   30.5  0.2886   56.1  0.2198 -103.3
 3.100  0.5556  121.8   1.464   29.0  0.2978   55.0  0.2222 -106.2
 3.200  0.5591  120.0   1.428   27.5  0.3071   54.0  0.2252 -109.1
 3.300  0.5631  118.2   1.392   25.8  0.3165   53.0  0.2287 -111.9
 3.400  0.5677  116.5   1.359   24.1  0.3260   52.1  0.2328 -114.6
 3.500  0.5728  114.8   1.326   22.3  0.3355   51.3  0.2373 -117.2
 3.600  0.5767  113.2   1.298   20.9  0.3445   50.1  0.2384 -120.3
 3.700  0.5811  111.6   1.271   19.5  0.3536   49.0  0.2401 -123.3
 3.800  0.5858  110.0   1.245   18.0  0.3629   48.0  0.2425 -126.3
 3.900  0.5911  108.5   1.219   16.4  0.3723   47.0  0.2455 -129.2
 4.000  0.5967  107.0   1.195   14.8  0.3818   46.0  0.2492 -132.0
 4.100  0.5999  105.5   1.172   13.5  0.3903   44.8  0.2504 -135.5
 4.200  0.6036  104.0   1.151   12.2  0.3991   43.6  0.2526 -139.0
 4.300  0.6076  102.5   1.129   10.8  0.4079   42.5  0.2558 -142.5
 4.400  0.6121  101.0   1.109    9.3  0.4169   41.4  0.2598 -145.8
 4.500  0.6169   99.6   1.089    7.8  0.4261   40.4  0.2646 -149.0
 4.600  0.6216   98.2   1.070    6.7  0.4340   39.2  0.2689 -152.6
 4.700  0.6267   96.9   1.051    5.6  0.4421   38.1  0.2741 -156.0
 4.800  0.6321   95.5   1.032    4.5  0.4504   37.0  0.2804 -159.3
 4.900  0.6378   94.2   1.014    3.3  0.4588   35.9  0.2875 -162.4
 5.000  0.6439   92.9   0.996    2.1  0.4674   34.9  0.2954 -165.4
 5.100  0.6458   91.6   0.982    1.2  0.4747   33.7  0.3028 -168.2
 5.200  0.6479   90.4   0.969    0.2  0.4823   32.5  0.3108 -170.9
 5.300  0.6504   89.2   0.956   -0.8  0.4900   31.4  0.3195 -173.4
 5.400  0.6532   87.9   0.943   -1.8  0.4980   30.3  0.3289 -175.8
 5.500  0.6563   86.7   0.930   -2.9  0.5061   29.2  0.3387 -178.1
 5.600  0.6576   85.6   0.917   -3.7  0.5125   28.0  0.3451  179.8
 5.700  0.6592   84.4   0.905   -4.5  0.5191   26.9  0.3519  177.8
 5.800  0.6610   83.3   0.892   -5.4  0.5259   25.8  0.3591  175.8
 5.900  0.6631   82.2   0.880   -6.3  0.5329   24.7  0.3668  174.0
 6.000  0.6654   81.1   0.868   -7.2  0.5401   23.7  0.3748  172.2
!
!  f       NFmin   Gammaopt  rn/50
! GHz       dB    MAG  ANG    -
 0.450      1.99  0.22  179   0.16
 0.900      2.27  0.28 -171   0.17
 1.900      3.33  0.52 -133   0.34
 2.400      4.02  0.56 -123   0.63
!
! (c) 2017  Infineon Technologies AG, Munich