! Infineon Technologies  Discrete & RF Semiconductors
! BFR93AW
! VCE =  5.0 V,  IC =  36 mA
! Common Emitter S-Parameters:                            Jan 2017
# GHz  S  MA  R  50
!  f         S11            S21            S12            S22
! GHz     MAG   ANG      MAG   ANG      MAG   ANG      MAG   ANG
 0.010  0.4872  -14.1  50.211  172.1  0.0025   81.9  0.9717   -5.6
 0.020  0.4911  -27.8  49.551  165.2  0.0048   82.4  0.9481  -11.7
 0.030  0.4632  -39.2  46.674  159.6  0.0073   75.5  0.9025  -16.0
 0.040  0.4554  -51.5  44.307  153.2  0.0099   72.2  0.8626  -20.8
 0.050  0.4686  -63.6  42.534  146.3  0.0125   70.2  0.8293  -26.0
 0.060  0.4494  -71.0  39.895  143.2  0.0138   67.8  0.7855  -28.0
 0.070  0.4383  -79.0  37.387  139.7  0.0151   65.9  0.7428  -30.3
 0.080  0.4359  -87.2  35.040  135.7  0.0164   64.2  0.7014  -32.8
 0.090  0.4425  -95.3  32.888  131.1  0.0178   62.8  0.6615  -35.7
 0.100  0.4576 -103.0  30.971  126.0  0.0191   61.6  0.6235  -38.9
 0.110  0.4499 -107.4  29.343  124.2  0.0201   61.1  0.5962  -39.7
 0.120  0.4448 -111.9  27.748  122.2  0.0211   60.6  0.5690  -40.5
 0.130  0.4426 -116.5  26.191  119.9  0.0220   60.2  0.5419  -41.5
 0.140  0.4432 -121.0  24.681  117.4  0.0230   59.8  0.5150  -42.5
 0.150  0.4466 -125.6  23.225  114.5  0.0240   59.4  0.4883  -43.7
 0.200  0.4460 -139.3  18.294  107.2  0.0277   61.6  0.4073  -44.7
 0.250  0.4466 -148.8  15.034  101.9  0.0323   61.6  0.3560  -44.3
 0.300  0.4441 -155.4  12.686   98.3  0.0358   63.9  0.3200  -43.5
 0.350  0.4434 -160.2  11.190   95.8  0.0400   65.6  0.2995  -42.6
 0.400  0.4457 -164.9   9.723   92.5  0.0443   66.9  0.2790  -41.6
 0.450  0.4463 -168.4   8.775   90.6  0.0487   67.7  0.2670  -41.0
 0.500  0.4485 -171.8   7.840   88.2  0.0532   68.3  0.2551  -40.3
 0.600  0.4508 -177.3   6.594   84.5  0.0626   69.9  0.2402  -39.8
 0.700  0.4522  178.6   5.673   81.3  0.0708   70.5  0.2296  -39.7
 0.800  0.4574  174.4   4.991   78.2  0.0811   70.7  0.2227  -40.3
 0.900  0.4578  171.1   4.442   75.4  0.0898   70.5  0.2170  -41.3
 1.000  0.4638  167.6   4.027   72.8  0.0997   70.9  0.2115  -42.5
 1.100  0.4672  164.8   3.679   70.3  0.1086   70.6  0.2085  -44.1
 1.200  0.4710  162.0   3.386   67.7  0.1180   70.0  0.2044  -45.7
 1.300  0.4741  159.2   3.138   65.3  0.1270   69.5  0.2021  -47.9
 1.400  0.4792  156.7   2.935   62.9  0.1370   69.1  0.1980  -50.6
 1.500  0.4849  154.5   2.750   60.6  0.1461   68.5  0.1964  -53.1
 1.600  0.4878  151.9   2.595   58.3  0.1560   67.9  0.1956  -55.8
 1.700  0.4922  149.6   2.455   56.1  0.1656   67.3  0.1931  -59.0
 1.800  0.4966  147.3   2.340   53.8  0.1753   66.4  0.1919  -62.3
 1.900  0.5028  145.2   2.228   51.9  0.1845   65.8  0.1912  -65.5
 2.000  0.5054  143.1   2.127   49.6  0.1941   65.0  0.1920  -69.3
 2.100  0.5101  140.9   2.040   47.6  0.2036   64.2  0.1927  -73.0
 2.200  0.5155  138.8   1.956   45.4  0.2132   63.4  0.1941  -76.6
 2.300  0.5206  136.9   1.885   43.5  0.2226   62.5  0.1961  -80.3
 2.400  0.5263  135.0   1.817   41.4  0.2321   61.6  0.1989  -83.9
 2.500  0.5297  133.1   1.754   39.6  0.2414   60.7  0.2020  -87.4
 2.600  0.5336  131.3   1.693   37.7  0.2507   59.8  0.2058  -90.7
 2.700  0.5384  129.4   1.642   36.0  0.2600   58.9  0.2096  -93.9
 2.800  0.5437  127.5   1.592   34.1  0.2694   58.0  0.2140  -96.9
 2.900  0.5479  125.6   1.546   32.4  0.2789   57.1  0.2172 -100.0
 3.000  0.5528  123.7   1.502   30.5  0.2885   56.2  0.2210 -103.0
 3.100  0.5558  121.9   1.465   29.0  0.2976   55.1  0.2234 -106.0
 3.200  0.5593  120.1   1.429   27.5  0.3068   54.1  0.2264 -108.9
 3.300  0.5634  118.4   1.394   25.8  0.3161   53.2  0.2299 -111.7
 3.400  0.5679  116.7   1.360   24.1  0.3255   52.3  0.2340 -114.4
 3.500  0.5730  115.0   1.328   22.3  0.3349   51.4  0.2386 -117.0
 3.600  0.5767  113.3   1.300   20.9  0.3440   50.2  0.2395 -120.1
 3.700  0.5810  111.7   1.273   19.5  0.3532   49.1  0.2412 -123.1
 3.800  0.5856  110.1   1.247   18.0  0.3626   48.0  0.2434 -126.1
 3.900  0.5908  108.5   1.221   16.4  0.3721   47.0  0.2464 -129.0
 4.000  0.5964  106.9   1.197   14.8  0.3817   46.0  0.2499 -131.8
 4.100  0.5996  105.4   1.174   13.5  0.3902   44.8  0.2512 -135.3
 4.200  0.6033  103.9   1.152   12.2  0.3988   43.6  0.2535 -138.8
 4.300  0.6073  102.5   1.131   10.8  0.4076   42.5  0.2567 -142.2
 4.400  0.6118  101.0   1.110    9.3  0.4166   41.4  0.2608 -145.5
 4.500  0.6166   99.6   1.090    7.8  0.4257   40.4  0.2657 -148.7
 4.600  0.6213   98.2   1.070    6.7  0.4336   39.2  0.2699 -152.3
 4.700  0.6263   96.9   1.051    5.6  0.4417   38.1  0.2751 -155.7
 4.800  0.6317   95.6   1.032    4.5  0.4500   37.0  0.2813 -159.0
 4.900  0.6374   94.3   1.013    3.3  0.4584   36.0  0.2883 -162.1
 5.000  0.6434   93.0   0.995    2.1  0.4670   35.0  0.2962 -165.1
 5.100  0.6454   91.7   0.982    1.2  0.4744   33.8  0.3036 -167.9
 5.200  0.6476   90.5   0.969    0.2  0.4821   32.6  0.3118 -170.6
 5.300  0.6502   89.2   0.956   -0.8  0.4899   31.4  0.3206 -173.1
 5.400  0.6531   88.0   0.943   -1.8  0.4980   30.3  0.3300 -175.5
 5.500  0.6563   86.8   0.931   -2.9  0.5062   29.2  0.3399 -177.8
 5.600  0.6575   85.7   0.918   -3.7  0.5125   28.0  0.3462 -179.9
 5.700  0.6590   84.5   0.905   -4.5  0.5191   26.9  0.3529  178.1
 5.800  0.6607   83.4   0.893   -5.4  0.5258   25.8  0.3601  176.1
 5.900  0.6627   82.3   0.880   -6.3  0.5328   24.7  0.3677  174.3
 6.000  0.6649   81.2   0.868   -7.2  0.5399   23.7  0.3756  172.5
!
!  f       NFmin   Gammaopt  rn/50
! GHz       dB    MAG  ANG    -
 0.450      1.95  0.21  178   0.16
 0.900      2.22  0.28 -172   0.17
 1.900      3.28  0.52 -134   0.32
 2.400      3.96  0.56 -123   0.61
!
! (c) 2017  Infineon Technologies AG, Munich