! Infineon Technologies  Discrete & RF Semiconductors
! BFR93AW
! VCE =  2.0 V,  IC =  63 mA
! Common Emitter S-Parameters:                            Jan 2017
# GHz  S  MA  R  50
!  f         S11            S21            S12            S22
! GHz     MAG   ANG      MAG   ANG      MAG   ANG      MAG   ANG
 0.010  0.2441  -45.0  55.949  167.3  0.0031   74.4  0.8567  -10.9
 0.020  0.3145  -76.1  52.817  155.9  0.0064   74.8  0.8032  -21.9
 0.030  0.3358  -95.3  47.068  149.4  0.0087   66.6  0.7224  -27.6
 0.040  0.3886 -110.7  42.089  141.2  0.0111   61.9  0.6505  -34.7
 0.050  0.4622 -121.9  38.181  131.1  0.0135   58.9  0.5907  -43.3
 0.060  0.4704 -128.1  35.009  128.6  0.0145   58.4  0.5454  -45.1
 0.070  0.4837 -134.0  31.914  125.7  0.0156   58.0  0.5008  -47.2
 0.080  0.5019 -139.5  28.922  122.1  0.0166   57.6  0.4570  -49.8
 0.090  0.5244 -144.6  26.069  117.7  0.0177   57.3  0.4143  -52.8
 0.100  0.5507 -149.2  23.405  112.3  0.0187   57.0  0.3730  -56.6
 0.110  0.5531 -151.6  21.965  111.0  0.0197   57.2  0.3525  -57.2
 0.120  0.5564 -154.0  20.537  109.6  0.0206   57.4  0.3320  -57.8
 0.130  0.5607 -156.3  19.124  107.9  0.0216   57.5  0.3116  -58.5
 0.140  0.5659 -158.6  17.730  106.0  0.0225   57.7  0.2912  -59.3
 0.150  0.5720 -160.9  16.360  103.7  0.0235   57.8  0.2709  -60.2
 0.200  0.5825 -167.4  12.481   98.4  0.0270   63.9  0.2180  -60.7
 0.250  0.5910 -172.2  10.116   94.6  0.0325   65.5  0.1860  -60.4
 0.300  0.5895 -175.5   8.465   91.9  0.0373   67.8  0.1652  -60.1
 0.350  0.5913 -178.1   7.439   90.0  0.0423   69.1  0.1534  -60.0
 0.400  0.5943  179.3   6.425   87.4  0.0473   70.1  0.1416  -59.8
 0.450  0.5953  177.1   5.793   85.8  0.0525   70.6  0.1349  -60.2
 0.500  0.5971  175.0   5.167   83.8  0.0578   71.0  0.1283  -60.6
 0.600  0.5992  171.6   4.342   80.6  0.0689   71.9  0.1197  -62.3
 0.700  0.6020  168.6   3.743   77.8  0.0790   72.6  0.1145  -64.6
 0.800  0.6031  165.7   3.296   74.9  0.0897   72.8  0.1124  -67.6
 0.900  0.6038  162.8   2.941   72.2  0.1004   72.1  0.1098  -71.2
 1.000  0.6069  160.1   2.676   69.7  0.1115   71.7  0.1085  -75.1
 1.100  0.6112  157.4   2.450   67.2  0.1216   71.2  0.1086  -79.3
 1.200  0.6126  155.0   2.265   64.7  0.1324   70.4  0.1087  -83.8
 1.300  0.6137  152.5   2.105   62.4  0.1432   69.5  0.1103  -88.5
 1.400  0.6178  150.3   1.977   60.0  0.1546   69.2  0.1120  -93.9
 1.500  0.6219  148.1   1.860   57.7  0.1653   68.1  0.1146  -98.9
 1.600  0.6245  145.7   1.761   55.4  0.1760   67.2  0.1188 -103.0
 1.700  0.6261  143.4   1.675   53.2  0.1868   66.3  0.1228 -108.1
 1.800  0.6316  141.3   1.602   50.9  0.1980   65.2  0.1281 -113.0
 1.900  0.6348  139.2   1.531   49.0  0.2081   64.3  0.1345 -117.0
 2.000  0.6351  137.1   1.466   46.8  0.2191   63.2  0.1415 -120.9
 2.100  0.6383  134.9   1.412   44.8  0.2297   62.1  0.1483 -124.9
 2.200  0.6424  132.8   1.360   42.7  0.2403   61.1  0.1558 -128.6
 2.300  0.6445  130.9   1.315   40.8  0.2506   59.9  0.1636 -131.9
 2.400  0.6472  129.1   1.272   38.8  0.2610   58.8  0.1718 -134.9
 2.500  0.6491  127.2   1.233   37.1  0.2712   57.7  0.1794 -137.6
 2.600  0.6518  125.3   1.195   35.3  0.2814   56.6  0.1874 -140.0
 2.700  0.6541  123.5   1.162   33.6  0.2914   55.4  0.1947 -142.5
 2.800  0.6570  121.8   1.131   31.9  0.3016   54.3  0.2023 -144.8
 2.900  0.6589  119.8   1.104   30.3  0.3114   53.1  0.2089 -147.2
 3.000  0.6617  117.8   1.077   28.6  0.3214   52.0  0.2159 -149.5
 3.100  0.6621  116.0   1.054   27.2  0.3306   50.7  0.2208 -151.9
 3.200  0.6631  114.3   1.033   25.8  0.3400   49.5  0.2262 -154.3
 3.300  0.6647  112.5   1.011   24.3  0.3496   48.4  0.2319 -156.5
 3.400  0.6670  110.7   0.991   22.7  0.3592   47.3  0.2379 -158.6
 3.500  0.6699  109.0   0.971   21.1  0.3690   46.3  0.2442 -160.6
 3.600  0.6712  107.4   0.955   19.9  0.3777   45.0  0.2482 -163.3
 3.700  0.6730  105.8   0.939   18.6  0.3866   43.7  0.2528 -166.0
 3.800  0.6754  104.2   0.923   17.3  0.3956   42.5  0.2579 -168.5
 3.900  0.6782  102.7   0.908   15.9  0.4048   41.4  0.2635 -171.0
 4.000  0.6816  101.1   0.894   14.5  0.4142   40.3  0.2696 -173.3
 4.100  0.6820   99.7   0.880   13.4  0.4217   39.0  0.2746 -176.2
 4.200  0.6827   98.2   0.867   12.2  0.4295   37.7  0.2803 -178.9
 4.300  0.6840   96.8   0.854   11.0  0.4375   36.4  0.2866  178.4
 4.400  0.6856   95.3   0.841    9.8  0.4456   35.3  0.2935  175.9
 4.500  0.6877   93.9   0.829    8.5  0.4540   34.1  0.3009  173.5
 4.600  0.6902   92.6   0.818    7.6  0.4607   32.9  0.3079  171.1
 4.700  0.6930   91.3   0.807    6.7  0.4676   31.7  0.3155  168.7
 4.800  0.6961   90.1   0.797    5.8  0.4747   30.6  0.3235  166.5
 4.900  0.6996   88.8   0.786    4.9  0.4820   29.5  0.3321  164.4
 5.000  0.7034   87.6   0.776    3.9  0.4895   28.4  0.3410  162.4
 5.100  0.7030   86.4   0.769    3.1  0.4955   27.2  0.3492  160.6
 5.200  0.7029   85.2   0.763    2.3  0.5017   26.0  0.3576  159.0
 5.300  0.7031   84.1   0.757    1.4  0.5081   24.8  0.3664  157.4
 5.400  0.7036   82.9   0.751    0.6  0.5147   23.7  0.3754  155.8
 5.500  0.7044   81.7   0.745   -0.3  0.5215   22.6  0.3847  154.4
 5.600  0.7037   80.7   0.739   -1.0  0.5262   21.5  0.3900  153.0
 5.700  0.7033   79.7   0.732   -1.7  0.5312   20.3  0.3955  151.7
 5.800  0.7030   78.6   0.726   -2.4  0.5363   19.2  0.4012  150.4
 5.900  0.7030   77.6   0.720   -3.1  0.5417   18.2  0.4071  149.1
 6.000  0.7032   76.6   0.714   -3.8  0.5472   17.1  0.4132  147.9
!
!  f       NFmin   Gammaopt  rn/50
! GHz       dB    MAG  ANG    -
!
! noise parameter not available yet for this operation point!
!
! (c) 2017  Infineon Technologies AG, Munich