! Infineon Technologies  Discrete & RF Semiconductors
! BFR93AW
! VCE =  4.0 V,  IC =  25 mA
! Common Emitter S-Parameters:                            Jan 2017
# GHz  S  MA  R  50
!  f         S11            S21            S12            S22
! GHz     MAG   ANG      MAG   ANG      MAG   ANG      MAG   ANG
 0.010  0.5323  -12.6  44.587  172.9  0.0028   85.1  0.9785   -5.4
 0.020  0.5373  -24.9  44.309  166.4  0.0053   82.4  0.9583  -10.9
 0.030  0.5087  -35.3  42.026  161.0  0.0079   74.6  0.9178  -15.1
 0.040  0.4985  -46.5  40.155  155.1  0.0105   70.7  0.8827  -19.7
 0.050  0.5078  -57.8  38.756  148.6  0.0132   68.4  0.8536  -24.6
 0.060  0.4866  -64.9  36.529  145.5  0.0148   66.1  0.8112  -26.8
 0.070  0.4735  -72.5  34.425  142.0  0.0165   64.2  0.7702  -29.2
 0.080  0.4691  -80.5  32.467  138.0  0.0182   62.6  0.7306  -31.8
 0.090  0.4738  -88.4  30.683  133.6  0.0199   61.4  0.6928  -34.8
 0.100  0.4873  -96.0  29.106  128.6  0.0216   60.3  0.6571  -38.1
 0.110  0.4776 -100.5  27.642  126.7  0.0224   59.8  0.6291  -39.0
 0.120  0.4709 -105.2  26.211  124.6  0.0233   59.3  0.6013  -40.1
 0.130  0.4675 -110.0  24.820  122.3  0.0241   58.9  0.5737  -41.2
 0.140  0.4674 -114.8  23.475  119.6  0.0250   58.5  0.5464  -42.4
 0.150  0.4706 -119.6  22.185  116.7  0.0258   58.1  0.5193  -43.8
 0.200  0.4658 -134.3  17.607  109.0  0.0299   58.6  0.4324  -45.6
 0.250  0.4645 -144.4  14.541  103.3  0.0339   59.6  0.3756  -45.8
 0.300  0.4620 -152.0  12.313   99.4  0.0379   60.9  0.3360  -45.3
 0.350  0.4596 -157.0  10.866   96.8  0.0418   62.5  0.3121  -44.7
 0.400  0.4607 -162.1   9.449   93.3  0.0457   63.8  0.2883  -44.0
 0.450  0.4611 -165.8   8.531   91.3  0.0499   64.8  0.2750  -43.4
 0.500  0.4634 -169.5   7.627   88.8  0.0541   65.6  0.2617  -42.8
 0.600  0.4638 -175.3   6.417   85.0  0.0629   66.8  0.2448  -42.4
 0.700  0.4680 -180.0   5.527   81.7  0.0712   68.4  0.2330  -42.2
 0.800  0.4692  175.8   4.860   78.4  0.0815   69.5  0.2246  -42.8
 0.900  0.4715  172.3   4.327   75.6  0.0902   68.7  0.2187  -43.7
 1.000  0.4769  168.9   3.923   72.8  0.0994   69.3  0.2126  -45.0
 1.100  0.4806  165.8   3.584   70.2  0.1084   69.4  0.2091  -46.5
 1.200  0.4832  162.7   3.297   67.6  0.1173   69.0  0.2052  -48.3
 1.300  0.4868  160.0   3.057   65.2  0.1267   68.6  0.2026  -50.5
 1.400  0.4916  157.5   2.860   62.7  0.1365   68.3  0.1988  -53.0
 1.500  0.4962  155.0   2.681   60.4  0.1459   67.8  0.1967  -55.8
 1.600  0.5007  152.6   2.529   58.0  0.1553   67.2  0.1963  -58.4
 1.700  0.5040  150.2   2.396   55.8  0.1644   66.5  0.1941  -61.6
 1.800  0.5102  147.8   2.280   53.5  0.1738   65.9  0.1930  -65.0
 1.900  0.5142  145.7   2.173   51.5  0.1839   65.2  0.1931  -68.3
 2.000  0.5177  143.4   2.076   49.2  0.1933   64.4  0.1941  -72.0
 2.100  0.5227  141.2   1.992   47.2  0.2027   63.6  0.1949  -75.6
 2.200  0.5284  139.1   1.910   45.0  0.2122   62.9  0.1965  -79.2
 2.300  0.5327  137.1   1.840   43.0  0.2219   62.0  0.1989  -83.0
 2.400  0.5377  135.2   1.773   40.9  0.2317   61.2  0.2022  -86.6
 2.500  0.5414  133.3   1.711   39.1  0.2408   60.3  0.2054  -90.0
 2.600  0.5456  131.5   1.651   37.1  0.2500   59.5  0.2093  -93.3
 2.700  0.5500  129.6   1.600   35.4  0.2595   58.6  0.2134  -96.4
 2.800  0.5550  127.7   1.551   33.5  0.2691   57.7  0.2182  -99.4
 2.900  0.5595  125.8   1.508   31.8  0.2786   56.8  0.2219 -102.5
 3.000  0.5646  123.9   1.466   29.9  0.2881   55.9  0.2262 -105.4
 3.100  0.5672  122.1   1.430   28.4  0.2974   54.8  0.2288 -108.3
 3.200  0.5703  120.2   1.394   26.9  0.3068   53.8  0.2320 -111.2
 3.300  0.5740  118.4   1.360   25.3  0.3162   52.8  0.2357 -113.9
 3.400  0.5783  116.7   1.327   23.6  0.3258   51.9  0.2400 -116.6
 3.500  0.5831  114.9   1.295   21.8  0.3354   51.1  0.2448 -119.2
 3.600  0.5869  113.3   1.268   20.4  0.3446   49.9  0.2461 -122.3
 3.700  0.5911  111.6   1.241   18.9  0.3539   48.8  0.2481 -125.3
 3.800  0.5959  110.0   1.216   17.4  0.3634   47.8  0.2508 -128.3
 3.900  0.6011  108.4   1.191   15.8  0.3729   46.8  0.2542 -131.2
 4.000  0.6067  106.9   1.167   14.2  0.3826   45.8  0.2582 -134.0
 4.100  0.6098  105.4   1.145   12.9  0.3911   44.6  0.2598 -137.5
 4.200  0.6134  103.9   1.123   11.6  0.3998   43.4  0.2623 -141.0
 4.300  0.6174  102.4   1.103   10.2  0.4086   42.3  0.2658 -144.4
 4.400  0.6218  100.9   1.082    8.8  0.4176   41.2  0.2702 -147.6
 4.500  0.6266   99.5   1.063    7.3  0.4267   40.2  0.2754 -150.8
 4.600  0.6308   98.1   1.044    6.3  0.4347   39.0  0.2800 -154.3
 4.700  0.6353   96.8   1.025    5.2  0.4429   37.8  0.2855 -157.6
 4.800  0.6401   95.4   1.006    4.1  0.4513   36.7  0.2920 -160.8
 4.900  0.6453   94.1   0.988    2.9  0.4598   35.6  0.2993 -163.9
 5.000  0.6509   92.8   0.970    1.7  0.4685   34.6  0.3075 -166.8
 5.100  0.6526   91.5   0.957    0.8  0.4759   33.4  0.3150 -169.6
 5.200  0.6547   90.3   0.944   -0.2  0.4835   32.2  0.3233 -172.2
 5.300  0.6571   89.1   0.931   -1.2  0.4913   31.0  0.3322 -174.7
 5.400  0.6597   87.8   0.919   -2.2  0.4993   29.9  0.3417 -177.1
 5.500  0.6627   86.6   0.907   -3.3  0.5075   28.8  0.3517 -179.3
 5.600  0.6637   85.5   0.895   -4.1  0.5138   27.6  0.3581  178.7
 5.700  0.6651   84.3   0.882   -4.8  0.5202   26.5  0.3650  176.7
 5.800  0.6666   83.2   0.870   -5.6  0.5269   25.4  0.3722  174.8
 5.900  0.6684   82.1   0.859   -6.5  0.5337   24.3  0.3799  173.0
 6.000  0.6705   81.0   0.847   -7.3  0.5408   23.2  0.3879  171.2
!
!  f       NFmin   Gammaopt  rn/50
! GHz       dB    MAG  ANG    -
 0.450      1.66  0.17  171   0.16
 0.900      1.93  0.25 -177   0.16
 1.900      2.93  0.49 -136   0.25
 2.400      3.59  0.55 -125   0.50
!
! (c) 2017  Infineon Technologies AG, Munich