! Infineon Technologies  Discrete & RF Semiconductors
! BFR93AW
! VCE =  1.0 V,  IC =  40 mA
! Common Emitter S-Parameters:                            Jan 2017
# GHz  S  MA  R  50
!  f         S11            S21            S12            S22
! GHz     MAG   ANG      MAG   ANG      MAG   ANG      MAG   ANG
 0.010  0.3302  -35.7  50.915  167.7  0.0043   75.5  0.8736  -12.3
 0.020  0.3788  -64.5  48.212  156.4  0.0085   73.3  0.8212  -24.3
 0.030  0.3801  -83.4  43.174  149.9  0.0113   65.0  0.7364  -31.2
 0.040  0.4201 -100.4  38.822  141.9  0.0142   60.0  0.6649  -39.8
 0.050  0.4895 -113.5  35.412  132.1  0.0172   56.7  0.6116  -50.1
 0.060  0.4929 -120.3  32.525  129.5  0.0184   56.0  0.5618  -52.9
 0.070  0.5031 -126.9  29.715  126.5  0.0196   55.4  0.5137  -56.3
 0.080  0.5196 -133.1  27.006  122.8  0.0209   54.8  0.4677  -60.3
 0.090  0.5419 -138.9  24.433  118.4  0.0221   54.3  0.4246  -65.2
 0.100  0.5693 -144.2  22.041  112.9  0.0233   53.9  0.3852  -71.2
 0.110  0.5710 -146.9  20.702  111.6  0.0242   53.9  0.3626  -72.9
 0.120  0.5740 -149.6  19.376  110.1  0.0252   53.9  0.3403  -74.8
 0.130  0.5782 -152.2  18.065  108.3  0.0261   53.8  0.3184  -76.9
 0.140  0.5837 -154.8  16.774  106.3  0.0271   53.8  0.2971  -79.4
 0.150  0.5903 -157.4  15.506  104.0  0.0280   53.8  0.2764  -82.2
 0.200  0.5999 -164.7  11.870   98.5  0.0325   58.1  0.2175  -89.2
 0.250  0.6063 -170.0   9.602   94.4  0.0382   60.3  0.1817  -94.5
 0.300  0.6061 -173.8   8.042   91.5  0.0427   62.5  0.1574  -99.3
 0.350  0.6087 -176.6   7.064   89.4  0.0483   64.3  0.1437 -102.7
 0.400  0.6128 -179.3   6.099   86.7  0.0539   65.7  0.1307 -106.9
 0.450  0.6126  178.5   5.497   85.0  0.0593   66.4  0.1234 -109.9
 0.500  0.6132  176.4   4.902   82.8  0.0647   66.9  0.1165 -113.3
 0.600  0.6169  172.6   4.119   79.5  0.0765   68.4  0.1096 -119.1
 0.700  0.6178  169.4   3.542   76.5  0.0874   69.1  0.1047 -123.5
 0.800  0.6217  166.4   3.117   73.4  0.0995   69.1  0.1043 -127.9
 0.900  0.6197  163.4   2.780   70.6  0.1105   68.4  0.1056 -131.9
 1.000  0.6240  160.7   2.526   67.9  0.1216   68.2  0.1070 -135.6
 1.100  0.6288  158.0   2.314   65.3  0.1336   67.7  0.1105 -138.2
 1.200  0.6302  155.3   2.135   62.7  0.1445   66.8  0.1135 -141.5
 1.300  0.6314  152.9   1.986   60.3  0.1561   66.2  0.1189 -144.0
 1.400  0.6356  150.8   1.864   57.9  0.1676   65.3  0.1248 -147.0
 1.500  0.6393  148.4   1.751   55.5  0.1788   64.5  0.1306 -149.7
 1.600  0.6420  146.0   1.660   53.1  0.1903   63.4  0.1370 -151.4
 1.700  0.6437  143.9   1.577   50.9  0.2015   62.6  0.1442 -153.8
 1.800  0.6500  141.6   1.508   48.6  0.2125   61.4  0.1518 -155.8
 1.900  0.6516  139.5   1.443   46.6  0.2236   60.5  0.1598 -157.6
 2.000  0.6525  137.3   1.381   44.4  0.2349   59.4  0.1683 -159.2
 2.100  0.6554  135.1   1.330   42.4  0.2455   58.2  0.1767 -161.0
 2.200  0.6593  132.9   1.281   40.3  0.2561   57.1  0.1853 -162.7
 2.300  0.6612  131.0   1.239   38.4  0.2666   56.0  0.1936 -164.2
 2.400  0.6638  129.1   1.198   36.4  0.2771   54.9  0.2020 -165.6
 2.500  0.6659  127.2   1.161   34.7  0.2873   53.7  0.2099 -166.9
 2.600  0.6687  125.3   1.126   32.9  0.2976   52.5  0.2179 -168.2
 2.700  0.6700  123.4   1.096   31.3  0.3074   51.3  0.2250 -169.5
 2.800  0.6720  121.6   1.067   29.6  0.3173   50.2  0.2322 -170.7
 2.900  0.6743  119.7   1.041   28.1  0.3269   49.1  0.2389 -172.2
 3.000  0.6773  117.9   1.016   26.5  0.3367   48.0  0.2457 -173.6
 3.100  0.6774  116.1   0.996   25.2  0.3456   46.7  0.2510 -175.3
 3.200  0.6781  114.3   0.976   23.8  0.3547   45.5  0.2565 -177.0
 3.300  0.6795  112.5   0.957   22.3  0.3640   44.3  0.2623 -178.6
 3.400  0.6816  110.7   0.938   20.8  0.3734   43.2  0.2682  179.9
 3.500  0.6843  108.9   0.920   19.2  0.3829   42.2  0.2743  178.4
 3.600  0.6852  107.3   0.905   18.0  0.3911   40.9  0.2793  176.3
 3.700  0.6866  105.7   0.890   16.8  0.3995   39.6  0.2847  174.3
 3.800  0.6885  104.1   0.876   15.5  0.4081   38.4  0.2905  172.3
 3.900  0.6910  102.5   0.862   14.2  0.4169   37.3  0.2965  170.5
 4.000  0.6940  100.9   0.849   12.8  0.4258   36.2  0.3029  168.7
 4.100  0.6940   99.4   0.837   11.7  0.4328   34.9  0.3088  166.4
 4.200  0.6944   98.0   0.825   10.6  0.4401   33.6  0.3151  164.2
 4.300  0.6953   96.5   0.814    9.5  0.4475   32.4  0.3219  162.1
 4.400  0.6967   95.1   0.803    8.3  0.4552   31.2  0.3291  160.1
 4.500  0.6985   93.6   0.792    7.1  0.4630   30.1  0.3367  158.2
 4.600  0.7004   92.3   0.782    6.3  0.4690   28.9  0.3440  156.3
 4.700  0.7027   91.1   0.773    5.4  0.4752   27.8  0.3516  154.4
 4.800  0.7053   89.9   0.763    4.6  0.4816   26.7  0.3596  152.7
 4.900  0.7082   88.6   0.754    3.7  0.4882   25.6  0.3680  151.0
 5.000  0.7114   87.4   0.745    2.8  0.4949   24.5  0.3766  149.4
 5.100  0.7109   86.2   0.740    2.0  0.5002   23.3  0.3842  148.0
 5.200  0.7108   85.0   0.734    1.2  0.5057   22.1  0.3921  146.7
 5.300  0.7109   83.9   0.729    0.4  0.5113   21.0  0.4001  145.5
 5.400  0.7114   82.7   0.724   -0.4  0.5172   19.9  0.4083  144.3
 5.500  0.7121   81.5   0.719   -1.2  0.5233   18.8  0.4167  143.1
 5.600  0.7115   80.5   0.714   -1.9  0.5276   17.7  0.4212  142.0
 5.700  0.7111   79.5   0.708   -2.6  0.5322   16.7  0.4259  140.9
 5.800  0.7109   78.4   0.703   -3.3  0.5369   15.6  0.4307  139.8
 5.900  0.7109   77.4   0.698   -4.0  0.5418   14.6  0.4357  138.7
 6.000  0.7112   76.4   0.693   -4.7  0.5468   13.6  0.4408  137.7
!
!  f       NFmin   Gammaopt  rn/50
! GHz       dB    MAG  ANG    -
 0.450      2.04  0.23 -180   0.16
 0.900      2.33  0.29 -170   0.17
 1.900      3.40  0.52 -133   0.35
 2.400      4.10  0.57 -123   0.66
!
! (c) 2017  Infineon Technologies AG, Munich