! Infineon Technologies  Discrete & RF Semiconductors
! BFR93AW
! VCE =  2.0 V,  IC =  52 mA
! Common Emitter S-Parameters:                            Jan 2017
# GHz  S  MA  R  50
!  f         S11            S21            S12            S22
! GHz     MAG   ANG      MAG   ANG      MAG   ANG      MAG   ANG
 0.010  0.2915  -30.4  57.334  169.3  0.0031   83.1  0.9228   -9.0
 0.020  0.3261  -56.6  55.527  159.5  0.0058   77.6  0.8789  -18.1
 0.030  0.3266  -74.9  50.446  153.1  0.0079   70.0  0.8072  -23.6
 0.040  0.3586  -91.5  46.128  145.4  0.0101   65.6  0.7445  -30.2
 0.050  0.4148 -104.5  42.803  136.3  0.0124   62.8  0.6931  -37.8
 0.060  0.4174 -111.9  39.504  133.6  0.0137   61.5  0.6442  -39.8
 0.070  0.4268 -119.1  36.311  130.4  0.0150   60.4  0.5962  -42.2
 0.080  0.4426 -125.9  33.254  126.5  0.0163   59.5  0.5495  -44.9
 0.090  0.4641 -132.2  30.374  122.0  0.0177   58.8  0.5042  -48.2
 0.100  0.4907 -137.8  27.726  116.5  0.0190   58.1  0.4609  -52.1
 0.110  0.4925 -140.9  26.089  115.0  0.0198   58.7  0.4365  -52.8
 0.120  0.4956 -144.0  24.472  113.4  0.0207   59.2  0.4121  -53.6
 0.130  0.5002 -147.0  22.877  111.5  0.0215   59.7  0.3878  -54.5
 0.140  0.5062 -149.9  21.312  109.3  0.0224   60.2  0.3636  -55.5
 0.150  0.5134 -152.8  19.782  106.8  0.0232   60.6  0.3396  -56.7
 0.200  0.5256 -161.1  15.217  100.8  0.0274   62.7  0.2736  -57.6
 0.250  0.5325 -166.8  12.351   96.4  0.0327   65.8  0.2328  -57.5
 0.300  0.5332 -170.9  10.366   93.5  0.0371   67.6  0.2054  -56.9
 0.350  0.5348 -174.0   9.112   91.3  0.0418   68.9  0.1899  -56.6
 0.400  0.5379 -177.0   7.876   88.5  0.0465   69.9  0.1745  -56.2
 0.450  0.5391 -179.3   7.099   86.8  0.0517   70.6  0.1652  -56.0
 0.500  0.5411  178.4   6.331   84.6  0.0570   71.2  0.1560  -55.8
 0.600  0.5450  174.4   5.313   81.3  0.0672   71.7  0.1448  -56.5
 0.700  0.5464  171.3   4.570   78.3  0.0775   72.4  0.1369  -57.2
 0.800  0.5505  168.0   4.018   75.2  0.0884   72.4  0.1318  -59.3
 0.900  0.5516  165.0   3.577   72.5  0.0986   72.0  0.1282  -61.8
 1.000  0.5580  162.4   3.246   69.9  0.1090   71.4  0.1246  -64.7
 1.100  0.5604  159.8   2.968   67.4  0.1193   71.0  0.1238  -67.8
 1.200  0.5634  157.1   2.733   64.8  0.1292   70.2  0.1216  -71.2
 1.300  0.5644  154.7   2.536   62.4  0.1397   69.5  0.1215  -75.3
 1.400  0.5695  152.5   2.377   60.1  0.1509   68.9  0.1213  -79.7
 1.500  0.5730  150.2   2.227   57.8  0.1611   68.1  0.1220  -84.2
 1.600  0.5772  147.9   2.103   55.4  0.1714   67.2  0.1246  -88.2
 1.700  0.5807  145.6   1.994   53.2  0.1821   66.4  0.1269  -93.2
 1.800  0.5857  143.5   1.902   50.9  0.1925   65.3  0.1296  -97.5
 1.900  0.5894  141.5   1.814   49.0  0.2029   64.5  0.1336 -102.1
 2.000  0.5923  139.4   1.734   46.7  0.2132   63.5  0.1391 -106.4
 2.100  0.5958  137.2   1.665   44.7  0.2234   62.5  0.1447 -110.8
 2.200  0.6001  135.1   1.599   42.5  0.2336   61.5  0.1510 -114.8
 2.300  0.6037  133.2   1.543   40.6  0.2439   60.4  0.1574 -118.4
 2.400  0.6080  131.4   1.489   38.6  0.2543   59.4  0.1644 -121.8
 2.500  0.6109  129.5   1.439   36.9  0.2641   58.3  0.1715 -124.9
 2.600  0.6145  127.6   1.391   35.0  0.2740   57.3  0.1790 -127.8
 2.700  0.6179  125.8   1.350   33.3  0.2839   56.2  0.1856 -130.6
 2.800  0.6219  124.0   1.310   31.4  0.2939   55.1  0.1926 -133.2
 2.900  0.6242  122.1   1.274   29.7  0.3033   54.0  0.1988 -135.8
 3.000  0.6272  120.2   1.240   28.0  0.3129   52.9  0.2054 -138.3
 3.100  0.6290  118.4   1.211   26.6  0.3222   51.7  0.2100 -140.9
 3.200  0.6314  116.6   1.183   25.1  0.3315   50.6  0.2151 -143.5
 3.300  0.6344  114.9   1.156   23.6  0.3410   49.5  0.2205 -145.9
 3.400  0.6380  113.1   1.130   22.0  0.3507   48.5  0.2263 -148.1
 3.500  0.6422  111.4   1.105   20.3  0.3604   47.5  0.2325 -150.3
 3.600  0.6443  109.8   1.084   19.0  0.3692   46.2  0.2362 -153.2
 3.700  0.6469  108.2   1.063   17.7  0.3781   45.0  0.2406 -156.0
 3.800  0.6500  106.6   1.043   16.3  0.3872   43.8  0.2454 -158.7
 3.900  0.6537  105.0   1.024   14.8  0.3965   42.7  0.2508 -161.2
 4.000  0.6578  103.4   1.005   13.3  0.4059   41.6  0.2567 -163.7
 4.100  0.6592  101.9   0.988   12.1  0.4138   40.3  0.2612 -166.8
 4.200  0.6609  100.5   0.971   10.9  0.4219   39.1  0.2664 -169.9
 4.300  0.6632   99.0   0.954    9.6  0.4302   37.9  0.2723 -172.8
 4.400  0.6658   97.5   0.938    8.3  0.4387   36.7  0.2789 -175.6
 4.500  0.6689   96.1   0.923    7.0  0.4473   35.6  0.2861 -178.2
 4.600  0.6720   94.8   0.908    6.1  0.4543   34.4  0.2929  179.1
 4.700  0.6754   93.5   0.893    5.1  0.4615   33.2  0.3004  176.5
 4.800  0.6792   92.2   0.879    4.2  0.4690   32.1  0.3084  174.1
 4.900  0.6833   91.0   0.865    3.1  0.4765   31.0  0.3170  171.8
 5.000  0.6877   89.7   0.851    2.1  0.4843   29.9  0.3260  169.6
 5.100  0.6882   88.5   0.842    1.3  0.4906   28.7  0.3345  167.6
 5.200  0.6889   87.2   0.833    0.4  0.4972   27.5  0.3433  165.8
 5.300  0.6900   86.0   0.824   -0.5  0.5040   26.3  0.3525  164.0
 5.400  0.6914   84.8   0.815   -1.4  0.5109   25.2  0.3620  162.3
 5.500  0.6931   83.6   0.807   -2.3  0.5181   24.1  0.3718  160.7
 5.600  0.6933   82.5   0.798   -3.0  0.5233   23.0  0.3776  159.2
 5.700  0.6937   81.5   0.789   -3.8  0.5287   21.9  0.3836  157.7
 5.800  0.6944   80.4   0.781   -4.5  0.5343   20.8  0.3899  156.3
 5.900  0.6953   79.4   0.772   -5.3  0.5400   19.7  0.3965  154.9
 6.000  0.6964   78.3   0.764   -6.1  0.5460   18.7  0.4032  153.6
!
!  f       NFmin   Gammaopt  rn/50
! GHz       dB    MAG  ANG    -
 0.450      2.34  0.27 -177   0.18
 0.900      2.64  0.32 -166   0.18
 1.900      3.79  0.54 -132   0.44
 2.400      4.52  0.58 -122   0.81
!
! (c) 2017  Infineon Technologies AG, Munich