! Infineon Technologies  Discrete & RF Semiconductors
! BFR93AW
! VCE =  4.0 V,  IC =  32 mA
! Common Emitter S-Parameters:                            Jan 2017
# GHz  S  MA  R  50
!  f         S11            S21            S12            S22
! GHz     MAG   ANG      MAG   ANG      MAG   ANG      MAG   ANG
 0.010  0.4779  -14.5  49.412  172.2  0.0027   83.1  0.9727   -5.9
 0.020  0.4836  -28.9  48.918  165.1  0.0054   83.6  0.9519  -12.0
 0.030  0.4570  -40.6  46.031  159.5  0.0078   75.4  0.9045  -16.4
 0.040  0.4511  -53.1  43.644  153.2  0.0102   71.0  0.8630  -21.3
 0.050  0.4667  -65.3  41.845  146.2  0.0127   68.4  0.8283  -26.6
 0.060  0.4486  -72.8  39.244  143.1  0.0141   66.5  0.7836  -28.7
 0.070  0.4387  -80.8  36.772  139.6  0.0156   65.0  0.7401  -31.1
 0.080  0.4376  -89.0  34.458  135.6  0.0171   63.8  0.6980  -33.7
 0.090  0.4454  -97.1  32.335  131.1  0.0185   62.7  0.6576  -36.7
 0.100  0.4617 -104.7  30.444  125.9  0.0200   61.8  0.6192  -40.1
 0.110  0.4549 -109.1  28.841  124.1  0.0209   61.1  0.5917  -40.9
 0.120  0.4508 -113.6  27.270  122.1  0.0218   60.5  0.5643  -41.8
 0.130  0.4495 -118.1  25.737  119.8  0.0227   60.0  0.5371  -42.9
 0.140  0.4510 -122.6  24.249  117.3  0.0236   59.5  0.5101  -44.0
 0.150  0.4553 -127.1  22.815  114.4  0.0245   59.0  0.4833  -45.2
 0.200  0.4575 -140.6  17.957  107.0  0.0283   60.2  0.4007  -46.5
 0.250  0.4577 -150.0  14.749  101.8  0.0327   61.6  0.3481  -46.3
 0.300  0.4550 -156.5  12.441   98.1  0.0363   63.5  0.3109  -45.6
 0.350  0.4557 -161.2  10.977   95.6  0.0406   64.9  0.2900  -44.8
 0.400  0.4594 -165.8   9.540   92.3  0.0449   66.1  0.2691  -43.9
 0.450  0.4593 -169.2   8.609   90.4  0.0495   67.1  0.2567  -43.3
 0.500  0.4608 -172.5   7.690   88.0  0.0541   68.0  0.2444  -42.7
 0.600  0.4635 -177.7   6.466   84.3  0.0630   69.1  0.2290  -42.2
 0.700  0.4668  178.0   5.562   81.1  0.0722   70.1  0.2184  -42.0
 0.800  0.4693  174.2   4.891   78.0  0.0818   70.8  0.2111  -42.7
 0.900  0.4717  170.7   4.356   75.2  0.0909   70.3  0.2052  -43.8
 1.000  0.4752  167.5   3.951   72.5  0.1004   70.4  0.2001  -45.1
 1.100  0.4799  164.4   3.607   70.0  0.1099   70.2  0.1967  -46.7
 1.200  0.4836  161.7   3.319   67.4  0.1189   69.5  0.1925  -48.6
 1.300  0.4866  158.9   3.078   65.0  0.1283   69.2  0.1903  -50.9
 1.400  0.4919  156.5   2.879   62.6  0.1382   68.9  0.1868  -53.6
 1.500  0.4970  154.2   2.696   60.3  0.1473   68.1  0.1846  -56.3
 1.600  0.4996  151.7   2.544   57.9  0.1570   67.7  0.1844  -59.0
 1.700  0.5033  149.4   2.408   55.8  0.1667   67.1  0.1825  -62.6
 1.800  0.5105  147.2   2.295   53.5  0.1766   66.1  0.1817  -65.9
 1.900  0.5153  145.0   2.187   51.5  0.1861   65.6  0.1817  -69.3
 2.000  0.5174  142.9   2.086   49.2  0.1954   64.6  0.1831  -73.2
 2.100  0.5224  140.7   2.002   47.2  0.2049   63.7  0.1840  -77.0
 2.200  0.5281  138.5   1.920   45.0  0.2145   62.9  0.1857  -80.8
 2.300  0.5321  136.6   1.850   43.1  0.2243   62.0  0.1883  -84.6
 2.400  0.5367  134.7   1.782   41.0  0.2341   61.2  0.1916  -88.2
 2.500  0.5411  132.8   1.721   39.2  0.2435   60.3  0.1951  -91.7
 2.600  0.5460  130.9   1.661   37.2  0.2529   59.4  0.1993  -95.0
 2.700  0.5498  129.0   1.611   35.5  0.2622   58.4  0.2035  -98.3
 2.800  0.5542  127.2   1.562   33.6  0.2715   57.5  0.2083 -101.4
 2.900  0.5587  125.4   1.517   31.9  0.2809   56.6  0.2122 -104.4
 3.000  0.5637  123.6   1.474   30.0  0.2903   55.7  0.2166 -107.3
 3.100  0.5663  121.8   1.437   28.5  0.2995   54.6  0.2194 -110.3
 3.200  0.5694  120.0   1.402   27.0  0.3089   53.6  0.2228 -113.1
 3.300  0.5731  118.2   1.367   25.4  0.3183   52.6  0.2267 -115.9
 3.400  0.5774  116.4   1.334   23.7  0.3278   51.7  0.2311 -118.6
 3.500  0.5822  114.7   1.302   21.9  0.3374   50.9  0.2360 -121.2
 3.600  0.5860  113.1   1.275   20.5  0.3464   49.7  0.2374 -124.3
 3.700  0.5903  111.4   1.249   19.1  0.3555   48.5  0.2396 -127.3
 3.800  0.5950  109.8   1.223   17.6  0.3648   47.4  0.2424 -130.3
 3.900  0.6002  108.2   1.199   16.0  0.3742   46.4  0.2458 -133.2
 4.000  0.6059  106.7   1.175   14.4  0.3837   45.4  0.2498 -136.0
 4.100  0.6090  105.2   1.153   13.1  0.3921   44.2  0.2516 -139.5
 4.200  0.6125  103.7   1.131   11.8  0.4008   43.0  0.2543 -142.9
 4.300  0.6165  102.3   1.110   10.4  0.4095   41.9  0.2579 -146.3
 4.400  0.6208  100.8   1.090    8.9  0.4184   40.8  0.2623 -149.6
 4.500  0.6255   99.4   1.070    7.4  0.4275   39.8  0.2676 -152.7
 4.600  0.6299   98.0   1.051    6.4  0.4354   38.6  0.2723 -156.2
 4.700  0.6347   96.7   1.032    5.3  0.4434   37.5  0.2780 -159.5
 4.800  0.6399   95.3   1.014    4.2  0.4516   36.4  0.2845 -162.7
 4.900  0.6454   94.0   0.996    3.1  0.4600   35.3  0.2919 -165.7
 5.000  0.6512   92.7   0.978    1.9  0.4685   34.3  0.3001 -168.6
 5.100  0.6527   91.4   0.965    1.0  0.4757   33.1  0.3078 -171.3
 5.200  0.6546   90.2   0.952   -0.0  0.4831   31.9  0.3162 -173.9
 5.300  0.6568   89.0   0.939   -1.0  0.4907   30.7  0.3251 -176.3
 5.400  0.6592   87.7   0.926   -2.0  0.4985   29.6  0.3347 -178.6
 5.500  0.6620   86.5   0.914   -3.1  0.5065   28.5  0.3447  179.2
 5.600  0.6633   85.4   0.902   -3.9  0.5128   27.3  0.3511  177.2
 5.700  0.6648   84.4   0.889   -4.7  0.5194   26.2  0.3579  175.3
 5.800  0.6665   83.3   0.877   -5.6  0.5261   25.1  0.3651  173.5
 5.900  0.6685   82.2   0.866   -6.4  0.5331   24.0  0.3727  171.7
 6.000  0.6707   81.2   0.854   -7.3  0.5402   23.0  0.3806  170.0
!
!  f       NFmin   Gammaopt  rn/50
! GHz       dB    MAG  ANG    -
 0.450      1.86  0.19  175   0.16
 0.900      2.12  0.26 -174   0.16
 1.900      3.16  0.51 -135   0.30
 2.400      3.82  0.56 -124   0.57
!
! (c) 2017  Infineon Technologies AG, Munich