! Infineon Technologies  Discrete & RF Semiconductors
! BFR93AW
! VCE =  1.0 V,  IC =  63 mA
! Common Emitter S-Parameters:                            Jan 2017
# GHz  S  MA  R  50
!  f         S11            S21            S12            S22
! GHz     MAG   ANG      MAG   ANG      MAG   ANG      MAG   ANG
 0.010  0.2842  -93.1  40.272  158.9  0.0075   58.2  0.5405  -28.4
 0.020  0.4708 -119.7  34.344  142.4  0.0119   53.2  0.4724  -52.9
 0.030  0.5178 -132.5  28.926  136.7  0.0144   48.5  0.3988  -63.6
 0.040  0.5857 -142.7  23.919  128.6  0.0170   45.1  0.3449  -78.4
 0.050  0.6682 -150.6  19.638  116.5  0.0196   42.7  0.3207  -96.9
 0.060  0.6762 -154.0  17.794  114.8  0.0205   43.3  0.2990 -101.9
 0.070  0.6865 -157.3  15.969  112.7  0.0214   43.9  0.2800 -107.6
 0.080  0.6991 -160.5  14.170  110.1  0.0224   44.5  0.2641 -114.1
 0.090  0.7137 -163.6  12.410  106.8  0.0233   44.9  0.2520 -121.3
 0.100  0.7303 -166.5  10.706  102.3  0.0242   45.4  0.2443 -129.1
 0.110  0.7319 -167.8  10.011  101.4  0.0252   46.9  0.2390 -131.9
 0.120  0.7340 -169.2   9.318  100.5  0.0262   48.3  0.2343 -134.9
 0.130  0.7364 -170.5   8.629   99.3  0.0273   49.5  0.2302 -137.9
 0.140  0.7392 -171.8   7.943   98.0  0.0283   50.7  0.2268 -141.1
 0.150  0.7424 -173.1   7.263   96.4  0.0294   51.8  0.2241 -144.3
 0.200  0.7461 -177.0   5.483   92.6  0.0342   56.9  0.2156 -152.6
 0.250  0.7496 -180.0   4.414   89.7  0.0413   59.8  0.2117 -158.1
 0.300  0.7468  177.6   3.692   87.6  0.0461   62.7  0.2104 -162.1
 0.350  0.7475  175.6   3.249   85.9  0.0528   64.2  0.2100 -164.4
 0.400  0.7492  173.6   2.810   83.7  0.0595   65.3  0.2100 -166.8
 0.450  0.7485  171.9   2.542   82.3  0.0659   66.6  0.2111 -168.5
 0.500  0.7484  170.1   2.275   80.5  0.0723   67.7  0.2123 -170.2
 0.600  0.7503  167.1   1.928   77.5  0.0855   68.1  0.2155 -172.6
 0.700  0.7478  164.4   1.679   74.8  0.0981   68.4  0.2178 -174.4
 0.800  0.7483  161.5   1.493   71.9  0.1110   68.5  0.2227 -176.0
 0.900  0.7471  158.8   1.351   69.2  0.1236   67.4  0.2270 -177.5
 1.000  0.7484  156.4   1.242   66.6  0.1363   66.8  0.2320 -179.0
 1.100  0.7511  153.8   1.155   64.2  0.1494   66.3  0.2374  179.9
 1.200  0.7504  151.1   1.080   61.6  0.1621   65.2  0.2416  178.4
 1.300  0.7504  148.8   1.020   59.4  0.1745   64.3  0.2478  177.4
 1.400  0.7532  146.6   0.972   57.0  0.1874   63.3  0.2549  176.1
 1.500  0.7545  144.2   0.928   54.8  0.1995   62.1  0.2613  174.9
 1.600  0.7555  141.9   0.893   52.5  0.2122   61.0  0.2674  173.9
 1.700  0.7550  139.5   0.862   50.3  0.2247   59.8  0.2747  172.7
 1.800  0.7580  137.2   0.836   48.1  0.2366   58.6  0.2818  171.6
 1.900  0.7584  135.1   0.811   46.5  0.2485   57.4  0.2889  170.6
 2.000  0.7570  132.9   0.788   44.2  0.2601   56.0  0.2962  169.7
 2.100  0.7576  130.7   0.769   42.3  0.2713   54.6  0.3034  168.6
 2.200  0.7593  128.6   0.751   40.4  0.2827   53.4  0.3107  167.6
 2.300  0.7587  126.7   0.736   38.7  0.2936   52.1  0.3172  166.7
 2.400  0.7590  124.7   0.722   37.0  0.3046   50.8  0.3237  165.8
 2.500  0.7582  122.7   0.709   35.5  0.3149   49.5  0.3296  164.8
 2.600  0.7583  120.7   0.697   34.0  0.3254   48.2  0.3355  163.9
 2.700  0.7576  118.9   0.687   32.6  0.3353   46.9  0.3402  162.8
 2.800  0.7577  117.1   0.677   31.1  0.3453   45.6  0.3451  161.8
 2.900  0.7564  115.2   0.669   29.8  0.3547   44.3  0.3498  160.7
 3.000  0.7560  113.2   0.661   28.5  0.3642   43.1  0.3546  159.6
 3.100  0.7538  111.4   0.655   27.3  0.3725   41.7  0.3579  158.2
 3.200  0.7524  109.7   0.650   26.1  0.3810   40.4  0.3615  156.9
 3.300  0.7517  107.9   0.644   24.8  0.3897   39.2  0.3652  155.6
 3.400  0.7517  106.1   0.640   23.6  0.3986   37.9  0.3691  154.3
 3.500  0.7524  104.3   0.635   22.3  0.4076   36.8  0.3732  153.0
 3.600  0.7509  102.7   0.631   21.2  0.4149   35.4  0.3770  151.4
 3.700  0.7500  101.1   0.628   20.1  0.4225   34.1  0.3810  149.8
 3.800  0.7497   99.6   0.625   19.0  0.4303   32.9  0.3853  148.3
 3.900  0.7499   98.0   0.622   17.9  0.4382   31.7  0.3899  146.8
 4.000  0.7507   96.4   0.619   16.8  0.4464   30.5  0.3948  145.3
 4.100  0.7483   95.0   0.616   15.8  0.4521   29.2  0.3994  143.6
 4.200  0.7463   93.6   0.613   14.8  0.4581   27.9  0.4044  141.9
 4.300  0.7447   92.2   0.611   13.8  0.4642   26.7  0.4098  140.3
 4.400  0.7436   90.8   0.608   12.8  0.4706   25.5  0.4154  138.7
 4.500  0.7430   89.4   0.606   11.8  0.4772   24.3  0.4214  137.1
 4.600  0.7429   88.2   0.603   11.0  0.4820   23.2  0.4270  135.7
 4.700  0.7432   87.0   0.601   10.3  0.4869   22.0  0.4328  134.3
 4.800  0.7438   85.9   0.598    9.5  0.4920   20.9  0.4388  133.0
 4.900  0.7447   84.7   0.596    8.7  0.4973   19.9  0.4451  131.7
 5.000  0.7459   83.5   0.594    7.9  0.5028   18.8  0.4516  130.4
 5.100  0.7439   82.4   0.595    7.1  0.5068   17.7  0.4567  129.4
 5.200  0.7422   81.3   0.595    6.3  0.5110   16.5  0.4618  128.5
 5.300  0.7408   80.2   0.596    5.6  0.5154   15.4  0.4671  127.6
 5.400  0.7397   79.0   0.597    4.8  0.5200   14.4  0.4726  126.7
 5.500  0.7389   77.9   0.598    4.0  0.5248   13.3  0.4781  125.8
 5.600  0.7371   77.0   0.597    3.3  0.5279   12.3  0.4799  124.9
 5.700  0.7355   76.0   0.596    2.6  0.5311   11.3  0.4818  124.1
 5.800  0.7340   75.1   0.595    1.8  0.5345   10.4  0.4838  123.3
 5.900  0.7328   74.1   0.595    1.1  0.5380    9.4  0.4860  122.4
 6.000  0.7318   73.2   0.594    0.4  0.5417    8.5  0.4882  121.6
!
!  f       NFmin   Gammaopt  rn/50
! GHz       dB    MAG  ANG    -
!
! noise parameter not available yet for this operation point!
!
! (c) 2017  Infineon Technologies AG, Munich