! Infineon Technologies  Discrete & RF Semiconductors
! BFR93AW
! VCE =  12. V,  IC =  10 mA
! Common Emitter S-Parameters:                            Jan 2017
# GHz  S  MA  R  50
!  f         S11            S21            S12            S22
! GHz     MAG   ANG      MAG   ANG      MAG   ANG      MAG   ANG
 0.010  0.7780   -6.3  25.346  175.5  0.0027   79.0  0.9893   -2.7
 0.020  0.7901  -12.5  25.408  171.9  0.0055   89.8  0.9864   -5.7
 0.030  0.7656  -18.1  24.859  168.2  0.0084   82.1  0.9696   -8.1
 0.040  0.7489  -24.0  24.418  164.4  0.0113   78.3  0.9546  -10.6
 0.050  0.7404  -30.1  24.091  160.4  0.0143   76.1  0.9414  -13.2
 0.060  0.7187  -35.0  23.351  157.5  0.0164   72.7  0.9187  -15.0
 0.070  0.7025  -40.1  22.676  154.4  0.0185   70.1  0.8969  -16.9
 0.080  0.6921  -45.4  22.072  151.1  0.0206   68.1  0.8761  -18.9
 0.090  0.6879  -50.8  21.544  147.6  0.0228   66.4  0.8565  -21.0
 0.100  0.6899  -56.3  21.099  144.0  0.0250   65.0  0.8381  -23.2
 0.110  0.6697  -60.2  20.384  141.8  0.0264   63.3  0.8163  -24.4
 0.120  0.6527  -64.3  19.701  139.5  0.0278   61.8  0.7949  -25.6
 0.130  0.6392  -68.6  19.053  137.0  0.0292   60.5  0.7739  -26.9
 0.140  0.6294  -73.0  18.443  134.3  0.0306   59.2  0.7533  -28.3
 0.150  0.6236  -77.6  17.876  131.5  0.0321   58.1  0.7331  -29.7
 0.200  0.5753  -94.5  15.145  122.2  0.0371   54.7  0.6469  -33.1
 0.250  0.5420 -107.9  13.023  115.0  0.0417   52.5  0.5813  -34.8
 0.300  0.5149 -118.7  11.307  109.6  0.0444   51.5  0.5298  -35.5
 0.350  0.4959 -126.5  10.094  106.0  0.0473   52.1  0.4972  -35.6
 0.400  0.4867 -134.7   8.932  101.4  0.0502   52.7  0.4647  -35.8
 0.450  0.4766 -140.5   8.114   98.7  0.0531   53.5  0.4450  -35.7
 0.500  0.4716 -146.5   7.318   95.4  0.0560   54.2  0.4253  -35.5
 0.600  0.4640 -155.7   6.203   90.5  0.0622   56.0  0.3999  -35.3
 0.700  0.4587 -162.8   5.366   86.4  0.0681   58.2  0.3828  -35.3
 0.800  0.4589 -169.2   4.740   82.6  0.0748   60.0  0.3709  -35.7
 0.900  0.4575 -174.5   4.228   79.1  0.0812   60.8  0.3613  -36.5
 1.000  0.4600 -179.4   3.843   76.1  0.0881   62.2  0.3533  -37.5
 1.100  0.4637  176.4   3.511   73.2  0.0951   63.0  0.3486  -38.6
 1.200  0.4635  172.5   3.236   70.2  0.1026   63.8  0.3432  -39.9
 1.300  0.4666  168.8   3.000   67.5  0.1099   64.1  0.3393  -41.6
 1.400  0.4704  165.6   2.807   64.9  0.1180   64.9  0.3345  -43.4
 1.500  0.4765  162.5   2.633   62.4  0.1253   65.3  0.3315  -45.3
 1.600  0.4797  159.5   2.484   59.8  0.1336   65.2  0.3303  -47.4
 1.700  0.4839  156.7   2.352   57.5  0.1417   65.6  0.3272  -49.8
 1.800  0.4899  153.8   2.240   55.1  0.1503   65.5  0.3248  -52.1
 1.900  0.4952  151.2   2.135   53.0  0.1587   65.6  0.3233  -54.6
 2.000  0.4984  148.8   2.038   50.5  0.1672   65.2  0.3228  -57.3
 2.100  0.5033  146.2   1.955   48.4  0.1759   64.9  0.3221  -60.0
 2.200  0.5092  143.7   1.875   46.1  0.1847   64.7  0.3221  -62.7
 2.300  0.5140  141.5   1.806   44.1  0.1937   64.3  0.3227  -65.6
 2.400  0.5196  139.3   1.740   41.9  0.2027   63.9  0.3242  -68.5
 2.500  0.5238  137.1   1.679   40.0  0.2120   63.4  0.3257  -71.4
 2.600  0.5287  134.9   1.621   37.9  0.2213   62.9  0.3280  -74.2
 2.700  0.5333  132.9   1.571   36.1  0.2308   62.3  0.3304  -77.0
 2.800  0.5385  130.9   1.522   34.1  0.2404   61.8  0.3335  -79.7
 2.900  0.5433  128.8   1.478   32.3  0.2501   61.1  0.3352  -82.4
 3.000  0.5488  126.8   1.436   30.4  0.2599   60.5  0.3377  -85.1
 3.100  0.5519  124.8   1.399   28.9  0.2699   59.6  0.3387  -87.8
 3.200  0.5556  122.8   1.363   27.3  0.2799   58.8  0.3404  -90.5
 3.300  0.5600  120.9   1.328   25.7  0.2900   58.0  0.3429  -93.2
 3.400  0.5651  119.0   1.294   23.9  0.3001   57.3  0.3462  -95.8
 3.500  0.5707  117.1   1.262   22.1  0.3103   56.6  0.3501  -98.4
 3.600  0.5746  115.3   1.235   20.7  0.3205   55.5  0.3495 -101.2
 3.700  0.5792  113.5   1.208   19.3  0.3308   54.4  0.3498 -104.0
 3.800  0.5842  111.7   1.183   17.8  0.3412   53.4  0.3509 -106.9
 3.900  0.5899  110.0   1.158   16.2  0.3517   52.5  0.3528 -109.6
 4.000  0.5960  108.3   1.134   14.6  0.3623   51.6  0.3556 -112.4
 4.100  0.5992  106.7   1.112   13.3  0.3723   50.4  0.3543 -115.7
 4.200  0.6028  105.1   1.090   12.0  0.3824   49.2  0.3542 -119.0
 4.300  0.6070  103.6   1.069   10.6  0.3926   48.1  0.3553 -122.2
 4.400  0.6115  102.0   1.049    9.2  0.4031   47.0  0.3575 -125.5
 4.500  0.6165  100.5   1.029    7.7  0.4136   46.0  0.3609 -128.7
 4.600  0.6209   99.0   1.010    6.7  0.4231   44.8  0.3618 -132.2
 4.700  0.6258   97.6   0.990    5.7  0.4328   43.6  0.3641 -135.7
 4.800  0.6310   96.2   0.972    4.6  0.4427   42.4  0.3678 -139.2
 4.900  0.6366   94.8   0.953    3.5  0.4527   41.3  0.3727 -142.5
 5.000  0.6426   93.4   0.935    2.3  0.4629   40.3  0.3789 -145.8
 5.100  0.6443   92.0   0.922    1.4  0.4716   39.0  0.3839 -149.0
 5.200  0.6463   90.7   0.909    0.5  0.4805   37.7  0.3901 -152.2
 5.300  0.6487   89.3   0.896   -0.4  0.4897   36.4  0.3974 -155.2
 5.400  0.6515   88.0   0.883   -1.4  0.4991   35.2  0.4057 -158.1
 5.500  0.6546   86.7   0.871   -2.4  0.5087   34.1  0.4151 -160.9
 5.600  0.6557   85.5   0.859   -3.1  0.5163   32.8  0.4197 -163.5
 5.700  0.6570   84.3   0.847   -3.8  0.5241   31.5  0.4251 -166.0
 5.800  0.6587   83.1   0.835   -4.6  0.5322   30.3  0.4313 -168.5
 5.900  0.6606   82.0   0.824   -5.3  0.5406   29.1  0.4384 -170.9
 6.000  0.6628   80.8   0.812   -6.1  0.5491   28.0  0.4461 -173.2
!
!  f       NFmin   Gammaopt  rn/50
! GHz       dB    MAG  ANG    -
 0.450      1.25  0.15   94   0.13
 0.900      1.55  0.24  150   0.14
 1.900      2.61  0.47 -148   0.18
 2.400      3.24  0.54 -131   0.36
!
! (c) 2017  Infineon Technologies AG, Munich