! Infineon Technologies  Discrete & RF Semiconductors
! BFR93AW
! VCE =  10. V,  IC =  23 mA
! Common Emitter S-Parameters:                            Jan 2017
# GHz  S  MA  R  50
!  f         S11            S21            S12            S22
! GHz     MAG   ANG      MAG   ANG      MAG   ANG      MAG   ANG
 0.010  0.6352   -9.4  40.756  173.5  0.0024   84.2  0.9807   -4.2
 0.020  0.6399  -18.8  40.486  168.1  0.0050   83.8  0.9671   -8.7
 0.030  0.6091  -27.1  38.859  163.2  0.0075   77.9  0.9360  -12.2
 0.040  0.5920  -36.0  37.536  158.0  0.0100   74.9  0.9087  -15.9
 0.050  0.5900  -45.2  36.549  152.4  0.0126   73.2  0.8854  -19.9
 0.060  0.5635  -51.4  34.738  149.3  0.0142   69.9  0.8497  -21.9
 0.070  0.5441  -58.0  33.043  145.8  0.0159   67.3  0.8151  -24.1
 0.080  0.5326  -65.1  31.483  141.9  0.0176   65.2  0.7818  -26.5
 0.090  0.5295  -72.4  30.079  137.7  0.0193   63.5  0.7500  -29.1
 0.100  0.5349  -79.6  28.853  133.1  0.0210   62.0  0.7198  -31.9
 0.110  0.5186  -83.9  27.521  131.1  0.0220   60.9  0.6931  -32.8
 0.120  0.5054  -88.4  26.227  128.9  0.0229   60.0  0.6666  -33.8
 0.130  0.4955  -93.2  24.976  126.4  0.0239   59.1  0.6403  -34.9
 0.140  0.4892  -98.1  23.774  123.8  0.0249   58.3  0.6143  -36.1
 0.150  0.4865 -103.1  22.630  120.8  0.0259   57.5  0.5885  -37.4
 0.200  0.4632 -119.5  18.237  112.5  0.0296   58.1  0.5009  -39.3
 0.250  0.4476 -131.5  15.198  106.5  0.0337   57.6  0.4431  -39.5
 0.300  0.4364 -140.5  12.917  102.2  0.0371   59.3  0.4010  -39.1
 0.350  0.4307 -146.7  11.433   99.3  0.0408   60.7  0.3764  -38.4
 0.400  0.4302 -153.0   9.987   95.6  0.0445   61.9  0.3518  -37.7
 0.450  0.4269 -157.4   9.031   93.5  0.0484   63.1  0.3374  -37.2
 0.500  0.4262 -161.9   8.091   90.8  0.0524   64.1  0.3231  -36.6
 0.600  0.4260 -169.2   6.814   86.8  0.0602   65.7  0.3052  -36.0
 0.700  0.4271 -174.4   5.873   83.4  0.0681   67.6  0.2935  -35.7
 0.800  0.4305 -179.3   5.170   80.0  0.0770   68.0  0.2846  -36.2
 0.900  0.4290  176.4   4.603   77.1  0.0852   68.2  0.2780  -36.9
 1.000  0.4336  172.7   4.176   74.4  0.0933   69.1  0.2718  -37.8
 1.100  0.4384  169.2   3.815   71.8  0.1021   68.6  0.2683  -39.1
 1.200  0.4427  165.9   3.512   69.1  0.1107   68.7  0.2640  -40.4
 1.300  0.4446  162.9   3.254   66.7  0.1189   68.5  0.2606  -42.3
 1.400  0.4481  160.1   3.044   64.2  0.1284   68.4  0.2563  -44.3
 1.500  0.4542  157.6   2.851   62.0  0.1369   68.1  0.2537  -46.4
 1.600  0.4582  154.8   2.690   59.6  0.1460   67.6  0.2524  -48.7
 1.700  0.4622  152.4   2.547   57.4  0.1549   67.2  0.2498  -51.2
 1.800  0.4676  150.0   2.426   55.1  0.1641   66.7  0.2475  -53.8
 1.900  0.4723  147.7   2.310   53.1  0.1729   66.1  0.2464  -56.5
 2.000  0.4744  145.4   2.206   50.8  0.1818   65.6  0.2459  -59.7
 2.100  0.4804  143.2   2.116   48.8  0.1910   64.9  0.2454  -62.7
 2.200  0.4871  141.1   2.028   46.6  0.2003   64.2  0.2456  -65.8
 2.300  0.4920  139.1   1.953   44.6  0.2093   63.4  0.2464  -69.0
 2.400  0.4975  137.1   1.881   42.5  0.2183   62.7  0.2480  -72.2
 2.500  0.5014  135.1   1.817   40.7  0.2276   61.9  0.2498  -75.3
 2.600  0.5060  133.1   1.755   38.7  0.2369   61.2  0.2524  -78.3
 2.700  0.5114  131.2   1.700   37.0  0.2460   60.4  0.2549  -81.3
 2.800  0.5173  129.4   1.647   35.1  0.2552   59.6  0.2581  -84.2
 2.900  0.5216  127.4   1.600   33.3  0.2645   58.7  0.2603  -87.1
 3.000  0.5265  125.5   1.555   31.4  0.2739   57.9  0.2632  -89.9
 3.100  0.5299  123.6   1.516   29.9  0.2831   56.9  0.2645  -92.7
 3.200  0.5338  121.8   1.478   28.3  0.2925   56.0  0.2665  -95.4
 3.300  0.5383  119.9   1.441   26.7  0.3018   55.2  0.2691  -98.1
 3.400  0.5433  118.2   1.405   24.9  0.3113   54.4  0.2722 -100.7
 3.500  0.5489  116.4   1.371   23.1  0.3208   53.6  0.2759 -103.3
 3.600  0.5530  114.7   1.342   21.7  0.3301   52.5  0.2758 -106.2
 3.700  0.5576  113.1   1.314   20.2  0.3396   51.4  0.2764 -109.1
 3.800  0.5626  111.5   1.287   18.7  0.3491   50.4  0.2777 -112.0
 3.900  0.5680  109.9   1.260   17.1  0.3588   49.5  0.2797 -114.9
 4.000  0.5739  108.4   1.235   15.5  0.3685   48.6  0.2824 -117.7
 4.100  0.5778  106.9   1.211   14.2  0.3774   47.4  0.2821 -121.1
 4.200  0.5822  105.3   1.188   12.8  0.3865   46.2  0.2827 -124.4
 4.300  0.5870  103.8   1.166   11.4  0.3958   45.1  0.2843 -127.8
 4.400  0.5921  102.3   1.144    9.9  0.4052   44.1  0.2869 -131.1
 4.500  0.5977  100.9   1.123    8.4  0.4147   43.1  0.2904 -134.3
 4.600  0.6027   99.5   1.102    7.3  0.4232   42.0  0.2927 -138.0
 4.700  0.6082   98.1   1.082    6.2  0.4318   40.9  0.2961 -141.6
 4.800  0.6139   96.7   1.062    5.0  0.4407   39.8  0.3007 -145.1
 4.900  0.6200   95.3   1.042    3.8  0.4496   38.8  0.3064 -148.5
 5.000  0.6265   94.0   1.023    2.5  0.4587   37.8  0.3131 -151.7
 5.100  0.6287   92.7   1.008    1.5  0.4667   36.6  0.3194 -154.8
 5.200  0.6311   91.4   0.994    0.5  0.4749   35.4  0.3266 -157.8
 5.300  0.6339   90.2   0.980   -0.5  0.4834   34.2  0.3346 -160.7
 5.400  0.6370   88.9   0.966   -1.6  0.4920   33.1  0.3434 -163.4
 5.500  0.6404   87.7   0.953   -2.7  0.5008   32.0  0.3530 -166.0
 5.600  0.6419   86.5   0.940   -3.5  0.5077   30.8  0.3586 -168.4
 5.700  0.6437   85.4   0.926   -4.3  0.5148   29.6  0.3648 -170.8
 5.800  0.6458   84.3   0.913   -5.1  0.5221   28.5  0.3716 -173.0
 5.900  0.6481   83.1   0.901   -6.0  0.5297   27.4  0.3789 -175.2
 6.000  0.6506   82.0   0.888   -6.9  0.5374   26.3  0.3868 -177.3
!
!  f       NFmin   Gammaopt  rn/50
! GHz       dB    MAG  ANG    -
 0.450      1.60  0.15  166   0.15
 0.900      1.88  0.24  177   0.16
 1.900      2.89  0.48 -138   0.24
 2.400      3.53  0.55 -126   0.48
!
! (c) 2017  Infineon Technologies AG, Munich