! Infineon Technologies  Discrete & RF Semiconductors
! BFR93AW
! VCE =  3.0 V,  IC =  85 mA
! Common Emitter S-Parameters:                            Jan 2017
# GHz  S  MA  R  50
!  f         S11            S21            S12            S22
! GHz     MAG   ANG      MAG   ANG      MAG   ANG      MAG   ANG
 0.010  0.2178  -59.2  53.348  165.9  0.0039   61.9  0.7889  -11.5
 0.020  0.3195  -91.4  49.825  153.3  0.0065   68.1  0.7299  -22.7
 0.030  0.3562 -109.0  43.758  146.9  0.0085   61.9  0.6512  -27.8
 0.040  0.4192 -122.3  38.404  138.6  0.0107   58.2  0.5790  -34.2
 0.050  0.4986 -131.8  34.102  127.9  0.0128   55.7  0.5160  -42.3
 0.060  0.5086 -137.1  31.161  125.6  0.0137   55.7  0.4772  -43.5
 0.070  0.5227 -142.1  28.278  122.9  0.0147   55.7  0.4386  -44.9
 0.080  0.5405 -146.8  25.474  119.6  0.0156   55.7  0.4004  -46.5
 0.090  0.5618 -151.2  22.778  115.4  0.0166   55.7  0.3625  -48.5
 0.100  0.5861 -155.2  20.232  110.2  0.0175   55.7  0.3252  -51.0
 0.110  0.5886 -157.3  18.969  109.1  0.0184   56.6  0.3091  -51.0
 0.120  0.5919 -159.4  17.715  107.8  0.0192   57.4  0.2930  -51.1
 0.130  0.5960 -161.4  16.471  106.3  0.0201   58.1  0.2770  -51.2
 0.140  0.6008 -163.4  15.240  104.5  0.0209   58.8  0.2609  -51.2
 0.150  0.6063 -165.4  14.025  102.5  0.0218   59.4  0.2448  -51.3
 0.200  0.6156 -170.9  10.701   97.9  0.0259   63.9  0.2058  -49.7
 0.250  0.6206 -175.0   8.658   94.4  0.0309   65.6  0.1825  -48.1
 0.300  0.6205 -178.1   7.252   92.1  0.0360   68.2  0.1687  -47.1
 0.350  0.6211  179.5   6.386   90.4  0.0410   69.9  0.1602  -46.8
 0.400  0.6227  177.1   5.527   88.1  0.0460   71.3  0.1518  -46.4
 0.450  0.6234  175.0   4.994   86.6  0.0508   71.7  0.1474  -46.9
 0.500  0.6249  173.0   4.465   84.8  0.0557   72.1  0.1431  -47.5
 0.600  0.6273  169.7   3.770   81.8  0.0662   73.0  0.1376  -49.6
 0.700  0.6283  166.8   3.263   79.2  0.0761   73.5  0.1336  -52.1
 0.800  0.6284  164.0   2.886   76.4  0.0870   73.8  0.1308  -55.5
 0.900  0.6272  161.1   2.587   73.8  0.0975   73.0  0.1282  -59.3
 1.000  0.6303  158.4   2.364   71.4  0.1083   72.8  0.1269  -63.3
 1.100  0.6336  155.9   2.175   69.0  0.1186   72.1  0.1264  -67.7
 1.200  0.6338  153.4   2.017   66.5  0.1289   71.5  0.1259  -72.2
 1.300  0.6364  151.1   1.882   64.1  0.1396   70.9  0.1264  -77.1
 1.400  0.6388  148.9   1.775   61.8  0.1509   70.1  0.1263  -82.3
 1.500  0.6413  146.6   1.674   59.5  0.1617   69.3  0.1281  -87.4
 1.600  0.6443  144.4   1.592   57.1  0.1721   68.4  0.1307  -92.1
 1.700  0.6440  142.0   1.518   54.9  0.1828   67.4  0.1339  -97.5
 1.800  0.6502  139.9   1.457   52.6  0.1942   66.4  0.1376 -102.3
 1.900  0.6511  137.9   1.397   50.7  0.2048   65.6  0.1424 -106.9
 2.000  0.6518  135.7   1.341   48.4  0.2157   64.4  0.1482 -111.5
 2.100  0.6544  133.6   1.295   46.4  0.2262   63.3  0.1540 -115.9
 2.200  0.6579  131.5   1.250   44.2  0.2367   62.3  0.1607 -119.9
 2.300  0.6591  129.6   1.211   42.3  0.2472   61.2  0.1675 -123.7
 2.400  0.6610  127.8   1.174   40.3  0.2578   60.1  0.1749 -127.1
 2.500  0.6632  125.9   1.140   38.6  0.2680   58.9  0.1822 -130.2
 2.600  0.6661  124.0   1.108   36.7  0.2783   57.8  0.1899 -133.0
 2.700  0.6676  122.2   1.080   35.0  0.2885   56.6  0.1966 -135.8
 2.800  0.6698  120.4   1.053   33.2  0.2988   55.5  0.2038 -138.5
 2.900  0.6712  118.5   1.029   31.6  0.3085   54.3  0.2099 -141.1
 3.000  0.6733  116.7   1.005   29.9  0.3183   53.2  0.2163 -143.5
 3.100  0.6735  114.9   0.985   28.5  0.3276   51.9  0.2207 -146.1
 3.200  0.6743  113.2   0.966   27.1  0.3371   50.7  0.2256 -148.7
 3.300  0.6758  111.4   0.947   25.6  0.3467   49.5  0.2309 -151.1
 3.400  0.6779  109.6   0.929   24.0  0.3564   48.4  0.2366 -153.4
 3.500  0.6807  107.9   0.912   22.4  0.3663   47.4  0.2427 -155.6
 3.600  0.6818  106.3   0.897   21.2  0.3750   46.1  0.2462 -158.5
 3.700  0.6834  104.7   0.883   19.9  0.3840   44.8  0.2502 -161.2
 3.800  0.6855  103.1   0.869   18.6  0.3931   43.6  0.2549 -163.9
 3.900  0.6882  101.5   0.855   17.3  0.4024   42.4  0.2600 -166.5
 4.000  0.6914   99.9   0.842   15.9  0.4118   41.3  0.2657 -169.0
 4.100  0.6912   98.5   0.830   14.8  0.4194   40.0  0.2700 -172.0
 4.200  0.6914   97.0   0.819   13.6  0.4273   38.7  0.2750 -175.0
 4.300  0.6921   95.6   0.808   12.5  0.4353   37.4  0.2807 -177.8
 4.400  0.6932   94.1   0.797   11.2  0.4436   36.2  0.2870  179.5
 4.500  0.6948   92.7   0.787   10.0  0.4520   35.1  0.2940  176.9
 4.600  0.6969   91.4   0.777    9.1  0.4587   33.9  0.3007  174.3
 4.700  0.6993   90.2   0.767    8.3  0.4656   32.7  0.3079  171.8
 4.800  0.7021   88.9   0.758    7.4  0.4727   31.5  0.3157  169.5
 4.900  0.7052   87.6   0.748    6.4  0.4800   30.4  0.3240  167.2
 5.000  0.7087   86.4   0.739    5.5  0.4875   29.3  0.3328  165.1
 5.100  0.7081   85.2   0.734    4.7  0.4935   28.1  0.3406  163.3
 5.200  0.7078   84.0   0.729    3.9  0.4997   26.8  0.3486  161.5
 5.300  0.7079   82.9   0.724    3.1  0.5061   25.7  0.3570  159.8
 5.400  0.7082   81.7   0.719    2.3  0.5127   24.5  0.3657  158.2
 5.500  0.7088   80.5   0.714    1.5  0.5195   23.4  0.3747  156.7
 5.600  0.7078   79.5   0.709    0.8  0.5245   22.3  0.3797  155.3
 5.700  0.7071   78.5   0.703    0.2  0.5296   21.2  0.3850  153.9
 5.800  0.7066   77.5   0.698   -0.5  0.5350   20.1  0.3904  152.5
 5.900  0.7063   76.5   0.693   -1.2  0.5406   19.0  0.3961  151.2
 6.000  0.7062   75.5   0.688   -1.9  0.5463   18.0  0.4020  149.9
!
!  f       NFmin   Gammaopt  rn/50
! GHz       dB    MAG  ANG    -
!
! noise parameter not available yet for this operation point!
!
! (c) 2017  Infineon Technologies AG, Munich