! Infineon Technologies  Discrete & RF Semiconductors
! BFR93AW
! VCE =  8.0 V,  IC =  23 mA
! Common Emitter S-Parameters:                            Jan 2017
# GHz  S  MA  R  50
!  f         S11            S21            S12            S22
! GHz     MAG   ANG      MAG   ANG      MAG   ANG      MAG   ANG
 0.010  0.6134   -9.9  41.185  173.5  0.0024   79.5  0.9822   -4.4
 0.020  0.6184  -19.9  41.058  167.9  0.0054   80.8  0.9661   -9.0
 0.030  0.5879  -28.5  39.298  162.9  0.0079   75.6  0.9337  -12.7
 0.040  0.5718  -37.8  37.859  157.6  0.0104   72.9  0.9054  -16.6
 0.050  0.5713  -47.3  36.779  151.8  0.0129   71.2  0.8816  -20.7
 0.060  0.5458  -53.6  34.906  148.7  0.0145   68.5  0.8447  -22.7
 0.070  0.5276  -60.5  33.149  145.2  0.0162   66.4  0.8091  -25.0
 0.080  0.5175  -67.8  31.528  141.3  0.0178   64.7  0.7747  -27.4
 0.090  0.5158  -75.2  30.066  137.1  0.0195   63.2  0.7418  -30.0
 0.100  0.5228  -82.5  28.785  132.4  0.0212   62.0  0.7107  -32.9
 0.110  0.5082  -86.9  27.441  130.4  0.0222   61.0  0.6836  -33.9
 0.120  0.4968  -91.5  26.134  128.2  0.0232   60.1  0.6567  -34.9
 0.130  0.4887  -96.4  24.869  125.8  0.0242   59.3  0.6301  -36.0
 0.140  0.4842 -101.3  23.654  123.1  0.0253   58.5  0.6037  -37.3
 0.150  0.4834 -106.3  22.497  120.1  0.0263   57.8  0.5776  -38.6
 0.200  0.4632 -122.4  18.082  111.9  0.0299   57.9  0.4902  -40.4
 0.250  0.4506 -134.1  15.037  105.9  0.0340   57.5  0.4316  -40.6
 0.300  0.4410 -142.8  12.777  101.7  0.0374   59.8  0.3897  -40.1
 0.350  0.4360 -148.8  11.305   98.9  0.0411   61.2  0.3654  -39.5
 0.400  0.4359 -154.9   9.869   95.2  0.0448   62.4  0.3411  -38.8
 0.450  0.4333 -159.3   8.918   93.1  0.0487   63.6  0.3267  -38.3
 0.500  0.4332 -163.7   7.982   90.4  0.0527   64.6  0.3124  -37.7
 0.600  0.4348 -170.5   6.726   86.5  0.0612   65.6  0.2949  -37.2
 0.700  0.4360 -175.6   5.795   83.0  0.0686   67.6  0.2823  -36.8
 0.800  0.4381  179.8   5.100   79.7  0.0779   68.2  0.2738  -37.4
 0.900  0.4391  175.7   4.543   76.8  0.0859   68.3  0.2673  -38.1
 1.000  0.4454  171.9   4.123   74.1  0.0946   69.1  0.2609  -39.1
 1.100  0.4484  168.5   3.764   71.5  0.1031   68.9  0.2573  -40.3
 1.200  0.4519  165.3   3.465   68.8  0.1120   68.7  0.2530  -41.8
 1.300  0.4535  162.3   3.213   66.3  0.1208   68.5  0.2499  -43.7
 1.400  0.4584  159.5   3.004   64.0  0.1301   68.3  0.2455  -45.7
 1.500  0.4638  157.1   2.814   61.6  0.1385   67.9  0.2430  -48.1
 1.600  0.4679  154.4   2.655   59.2  0.1477   67.7  0.2419  -50.2
 1.700  0.4720  151.8   2.514   57.0  0.1568   67.1  0.2392  -53.0
 1.800  0.4774  149.4   2.394   54.7  0.1658   66.6  0.2370  -55.8
 1.900  0.4834  147.3   2.281   52.8  0.1752   66.1  0.2364  -58.6
 2.000  0.4847  145.0   2.176   50.5  0.1843   65.4  0.2363  -61.8
 2.100  0.4902  142.7   2.088   48.5  0.1934   64.7  0.2360  -65.0
 2.200  0.4964  140.5   2.002   46.3  0.2025   64.0  0.2364  -68.2
 2.300  0.5012  138.5   1.929   44.3  0.2119   63.2  0.2372  -71.4
 2.400  0.5066  136.6   1.858   42.2  0.2214   62.5  0.2388  -74.6
 2.500  0.5109  134.7   1.794   40.4  0.2305   61.7  0.2408  -77.8
 2.600  0.5157  132.8   1.732   38.4  0.2396   61.0  0.2436  -81.0
 2.700  0.5203  130.8   1.679   36.6  0.2488   60.1  0.2465  -84.0
 2.800  0.5255  128.9   1.627   34.7  0.2581   59.3  0.2500  -86.9
 2.900  0.5301  127.0   1.580   33.0  0.2676   58.4  0.2525  -89.8
 3.000  0.5352  125.1   1.535   31.1  0.2772   57.6  0.2557  -92.6
 3.100  0.5383  123.2   1.497   29.6  0.2865   56.6  0.2573  -95.4
 3.200  0.5419  121.4   1.459   28.1  0.2958   55.7  0.2595  -98.3
 3.300  0.5461  119.6   1.423   26.4  0.3053   54.8  0.2623 -101.0
 3.400  0.5509  117.8   1.388   24.7  0.3147   54.0  0.2657 -103.7
 3.500  0.5561  116.1   1.354   22.9  0.3243   53.2  0.2697 -106.3
 3.600  0.5603  114.4   1.325   21.5  0.3336   52.0  0.2698 -109.2
 3.700  0.5651  112.7   1.298   20.0  0.3430   50.9  0.2706 -112.2
 3.800  0.5702  111.1   1.271   18.5  0.3526   49.9  0.2721 -115.1
 3.900  0.5759  109.5   1.245   16.9  0.3622   48.9  0.2743 -118.0
 4.000  0.5820  107.9   1.220   15.3  0.3720   48.0  0.2772 -120.8
 4.100  0.5854  106.4   1.197   14.0  0.3809   46.8  0.2772 -124.2
 4.200  0.5892  104.9   1.174   12.6  0.3899   45.6  0.2782 -127.7
 4.300  0.5933  103.5   1.152   11.1  0.3990   44.5  0.2802 -131.0
 4.400  0.5979  102.0   1.130    9.7  0.4084   43.5  0.2832 -134.4
 4.500  0.6028  100.6   1.110    8.1  0.4178   42.5  0.2871 -137.6
 4.600  0.6078   99.2   1.089    7.0  0.4263   41.4  0.2898 -141.2
 4.700  0.6132   97.8   1.069    5.9  0.4349   40.3  0.2936 -144.8
 4.800  0.6189   96.4   1.049    4.8  0.4436   39.2  0.2986 -148.2
 4.900  0.6249   95.1   1.030    3.5  0.4525   38.2  0.3046 -151.5
 5.000  0.6313   93.8   1.011    2.3  0.4616   37.2  0.3115 -154.7
 5.100  0.6336   92.5   0.997    1.3  0.4694   36.0  0.3180 -157.8
 5.200  0.6362   91.2   0.983    0.3  0.4774   34.8  0.3253 -160.8
 5.300  0.6392   89.9   0.969   -0.7  0.4856   33.6  0.3335 -163.6
 5.400  0.6424   88.7   0.956   -1.7  0.4940   32.5  0.3424 -166.3
 5.500  0.6460   87.4   0.943   -2.8  0.5026   31.4  0.3521 -168.8
 5.600  0.6476   86.3   0.930   -3.6  0.5095   30.2  0.3580 -171.2
 5.700  0.6494   85.1   0.916   -4.4  0.5167   29.0  0.3644 -173.5
 5.800  0.6515   84.0   0.903   -5.3  0.5241   27.9  0.3715 -175.7
 5.900  0.6538   82.9   0.891   -6.2  0.5316   26.8  0.3790 -177.9
 6.000  0.6564   81.8   0.878   -7.1  0.5394   25.7  0.3871 -179.9
!
!  f       NFmin   Gammaopt  rn/50
! GHz       dB    MAG  ANG    -
 0.450      1.60  0.15  166   0.15
 0.900      1.88  0.24  177   0.16
 1.900      2.89  0.48 -138   0.24
 2.400      3.53  0.55 -126   0.48
!
! (c) 2017  Infineon Technologies AG, Munich