! Infineon Technologies  Discrete & RF Semiconductors
! BFR93AW
! VCE =  1.0 V,  IC =  33 mA
! Common Emitter S-Parameters:                            Jan 2017
# GHz  S  MA  R  50
!  f         S11            S21            S12            S22
! GHz     MAG   ANG      MAG   ANG      MAG   ANG      MAG   ANG
 0.010  0.3846  -25.6  49.910  169.7  0.0039   77.6  0.9264   -9.9
 0.020  0.4068  -48.4  48.224  160.2  0.0081   76.0  0.8853  -19.8
 0.030  0.3927  -65.6  44.076  153.8  0.0110   67.6  0.8125  -26.2
 0.040  0.4146  -82.4  40.583  146.2  0.0139   62.7  0.7515  -33.7
 0.050  0.4673  -96.5  37.925  137.4  0.0170   59.6  0.7055  -42.3
 0.060  0.4640 -104.2  35.068  134.6  0.0184   58.5  0.6531  -45.1
 0.070  0.4690 -111.8  32.310  131.3  0.0197   57.5  0.6025  -48.4
 0.080  0.4820 -119.1  29.678  127.4  0.0211   56.6  0.5543  -52.2
 0.090  0.5025 -126.0  27.209  122.8  0.0225   55.9  0.5090  -56.8
 0.100  0.5295 -132.2  24.951  117.3  0.0239   55.2  0.4676  -62.2
 0.110  0.5296 -135.6  23.491  115.8  0.0250   55.1  0.4411  -63.7
 0.120  0.5315 -138.9  22.051  114.1  0.0260   54.9  0.4149  -65.4
 0.130  0.5351 -142.2  20.632  112.1  0.0271   54.8  0.3891  -67.3
 0.140  0.5406 -145.5  19.241  109.9  0.0281   54.7  0.3639  -69.5
 0.150  0.5478 -148.7  17.884  107.3  0.0292   54.6  0.3392  -72.0
 0.200  0.5579 -158.1  13.786  101.1  0.0327   57.6  0.2662  -77.6
 0.250  0.5641 -164.4  11.217   96.5  0.0377   58.7  0.2209  -81.6
 0.300  0.5647 -169.2   9.410   93.4  0.0426   61.6  0.1890  -85.1
 0.350  0.5668 -172.4   8.273   91.2  0.0479   63.5  0.1702  -87.3
 0.400  0.5707 -175.6   7.153   88.2  0.0532   65.1  0.1517  -90.0
 0.450  0.5708 -178.2   6.448   86.4  0.0584   65.7  0.1409  -92.1
 0.500  0.5720  179.3   5.750   84.2  0.0637   66.2  0.1303  -94.6
 0.600  0.5776  175.3   4.826   80.6  0.0749   67.6  0.1171  -99.1
 0.700  0.5781  171.8   4.151   77.5  0.0854   68.2  0.1090 -102.8
 0.800  0.5801  168.5   3.649   74.3  0.0971   68.7  0.1047 -106.7
 0.900  0.5813  165.5   3.253   71.5  0.1080   68.2  0.1030 -111.1
 1.000  0.5855  162.7   2.953   68.7  0.1185   67.9  0.1019 -115.3
 1.100  0.5905  160.0   2.701   66.1  0.1303   67.6  0.1028 -118.8
 1.200  0.5927  157.3   2.487   63.5  0.1412   66.9  0.1037 -122.2
 1.300  0.5939  154.8   2.310   61.0  0.1521   66.1  0.1077 -125.8
 1.400  0.5990  152.5   2.165   58.6  0.1632   65.5  0.1113 -129.9
 1.500  0.6025  150.3   2.030   56.2  0.1741   64.5  0.1162 -133.3
 1.600  0.6063  147.8   1.921   53.8  0.1856   63.6  0.1212 -135.8
 1.700  0.6095  145.7   1.824   51.5  0.1964   62.8  0.1281 -138.9
 1.800  0.6140  143.3   1.739   49.1  0.2073   61.8  0.1342 -141.9
 1.900  0.6180  141.2   1.661   47.2  0.2179   60.8  0.1416 -144.4
 2.000  0.6196  139.1   1.587   44.8  0.2285   59.8  0.1498 -146.5
 2.100  0.6230  136.9   1.524   42.8  0.2390   58.7  0.1577 -148.9
 2.200  0.6273  134.8   1.464   40.6  0.2495   57.7  0.1658 -151.0
 2.300  0.6306  132.8   1.414   38.7  0.2599   56.6  0.1740 -152.9
 2.400  0.6346  130.8   1.366   36.7  0.2703   55.6  0.1823 -154.7
 2.500  0.6364  129.0   1.322   34.9  0.2801   54.4  0.1903 -156.4
 2.600  0.6388  127.2   1.279   33.0  0.2900   53.3  0.1984 -158.0
 2.700  0.6417  125.3   1.242   31.3  0.2999   52.2  0.2056 -159.5
 2.800  0.6453  123.4   1.206   29.6  0.3099   51.1  0.2129 -160.9
 2.900  0.6481  121.5   1.174   27.9  0.3196   50.0  0.2197 -162.7
 3.000  0.6517  119.6   1.144   26.2  0.3295   49.0  0.2266 -164.3
 3.100  0.6524  117.8   1.119   24.8  0.3385   47.8  0.2320 -166.2
 3.200  0.6538  116.0   1.094   23.4  0.3476   46.6  0.2377 -168.1
 3.300  0.6558  114.2   1.070   21.8  0.3568   45.5  0.2436 -169.8
 3.400  0.6584  112.5   1.047   20.3  0.3662   44.4  0.2498 -171.5
 3.500  0.6617  110.7   1.025   18.6  0.3757   43.4  0.2561 -173.1
 3.600  0.6634  109.1   1.006   17.3  0.3841   42.1  0.2611 -175.4
 3.700  0.6656  107.5   0.988   16.0  0.3926   40.8  0.2664 -177.6
 3.800  0.6684  105.9   0.970   14.7  0.4013   39.6  0.2722 -179.7
 3.900  0.6716  104.3   0.953   13.3  0.4102   38.5  0.2783  178.2
 4.000  0.6754  102.7   0.936   11.8  0.4193   37.4  0.2847  176.3
 4.100  0.6763  101.2   0.921   10.7  0.4266   36.1  0.2905  173.8
 4.200  0.6777   99.7   0.906    9.5  0.4341   34.9  0.2969  171.4
 4.300  0.6795   98.2   0.891    8.3  0.4418   33.7  0.3037  169.1
 4.400  0.6818   96.8   0.877    7.1  0.4497   32.6  0.3111  167.0
 4.500  0.6845   95.3   0.863    5.8  0.4578   31.5  0.3188  164.9
 4.600  0.6871   94.0   0.850    4.9  0.4642   30.3  0.3263  162.8
 4.700  0.6901   92.7   0.838    4.0  0.4707   29.2  0.3343  160.8
 4.800  0.6934   91.4   0.825    3.1  0.4775   28.0  0.3426  158.9
 4.900  0.6970   90.2   0.813    2.2  0.4844   27.0  0.3513  157.0
 5.000  0.7010   88.9   0.801    1.2  0.4915   25.9  0.3604  155.3
 5.100  0.7008   87.7   0.793    0.4  0.4972   24.7  0.3686  153.8
 5.200  0.7010   86.5   0.786   -0.4  0.5031   23.5  0.3769  152.4
 5.300  0.7014   85.3   0.778   -1.3  0.5092   22.4  0.3856  151.0
 5.400  0.7021   84.1   0.771   -2.1  0.5155   21.3  0.3944  149.7
 5.500  0.7032   82.9   0.764   -3.0  0.5220   20.2  0.4034  148.5
 5.600  0.7030   81.9   0.757   -3.7  0.5266   19.1  0.4086  147.3
 5.700  0.7029   80.8   0.749   -4.4  0.5313   18.1  0.4139  146.0
 5.800  0.7032   79.8   0.742   -5.1  0.5362   17.0  0.4195  144.9
 5.900  0.7036   78.7   0.735   -5.9  0.5413   16.0  0.4252  143.7
 6.000  0.7043   77.7   0.728   -6.6  0.5466   15.0  0.4311  142.6
!
!  f       NFmin   Gammaopt  rn/50
! GHz       dB    MAG  ANG    -
 0.450      1.88  0.20  177   0.16
 0.900      2.14  0.27 -173   0.16
 1.900      3.19  0.51 -134   0.30
 2.400      3.85  0.56 -124   0.58
!
! (c) 2017  Infineon Technologies AG, Munich