! Infineon Technologies  Discrete & RF Semiconductors
! BFR93AW
! VCE =  4.0 V,  IC =  24 mA
! Common Emitter S-Parameters:                            Jan 2017
# GHz  S  MA  R  50
!  f         S11            S21            S12            S22
! GHz     MAG   ANG      MAG   ANG      MAG   ANG      MAG   ANG
 0.010  0.5420  -12.2  43.756  173.0  0.0025   82.8  0.9800   -5.2
 0.020  0.5456  -24.1  43.407  166.6  0.0055   79.3  0.9662  -10.8
 0.030  0.5168  -34.4  41.263  161.3  0.0080   74.6  0.9244  -14.9
 0.040  0.5062  -45.5  39.512  155.4  0.0106   72.2  0.8878  -19.4
 0.050  0.5150  -56.6  38.209  149.1  0.0132   70.7  0.8571  -24.2
 0.060  0.4934  -63.7  36.051  145.9  0.0147   68.0  0.8155  -26.4
 0.070  0.4801  -71.4  34.017  142.4  0.0163   65.7  0.7752  -28.8
 0.080  0.4758  -79.3  32.130  138.4  0.0179   63.9  0.7363  -31.4
 0.090  0.4807  -87.3  30.416  134.0  0.0195   62.4  0.6992  -34.3
 0.100  0.4945  -94.9  28.908  129.0  0.0211   61.1  0.6642  -37.6
 0.110  0.4843  -99.4  27.462  127.1  0.0222   60.2  0.6360  -38.6
 0.120  0.4772 -104.0  26.049  125.0  0.0233   59.4  0.6079  -39.6
 0.130  0.4732 -108.7  24.675  122.6  0.0244   58.7  0.5801  -40.8
 0.140  0.4726 -113.5  23.348  120.0  0.0256   58.0  0.5525  -42.1
 0.150  0.4752 -118.3  22.075  117.1  0.0267   57.4  0.5253  -43.5
 0.200  0.4688 -133.1  17.525  109.3  0.0301   58.2  0.4378  -45.5
 0.250  0.4659 -143.7  14.485  103.6  0.0342   58.4  0.3814  -45.7
 0.300  0.4610 -151.1  12.256   99.7  0.0379   59.9  0.3403  -45.3
 0.350  0.4598 -156.4  10.825   97.0  0.0421   61.7  0.3165  -44.7
 0.400  0.4624 -161.6   9.425   93.5  0.0463   63.2  0.2927  -43.9
 0.450  0.4622 -165.4   8.511   91.4  0.0504   64.3  0.2787  -43.4
 0.500  0.4639 -169.1   7.611   88.9  0.0545   65.2  0.2648  -42.9
 0.600  0.4647 -174.8   6.399   85.1  0.0628   66.4  0.2480  -42.4
 0.700  0.4687 -179.6   5.514   81.8  0.0716   68.3  0.2356  -42.2
 0.800  0.4709  176.2   4.851   78.5  0.0812   68.9  0.2274  -42.8
 0.900  0.4703  172.5   4.319   75.6  0.0901   68.6  0.2211  -43.7
 1.000  0.4776  169.0   3.918   72.9  0.0993   69.1  0.2155  -45.0
 1.100  0.4813  165.8   3.578   70.3  0.1084   69.2  0.2117  -46.6
 1.200  0.4838  162.8   3.292   67.6  0.1171   68.8  0.2077  -48.1
 1.300  0.4871  160.2   3.052   65.2  0.1263   68.4  0.2048  -50.4
 1.400  0.4913  157.6   2.855   62.8  0.1363   68.1  0.2010  -52.9
 1.500  0.4980  155.2   2.675   60.4  0.1453   67.5  0.1988  -55.5
 1.600  0.5016  152.6   2.525   58.1  0.1551   67.1  0.1983  -58.2
 1.700  0.5035  150.3   2.391   55.8  0.1643   66.4  0.1965  -61.6
 1.800  0.5100  147.9   2.277   53.5  0.1741   65.7  0.1950  -64.7
 1.900  0.5144  145.9   2.170   51.5  0.1836   65.2  0.1952  -68.1
 2.000  0.5169  143.5   2.071   49.2  0.1930   64.4  0.1962  -71.7
 2.100  0.5223  141.4   1.987   47.2  0.2025   63.6  0.1971  -75.4
 2.200  0.5284  139.3   1.905   45.0  0.2120   62.9  0.1988  -79.0
 2.300  0.5327  137.3   1.835   43.0  0.2215   62.1  0.2010  -82.6
 2.400  0.5377  135.3   1.768   40.9  0.2311   61.3  0.2039  -86.1
 2.500  0.5417  133.4   1.708   39.1  0.2403   60.4  0.2075  -89.5
 2.600  0.5462  131.5   1.649   37.1  0.2496   59.5  0.2118  -92.8
 2.700  0.5504  129.6   1.598   35.4  0.2592   58.6  0.2157  -96.0
 2.800  0.5553  127.7   1.549   33.5  0.2688   57.7  0.2203  -99.0
 2.900  0.5592  125.8   1.505   31.7  0.2782   56.8  0.2238 -102.1
 3.000  0.5638  123.9   1.463   29.8  0.2877   55.9  0.2279 -105.0
 3.100  0.5666  122.1   1.426   28.3  0.2970   54.8  0.2306 -107.9
 3.200  0.5700  120.3   1.391   26.8  0.3064   53.8  0.2338 -110.8
 3.300  0.5740  118.5   1.356   25.2  0.3158   52.9  0.2377 -113.6
 3.400  0.5785  116.7   1.323   23.5  0.3254   52.0  0.2420 -116.2
 3.500  0.5835  115.0   1.291   21.7  0.3350   51.2  0.2469 -118.8
 3.600  0.5873  113.3   1.264   20.3  0.3442   50.0  0.2482 -121.9
 3.700  0.5917  111.6   1.238   18.9  0.3535   48.9  0.2502 -124.9
 3.800  0.5965  110.0   1.212   17.4  0.3629   47.8  0.2528 -127.9
 3.900  0.6018  108.4   1.188   15.8  0.3725   46.8  0.2562 -130.9
 4.000  0.6076  106.8   1.164   14.2  0.3822   45.8  0.2602 -133.7
 4.100  0.6105  105.3   1.142   12.9  0.3907   44.6  0.2618 -137.2
 4.200  0.6138  103.8   1.121   11.6  0.3994   43.4  0.2644 -140.6
 4.300  0.6174  102.4   1.100   10.2  0.4083   42.3  0.2679 -144.0
 4.400  0.6215  100.9   1.080    8.7  0.4173   41.2  0.2723 -147.3
 4.500  0.6260   99.5   1.061    7.2  0.4264   40.2  0.2775 -150.4
 4.600  0.6302   98.1   1.042    6.2  0.4345   39.0  0.2819 -153.9
 4.700  0.6348   96.8   1.023    5.1  0.4427   37.9  0.2873 -157.3
 4.800  0.6398   95.4   1.005    4.0  0.4512   36.8  0.2936 -160.5
 4.900  0.6451   94.1   0.987    2.8  0.4598   35.7  0.3008 -163.6
 5.000  0.6507   92.8   0.969    1.6  0.4685   34.7  0.3089 -166.5
 5.100  0.6525   91.5   0.956    0.7  0.4759   33.5  0.3164 -169.3
 5.200  0.6547   90.3   0.943   -0.3  0.4835   32.3  0.3247 -171.9
 5.300  0.6572   89.0   0.930   -1.3  0.4912   31.1  0.3336 -174.4
 5.400  0.6600   87.7   0.917   -2.3  0.4992   30.0  0.3431 -176.8
 5.500  0.6631   86.5   0.905   -3.3  0.5074   28.9  0.3531 -179.0
 5.600  0.6641   85.4   0.893   -4.1  0.5137   27.7  0.3594  178.9
 5.700  0.6654   84.3   0.881   -4.9  0.5202   26.6  0.3662  176.9
 5.800  0.6669   83.2   0.869   -5.7  0.5270   25.5  0.3734  175.0
 5.900  0.6686   82.1   0.857   -6.5  0.5339   24.4  0.3810  173.2
 6.000  0.6706   81.0   0.846   -7.4  0.5410   23.3  0.3890  171.4
!
!  f       NFmin   Gammaopt  rn/50
! GHz       dB    MAG  ANG    -
 0.450      1.63  0.16  169   0.16
 0.900      1.90  0.24  180   0.16
 1.900      2.91  0.49 -137   0.25
 2.400      3.56  0.55 -125   0.49
!
! (c) 2017  Infineon Technologies AG, Munich