! Infineon Technologies  Discrete & RF Semiconductors
! BFR93AW
! VCE =  2.0 V,  IC =  36 mA
! Common Emitter S-Parameters:                            Jan 2017
# GHz  S  MA  R  50
!  f         S11            S21            S12            S22
! GHz     MAG   ANG      MAG   ANG      MAG   ANG      MAG   ANG
 0.010  0.3867  -20.2  52.782  171.1  0.0029   83.1  0.9571   -7.5
 0.020  0.3995  -39.1  51.609  162.8  0.0058   77.5  0.9268  -15.2
 0.030  0.3814  -54.2  47.888  156.7  0.0083   70.6  0.8664  -20.4
 0.040  0.3913  -69.6  44.805  149.6  0.0108   66.9  0.8143  -26.4
 0.050  0.4271  -83.4  42.498  141.6  0.0134   64.6  0.7722  -33.1
 0.060  0.4190  -91.5  39.535  138.6  0.0148   63.3  0.7230  -35.4
 0.070  0.4195  -99.7  36.694  135.2  0.0163   62.2  0.6750  -38.0
 0.080  0.4285 -107.7  34.005  131.2  0.0177   61.3  0.6287  -41.0
 0.090  0.4455 -115.3  31.509  126.6  0.0192   60.5  0.5844  -44.5
 0.100  0.4696 -122.2  29.253  121.2  0.0206   59.8  0.5426  -48.5
 0.110  0.4679 -126.0  27.612  119.6  0.0215   59.5  0.5151  -49.4
 0.120  0.4683 -129.8  25.997  117.7  0.0224   59.3  0.4877  -50.5
 0.130  0.4708 -133.6  24.412  115.6  0.0232   59.1  0.4605  -51.6
 0.140  0.4753 -137.3  22.865  113.2  0.0241   58.9  0.4335  -52.9
 0.150  0.4818 -141.0  21.363  110.5  0.0250   58.7  0.4068  -54.4
 0.200  0.4900 -151.9  16.620  103.8  0.0289   60.9  0.3283  -56.4
 0.250  0.4975 -159.4  13.553   99.0  0.0335   62.7  0.2786  -56.8
 0.300  0.4974 -164.5  11.412   95.6  0.0380   64.4  0.2443  -56.7
 0.350  0.4998 -168.3  10.046   93.3  0.0424   66.1  0.2241  -56.4
 0.400  0.5043 -172.0   8.702   90.2  0.0468   67.4  0.2040  -56.1
 0.450  0.5049 -174.8   7.846   88.4  0.0520   68.4  0.1922  -55.8
 0.500  0.5066 -177.5   6.999   86.1  0.0572   69.2  0.1804  -55.4
 0.600  0.5100  177.9   5.877   82.6  0.0672   69.7  0.1654  -55.5
 0.700  0.5123  174.2   5.056   79.5  0.0768   70.8  0.1551  -55.9
 0.800  0.5163  170.9   4.444   76.3  0.0877   71.0  0.1481  -57.2
 0.900  0.5170  167.6   3.956   73.6  0.0974   70.4  0.1433  -59.0
 1.000  0.5240  164.7   3.588   70.9  0.1077   70.6  0.1380  -61.1
 1.100  0.5259  162.0   3.278   68.4  0.1177   69.7  0.1361  -63.4
 1.200  0.5306  159.1   3.016   65.8  0.1279   69.2  0.1331  -66.1
 1.300  0.5313  156.8   2.800   63.4  0.1374   68.7  0.1322  -69.6
 1.400  0.5362  154.5   2.619   60.9  0.1484   68.0  0.1304  -73.4
 1.500  0.5418  152.2   2.452   58.7  0.1588   67.4  0.1301  -77.3
 1.600  0.5453  149.6   2.317   56.3  0.1684   66.5  0.1317  -80.9
 1.700  0.5483  147.4   2.196   54.1  0.1787   65.8  0.1326  -85.3
 1.800  0.5540  145.2   2.090   51.8  0.1887   64.9  0.1342  -89.6
 1.900  0.5575  143.1   1.994   49.8  0.1988   64.0  0.1371  -93.7
 2.000  0.5593  141.1   1.903   47.5  0.2095   63.1  0.1415  -98.4
 2.100  0.5644  139.0   1.827   45.5  0.2194   62.1  0.1456 -102.5
 2.200  0.5702  136.9   1.753   43.3  0.2293   61.1  0.1504 -106.4
 2.300  0.5739  135.0   1.690   41.4  0.2390   60.1  0.1560 -110.2
 2.400  0.5782  133.1   1.629   39.3  0.2488   59.2  0.1623 -113.8
 2.500  0.5815  131.2   1.574   37.5  0.2585   58.2  0.1683 -117.1
 2.600  0.5855  129.4   1.520   35.5  0.2683   57.2  0.1749 -120.1
 2.700  0.5896  127.5   1.474   33.8  0.2780   56.2  0.1812 -123.0
 2.800  0.5943  125.6   1.430   32.0  0.2877   55.2  0.1880 -125.7
 2.900  0.5977  123.7   1.390   30.3  0.2974   54.1  0.1934 -128.4
 3.000  0.6017  121.9   1.352   28.5  0.3071   53.1  0.1993 -131.0
 3.100  0.6037  120.1   1.319   27.0  0.3161   51.9  0.2038 -133.7
 3.200  0.6063  118.3   1.287   25.5  0.3253   50.8  0.2087 -136.3
 3.300  0.6095  116.5   1.257   23.9  0.3346   49.8  0.2140 -138.8
 3.400  0.6133  114.7   1.227   22.2  0.3439   48.8  0.2197 -141.2
 3.500  0.6177  113.0   1.198   20.4  0.3534   47.9  0.2257 -143.4
 3.600  0.6208  111.4   1.174   19.1  0.3623   46.6  0.2290 -146.4
 3.700  0.6244  109.8   1.150   17.7  0.3713   45.5  0.2329 -149.2
 3.800  0.6285  108.2   1.127   16.3  0.3805   44.3  0.2373 -152.0
 3.900  0.6330  106.6   1.105   14.8  0.3898   43.2  0.2423 -154.7
 4.000  0.6380  105.1   1.084   13.2  0.3993   42.2  0.2478 -157.2
 4.100  0.6401  103.6   1.064   12.0  0.4072   40.9  0.2519 -160.4
 4.200  0.6426  102.1   1.045   10.7  0.4153   39.7  0.2568 -163.5
 4.300  0.6456  100.6   1.026    9.3  0.4236   38.6  0.2624 -166.5
 4.400  0.6490   99.2   1.008    7.9  0.4321   37.5  0.2687 -169.4
 4.500  0.6528   97.7   0.990    6.5  0.4407   36.4  0.2756 -172.1
 4.600  0.6564   96.4   0.973    5.5  0.4480   35.2  0.2822 -175.0
 4.700  0.6604   95.0   0.957    4.5  0.4554   34.1  0.2894 -177.8
 4.800  0.6647   93.7   0.940    3.5  0.4631   33.0  0.2973  179.6
 4.900  0.6693   92.5   0.925    2.4  0.4709   31.9  0.3058  177.1
 5.000  0.6743   91.2   0.909    1.3  0.4788   30.9  0.3149  174.7
 5.100  0.6751   90.0   0.898    0.4  0.4853   29.7  0.3234  172.6
 5.200  0.6763   88.7   0.887   -0.5  0.4921   28.5  0.3322  170.6
 5.300  0.6778   87.5   0.876   -1.4  0.4990   27.3  0.3415  168.8
 5.400  0.6795   86.3   0.865   -2.3  0.5062   26.2  0.3511  167.0
 5.500  0.6816   85.1   0.855   -3.3  0.5135   25.1  0.3610  165.3
 5.600  0.6820   84.0   0.844   -4.1  0.5191   24.0  0.3673  163.7
 5.700  0.6827   82.9   0.834   -4.8  0.5249   22.9  0.3739  162.1
 5.800  0.6837   81.8   0.824   -5.6  0.5309   21.8  0.3808  160.6
 5.900  0.6849   80.7   0.814   -6.5  0.5371   20.7  0.3879  159.2
 6.000  0.6863   79.6   0.804   -7.3  0.5434   19.7  0.3952  157.8
!
!  f       NFmin   Gammaopt  rn/50
! GHz       dB    MAG  ANG    -
 0.450      1.95  0.21  178   0.16
 0.900      2.22  0.28 -172   0.17
 1.900      3.28  0.52 -134   0.32
 2.400      3.96  0.56 -123   0.61
!
! (c) 2017  Infineon Technologies AG, Munich