! Infineon Technologies  Discrete & RF Semiconductors
! BFR93AW
! VCE =  3.0 V,  IC =  80 mA
! Common Emitter S-Parameters:                            Jan 2017
# GHz  S  MA  R  50
!  f         S11            S21            S12            S22
! GHz     MAG   ANG      MAG   ANG      MAG   ANG      MAG   ANG
 0.010  0.2283  -50.3  55.667  166.8  0.0032   68.9  0.8291  -10.5
 0.020  0.3083  -82.6  52.385  154.9  0.0062   73.0  0.7746  -21.1
 0.030  0.3369 -101.3  46.421  148.4  0.0082   64.3  0.6964  -26.2
 0.040  0.3943 -115.8  41.214  140.2  0.0103   59.1  0.6251  -32.6
 0.050  0.4701 -126.1  37.084  129.9  0.0125   55.7  0.5634  -40.4
 0.060  0.4789 -131.9  33.949  127.5  0.0135   56.0  0.5220  -41.7
 0.070  0.4923 -137.4  30.885  124.7  0.0146   56.3  0.4809  -43.2
 0.080  0.5101 -142.6  27.914  121.2  0.0156   56.5  0.4403  -45.0
 0.090  0.5317 -147.4  25.069  116.9  0.0167   56.7  0.4001  -47.1
 0.100  0.5568 -151.8  22.398  111.6  0.0177   56.9  0.3606  -49.7
 0.110  0.5595 -154.1  21.016  110.4  0.0185   57.6  0.3429  -49.8
 0.120  0.5630 -156.3  19.644  109.0  0.0192   58.3  0.3252  -49.9
 0.130  0.5673 -158.5  18.286  107.4  0.0200   59.0  0.3075  -50.1
 0.140  0.5725 -160.7  16.944  105.6  0.0207   59.6  0.2898  -50.2
 0.150  0.5785 -162.8  15.623  103.4  0.0215   60.1  0.2721  -50.4
 0.200  0.5892 -169.0  11.939   98.5  0.0254   64.0  0.2276  -48.8
 0.250  0.5953 -173.3   9.665   94.8  0.0306   66.3  0.2029  -47.1
 0.300  0.5956 -176.7   8.090   92.3  0.0347   69.0  0.1856  -46.0
 0.350  0.5964 -179.3   7.120   90.5  0.0399   70.1  0.1766  -45.5
 0.400  0.5983  178.2   6.160   88.1  0.0452   71.0  0.1677  -44.9
 0.450  0.5993  176.1   5.562   86.6  0.0501   71.8  0.1623  -45.2
 0.500  0.6011  174.1   4.968   84.7  0.0550   72.5  0.1570  -45.5
 0.600  0.6022  170.7   4.186   81.7  0.0656   73.2  0.1507  -47.1
 0.700  0.6034  167.7   3.618   79.0  0.0754   73.8  0.1458  -49.3
 0.800  0.6068  165.0   3.194   76.1  0.0866   73.7  0.1429  -52.2
 0.900  0.6046  162.0   2.857   73.6  0.0962   73.2  0.1400  -55.4
 1.000  0.6094  159.3   2.603   71.0  0.1065   72.9  0.1369  -59.3
 1.100  0.6127  156.7   2.390   68.6  0.1173   72.5  0.1361  -63.0
 1.200  0.6132  154.4   2.211   66.1  0.1275   71.6  0.1348  -67.0
 1.300  0.6145  151.8   2.061   63.7  0.1383   71.1  0.1348  -71.5
 1.400  0.6185  149.7   1.938   61.4  0.1492   70.4  0.1340  -76.4
 1.500  0.6218  147.4   1.825   59.2  0.1600   69.5  0.1347  -81.2
 1.600  0.6236  145.1   1.732   56.8  0.1701   68.7  0.1372  -85.7
 1.700  0.6259  142.9   1.649   54.6  0.1810   67.7  0.1388  -90.7
 1.800  0.6302  140.7   1.578   52.3  0.1920   66.7  0.1418  -95.7
 1.900  0.6327  138.7   1.512   50.4  0.2021   65.9  0.1456 -100.3
 2.000  0.6330  136.7   1.449   48.1  0.2128   64.7  0.1510 -105.0
 2.100  0.6358  134.5   1.396   46.1  0.2233   63.6  0.1559 -109.4
 2.200  0.6395  132.3   1.345   44.0  0.2339   62.6  0.1616 -113.5
 2.300  0.6423  130.5   1.303   42.1  0.2443   61.5  0.1679 -117.5
 2.400  0.6457  128.7   1.262   40.1  0.2548   60.4  0.1750 -121.1
 2.500  0.6474  126.8   1.223   38.3  0.2648   59.2  0.1816 -124.4
 2.600  0.6497  125.0   1.186   36.4  0.2749   58.1  0.1888 -127.5
 2.700  0.6516  123.1   1.155   34.7  0.2850   57.0  0.1953 -130.4
 2.800  0.6542  121.3   1.125   33.0  0.2952   56.0  0.2022 -133.2
 2.900  0.6566  119.4   1.097   31.4  0.3050   54.8  0.2081 -136.0
 3.000  0.6596  117.6   1.070   29.7  0.3150   53.7  0.2144 -138.6
 3.100  0.6602  115.8   1.048   28.3  0.3244   52.4  0.2187 -141.3
 3.200  0.6614  114.1   1.026   26.8  0.3339   51.2  0.2234 -144.0
 3.300  0.6632  112.3   1.005   25.3  0.3436   50.1  0.2286 -146.5
 3.400  0.6656  110.5   0.985   23.7  0.3534   49.0  0.2342 -148.9
 3.500  0.6687  108.8   0.966   22.1  0.3633   48.0  0.2402 -151.2
 3.600  0.6699  107.2   0.950   20.8  0.3720   46.7  0.2434 -154.1
 3.700  0.6716  105.6   0.934   19.5  0.3810   45.4  0.2472 -157.0
 3.800  0.6738  104.0   0.918   18.2  0.3901   44.2  0.2516 -159.7
 3.900  0.6766  102.4   0.903   16.8  0.3994   43.0  0.2565 -162.4
 4.000  0.6799  100.8   0.889   15.3  0.4088   41.9  0.2620 -164.9
 4.100  0.6803   99.4   0.876   14.2  0.4165   40.6  0.2661 -168.0
 4.200  0.6811   97.9   0.863   13.0  0.4245   39.3  0.2711 -171.1
 4.300  0.6824   96.5   0.851   11.8  0.4326   38.0  0.2767 -174.0
 4.400  0.6841   95.0   0.839   10.6  0.4410   36.8  0.2830 -176.7
 4.500  0.6862   93.6   0.827    9.3  0.4495   35.7  0.2900 -179.4
 4.600  0.6886   92.3   0.816    8.4  0.4565   34.5  0.2964  177.9
 4.700  0.6913   91.0   0.804    7.5  0.4637   33.3  0.3034  175.3
 4.800  0.6944   89.8   0.793    6.6  0.4711   32.2  0.3110  172.8
 4.900  0.6978   88.5   0.783    5.7  0.4787   31.1  0.3192  170.4
 5.000  0.7015   87.3   0.772    4.7  0.4864   30.0  0.3279  168.2
 5.100  0.7012   86.1   0.765    3.9  0.4925   28.8  0.3358  166.3
 5.200  0.7013   84.9   0.759    3.1  0.4988   27.5  0.3441  164.4
 5.300  0.7016   83.8   0.752    2.3  0.5054   26.4  0.3528  162.7
 5.400  0.7023   82.6   0.746    1.4  0.5121   25.2  0.3617  161.0
 5.500  0.7032   81.4   0.740    0.6  0.5191   24.1  0.3710  159.4
 5.600  0.7027   80.4   0.734   -0.1  0.5241   23.0  0.3764  157.9
 5.700  0.7024   79.3   0.728   -0.8  0.5293   21.8  0.3820  156.4
 5.800  0.7023   78.3   0.722   -1.5  0.5347   20.7  0.3878  155.0
 5.900  0.7025   77.2   0.716   -2.3  0.5403   19.7  0.3939  153.6
 6.000  0.7029   76.2   0.710   -3.0  0.5461   18.6  0.4002  152.3
!
!  f       NFmin   Gammaopt  rn/50
! GHz       dB    MAG  ANG    -
!
! noise parameter not available yet for this operation point!
!
! (c) 2017  Infineon Technologies AG, Munich