! Infineon Technologies  Discrete & RF Semiconductors
! BFR93AW
! VCE =  10. V,  IC =  16 mA
! Common Emitter S-Parameters:                            Jan 2017
# GHz  S  MA  R  50
!  f         S11            S21            S12            S22
! GHz     MAG   ANG      MAG   ANG      MAG   ANG      MAG   ANG
 0.010  0.6919   -8.0  33.872  174.4  0.0026   81.6  0.9865   -3.6
 0.020  0.6995  -16.0  33.977  169.7  0.0051   86.3  0.9711   -7.4
 0.030  0.6713  -23.1  32.851  165.3  0.0078   78.7  0.9486  -10.5
 0.040  0.6542  -30.7  31.929  160.7  0.0105   75.0  0.9291  -13.8
 0.050  0.6491  -38.6  31.229  155.8  0.0133   72.8  0.9128  -17.2
 0.060  0.6239  -44.3  29.921  152.7  0.0151   70.1  0.8823  -19.2
 0.070  0.6053  -50.3  28.708  149.3  0.0170   68.0  0.8530  -21.3
 0.080  0.5939  -56.7  27.603  145.7  0.0189   66.3  0.8249  -23.6
 0.090  0.5900  -63.3  26.620  141.7  0.0208   64.9  0.7983  -26.1
 0.100  0.5939  -69.8  25.772  137.5  0.0227   63.7  0.7732  -28.7
 0.110  0.5753  -74.0  24.705  135.4  0.0239   62.4  0.7473  -29.8
 0.120  0.5600  -78.4  23.674  133.1  0.0251   61.3  0.7217  -30.9
 0.130  0.5482  -83.1  22.685  130.6  0.0263   60.2  0.6963  -32.1
 0.140  0.5402  -87.9  21.743  127.9  0.0275   59.3  0.6713  -33.4
 0.150  0.5361  -92.8  20.855  124.9  0.0287   58.4  0.6467  -34.8
 0.200  0.5002 -109.7  17.117  116.1  0.0321   55.2  0.5568  -37.4
 0.250  0.4799 -122.7  14.423  109.6  0.0363   55.3  0.4942  -38.3
 0.300  0.4637 -132.3  12.347  104.9  0.0399   55.8  0.4475  -38.4
 0.350  0.4530 -139.2  10.958  101.7  0.0428   57.0  0.4193  -38.0
 0.400  0.4491 -146.4   9.612   97.7  0.0458   58.0  0.3912  -37.6
 0.450  0.4442 -151.4   8.702   95.4  0.0496   59.2  0.3745  -37.2
 0.500  0.4427 -156.5   7.809   92.5  0.0535   60.3  0.3579  -36.7
 0.600  0.4400 -164.4   6.593   88.1  0.0613   62.2  0.3366  -36.2
 0.700  0.4371 -170.4   5.686   84.4  0.0676   63.9  0.3228  -36.0
 0.800  0.4398 -175.6   5.013   80.9  0.0764   65.2  0.3132  -36.4
 0.900  0.4394  179.6   4.468   77.8  0.0832   65.7  0.3052  -37.2
 1.000  0.4451  175.6   4.053   75.0  0.0914   66.5  0.2983  -38.1
 1.100  0.4482  171.7   3.705   72.3  0.1000   67.1  0.2942  -39.3
 1.200  0.4503  168.0   3.411   69.5  0.1077   67.3  0.2898  -40.6
 1.300  0.4527  164.8   3.163   66.9  0.1158   67.2  0.2859  -42.5
 1.400  0.4578  161.9   2.960   64.5  0.1252   67.2  0.2818  -44.3
 1.500  0.4640  159.4   2.772   62.1  0.1331   67.2  0.2788  -46.4
 1.600  0.4666  156.4   2.615   59.6  0.1417   66.9  0.2775  -48.4
 1.700  0.4699  153.8   2.476   57.4  0.1508   66.7  0.2747  -51.0
 1.800  0.4759  151.1   2.359   55.0  0.1595   66.3  0.2725  -53.6
 1.900  0.4812  148.8   2.247   53.0  0.1684   65.9  0.2712  -56.3
 2.000  0.4849  146.7   2.144   50.6  0.1769   65.4  0.2707  -59.1
 2.100  0.4902  144.3   2.057   48.6  0.1863   64.8  0.2701  -62.0
 2.200  0.4964  141.9   1.973   46.4  0.1958   64.3  0.2703  -65.0
 2.300  0.5011  139.8   1.901   44.4  0.2047   63.7  0.2711  -68.1
 2.400  0.5065  137.8   1.831   42.2  0.2137   63.1  0.2726  -71.1
 2.500  0.5112  135.8   1.768   40.4  0.2228   62.4  0.2742  -74.1
 2.600  0.5165  133.8   1.706   38.4  0.2319   61.8  0.2766  -77.1
 2.700  0.5205  131.8   1.653   36.6  0.2412   61.0  0.2793  -80.0
 2.800  0.5251  129.9   1.602   34.7  0.2505   60.3  0.2827  -82.8
 2.900  0.5303  127.8   1.556   32.9  0.2600   59.5  0.2847  -85.6
 3.000  0.5362  125.8   1.512   31.0  0.2696   58.7  0.2874  -88.4
 3.100  0.5392  123.9   1.474   29.5  0.2791   57.8  0.2887  -91.1
 3.200  0.5429  122.0   1.436   27.9  0.2887   56.9  0.2907  -93.9
 3.300  0.5471  120.2   1.400   26.3  0.2983   56.1  0.2933  -96.5
 3.400  0.5518  118.4   1.366   24.5  0.3080   55.3  0.2965  -99.1
 3.500  0.5571  116.6   1.332   22.7  0.3178   54.6  0.3003 -101.7
 3.600  0.5611  114.9   1.303   21.3  0.3274   53.5  0.3000 -104.6
 3.700  0.5656  113.2   1.276   19.9  0.3372   52.4  0.3005 -107.5
 3.800  0.5706  111.5   1.249   18.3  0.3471   51.4  0.3017 -110.4
 3.900  0.5761  109.9   1.223   16.8  0.3570   50.4  0.3037 -113.2
 4.000  0.5820  108.3   1.198   15.1  0.3671   49.5  0.3064 -116.0
 4.100  0.5857  106.7   1.175   13.8  0.3763   48.3  0.3058 -119.4
 4.200  0.5897  105.2   1.152   12.4  0.3857   47.1  0.3062 -122.7
 4.300  0.5943  103.7   1.130   11.0  0.3952   46.0  0.3077 -126.1
 4.400  0.5992  102.2   1.109    9.5  0.4048   45.0  0.3102 -129.4
 4.500  0.6045  100.7   1.089    8.0  0.4146   44.0  0.3137 -132.6
 4.600  0.6095   99.2   1.069    6.9  0.4234   42.8  0.3156 -136.2
 4.700  0.6148   97.8   1.049    5.8  0.4323   41.7  0.3187 -139.7
 4.800  0.6206   96.4   1.030    4.7  0.4414   40.6  0.3230 -143.1
 4.900  0.6267   95.0   1.011    3.4  0.4507   39.6  0.3284 -146.5
 5.000  0.6331   93.7   0.992    2.2  0.4601   38.6  0.3349 -149.7
 5.100  0.6351   92.4   0.978    1.3  0.4684   37.3  0.3408 -152.9
 5.200  0.6375   91.1   0.964    0.3  0.4769   36.1  0.3476 -155.9
 5.300  0.6401   89.8   0.950   -0.7  0.4856   34.9  0.3555 -158.8
 5.400  0.6431   88.6   0.936   -1.7  0.4945   33.7  0.3642 -161.6
 5.500  0.6464   87.3   0.923   -2.7  0.5036   32.6  0.3737 -164.3
 5.600  0.6479   86.1   0.910   -3.5  0.5108   31.4  0.3791 -166.8
 5.700  0.6497   85.0   0.897   -4.3  0.5183   30.2  0.3852 -169.3
 5.800  0.6517   83.9   0.885   -5.1  0.5260   29.0  0.3920 -171.6
 5.900  0.6540   82.7   0.872   -6.0  0.5339   27.9  0.3995 -173.9
 6.000  0.6566   81.6   0.860   -6.9  0.5420   26.8  0.4075 -176.1
!
!  f       NFmin   Gammaopt  rn/50
! GHz       dB    MAG  ANG    -
 0.450      1.41  0.12  146   0.13
 0.900      1.69  0.23  168   0.14
 1.900      2.69  0.47 -141   0.21
 2.400      3.31  0.54 -127   0.41
!
! (c) 2017  Infineon Technologies AG, Munich