! Infineon Technologies  Discrete & RF Semiconductors
! BFR93AW
! VCE =  9.0 V,  IC =  18 mA
! Common Emitter S-Parameters:                            Jan 2017
# GHz  S  MA  R  50
!  f         S11            S21            S12            S22
! GHz     MAG   ANG      MAG   ANG      MAG   ANG      MAG   ANG
 0.010  0.6639   -8.7  36.312  174.1  0.0025   85.5  0.9864   -3.9
 0.020  0.6710  -17.2  36.137  169.1  0.0052   89.5  0.9694   -8.0
 0.030  0.6415  -24.8  34.885  164.5  0.0077   80.0  0.9442  -11.3
 0.040  0.6242  -33.0  33.874  159.6  0.0103   75.3  0.9222  -14.8
 0.050  0.6201  -41.4  33.126  154.4  0.0130   72.5  0.9038  -18.4
 0.060  0.5946  -47.3  31.637  151.3  0.0147   69.6  0.8705  -20.4
 0.070  0.5759  -53.7  30.251  147.9  0.0164   67.3  0.8384  -22.6
 0.080  0.5648  -60.4  28.982  144.1  0.0181   65.5  0.8076  -24.9
 0.090  0.5616  -67.2  27.848  140.1  0.0198   64.0  0.7782  -27.5
 0.100  0.5665  -74.1  26.864  135.7  0.0216   62.7  0.7505  -30.2
 0.110  0.5493  -78.4  25.696  133.6  0.0228   61.6  0.7242  -31.2
 0.120  0.5353  -82.9  24.565  131.3  0.0241   60.5  0.6982  -32.3
 0.130  0.5248  -87.6  23.477  128.8  0.0254   59.6  0.6725  -33.5
 0.140  0.5180  -92.5  22.437  126.1  0.0266   58.8  0.6471  -34.8
 0.150  0.5151  -97.5  21.454  123.1  0.0279   58.0  0.6220  -36.2
 0.200  0.4860 -114.5  17.479  114.5  0.0313   56.6  0.5326  -38.6
 0.250  0.4689 -127.0  14.646  108.2  0.0351   56.3  0.4713  -39.3
 0.300  0.4538 -136.3  12.492  103.7  0.0384   56.9  0.4261  -39.2
 0.350  0.4463 -142.9  11.079  100.6  0.0422   58.6  0.3992  -38.7
 0.400  0.4448 -149.6   9.706   96.7  0.0461   60.0  0.3723  -38.1
 0.450  0.4401 -154.5   8.782   94.5  0.0496   61.2  0.3563  -37.7
 0.500  0.4387 -159.4   7.875   91.7  0.0531   62.3  0.3403  -37.3
 0.600  0.4382 -166.6   6.639   87.5  0.0612   63.6  0.3205  -36.6
 0.700  0.4367 -172.4   5.725   83.9  0.0684   65.0  0.3075  -36.5
 0.800  0.4404 -177.3   5.044   80.5  0.0768   66.4  0.2975  -36.8
 0.900  0.4419  178.0   4.494   77.4  0.0846   66.7  0.2906  -37.6
 1.000  0.4437  174.1   4.075   74.6  0.0932   67.3  0.2839  -38.6
 1.100  0.4492  170.6   3.725   71.9  0.1018   67.7  0.2798  -39.8
 1.200  0.4515  167.2   3.429   69.2  0.1091   67.6  0.2754  -41.1
 1.300  0.4540  163.7   3.179   66.7  0.1178   67.8  0.2720  -43.0
 1.400  0.4595  161.3   2.972   64.2  0.1267   67.6  0.2678  -45.0
 1.500  0.4650  158.5   2.786   61.9  0.1353   67.4  0.2646  -47.1
 1.600  0.4688  155.7   2.629   59.4  0.1440   66.9  0.2635  -49.2
 1.700  0.4718  153.0   2.488   57.2  0.1527   67.0  0.2613  -51.9
 1.800  0.4775  150.5   2.370   54.9  0.1622   66.3  0.2588  -54.4
 1.900  0.4818  148.2   2.258   52.9  0.1703   65.8  0.2577  -57.2
 2.000  0.4846  146.0   2.155   50.6  0.1801   65.3  0.2574  -60.2
 2.100  0.4905  143.7   2.067   48.5  0.1891   64.7  0.2568  -63.2
 2.200  0.4971  141.4   1.982   46.3  0.1981   64.2  0.2570  -66.2
 2.300  0.5017  139.4   1.910   44.3  0.2074   63.5  0.2579  -69.4
 2.400  0.5070  137.4   1.840   42.2  0.2167   62.9  0.2596  -72.5
 2.500  0.5116  135.4   1.777   40.4  0.2258   62.1  0.2613  -75.6
 2.600  0.5168  133.4   1.715   38.4  0.2349   61.4  0.2637  -78.7
 2.700  0.5214  131.4   1.662   36.6  0.2443   60.6  0.2664  -81.6
 2.800  0.5267  129.4   1.610   34.7  0.2537   59.9  0.2698  -84.4
 2.900  0.5313  127.5   1.564   32.9  0.2632   59.1  0.2721  -87.2
 3.000  0.5364  125.6   1.520   31.0  0.2727   58.3  0.2750  -90.0
 3.100  0.5395  123.7   1.481   29.5  0.2821   57.3  0.2764  -92.8
 3.200  0.5432  121.8   1.444   27.9  0.2916   56.4  0.2784  -95.5
 3.300  0.5475  120.0   1.408   26.3  0.3012   55.6  0.2811  -98.3
 3.400  0.5523  118.2   1.373   24.5  0.3108   54.8  0.2844 -100.9
 3.500  0.5577  116.4   1.339   22.7  0.3205   54.0  0.2883 -103.5
 3.600  0.5617  114.7   1.311   21.3  0.3300   52.9  0.2882 -106.4
 3.700  0.5663  113.0   1.283   19.8  0.3396   51.8  0.2889 -109.3
 3.800  0.5712  111.4   1.256   18.3  0.3493   50.8  0.2903 -112.2
 3.900  0.5767  109.8   1.231   16.7  0.3591   49.8  0.2925 -115.0
 4.000  0.5826  108.2   1.206   15.1  0.3690   48.9  0.2953 -117.8
 4.100  0.5860  106.6   1.183   13.8  0.3781   47.7  0.2949 -121.2
 4.200  0.5898  105.1   1.160   12.5  0.3873   46.5  0.2955 -124.6
 4.300  0.5940  103.6   1.138   11.1  0.3967   45.4  0.2971 -128.0
 4.400  0.5987  102.1   1.117    9.6  0.4062   44.3  0.2998 -131.3
 4.500  0.6037  100.6   1.096    8.1  0.4159   43.3  0.3035 -134.6
 4.600  0.6088   99.2   1.076    7.0  0.4246   42.2  0.3057 -138.2
 4.700  0.6143   97.8   1.056    5.9  0.4334   41.0  0.3091 -141.8
 4.800  0.6202   96.4   1.037    4.7  0.4425   40.0  0.3137 -145.2
 4.900  0.6264   95.1   1.018    3.5  0.4516   39.0  0.3194 -148.6
 5.000  0.6329   93.8   0.999    2.3  0.4609   38.0  0.3261 -151.8
 5.100  0.6351   92.5   0.984    1.3  0.4691   36.7  0.3323 -154.9
 5.200  0.6376   91.2   0.970    0.3  0.4774   35.5  0.3394 -157.9
 5.300  0.6405   89.9   0.956   -0.7  0.4860   34.3  0.3474 -160.8
 5.400  0.6436   88.7   0.942   -1.7  0.4948   33.2  0.3563 -163.5
 5.500  0.6471   87.4   0.929   -2.8  0.5038   32.1  0.3659 -166.1
 5.600  0.6487   86.2   0.916   -3.6  0.5109   30.9  0.3714 -168.6
 5.700  0.6505   85.1   0.904   -4.4  0.5182   29.7  0.3776 -170.9
 5.800  0.6526   84.0   0.891   -5.3  0.5258   28.5  0.3844 -173.2
 5.900  0.6550   82.8   0.879   -6.1  0.5335   27.4  0.3917 -175.5
 6.000  0.6576   81.7   0.867   -7.0  0.5415   26.3  0.3997 -177.6
!
!  f       NFmin   Gammaopt  rn/50
! GHz       dB    MAG  ANG    -
 0.450      1.47  0.13  155   0.14
 0.900      1.74  0.23  172   0.15
 1.900      2.74  0.47 -140   0.22
 2.400      3.36  0.54 -127   0.43
!
! (c) 2017  Infineon Technologies AG, Munich