! Infineon Technologies  Discrete & RF Semiconductors
! BFR93AW
! VCE =  6.0 V,  IC =  23 mA
! Common Emitter S-Parameters:                            Jan 2017
# GHz  S  MA  R  50
!  f         S11            S21            S12            S22
! GHz     MAG   ANG      MAG   ANG      MAG   ANG      MAG   ANG
 0.010  0.5888  -10.7  41.580  173.4  0.0028   80.7  0.9820   -4.6
 0.020  0.5936  -21.2  41.209  167.6  0.0058   85.4  0.9645   -9.5
 0.030  0.5644  -30.2  39.436  162.5  0.0082   77.0  0.9306  -13.3
 0.040  0.5503  -39.9  38.002  157.0  0.0106   72.4  0.9011  -17.4
 0.050  0.5525  -49.8  36.946  151.1  0.0131   69.6  0.8764  -21.7
 0.060  0.5282  -56.4  35.017  147.9  0.0149   67.5  0.8380  -23.8
 0.070  0.5115  -63.6  33.206  144.4  0.0167   65.8  0.8009  -26.1
 0.080  0.5033  -71.1  31.534  140.5  0.0185   64.5  0.7653  -28.7
 0.090  0.5039  -78.7  30.024  136.2  0.0203   63.4  0.7312  -31.5
 0.100  0.5134  -86.2  28.700  131.5  0.0221   62.5  0.6991  -34.5
 0.110  0.4997  -90.6  27.321  129.5  0.0230   61.4  0.6715  -35.4
 0.120  0.4892  -95.2  25.978  127.4  0.0239   60.4  0.6441  -36.5
 0.130  0.4820 -100.0  24.676  124.9  0.0248   59.5  0.6169  -37.6
 0.140  0.4782 -104.9  23.423  122.3  0.0258   58.7  0.5900  -38.8
 0.150  0.4780 -109.9  22.227  119.3  0.0267   57.9  0.5634  -40.1
 0.200  0.4640 -125.8  17.811  111.2  0.0300   58.0  0.4755  -42.0
 0.250  0.4564 -137.4  14.798  105.3  0.0341   57.9  0.4169  -42.3
 0.300  0.4484 -145.5  12.549  101.2  0.0375   60.0  0.3744  -41.9
 0.350  0.4454 -151.3  11.097   98.4  0.0415   61.5  0.3499  -41.3
 0.400  0.4471 -157.2   9.680   94.7  0.0456   62.8  0.3255  -40.6
 0.450  0.4452 -161.3   8.749   92.6  0.0496   63.7  0.3111  -40.1
 0.500  0.4456 -165.4   7.832   90.0  0.0536   64.5  0.2967  -39.5
 0.600  0.4451 -171.9   6.592   86.0  0.0620   66.0  0.2788  -38.9
 0.700  0.4489 -176.7   5.681   82.6  0.0701   67.5  0.2666  -38.7
 0.800  0.4494  178.5   4.999   79.3  0.0795   68.7  0.2584  -39.2
 0.900  0.4520  174.6   4.452   76.4  0.0874   68.5  0.2515  -40.0
 1.000  0.4571  171.0   4.041   73.6  0.0966   68.8  0.2451  -41.0
 1.100  0.4605  167.7   3.690   71.1  0.1050   68.9  0.2416  -42.4
 1.200  0.4634  164.5   3.396   68.4  0.1141   68.4  0.2379  -43.9
 1.300  0.4651  161.6   3.147   65.9  0.1229   68.4  0.2345  -45.9
 1.400  0.4712  158.9   2.944   63.5  0.1326   68.3  0.2302  -48.1
 1.500  0.4772  156.4   2.757   61.2  0.1415   67.9  0.2277  -50.5
 1.600  0.4804  153.8   2.602   58.8  0.1506   67.3  0.2267  -52.8
 1.700  0.4830  151.3   2.464   56.6  0.1596   67.0  0.2245  -55.8
 1.800  0.4902  148.8   2.347   54.3  0.1692   66.3  0.2228  -58.6
 1.900  0.4954  146.7   2.236   52.3  0.1785   65.7  0.2221  -61.7
 2.000  0.4972  144.6   2.134   50.0  0.1874   65.0  0.2222  -65.0
 2.100  0.5025  142.3   2.047   47.9  0.1969   64.3  0.2221  -68.4
 2.200  0.5086  140.0   1.963   45.7  0.2065   63.6  0.2227  -71.7
 2.300  0.5132  138.0   1.892   43.8  0.2159   62.8  0.2244  -75.1
 2.400  0.5184  136.1   1.823   41.7  0.2253   62.0  0.2268  -78.4
 2.500  0.5224  134.1   1.760   39.8  0.2345   61.2  0.2291  -81.7
 2.600  0.5271  132.2   1.699   37.8  0.2437   60.4  0.2322  -85.0
 2.700  0.5320  130.3   1.647   36.1  0.2530   59.6  0.2354  -88.0
 2.800  0.5374  128.5   1.596   34.2  0.2623   58.8  0.2392  -91.0
 2.900  0.5418  126.5   1.550   32.5  0.2719   57.9  0.2420  -94.0
 3.000  0.5468  124.6   1.506   30.6  0.2815   57.0  0.2455  -96.9
 3.100  0.5498  122.8   1.469   29.1  0.2908   56.0  0.2474  -99.8
 3.200  0.5533  120.9   1.432   27.5  0.3002   55.0  0.2500 -102.6
 3.300  0.5573  119.1   1.397   25.9  0.3097   54.1  0.2531 -105.4
 3.400  0.5620  117.3   1.363   24.1  0.3193   53.3  0.2568 -108.1
 3.500  0.5671  115.6   1.330   22.3  0.3289   52.5  0.2611 -110.7
 3.600  0.5710  113.9   1.302   20.9  0.3382   51.3  0.2616 -113.7
 3.700  0.5754  112.3   1.275   19.5  0.3476   50.2  0.2628 -116.7
 3.800  0.5803  110.7   1.248   18.0  0.3571   49.2  0.2647 -119.6
 3.900  0.5856  109.1   1.223   16.4  0.3668   48.2  0.2673 -122.5
 4.000  0.5914  107.5   1.198   14.8  0.3765   47.3  0.2705 -125.3
 4.100  0.5947  106.0   1.175   13.5  0.3853   46.1  0.2710 -128.8
 4.200  0.5984  104.5   1.152   12.1  0.3943   44.9  0.2725 -132.3
 4.300  0.6025  103.1   1.130   10.7  0.4034   43.8  0.2750 -135.7
 4.400  0.6069  101.6   1.109    9.2  0.4127   42.7  0.2784 -139.0
 4.500  0.6118  100.2   1.089    7.7  0.4221   41.7  0.2828 -142.3
 4.600  0.6169   98.8   1.069    6.6  0.4303   40.5  0.2862 -145.9
 4.700  0.6224   97.4   1.049    5.5  0.4388   39.4  0.2906 -149.4
 4.800  0.6282   96.0   1.030    4.4  0.4474   38.3  0.2962 -152.8
 4.900  0.6344   94.6   1.011    3.2  0.4561   37.2  0.3027 -156.0
 5.000  0.6410   93.3   0.993    2.0  0.4650   36.2  0.3101 -159.1
 5.100  0.6428   92.0   0.980    1.1  0.4728   35.0  0.3171 -162.1
 5.200  0.6448   90.8   0.967    0.1  0.4808   33.8  0.3249 -165.0
 5.300  0.6472   89.5   0.954   -0.9  0.4889   32.6  0.3335 -167.7
 5.400  0.6499   88.2   0.941   -1.9  0.4973   31.5  0.3428 -170.3
 5.500  0.6529   87.0   0.929   -3.0  0.5059   30.4  0.3528 -172.7
 5.600  0.6542   85.9   0.916   -3.8  0.5126   29.2  0.3587 -175.0
 5.700  0.6557   84.8   0.903   -4.6  0.5195   28.1  0.3652 -177.1
 5.800  0.6574   83.7   0.890   -5.4  0.5266   26.9  0.3722 -179.2
 5.900  0.6594   82.6   0.877   -6.3  0.5339   25.9  0.3797  178.7
 6.000  0.6616   81.5   0.865   -7.2  0.5414   24.8  0.3876  176.8
!
!  f       NFmin   Gammaopt  rn/50
! GHz       dB    MAG  ANG    -
 0.450      1.60  0.15  166   0.15
 0.900      1.88  0.24  177   0.16
 1.900      2.89  0.48 -138   0.24
 2.400      3.53  0.55 -126   0.48
!
! (c) 2017  Infineon Technologies AG, Munich