! Infineon Technologies  Discrete & RF Semiconductors
! BFR93AW
! VCE =  3.0 V,  IC =  60 mA
! Common Emitter S-Parameters:                            Jan 2017
# GHz  S  MA  R  50
!  f         S11            S21            S12            S22
! GHz     MAG   ANG      MAG   ANG      MAG   ANG      MAG   ANG
 0.010  0.2952  -28.2  59.508  169.7  0.0026   78.7  0.9304   -8.0
 0.020  0.3245  -52.5  57.467  160.2  0.0053   74.7  0.8960  -16.6
 0.030  0.3203  -70.4  52.503  153.8  0.0075   68.9  0.8269  -21.7
 0.040  0.3465  -87.1  48.317  146.2  0.0097   65.8  0.7654  -27.6
 0.050  0.3970 -100.5  45.126  137.4  0.0119   63.8  0.7135  -34.5
 0.060  0.3976 -108.2  41.705  134.6  0.0131   62.6  0.6658  -36.3
 0.070  0.4052 -115.6  38.400  131.4  0.0142   61.7  0.6189  -38.3
 0.080  0.4194 -122.8  35.243  127.5  0.0154   60.8  0.5729  -40.7
 0.090  0.4396 -129.3  32.277  122.9  0.0165   60.1  0.5281  -43.5
 0.100  0.4650 -135.2  29.560  117.4  0.0177   59.5  0.4847  -46.8
 0.110  0.4665 -138.4  27.827  115.9  0.0185   60.0  0.4609  -47.3
 0.120  0.4695 -141.6  26.115  114.2  0.0193   60.4  0.4370  -47.8
 0.130  0.4739 -144.8  24.429  112.3  0.0201   60.9  0.4133  -48.4
 0.140  0.4798 -147.9  22.774  110.1  0.0209   61.2  0.3896  -49.1
 0.150  0.4870 -150.9  21.158  107.6  0.0217   61.6  0.3659  -49.8
 0.200  0.4974 -159.7  16.296  101.5  0.0255   63.9  0.3013  -49.5
 0.250  0.5042 -165.4  13.243   97.1  0.0304   66.2  0.2626  -48.3
 0.300  0.5061 -169.8  11.125   94.1  0.0341   68.1  0.2361  -47.2
 0.350  0.5074 -173.0   9.782   91.9  0.0393   70.0  0.2214  -46.3
 0.400  0.5102 -176.1   8.458   89.1  0.0445   71.4  0.2067  -45.2
 0.450  0.5121 -178.5   7.624   87.4  0.0496   71.7  0.1983  -44.8
 0.500  0.5148  179.2   6.799   85.3  0.0547   72.0  0.1900  -44.3
 0.600  0.5174  175.1   5.705   81.9  0.0643   72.8  0.1793  -44.5
 0.700  0.5205  171.9   4.907   79.0  0.0741   73.2  0.1725  -45.0
 0.800  0.5230  168.7   4.314   76.0  0.0846   73.5  0.1674  -46.6
 0.900  0.5245  165.7   3.842   73.3  0.0942   72.4  0.1634  -48.5
 1.000  0.5296  162.9   3.484   70.7  0.1043   72.7  0.1589  -50.7
 1.100  0.5336  160.3   3.185   68.2  0.1147   72.0  0.1575  -53.1
 1.200  0.5371  157.9   2.934   65.7  0.1243   71.2  0.1544  -55.9
 1.300  0.5403  155.3   2.720   63.3  0.1336   70.7  0.1532  -59.1
 1.400  0.5436  153.1   2.546   61.0  0.1444   70.0  0.1511  -62.7
 1.500  0.5470  150.9   2.387   58.7  0.1543   69.3  0.1499  -66.6
 1.600  0.5523  148.6   2.253   56.3  0.1646   68.5  0.1507  -70.4
 1.700  0.5553  146.4   2.137   54.2  0.1747   67.7  0.1507  -74.7
 1.800  0.5608  144.2   2.037   51.9  0.1845   66.8  0.1513  -78.8
 1.900  0.5659  142.2   1.941   50.0  0.1944   65.9  0.1533  -83.2
 2.000  0.5681  140.1   1.854   47.7  0.2053   65.0  0.1562  -87.5
 2.100  0.5717  137.9   1.780   45.7  0.2152   64.0  0.1592  -91.8
 2.200  0.5762  135.8   1.709   43.6  0.2251   63.0  0.1631  -96.0
 2.300  0.5802  134.0   1.647   41.7  0.2349   62.0  0.1677 -100.1
 2.400  0.5847  132.2   1.588   39.6  0.2448   61.1  0.1731 -104.0
 2.500  0.5884  130.3   1.535   37.8  0.2546   60.0  0.1784 -107.6
 2.600  0.5928  128.4   1.484   35.9  0.2644   59.0  0.1843 -111.0
 2.700  0.5957  126.6   1.439   34.2  0.2741   57.9  0.1899 -114.2
 2.800  0.5992  124.8   1.396   32.4  0.2839   56.9  0.1961 -117.2
 2.900  0.6030  122.9   1.358   30.7  0.2934   55.8  0.2011 -120.3
 3.000  0.6075  121.1   1.321   28.9  0.3031   54.7  0.2067 -123.2
 3.100  0.6095  119.3   1.289   27.5  0.3124   53.5  0.2105 -126.1
 3.200  0.6120  117.5   1.259   26.0  0.3218   52.4  0.2147 -128.9
 3.300  0.6151  115.8   1.229   24.4  0.3313   51.4  0.2195 -131.6
 3.400  0.6188  114.0   1.200   22.7  0.3409   50.4  0.2247 -134.2
 3.500  0.6231  112.3   1.172   21.0  0.3506   49.5  0.2304 -136.6
 3.600  0.6259  110.7   1.149   19.7  0.3595   48.2  0.2329 -139.7
 3.700  0.6293  109.0   1.126   18.3  0.3687   47.0  0.2361 -142.7
 3.800  0.6331  107.4   1.104   16.9  0.3779   45.8  0.2400 -145.6
 3.900  0.6375  105.9   1.083   15.4  0.3873   44.7  0.2444 -148.4
 4.000  0.6423  104.3   1.062   13.9  0.3969   43.7  0.2494 -151.1
 4.100  0.6442  102.8   1.043   12.7  0.4051   42.4  0.2527 -154.5
 4.200  0.6464  101.4   1.024   11.4  0.4134   41.2  0.2568 -157.8
 4.300  0.6491   99.9   1.005   10.1  0.4219   40.0  0.2618 -161.0
 4.400  0.6522   98.5   0.987    8.7  0.4306   38.9  0.2676 -164.1
 4.500  0.6557   97.1   0.970    7.3  0.4395   37.8  0.2741 -167.0
 4.600  0.6594   95.7   0.954    6.3  0.4469   36.6  0.2800 -170.1
 4.700  0.6635   94.4   0.938    5.4  0.4545   35.4  0.2867 -173.1
 4.800  0.6679   93.1   0.923    4.3  0.4623   34.3  0.2941 -175.9
 4.900  0.6727   91.8   0.908    3.3  0.4702   33.2  0.3022 -178.6
 5.000  0.6778   90.5   0.893    2.2  0.4783   32.2  0.3109  178.9
 5.100  0.6785   89.3   0.882    1.3  0.4850   31.0  0.3191  176.6
 5.200  0.6795   88.0   0.872    0.4  0.4920   29.8  0.3278  174.4
 5.300  0.6808   86.8   0.862   -0.5  0.4991   28.6  0.3369  172.4
 5.400  0.6824   85.6   0.852   -1.4  0.5065   27.5  0.3464  170.4
 5.500  0.6843   84.4   0.842   -2.4  0.5140   26.4  0.3563  168.6
 5.600  0.6848   83.3   0.832   -3.1  0.5196   25.2  0.3624  166.9
 5.700  0.6854   82.2   0.822   -3.9  0.5254   24.1  0.3688  165.2
 5.800  0.6864   81.2   0.813   -4.7  0.5315   23.0  0.3755  163.6
 5.900  0.6876   80.1   0.803   -5.5  0.5377   21.9  0.3825  162.1
 6.000  0.6890   79.0   0.794   -6.3  0.5441   20.8  0.3898  160.6
!
!  f       NFmin   Gammaopt  rn/50
! GHz       dB    MAG  ANG    -
!
! noise parameter not available yet for this operation point!
!
! (c) 2017  Infineon Technologies AG, Munich