! Infineon Technologies  Discrete & RF Semiconductors
! BFR93AW
! VCE =  2.0 V,  IC =  90 mA
! Common Emitter S-Parameters:                            Jan 2017
# GHz  S  MA  R  50
!  f         S11            S21            S12            S22
! GHz     MAG   ANG      MAG   ANG      MAG   ANG      MAG   ANG
 0.010  0.2321 -103.7  43.331  161.5  0.0053   54.2  0.6033  -18.8
 0.020  0.4088 -122.4  38.253  146.2  0.0091   53.5  0.5313  -35.7
 0.030  0.4662 -134.2  32.655  140.2  0.0113   49.9  0.4538  -42.4
 0.040  0.5388 -143.1  27.560  131.8  0.0135   47.5  0.3849  -51.7
 0.050  0.6212 -149.8  23.298  120.1  0.0157   45.8  0.3302  -64.5
 0.060  0.6318 -153.3  21.159  118.3  0.0165   47.1  0.3006  -66.9
 0.070  0.6445 -156.6  19.047  116.0  0.0173   48.4  0.2716  -69.9
 0.080  0.6594 -159.8  16.971  113.2  0.0181   49.5  0.2436  -73.6
 0.090  0.6762 -162.8  14.947  109.7  0.0190   50.5  0.2168  -78.2
 0.100  0.6948 -165.7  12.999  105.0  0.0198   51.4  0.1918  -84.0
 0.110  0.6970 -167.1  12.167  104.1  0.0207   52.6  0.1807  -85.6
 0.120  0.6995 -168.5  11.339  103.0  0.0217   53.7  0.1698  -87.4
 0.130  0.7025 -169.8  10.516  101.8  0.0226   54.6  0.1591  -89.4
 0.140  0.7059 -171.2   9.698  100.4  0.0235   55.6  0.1486  -91.7
 0.150  0.7096 -172.5   8.887   98.7  0.0245   56.4  0.1384  -94.4
 0.200  0.7152 -176.6   6.727   94.8  0.0291   60.9  0.1133 -101.2
 0.250  0.7183 -179.7   5.428   91.9  0.0350   63.9  0.0983 -106.1
 0.300  0.7160  177.9   4.545   89.9  0.0400   66.7  0.0903 -110.9
 0.350  0.7176  175.9   4.004   88.3  0.0456   68.0  0.0866 -114.1
 0.400  0.7200  173.9   3.467   86.1  0.0512   69.1  0.0832 -117.6
 0.450  0.7194  172.1   3.138   84.8  0.0571   69.9  0.0824 -120.3
 0.500  0.7196  170.2   2.811   83.1  0.0631   70.5  0.0817 -123.0
 0.600  0.7202  167.3   2.385   80.4  0.0745   71.3  0.0837 -128.0
 0.700  0.7197  164.6   2.077   77.8  0.0858   72.1  0.0862 -131.1
 0.800  0.7198  161.8   1.848   74.9  0.0980   71.7  0.0913 -134.2
 0.900  0.7180  159.0   1.669   72.4  0.1094   71.0  0.0971 -137.4
 1.000  0.7195  156.4   1.536   69.9  0.1211   70.6  0.1026 -140.7
 1.100  0.7226  153.9   1.425   67.4  0.1332   70.0  0.1092 -143.1
 1.200  0.7226  151.4   1.331   64.8  0.1446   69.0  0.1156 -145.9
 1.300  0.7221  149.1   1.253   62.5  0.1560   68.2  0.1235 -148.6
 1.400  0.7249  146.8   1.191   60.0  0.1682   67.3  0.1312 -151.2
 1.500  0.7272  144.7   1.132   57.7  0.1797   66.3  0.1394 -153.7
 1.600  0.7274  142.3   1.084   55.3  0.1918   65.3  0.1473 -155.6
 1.700  0.7274  140.0   1.043   53.1  0.2032   64.2  0.1565 -157.8
 1.800  0.7316  137.7   1.007   50.6  0.2149   63.0  0.1654 -160.1
 1.900  0.7318  135.7   0.973   48.8  0.2265   61.9  0.1743 -161.8
 2.000  0.7303  133.5   0.942   46.5  0.2379   60.7  0.1841 -163.5
 2.100  0.7317  131.3   0.914   44.5  0.2488   59.4  0.1930 -165.4
 2.200  0.7342  129.1   0.887   42.3  0.2599   58.3  0.2021 -167.1
 2.300  0.7345  127.2   0.866   40.5  0.2709   57.0  0.2112 -168.7
 2.400  0.7356  125.3   0.845   38.7  0.2820   55.8  0.2204 -170.2
 2.500  0.7352  123.4   0.826   37.0  0.2924   54.5  0.2285 -171.6
 2.600  0.7356  121.5   0.807   35.3  0.3029   53.3  0.2368 -172.9
 2.700  0.7359  119.6   0.792   33.7  0.3131   52.0  0.2440 -174.4
 2.800  0.7371  117.7   0.777   32.1  0.3234   50.8  0.2513 -175.8
 2.900  0.7369  115.8   0.763   30.7  0.3333   49.5  0.2580 -177.4
 3.000  0.7375  114.0   0.750   29.2  0.3433   48.2  0.2650 -179.0
 3.100  0.7360  112.2   0.740   27.9  0.3522   46.9  0.2700  179.2
 3.200  0.7352  110.4   0.730   26.6  0.3612   45.6  0.2752  177.5
 3.300  0.7352  108.6   0.721   25.3  0.3705   44.4  0.2807  175.9
 3.400  0.7359  106.8   0.712   23.9  0.3799   43.2  0.2864  174.3
 3.500  0.7373  105.0   0.703   22.5  0.3894   42.1  0.2923  172.8
 3.600  0.7364  103.4   0.696   21.4  0.3974   40.7  0.2968  170.7
 3.700  0.7362  101.8   0.689   20.3  0.4057   39.4  0.3017  168.6
 3.800  0.7365  100.1   0.682   19.1  0.4141   38.2  0.3069  166.7
 3.900  0.7374   98.5   0.675   18.0  0.4228   37.0  0.3126  164.7
 4.000  0.7389   96.9   0.669   16.8  0.4316   35.8  0.3185  162.9
 4.100  0.7369   95.5   0.663   15.8  0.4383   34.4  0.3239  160.7
 4.200  0.7354   94.1   0.658   14.8  0.4452   33.1  0.3298  158.5
 4.300  0.7344   92.7   0.653   13.8  0.4523   31.8  0.3361  156.5
 4.400  0.7338   91.2   0.648   12.8  0.4596   30.6  0.3429  154.5
 4.500  0.7336   89.8   0.643   11.8  0.4672   29.4  0.3500  152.6
 4.600  0.7340   88.6   0.639   11.1  0.4728   28.2  0.3568  150.8
 4.700  0.7347   87.4   0.634   10.3  0.4786   27.0  0.3640  149.0
 4.800  0.7358   86.2   0.630    9.6  0.4846   25.9  0.3715  147.3
 4.900  0.7371   85.0   0.626    8.8  0.4907   24.8  0.3794  145.7
 5.000  0.7388   83.8   0.622    8.0  0.4971   23.7  0.3875  144.1
 5.100  0.7369   82.6   0.621    7.3  0.5020   22.5  0.3942  142.8
 5.200  0.7353   81.5   0.620    6.5  0.5071   21.3  0.4010  141.6
 5.300  0.7339   80.3   0.620    5.8  0.5124   20.2  0.4081  140.4
 5.400  0.7329   79.2   0.619    5.0  0.5179   19.1  0.4153  139.2
 5.500  0.7322   78.0   0.619    4.3  0.5236   18.0  0.4227  138.1
 5.600  0.7306   77.0   0.617    3.6  0.5273   16.9  0.4262  137.0
 5.700  0.7291   76.1   0.616    3.0  0.5312   15.9  0.4298  136.0
 5.800  0.7279   75.1   0.614    2.3  0.5353   14.8  0.4335  135.0
 5.900  0.7269   74.2   0.612    1.7  0.5396   13.8  0.4374  134.0
 6.000  0.7261   73.2   0.611    1.0  0.5440   12.8  0.4414  133.0
!
!  f       NFmin   Gammaopt  rn/50
! GHz       dB    MAG  ANG    -
!
! noise parameter not available yet for this operation point!
!
! (c) 2017  Infineon Technologies AG, Munich