! Infineon Technologies  Discrete & RF Semiconductors
! BFR93AW
! VCE =  6.0 V,  IC =  25 mA
! Common Emitter S-Parameters:                            Jan 2017
# GHz  S  MA  R  50
!  f         S11            S21            S12            S22
! GHz     MAG   ANG      MAG   ANG      MAG   ANG      MAG   ANG
 0.010  0.5740  -11.0  43.192  173.2  0.0025   86.7  0.9808   -4.8
 0.020  0.5800  -22.1  43.071  167.2  0.0054   87.6  0.9600   -9.8
 0.030  0.5499  -31.4  41.025  162.0  0.0079   78.5  0.9249  -13.7
 0.040  0.5356  -41.5  39.346  156.4  0.0105   73.9  0.8944  -17.9
 0.050  0.5386  -51.8  38.080  150.3  0.0132   71.1  0.8690  -22.4
 0.060  0.5148  -58.6  36.018  147.1  0.0147   68.7  0.8298  -24.5
 0.070  0.4987  -65.8  34.079  143.6  0.0162   66.7  0.7919  -26.8
 0.080  0.4912  -73.5  32.283  139.7  0.0178   65.0  0.7553  -29.3
 0.090  0.4926  -81.2  30.657  135.3  0.0193   63.7  0.7203  -32.1
 0.100  0.5029  -88.8  29.228  130.5  0.0209   62.5  0.6872  -35.1
 0.110  0.4901  -93.2  27.805  128.6  0.0219   61.5  0.6594  -36.0
 0.120  0.4804  -97.9  26.418  126.4  0.0229   60.6  0.6318  -37.0
 0.130  0.4740 -102.7  25.073  124.0  0.0239   59.8  0.6044  -38.1
 0.140  0.4710 -107.6  23.775  121.4  0.0250   59.1  0.5772  -39.3
 0.150  0.4714 -112.5  22.535  118.4  0.0260   58.4  0.5503  -40.6
 0.200  0.4575 -128.1  17.991  110.5  0.0295   59.0  0.4629  -42.4
 0.250  0.4523 -139.3  14.911  104.7  0.0337   59.0  0.4062  -42.5
 0.300  0.4458 -147.2  12.640  100.6  0.0367   60.3  0.3653  -42.1
 0.350  0.4420 -152.9  11.173   97.9  0.0409   61.8  0.3416  -41.4
 0.400  0.4426 -158.6   9.740   94.3  0.0451   63.1  0.3179  -40.5
 0.450  0.4416 -162.7   8.798   92.2  0.0493   64.3  0.3040  -40.0
 0.500  0.4428 -166.7   7.870   89.7  0.0535   65.4  0.2901  -39.4
 0.600  0.4440 -172.9   6.623   85.8  0.0622   66.9  0.2728  -38.9
 0.700  0.4465 -177.9   5.703   82.4  0.0701   68.4  0.2609  -38.7
 0.800  0.4508  177.8   5.022   79.2  0.0793   69.0  0.2528  -39.1
 0.900  0.4503  173.8   4.473   76.3  0.0881   68.9  0.2461  -40.0
 1.000  0.4558  170.4   4.055   73.5  0.0974   69.1  0.2402  -41.0
 1.100  0.4599  167.0   3.706   71.0  0.1059   69.2  0.2370  -42.5
 1.200  0.4626  164.0   3.411   68.3  0.1141   68.9  0.2326  -43.9
 1.300  0.4659  161.2   3.161   65.9  0.1234   68.5  0.2295  -46.0
 1.400  0.4693  158.5   2.956   63.4  0.1329   68.5  0.2254  -48.2
 1.500  0.4748  156.0   2.770   61.2  0.1418   68.0  0.2229  -50.6
 1.600  0.4794  153.3   2.613   58.8  0.1513   67.5  0.2218  -53.0
 1.700  0.4821  151.1   2.474   56.6  0.1606   67.0  0.2195  -56.0
 1.800  0.4898  148.6   2.356   54.3  0.1703   66.4  0.2179  -58.8
 1.900  0.4930  146.4   2.245   52.3  0.1791   65.8  0.2172  -61.9
 2.000  0.4970  144.4   2.144   50.0  0.1882   65.0  0.2175  -65.3
 2.100  0.5022  142.0   2.057   47.9  0.1977   64.3  0.2174  -68.6
 2.200  0.5082  139.7   1.972   45.7  0.2073   63.6  0.2181  -71.9
 2.300  0.5127  137.8   1.900   43.8  0.2167   62.8  0.2197  -75.4
 2.400  0.5177  136.0   1.831   41.7  0.2261   62.0  0.2221  -78.9
 2.500  0.5217  134.0   1.767   39.9  0.2353   61.1  0.2246  -82.2
 2.600  0.5263  132.1   1.705   37.9  0.2446   60.3  0.2278  -85.4
 2.700  0.5307  130.2   1.653   36.2  0.2539   59.5  0.2310  -88.5
 2.800  0.5357  128.3   1.602   34.3  0.2633   58.7  0.2349  -91.5
 2.900  0.5404  126.3   1.557   32.6  0.2728   57.8  0.2376  -94.5
 3.000  0.5458  124.4   1.513   30.7  0.2824   56.9  0.2410  -97.4
 3.100  0.5487  122.6   1.475   29.2  0.2917   55.9  0.2430 -100.3
 3.200  0.5522  120.8   1.438   27.6  0.3010   54.9  0.2456 -103.1
 3.300  0.5562  119.0   1.403   26.0  0.3105   54.0  0.2488 -105.9
 3.400  0.5607  117.2   1.368   24.2  0.3200   53.1  0.2526 -108.6
 3.500  0.5658  115.5   1.335   22.4  0.3296   52.3  0.2569 -111.2
 3.600  0.5697  113.8   1.307   21.0  0.3388   51.1  0.2574 -114.2
 3.700  0.5741  112.2   1.280   19.5  0.3482   50.1  0.2586 -117.2
 3.800  0.5790  110.6   1.253   18.0  0.3577   49.0  0.2604 -120.2
 3.900  0.5843  109.0   1.228   16.4  0.3673   48.0  0.2630 -123.1
 4.000  0.5900  107.5   1.203   14.8  0.3770   47.1  0.2662 -125.9
 4.100  0.5935  106.0   1.180   13.5  0.3857   45.9  0.2668 -129.4
 4.200  0.5975  104.5   1.158   12.2  0.3946   44.7  0.2684 -132.8
 4.300  0.6018  103.0   1.136   10.8  0.4036   43.7  0.2710 -136.2
 4.400  0.6066  101.5   1.115    9.3  0.4127   42.6  0.2745 -139.6
 4.500  0.6117  100.1   1.095    7.8  0.4220   41.6  0.2789 -142.8
 4.600  0.6163   98.7   1.075    6.7  0.4303   40.4  0.2824 -146.4
 4.700  0.6214   97.3   1.055    5.6  0.4387   39.3  0.2869 -149.9
 4.800  0.6267   95.9   1.036    4.5  0.4473   38.2  0.2925 -153.3
 4.900  0.6324   94.6   1.017    3.3  0.4561   37.1  0.2991 -156.5
 5.000  0.6385   93.3   0.999    2.1  0.4650   36.1  0.3066 -159.6
 5.100  0.6406   92.0   0.985    1.1  0.4727   34.9  0.3136 -162.6
 5.200  0.6430   90.7   0.970    0.1  0.4806   33.7  0.3213 -165.4
 5.300  0.6457   89.5   0.957   -0.9  0.4886   32.5  0.3298 -168.1
 5.400  0.6487   88.2   0.943   -1.9  0.4969   31.4  0.3390 -170.7
 5.500  0.6520   87.0   0.930   -3.0  0.5054   30.3  0.3489 -173.1
 5.600  0.6534   85.9   0.917   -3.8  0.5121   29.1  0.3550 -175.4
 5.700  0.6551   84.7   0.905   -4.6  0.5191   27.9  0.3617 -177.5
 5.800  0.6571   83.6   0.893   -5.5  0.5263   26.8  0.3689 -179.6
 5.900  0.6593   82.5   0.881   -6.3  0.5336   25.7  0.3765  178.3
 6.000  0.6617   81.4   0.869   -7.2  0.5412   24.6  0.3846  176.4
!
!  f       NFmin   Gammaopt  rn/50
! GHz       dB    MAG  ANG    -
 0.450      1.66  0.17  171   0.16
 0.900      1.93  0.25 -177   0.16
 1.900      2.93  0.49 -136   0.25
 2.400      3.59  0.55 -125   0.50
!
! (c) 2017  Infineon Technologies AG, Munich