! Infineon Technologies  Discrete & RF Semiconductors
! BFR93AW
! VCE =  7.0 V,  IC =  10 mA
! Common Emitter S-Parameters:                            Jan 2017
# GHz  S  MA  R  50
!  f         S11            S21            S12            S22
! GHz     MAG   ANG      MAG   ANG      MAG   ANG      MAG   ANG
 0.010  0.7495   -6.7  25.688  175.6  0.0028   85.3  0.9936   -3.0
 0.020  0.7610  -13.5  25.913  171.5  0.0058   90.3  0.9845   -6.1
 0.030  0.7365  -19.5  25.259  167.7  0.0087   82.8  0.9675   -8.8
 0.040  0.7206  -25.9  24.724  163.7  0.0118   79.1  0.9528  -11.6
 0.050  0.7140  -32.5  24.315  159.5  0.0148   76.9  0.9403  -14.4
 0.060  0.6917  -37.6  23.512  156.5  0.0169   72.9  0.9157  -16.3
 0.070  0.6754  -43.1  22.776  153.4  0.0192   69.9  0.8922  -18.3
 0.080  0.6655  -48.8  22.114  150.0  0.0214   67.5  0.8699  -20.4
 0.090  0.6622  -54.5  21.533  146.4  0.0237   65.5  0.8488  -22.7
 0.100  0.6656  -60.3  21.040  142.7  0.0260   63.9  0.8291  -25.0
 0.110  0.6464  -64.3  20.299  140.5  0.0275   62.5  0.8056  -26.2
 0.120  0.6306  -68.6  19.590  138.1  0.0290   61.2  0.7825  -27.4
 0.130  0.6184  -73.1  18.916  135.6  0.0306   60.0  0.7598  -28.8
 0.140  0.6102  -77.7  18.282  132.9  0.0321   59.0  0.7375  -30.2
 0.150  0.6060  -82.4  17.692  130.0  0.0337   58.0  0.7157  -31.7
 0.200  0.5651  -99.4  14.896  120.8  0.0379   54.3  0.6266  -35.2
 0.250  0.5377 -113.1  12.739  113.6  0.0428   51.5  0.5594  -37.0
 0.300  0.5155 -123.4  11.032  108.4  0.0454   51.2  0.5076  -37.7
 0.350  0.5002 -131.1   9.833  104.8  0.0485   52.0  0.4748  -37.8
 0.400  0.4943 -139.1   8.682  100.3  0.0516   52.7  0.4421  -37.9
 0.450  0.4862 -144.7   7.878   97.6  0.0544   53.7  0.4222  -37.8
 0.500  0.4828 -150.4   7.095   94.4  0.0572   54.6  0.4023  -37.6
 0.600  0.4780 -159.0   6.010   89.6  0.0643   55.6  0.3770  -37.5
 0.700  0.4772 -165.9   5.195   85.5  0.0700   58.1  0.3600  -37.5
 0.800  0.4763 -171.6   4.587   81.7  0.0768   60.2  0.3479  -37.9
 0.900  0.4747 -176.9   4.092   78.3  0.0836   60.8  0.3389  -38.7
 1.000  0.4796  178.6   3.715   75.2  0.0908   62.2  0.3305  -39.8
 1.100  0.4822  174.5   3.398   72.3  0.0983   63.0  0.3257  -41.0
 1.200  0.4846  170.7   3.132   69.3  0.1057   63.6  0.3207  -42.4
 1.300  0.4868  167.2   2.903   66.6  0.1136   64.3  0.3166  -44.2
 1.400  0.4906  164.2   2.719   64.0  0.1212   64.5  0.3123  -46.2
 1.500  0.4954  161.1   2.547   61.5  0.1295   65.0  0.3093  -48.3
 1.600  0.5006  157.9   2.404   58.9  0.1380   65.2  0.3080  -50.5
 1.700  0.5036  155.4   2.277   56.6  0.1463   65.4  0.3049  -53.0
 1.800  0.5093  152.6   2.170   54.1  0.1547   65.1  0.3029  -55.5
 1.900  0.5141  150.2   2.068   52.0  0.1631   65.1  0.3020  -58.2
 2.000  0.5170  147.7   1.974   49.5  0.1725   64.7  0.3020  -61.1
 2.100  0.5222  145.2   1.894   47.4  0.1813   64.4  0.3014  -64.0
 2.200  0.5284  142.7   1.816   45.1  0.1902   64.1  0.3015  -66.9
 2.300  0.5329  140.5   1.749   43.1  0.1996   63.6  0.3027  -70.0
 2.400  0.5382  138.4   1.685   40.9  0.2091   63.2  0.3047  -73.0
 2.500  0.5427  136.3   1.627   39.0  0.2185   62.6  0.3066  -76.0
 2.600  0.5479  134.2   1.570   36.9  0.2279   62.1  0.3094  -79.0
 2.700  0.5521  132.1   1.521   35.1  0.2375   61.5  0.3125  -81.8
 2.800  0.5570  130.0   1.474   33.1  0.2472   60.9  0.3163  -84.6
 2.900  0.5617  127.9   1.432   31.3  0.2571   60.2  0.3185  -87.4
 3.000  0.5671  125.9   1.392   29.4  0.2670   59.5  0.3214  -90.2
 3.100  0.5698  123.9   1.356   27.9  0.2771   58.6  0.3229  -93.0
 3.200  0.5732  122.0   1.322   26.4  0.2873   57.7  0.3251  -95.8
 3.300  0.5773  120.1   1.288   24.7  0.2975   56.9  0.3281  -98.5
 3.400  0.5820  118.2   1.255   23.0  0.3078   56.1  0.3318 -101.2
 3.500  0.5873  116.3   1.224   21.2  0.3181   55.4  0.3362 -103.8
 3.600  0.5911  114.5   1.198   19.8  0.3284   54.3  0.3360 -106.7
 3.700  0.5955  112.7   1.172   18.4  0.3387   53.2  0.3366 -109.7
 3.800  0.6005  111.0   1.147   17.0  0.3492   52.2  0.3382 -112.6
 3.900  0.6060  109.3   1.123   15.4  0.3598   51.2  0.3406 -115.5
 4.000  0.6120  107.6   1.100   13.8  0.3705   50.3  0.3438 -118.3
 4.100  0.6146  106.0   1.078   12.5  0.3803   49.0  0.3432 -121.7
 4.200  0.6177  104.4   1.057   11.2  0.3902   47.8  0.3437 -125.1
 4.300  0.6212  102.8   1.037    9.9  0.4003   46.6  0.3455 -128.4
 4.400  0.6252  101.2   1.017    8.5  0.4106   45.5  0.3484 -131.7
 4.500  0.6297   99.7   0.998    7.0  0.4210   44.5  0.3525 -135.0
 4.600  0.6339   98.2   0.980    6.0  0.4303   43.2  0.3544 -138.5
 4.700  0.6386   96.8   0.962    5.0  0.4398   42.0  0.3576 -142.0
 4.800  0.6436   95.4   0.944    3.9  0.4495   40.9  0.3621 -145.5
 4.900  0.6491   94.0   0.927    2.8  0.4594   39.8  0.3678 -148.8
 5.000  0.6549   92.6   0.910    1.7  0.4694   38.7  0.3748 -152.0
 5.100  0.6563   91.3   0.897    0.9  0.4779   37.4  0.3804 -155.1
 5.200  0.6580   90.0   0.885    0.0  0.4867   36.1  0.3872 -158.2
 5.300  0.6601   88.7   0.873   -0.9  0.4957   34.8  0.3950 -161.1
 5.400  0.6625   87.4   0.861   -1.8  0.5050   33.7  0.4038 -163.9
 5.500  0.6653   86.1   0.849   -2.7  0.5144   32.5  0.4135 -166.6
 5.600  0.6658   84.9   0.838   -3.4  0.5217   31.2  0.4184 -169.1
 5.700  0.6666   83.8   0.827   -4.1  0.5292   30.0  0.4241 -171.5
 5.800  0.6677   82.6   0.816   -4.8  0.5370   28.7  0.4305 -173.9
 5.900  0.6691   81.5   0.805   -5.5  0.5450   27.5  0.4376 -176.2
 6.000  0.6707   80.3   0.794   -6.3  0.5533   26.4  0.4454 -178.4
!
!  f       NFmin   Gammaopt  rn/50
! GHz       dB    MAG  ANG    -
 0.450      1.25  0.15   94   0.13
 0.900      1.55  0.24  150   0.14
 1.900      2.61  0.47 -148   0.18
 2.400      3.24  0.54 -131   0.36
!
! (c) 2017  Infineon Technologies AG, Munich