! Infineon Technologies  Discrete & RF Semiconductors
! BFR93AW
! VCE =  8.0 V,  IC =  16 mA
! Common Emitter S-Parameters:                            Jan 2017
# GHz  S  MA  R  50
!  f         S11            S21            S12            S22
! GHz     MAG   ANG      MAG   ANG      MAG   ANG      MAG   ANG
 0.010  0.6760   -8.4  34.163  174.4  0.0028   80.3  0.9879   -3.7
 0.020  0.6842  -16.7  34.201  169.5  0.0058   87.1  0.9742   -7.7
 0.030  0.6555  -24.0  33.048  165.0  0.0083   79.3  0.9499  -10.9
 0.040  0.6384  -31.9  32.108  160.3  0.0109   75.2  0.9287  -14.3
 0.050  0.6338  -40.0  31.401  155.3  0.0136   72.7  0.9109  -17.8
 0.060  0.6089  -45.8  30.054  152.2  0.0155   69.9  0.8790  -19.8
 0.070  0.5908  -52.1  28.804  148.8  0.0173   67.7  0.8484  -22.0
 0.080  0.5800  -58.6  27.664  145.1  0.0192   65.9  0.8191  -24.4
 0.090  0.5771  -65.3  26.649  141.1  0.0212   64.4  0.7912  -26.9
 0.100  0.5821  -72.0  25.774  136.8  0.0231   63.2  0.7650  -29.6
 0.110  0.5645  -76.3  24.682  134.7  0.0242   61.8  0.7389  -30.7
 0.120  0.5502  -80.8  23.627  132.4  0.0254   60.6  0.7130  -31.8
 0.130  0.5395  -85.6  22.613  129.9  0.0265   59.4  0.6875  -33.0
 0.140  0.5327  -90.5  21.645  127.2  0.0277   58.4  0.6623  -34.4
 0.150  0.5299  -95.5  20.732  124.2  0.0289   57.4  0.6375  -35.8
 0.200  0.4994 -112.3  16.979  115.5  0.0327   56.1  0.5473  -38.4
 0.250  0.4812 -125.0  14.271  109.0  0.0365   55.0  0.4839  -39.3
 0.300  0.4663 -134.5  12.204  104.4  0.0396   55.2  0.4369  -39.4
 0.350  0.4571 -141.2  10.826  101.3  0.0432   56.8  0.4091  -39.0
 0.400  0.4544 -148.1   9.491   97.2  0.0469   58.2  0.3813  -38.6
 0.450  0.4493 -153.1   8.592   94.9  0.0503   59.5  0.3644  -38.2
 0.500  0.4477 -158.2   7.710   92.1  0.0538   60.6  0.3475  -37.7
 0.600  0.4480 -165.6   6.505   87.7  0.0616   62.5  0.3267  -37.3
 0.700  0.4476 -171.6   5.611   84.1  0.0686   64.3  0.3126  -37.0
 0.800  0.4496 -176.8   4.945   80.6  0.0769   65.4  0.3027  -37.6
 0.900  0.4499  178.8   4.405   77.5  0.0847   66.0  0.2953  -38.2
 1.000  0.4548  174.5   4.001   74.6  0.0930   66.6  0.2880  -39.2
 1.100  0.4571  170.7   3.654   71.9  0.1013   66.9  0.2843  -40.4
 1.200  0.4599  167.4   3.364   69.1  0.1090   67.1  0.2794  -41.9
 1.300  0.4619  164.3   3.119   66.6  0.1177   67.1  0.2762  -43.6
 1.400  0.4679  161.4   2.918   64.1  0.1267   67.1  0.2714  -45.7
 1.500  0.4731  158.8   2.734   61.8  0.1349   67.1  0.2690  -47.8
 1.600  0.4758  155.9   2.579   59.3  0.1436   66.9  0.2677  -50.1
 1.700  0.4808  153.4   2.443   57.0  0.1524   66.6  0.2647  -52.6
 1.800  0.4865  150.9   2.326   54.7  0.1615   66.0  0.2629  -55.2
 1.900  0.4912  148.6   2.217   52.6  0.1705   65.7  0.2617  -57.9
 2.000  0.4931  146.1   2.116   50.3  0.1795   65.2  0.2616  -60.9
 2.100  0.4986  143.8   2.030   48.2  0.1888   64.6  0.2610  -63.9
 2.200  0.5049  141.5   1.947   46.0  0.1981   64.1  0.2612  -67.0
 2.300  0.5096  139.4   1.875   44.0  0.2072   63.4  0.2624  -70.2
 2.400  0.5150  137.4   1.806   41.9  0.2163   62.8  0.2644  -73.3
 2.500  0.5193  135.3   1.744   40.0  0.2255   62.1  0.2661  -76.4
 2.600  0.5242  133.3   1.684   38.0  0.2348   61.5  0.2686  -79.4
 2.700  0.5286  131.4   1.632   36.2  0.2443   60.7  0.2715  -82.3
 2.800  0.5335  129.5   1.582   34.3  0.2538   59.9  0.2750  -85.2
 2.900  0.5381  127.5   1.536   32.6  0.2633   59.1  0.2773  -88.1
 3.000  0.5433  125.5   1.491   30.7  0.2728   58.3  0.2802  -90.9
 3.100  0.5465  123.6   1.453   29.2  0.2823   57.3  0.2817  -93.7
 3.200  0.5503  121.7   1.417   27.6  0.2919   56.5  0.2838  -96.4
 3.300  0.5547  119.9   1.382   25.9  0.3015   55.6  0.2865  -99.2
 3.400  0.5596  118.1   1.348   24.2  0.3112   54.8  0.2899 -101.8
 3.500  0.5651  116.3   1.315   22.3  0.3210   54.1  0.2939 -104.4
 3.600  0.5691  114.6   1.287   20.9  0.3307   52.9  0.2939 -107.3
 3.700  0.5737  112.9   1.260   19.5  0.3405   51.8  0.2946 -110.2
 3.800  0.5787  111.2   1.233   18.0  0.3504   50.8  0.2962 -113.1
 3.900  0.5843  109.5   1.208   16.4  0.3604   49.8  0.2984 -116.0
 4.000  0.5903  107.9   1.183   14.8  0.3705   48.9  0.3014 -118.8
 4.100  0.5936  106.4   1.160   13.5  0.3797   47.7  0.3011 -122.2
 4.200  0.5973  104.8   1.138   12.1  0.3890   46.5  0.3018 -125.6
 4.300  0.6014  103.3   1.117   10.7  0.3985   45.4  0.3036 -128.9
 4.400  0.6060  101.9   1.096    9.2  0.4081   44.4  0.3065 -132.3
 4.500  0.6109  100.4   1.076    7.7  0.4178   43.4  0.3103 -135.5
 4.600  0.6157   99.0   1.056    6.6  0.4266   42.2  0.3126 -139.1
 4.700  0.6209   97.5   1.036    5.5  0.4355   41.1  0.3161 -142.6
 4.800  0.6265   96.1   1.017    4.4  0.4446   40.0  0.3208 -146.1
 4.900  0.6324   94.7   0.998    3.2  0.4539   38.9  0.3266 -149.4
 5.000  0.6387   93.4   0.980    2.0  0.4633   37.9  0.3335 -152.6
 5.100  0.6406   92.1   0.966    1.1  0.4714   36.6  0.3397 -155.7
 5.200  0.6429   90.8   0.952    0.1  0.4797   35.4  0.3468 -158.8
 5.300  0.6455   89.5   0.939   -0.9  0.4883   34.2  0.3549 -161.6
 5.400  0.6484   88.3   0.926   -1.9  0.4970   33.0  0.3639 -164.4
 5.500  0.6516   87.0   0.913   -2.9  0.5060   31.9  0.3736 -167.0
 5.600  0.6532   85.9   0.900   -3.7  0.5131   30.7  0.3791 -169.4
 5.700  0.6550   84.7   0.888   -4.4  0.5205   29.5  0.3853 -171.8
 5.800  0.6570   83.6   0.875   -5.2  0.5281   28.3  0.3922 -174.1
 5.900  0.6593   82.5   0.863   -6.1  0.5359   27.2  0.3996 -176.3
 6.000  0.6619   81.4   0.851   -6.9  0.5439   26.1  0.4076 -178.4
!
!  f       NFmin   Gammaopt  rn/50
! GHz       dB    MAG  ANG    -
 0.450      1.41  0.12  146   0.13
 0.900      1.69  0.23  168   0.14
 1.900      2.69  0.47 -141   0.21
 2.400      3.31  0.54 -127   0.41
!
! (c) 2017  Infineon Technologies AG, Munich