! Infineon Technologies  Discrete & RF Semiconductors
! BFR93AW
! VCE =  4.0 V,  IC =  18 mA
! Common Emitter S-Parameters:                            Jan 2017
# GHz  S  MA  R  50
!  f         S11            S21            S12            S22
! GHz     MAG   ANG      MAG   ANG      MAG   ANG      MAG   ANG
 0.010  0.6053  -10.4  37.870  173.8  0.0029   85.2  0.9855   -4.6
 0.020  0.6115  -20.6  37.818  168.2  0.0057   83.3  0.9673   -9.4
 0.030  0.5822  -29.5  36.233  163.2  0.0084   75.2  0.9350  -13.2
 0.040  0.5681  -39.1  34.946  157.8  0.0112   71.1  0.9072  -17.3
 0.050  0.5706  -48.9  33.988  152.1  0.0141   68.6  0.8842  -21.6
 0.060  0.5468  -55.5  32.280  148.9  0.0159   66.3  0.8463  -23.8
 0.070  0.5310  -62.7  30.682  145.4  0.0178   64.5  0.8097  -26.2
 0.080  0.5239  -70.1  29.212  141.5  0.0196   63.0  0.7747  -28.8
 0.090  0.5257  -77.7  27.889  137.3  0.0215   61.7  0.7414  -31.7
 0.100  0.5365  -85.0  26.736  132.6  0.0234   60.7  0.7102  -34.8
 0.110  0.5231  -89.5  25.490  130.6  0.0244   59.6  0.6823  -35.9
 0.120  0.5130  -94.1  24.279  128.4  0.0255   58.6  0.6547  -37.0
 0.130  0.5064  -99.0  23.108  125.9  0.0265   57.7  0.6273  -38.3
 0.140  0.5035 -103.9  21.984  123.2  0.0275   56.9  0.6003  -39.7
 0.150  0.5043 -108.8  20.915  120.2  0.0286   56.1  0.5737  -41.2
 0.200  0.4897 -125.0  16.825  111.9  0.0325   55.6  0.4819  -43.7
 0.250  0.4811 -136.6  14.007  105.8  0.0366   55.7  0.4205  -44.5
 0.300  0.4750 -144.7  11.918  101.6  0.0397   56.9  0.3762  -44.4
 0.350  0.4711 -150.7  10.537   98.7  0.0435   58.8  0.3495  -44.0
 0.400  0.4723 -156.7   9.191   94.9  0.0473   60.4  0.3228  -43.5
 0.450  0.4691 -160.9   8.307   92.8  0.0513   61.4  0.3072  -43.1
 0.500  0.4685 -165.1   7.437   90.1  0.0553   62.2  0.2916  -42.6
 0.600  0.4717 -171.5   6.265   86.0  0.0639   63.8  0.2719  -42.2
 0.700  0.4735 -176.6   5.400   82.5  0.0715   65.4  0.2586  -42.0
 0.800  0.4758  178.8   4.754   79.1  0.0804   66.6  0.2489  -42.5
 0.900  0.4763  174.7   4.233   76.0  0.0889   66.6  0.2422  -43.4
 1.000  0.4810  171.1   3.841   73.2  0.0976   67.4  0.2358  -44.6
 1.100  0.4863  167.8   3.512   70.6  0.1069   67.6  0.2324  -46.0
 1.200  0.4884  164.6   3.231   67.9  0.1155   67.4  0.2276  -47.7
 1.300  0.4910  161.6   2.995   65.3  0.1237   67.2  0.2247  -49.8
 1.400  0.4962  159.0   2.803   62.8  0.1339   67.1  0.2204  -52.2
 1.500  0.5004  156.5   2.625   60.5  0.1427   66.9  0.2183  -54.7
 1.600  0.5050  153.7   2.479   58.0  0.1519   66.5  0.2177  -57.3
 1.700  0.5082  151.3   2.347   55.8  0.1612   66.0  0.2155  -60.5
 1.800  0.5131  148.8   2.236   53.4  0.1703   65.3  0.2142  -63.5
 1.900  0.5185  146.6   2.130   51.4  0.1798   64.9  0.2142  -66.7
 2.000  0.5215  144.4   2.033   49.1  0.1890   64.2  0.2149  -70.2
 2.100  0.5264  142.1   1.951   47.0  0.1985   63.5  0.2154  -73.7
 2.200  0.5321  139.8   1.871   44.8  0.2081   62.8  0.2167  -77.2
 2.300  0.5366  137.8   1.802   42.8  0.2177   62.0  0.2190  -80.7
 2.400  0.5418  135.9   1.736   40.7  0.2273   61.3  0.2221  -84.1
 2.500  0.5458  133.9   1.677   38.8  0.2366   60.5  0.2253  -87.4
 2.600  0.5505  131.9   1.619   36.8  0.2459   59.7  0.2292  -90.6
 2.700  0.5547  130.0   1.569   35.0  0.2555   58.9  0.2328  -93.7
 2.800  0.5595  128.2   1.521   33.1  0.2651   58.1  0.2371  -96.7
 2.900  0.5640  126.2   1.478   31.4  0.2748   57.2  0.2407  -99.7
 3.000  0.5692  124.3   1.436   29.5  0.2845   56.4  0.2449 -102.6
 3.100  0.5716  122.4   1.400   28.0  0.2940   55.3  0.2474 -105.5
 3.200  0.5746  120.6   1.365   26.5  0.3035   54.3  0.2505 -108.4
 3.300  0.5782  118.8   1.331   24.8  0.3132   53.4  0.2542 -111.2
 3.400  0.5824  117.0   1.299   23.1  0.3229   52.5  0.2585 -113.9
 3.500  0.5871  115.2   1.267   21.3  0.3327   51.7  0.2634 -116.5
 3.600  0.5908  113.5   1.241   19.9  0.3421   50.5  0.2645 -119.6
 3.700  0.5950  111.8   1.215   18.4  0.3516   49.4  0.2664 -122.6
 3.800  0.5998  110.1   1.190   16.9  0.3613   48.3  0.2690 -125.6
 3.900  0.6050  108.5   1.166   15.3  0.3710   47.3  0.2723 -128.5
 4.000  0.6107  106.9   1.143   13.7  0.3809   46.4  0.2763 -131.3
 4.100  0.6137  105.4   1.121   12.4  0.3897   45.2  0.2776 -134.8
 4.200  0.6171  103.8   1.099   11.1  0.3987   44.0  0.2800 -138.2
 4.300  0.6209  102.3   1.078    9.8  0.4078   42.8  0.2833 -141.6
 4.400  0.6251  100.9   1.058    8.4  0.4171   41.7  0.2876 -144.9
 4.500  0.6298   99.4   1.038    6.9  0.4265   40.7  0.2928 -148.1
 4.600  0.6342   98.0   1.019    5.9  0.4347   39.5  0.2969 -151.6
 4.700  0.6389   96.6   1.001    4.8  0.4432   38.4  0.3020 -155.0
 4.800  0.6440   95.3   0.983    3.7  0.4518   37.3  0.3081 -158.2
 4.900  0.6495   93.9   0.966    2.6  0.4605   36.2  0.3152 -161.3
 5.000  0.6553   92.6   0.949    1.4  0.4694   35.2  0.3232 -164.3
 5.100  0.6567   91.3   0.936    0.5  0.4770   33.9  0.3305 -167.2
 5.200  0.6584   90.1   0.923   -0.4  0.4848   32.7  0.3385 -169.9
 5.300  0.6605   88.8   0.911   -1.3  0.4928   31.5  0.3473 -172.5
 5.400  0.6628   87.5   0.899   -2.3  0.5010   30.4  0.3568 -175.0
 5.500  0.6655   86.3   0.887   -3.3  0.5094   29.3  0.3669 -177.3
 5.600  0.6665   85.2   0.875   -4.1  0.5159   28.1  0.3731 -179.4
 5.700  0.6678   84.1   0.863   -4.8  0.5226   26.9  0.3798  178.5
 5.800  0.6693   83.0   0.851   -5.6  0.5295   25.8  0.3869  176.5
 5.900  0.6710   81.9   0.839   -6.5  0.5367   24.7  0.3945  174.6
 6.000  0.6730   80.8   0.828   -7.3  0.5440   23.6  0.4025  172.8
!
!  f       NFmin   Gammaopt  rn/50
! GHz       dB    MAG  ANG    -
 0.450      1.47  0.13  155   0.14
 0.900      1.74  0.23  172   0.15
 1.900      2.74  0.47 -140   0.22
 2.400      3.36  0.54 -127   0.43
!
! (c) 2017  Infineon Technologies AG, Munich