! Infineon Technologies  Discrete & RF Semiconductors
! BFR93AW
! VCE =  4.0 V,  IC =  55 mA
! Common Emitter S-Parameters:                            Jan 2017
# GHz  S  MA  R  50
!  f         S11            S21            S12            S22
! GHz     MAG   ANG      MAG   ANG      MAG   ANG      MAG   ANG
 0.010  0.3659  -20.8  57.826  170.7  0.0024   79.5  0.9513   -6.9
 0.020  0.3789  -40.1  56.321  162.2  0.0050   78.7  0.9215  -14.3
 0.030  0.3605  -55.3  52.118  156.0  0.0072   71.6  0.8614  -19.1
 0.040  0.3690  -70.9  48.616  148.9  0.0094   67.8  0.8083  -24.6
 0.050  0.4025  -84.8  45.978  140.8  0.0117   65.5  0.7636  -30.8
 0.060  0.3950  -92.8  42.717  137.9  0.0129   64.4  0.7168  -32.6
 0.070  0.3954 -101.0  39.585  134.5  0.0141   63.4  0.6709  -34.7
 0.080  0.4037 -108.9  36.615  130.5  0.0153   62.7  0.6260  -37.1
 0.090  0.4194 -116.4  33.850  125.9  0.0165   62.0  0.5824  -39.9
 0.100  0.4417 -123.3  31.343  120.5  0.0177   61.4  0.5403  -43.1
 0.110  0.4403 -127.1  29.560  118.9  0.0185   61.3  0.5149  -43.6
 0.120  0.4407 -130.9  27.804  117.1  0.0193   61.2  0.4896  -44.2
 0.130  0.4431 -134.7  26.079  115.0  0.0202   61.1  0.4643  -44.9
 0.140  0.4475 -138.4  24.393  112.7  0.0210   61.1  0.4391  -45.7
 0.150  0.4536 -142.0  22.753  110.0  0.0218   61.0  0.4140  -46.5
 0.200  0.4617 -152.5  17.654  103.5  0.0255   64.6  0.3437  -46.4
 0.250  0.4682 -159.8  14.395   98.8  0.0305   65.9  0.3007  -45.4
 0.300  0.4693 -165.2  12.099   95.5  0.0344   67.8  0.2714  -44.1
 0.350  0.4700 -168.8  10.651   93.3  0.0390   69.3  0.2551  -43.1
 0.400  0.4726 -172.3   9.225   90.3  0.0437   70.5  0.2389  -41.9
 0.450  0.4736 -175.1   8.320   88.6  0.0486   70.9  0.2290  -41.4
 0.500  0.4756 -177.8   7.424   86.4  0.0535   71.3  0.2192  -40.9
 0.600  0.4805  177.9   6.235   82.9  0.0628   72.0  0.2079  -40.6
 0.700  0.4823  174.2   5.363   79.9  0.0721   72.7  0.2000  -40.7
 0.800  0.4875  170.9   4.715   76.9  0.0819   73.1  0.1942  -41.6
 0.900  0.4876  167.7   4.195   74.2  0.0917   72.4  0.1898  -43.0
 1.000  0.4930  164.8   3.803   71.6  0.1014   72.1  0.1855  -44.7
 1.100  0.4980  162.0   3.474   69.2  0.1111   71.8  0.1825  -46.6
 1.200  0.5010  159.3   3.199   66.6  0.1206   71.3  0.1796  -48.8
 1.300  0.5027  156.9   2.966   64.2  0.1303   70.6  0.1771  -51.6
 1.400  0.5097  154.6   2.773   61.9  0.1403   70.1  0.1738  -54.6
 1.500  0.5126  152.3   2.599   59.7  0.1504   69.3  0.1721  -57.6
 1.600  0.5177  150.0   2.453   57.3  0.1599   68.6  0.1723  -60.9
 1.700  0.5199  147.8   2.323   55.2  0.1694   67.9  0.1707  -64.4
 1.800  0.5265  145.5   2.212   52.9  0.1796   67.0  0.1702  -68.1
 1.900  0.5302  143.4   2.109   51.0  0.1890   66.1  0.1709  -72.1
 2.000  0.5329  141.4   2.013   48.7  0.1988   65.3  0.1724  -76.1
 2.100  0.5384  139.3   1.932   46.7  0.2085   64.3  0.1737  -80.1
 2.200  0.5446  137.3   1.853   44.5  0.2183   63.4  0.1759  -84.0
 2.300  0.5487  135.4   1.786   42.6  0.2281   62.4  0.1789  -88.0
 2.400  0.5535  133.5   1.721   40.6  0.2379   61.5  0.1828  -91.8
 2.500  0.5570  131.7   1.662   38.8  0.2473   60.6  0.1867  -95.4
 2.600  0.5610  129.9   1.604   36.8  0.2567   59.7  0.1914  -98.9
 2.700  0.5648  128.0   1.555   35.1  0.2662   58.6  0.1960 -102.2
 2.800  0.5692  126.1   1.507   33.3  0.2757   57.6  0.2012 -105.3
 2.900  0.5736  124.2   1.465   31.6  0.2852   56.7  0.2051 -108.4
 3.000  0.5787  122.3   1.424   29.7  0.2948   55.8  0.2095 -111.3
 3.100  0.5811  120.5   1.389   28.3  0.3040   54.7  0.2125 -114.3
 3.200  0.5840  118.8   1.355   26.7  0.3133   53.6  0.2161 -117.1
 3.300  0.5875  117.0   1.322   25.1  0.3227   52.6  0.2202 -119.9
 3.400  0.5915  115.3   1.291   23.5  0.3322   51.6  0.2248 -122.6
 3.500  0.5961  113.6   1.260   21.7  0.3418   50.7  0.2298 -125.1
 3.600  0.5997  112.0   1.234   20.3  0.3507   49.5  0.2314 -128.2
 3.700  0.6038  110.3   1.208   18.9  0.3598   48.3  0.2338 -131.3
 3.800  0.6084  108.7   1.183   17.4  0.3690   47.2  0.2367 -134.3
 3.900  0.6134  107.2   1.159   15.9  0.3784   46.1  0.2404 -137.3
 4.000  0.6189  105.6   1.136   14.3  0.3879   45.1  0.2446 -140.1
 4.100  0.6214  104.1   1.115   13.0  0.3961   43.8  0.2467 -143.6
 4.200  0.6243  102.6   1.095   11.7  0.4045   42.6  0.2496 -147.0
 4.300  0.6276  101.2   1.075   10.4  0.4131   41.5  0.2535 -150.4
 4.400  0.6314   99.7   1.056    9.0  0.4218   40.4  0.2581 -153.6
 4.500  0.6355   98.3   1.037    7.5  0.4307   39.3  0.2636 -156.7
 4.600  0.6397   97.0   1.019    6.5  0.4384   38.1  0.2685 -160.1
 4.700  0.6442   95.6   1.001    5.5  0.4463   37.0  0.2744 -163.3
 4.800  0.6491   94.3   0.984    4.4  0.4544   35.9  0.2810 -166.4
 4.900  0.6543   93.1   0.967    3.3  0.4626   34.9  0.2885 -169.4
 5.000  0.6598   91.8   0.950    2.1  0.4710   33.9  0.2967 -172.2
 5.100  0.6612   90.5   0.937    1.2  0.4780   32.7  0.3044 -174.8
 5.200  0.6629   89.3   0.925    0.3  0.4852   31.5  0.3126 -177.2
 5.300  0.6649   88.1   0.913   -0.7  0.4925   30.3  0.3214 -179.5
 5.400  0.6672   86.8   0.901   -1.7  0.5001   29.2  0.3307  178.3
 5.500  0.6698   85.6   0.889   -2.7  0.5079   28.1  0.3405  176.2
 5.600  0.6707   84.5   0.878   -3.5  0.5140   26.9  0.3466  174.3
 5.700  0.6718   83.4   0.866   -4.2  0.5203   25.8  0.3530  172.5
 5.800  0.6732   82.3   0.855   -5.0  0.5267   24.7  0.3598  170.7
 5.900  0.6748   81.2   0.845   -5.9  0.5334   23.6  0.3670  169.0
 6.000  0.6767   80.1   0.834   -6.7  0.5403   22.5  0.3744  167.4
!
!  f       NFmin   Gammaopt  rn/50
! GHz       dB    MAG  ANG    -
 0.450      2.42  0.28 -177   0.18
 0.900      2.73  0.33 -166   0.19
 1.900      3.88  0.54 -131   0.46
 2.400      4.64  0.58 -122   0.86
!
! (c) 2017  Infineon Technologies AG, Munich