! Infineon Technologies  Discrete & RF Semiconductors
! BFR93AW
! VCE =  5.0 V,  IC =  52 mA
! Common Emitter S-Parameters:                            Jan 2017
# GHz  S  MA  R  50
!  f         S11            S21            S12            S22
! GHz     MAG   ANG      MAG   ANG      MAG   ANG      MAG   ANG
 0.010  0.4223  -17.3  55.606  171.3  0.0025   81.0  0.9592   -6.3
 0.020  0.4298  -33.8  54.745  163.3  0.0048   83.5  0.9321  -13.0
 0.030  0.4045  -47.2  50.938  157.4  0.0072   76.3  0.8780  -17.6
 0.040  0.4035  -61.5  47.761  150.6  0.0096   72.7  0.8304  -22.8
 0.050  0.4267  -75.0  45.348  142.9  0.0120   70.5  0.7902  -28.5
 0.060  0.4133  -82.8  42.276  139.9  0.0132   68.5  0.7449  -30.4
 0.070  0.4080  -91.0  39.336  136.5  0.0144   66.8  0.7005  -32.5
 0.080  0.4111  -99.3  36.560  132.5  0.0156   65.4  0.6572  -34.9
 0.090  0.4226 -107.2  33.987  127.9  0.0168   64.2  0.6151  -37.6
 0.100  0.4416 -114.6  31.669  122.6  0.0180   63.1  0.5747  -40.7
 0.110  0.4371 -118.7  29.919  120.9  0.0190   62.4  0.5486  -41.3
 0.120  0.4349 -122.8  28.198  119.0  0.0200   61.9  0.5225  -41.9
 0.130  0.4349 -126.9  26.512  116.9  0.0209   61.3  0.4965  -42.6
 0.140  0.4372 -131.0  24.868  114.5  0.0219   60.8  0.4706  -43.4
 0.150  0.4417 -135.1  23.275  111.7  0.0229   60.4  0.4448  -44.3
 0.200  0.4463 -147.0  18.161  104.9  0.0261   63.5  0.3717  -44.5
 0.250  0.4510 -155.1  14.855  100.0  0.0308   64.9  0.3264  -43.5
 0.300  0.4521 -161.0  12.504   96.6  0.0348   66.7  0.2950  -42.3
 0.350  0.4513 -165.1  11.012   94.3  0.0392   67.9  0.2777  -41.3
 0.400  0.4528 -169.2   9.544   91.2  0.0436   68.9  0.2605  -40.1
 0.450  0.4543 -172.3   8.611   89.4  0.0482   69.8  0.2503  -39.5
 0.500  0.4571 -175.4   7.688   87.1  0.0529   70.6  0.2401  -38.9
 0.600  0.4591  180.0   6.460   83.6  0.0624   71.3  0.2278  -38.5
 0.700  0.4634  176.1   5.558   80.6  0.0712   72.3  0.2194  -38.6
 0.800  0.4664  172.5   4.886   77.5  0.0811   72.5  0.2131  -39.4
 0.900  0.4672  169.1   4.349   74.8  0.0908   71.9  0.2081  -40.6
 1.000  0.4726  166.2   3.944   72.2  0.0999   71.7  0.2027  -41.9
 1.100  0.4774  163.2   3.600   69.8  0.1095   71.5  0.2004  -43.8
 1.200  0.4817  160.5   3.315   67.2  0.1185   70.9  0.1967  -45.6
 1.300  0.4832  157.9   3.073   64.8  0.1281   70.3  0.1945  -48.1
 1.400  0.4881  155.4   2.874   62.5  0.1384   69.8  0.1909  -50.7
 1.500  0.4943  153.4   2.693   60.2  0.1475   69.3  0.1889  -53.5
 1.600  0.4988  150.8   2.541   57.9  0.1575   68.7  0.1885  -56.3
 1.700  0.5012  148.7   2.405   55.7  0.1673   67.8  0.1864  -59.7
 1.800  0.5078  146.3   2.291   53.5  0.1767   66.9  0.1854  -63.2
 1.900  0.5118  144.3   2.184   51.5  0.1857   66.2  0.1850  -66.6
 2.000  0.5142  142.2   2.083   49.3  0.1958   65.3  0.1860  -70.5
 2.100  0.5198  140.1   1.998   47.3  0.2052   64.5  0.1865  -74.3
 2.200  0.5261  138.0   1.916   45.1  0.2147   63.7  0.1879  -78.1
 2.300  0.5302  136.1   1.847   43.2  0.2244   62.7  0.1901  -81.9
 2.400  0.5348  134.3   1.780   41.1  0.2342   61.8  0.1932  -85.6
 2.500  0.5389  132.4   1.719   39.3  0.2434   60.8  0.1965  -89.1
 2.600  0.5435  130.5   1.660   37.4  0.2527   59.9  0.2006  -92.5
 2.700  0.5477  128.7   1.609   35.7  0.2622   59.0  0.2044  -95.8
 2.800  0.5525  126.9   1.559   33.8  0.2718   58.1  0.2088  -98.9
 2.900  0.5570  125.0   1.515   32.1  0.2812   57.1  0.2123 -102.0
 3.000  0.5620  123.2   1.473   30.3  0.2906   56.1  0.2165 -105.0
 3.100  0.5647  121.4   1.436   28.8  0.2998   55.0  0.2190 -107.9
 3.200  0.5679  119.6   1.401   27.3  0.3090   54.0  0.2220 -110.8
 3.300  0.5717  117.8   1.366   25.6  0.3184   53.0  0.2256 -113.6
 3.400  0.5760  116.0   1.333   23.9  0.3279   52.1  0.2297 -116.3
 3.500  0.5809  114.3   1.301   22.1  0.3374   51.2  0.2343 -118.9
 3.600  0.5847  112.7   1.274   20.7  0.3465   50.0  0.2353 -122.0
 3.700  0.5889  111.0   1.248   19.3  0.3557   48.9  0.2370 -125.1
 3.800  0.5937  109.4   1.222   17.8  0.3650   47.8  0.2394 -128.1
 3.900  0.5989  107.8   1.198   16.3  0.3745   46.8  0.2424 -131.0
 4.000  0.6045  106.3   1.174   14.7  0.3841   45.8  0.2460 -133.9
 4.100  0.6075  104.8   1.152   13.4  0.3924   44.6  0.2475 -137.4
 4.200  0.6108  103.4   1.130   12.1  0.4009   43.4  0.2499 -140.9
 4.300  0.6146  101.9   1.109   10.7  0.4095   42.2  0.2532 -144.3
 4.400  0.6187  100.5   1.089    9.3  0.4183   41.1  0.2574 -147.6
 4.500  0.6232   99.1   1.069    7.8  0.4273   40.1  0.2624 -150.8
 4.600  0.6279   97.7   1.050    6.8  0.4352   38.9  0.2666 -154.3
 4.700  0.6329   96.4   1.031    5.7  0.4432   37.8  0.2717 -157.7
 4.800  0.6382   95.0   1.013    4.6  0.4514   36.7  0.2777 -161.0
 4.900  0.6440   93.7   0.995    3.4  0.4598   35.7  0.2847 -164.1
 5.000  0.6500   92.4   0.977    2.2  0.4683   34.7  0.2924 -167.1
 5.100  0.6514   91.1   0.964    1.3  0.4755   33.5  0.2998 -169.9
 5.200  0.6532   89.8   0.951    0.3  0.4830   32.3  0.3079 -172.5
 5.300  0.6553   88.5   0.939   -0.7  0.4906   31.2  0.3166 -174.9
 5.400  0.6577   87.3   0.927   -1.7  0.4985   30.1  0.3258 -177.3
 5.500  0.6605   86.0   0.915   -2.7  0.5065   29.0  0.3356 -179.5
 5.600  0.6616   84.9   0.903   -3.5  0.5128   27.8  0.3418  178.5
 5.700  0.6629   83.9   0.890   -4.3  0.5193   26.7  0.3484  176.5
 5.800  0.6645   82.8   0.878   -5.1  0.5260   25.6  0.3554  174.6
 5.900  0.6663   81.7   0.867   -5.9  0.5329   24.5  0.3627  172.8
 6.000  0.6683   80.7   0.855   -6.8  0.5400   23.4  0.3704  171.1
!
!  f       NFmin   Gammaopt  rn/50
! GHz       dB    MAG  ANG    -
 0.450      2.34  0.27 -177   0.18
 0.900      2.64  0.32 -166   0.18
 1.900      3.79  0.54 -132   0.44
 2.400      4.52  0.58 -122   0.81
!
! (c) 2017  Infineon Technologies AG, Munich