! Infineon Technologies  Discrete & RF Semiconductors
! BFR93AW
! VCE =  5.0 V,  IC =  10 mA
! Common Emitter S-Parameters:                            Jan 2017
# GHz  S  MA  R  50
!  f         S11            S21            S12            S22
! GHz     MAG   ANG      MAG   ANG      MAG   ANG      MAG   ANG
 0.010  0.7385   -7.2  25.960  175.5  0.0029   89.0  0.9933   -3.1
 0.020  0.7446  -14.2  26.090  171.3  0.0058   85.4  0.9841   -6.4
 0.030  0.7204  -20.5  25.432  167.3  0.0090   78.3  0.9656   -9.2
 0.040  0.7055  -27.2  24.902  163.1  0.0123   74.9  0.9496  -12.2
 0.050  0.7006  -34.1  24.511  158.8  0.0156   73.0  0.9361  -15.2
 0.060  0.6782  -39.5  23.665  155.8  0.0178   70.6  0.9097  -17.2
 0.070  0.6622  -45.2  22.890  152.6  0.0199   68.6  0.8845  -19.4
 0.080  0.6529  -51.1  22.192  149.1  0.0222   67.1  0.8606  -21.6
 0.090  0.6508  -57.1  21.580  145.5  0.0244   65.8  0.8381  -24.0
 0.100  0.6559  -63.1  21.060  141.6  0.0266   64.8  0.8171  -26.5
 0.110  0.6374  -67.2  20.289  139.4  0.0281   62.8  0.7929  -27.7
 0.120  0.6223  -71.6  19.549  137.1  0.0297   61.0  0.7690  -29.0
 0.130  0.6111  -76.1  18.845  134.5  0.0313   59.3  0.7456  -30.4
 0.140  0.6038  -80.8  18.181  131.8  0.0329   57.8  0.7227  -31.8
 0.150  0.6006  -85.6  17.560  128.9  0.0345   56.5  0.7002  -33.4
 0.200  0.5633 -102.9  14.706  119.7  0.0391   53.8  0.6085  -37.0
 0.250  0.5396 -116.2  12.540  112.6  0.0430   51.5  0.5405  -38.8
 0.300  0.5189 -126.7  10.839  107.5  0.0461   51.4  0.4885  -39.5
 0.350  0.5059 -134.1   9.647  104.0  0.0493   51.9  0.4559  -39.6
 0.400  0.5016 -141.7   8.502   99.5  0.0526   52.4  0.4233  -39.7
 0.450  0.4950 -147.2   7.713   96.9  0.0556   53.2  0.4031  -39.6
 0.500  0.4929 -152.7   6.943   93.7  0.0586   53.9  0.3830  -39.5
 0.600  0.4877 -161.0   5.877   88.9  0.0650   55.8  0.3580  -39.3
 0.700  0.4873 -167.6   5.076   84.9  0.0712   57.9  0.3408  -39.4
 0.800  0.4876 -173.2   4.481   81.0  0.0786   59.5  0.3290  -39.9
 0.900  0.4871 -178.4   3.999   77.7  0.0855   60.6  0.3197  -40.7
 1.000  0.4907  177.4   3.629   74.6  0.0930   62.0  0.3118  -41.9
 1.100  0.4952  173.5   3.319   71.7  0.1005   62.7  0.3069  -43.2
 1.200  0.4960  169.6   3.058   68.7  0.1078   63.4  0.3017  -44.7
 1.300  0.4994  166.2   2.835   66.0  0.1157   64.0  0.2980  -46.5
 1.400  0.5043  163.3   2.654   63.3  0.1243   64.4  0.2931  -48.7
 1.500  0.5093  160.4   2.487   60.9  0.1323   64.4  0.2910  -50.8
 1.600  0.5133  157.4   2.349   58.3  0.1409   64.7  0.2898  -53.1
 1.700  0.5156  154.7   2.224   55.9  0.1496   64.8  0.2869  -55.8
 1.800  0.5224  151.9   2.121   53.4  0.1580   64.5  0.2851  -58.5
 1.900  0.5267  149.5   2.021   51.3  0.1672   64.5  0.2844  -61.2
 2.000  0.5300  147.2   1.928   48.9  0.1762   64.2  0.2844  -64.2
 2.100  0.5346  144.7   1.850   46.7  0.1853   63.8  0.2844  -67.3
 2.200  0.5402  142.2   1.774   44.4  0.1945   63.4  0.2852  -70.4
 2.300  0.5452  140.0   1.709   42.3  0.2040   62.9  0.2868  -73.6
 2.400  0.5511  137.8   1.647   40.1  0.2135   62.5  0.2893  -76.8
 2.500  0.5551  135.7   1.590   38.2  0.2229   61.9  0.2915  -79.9
 2.600  0.5599  133.7   1.535   36.2  0.2324   61.4  0.2946  -82.9
 2.700  0.5640  131.6   1.488   34.4  0.2421   60.7  0.2979  -85.9
 2.800  0.5688  129.5   1.442   32.5  0.2518   60.0  0.3020  -88.8
 2.900  0.5734  127.5   1.401   30.7  0.2618   59.2  0.3047  -91.7
 3.000  0.5786  125.5   1.361   28.8  0.2719   58.5  0.3081  -94.5
 3.100  0.5813  123.5   1.326   27.3  0.2821   57.5  0.3099  -97.4
 3.200  0.5846  121.6   1.292   25.7  0.2923   56.6  0.3124 -100.2
 3.300  0.5886  119.7   1.259   24.1  0.3026   55.8  0.3157 -103.0
 3.400  0.5933  117.8   1.228   22.3  0.3130   55.0  0.3197 -105.7
 3.500  0.5986  115.9   1.197   20.5  0.3234   54.3  0.3244 -108.3
 3.600  0.6021  114.1   1.172   19.2  0.3335   53.1  0.3247 -111.3
 3.700  0.6062  112.3   1.147   17.8  0.3438   52.0  0.3258 -114.3
 3.800  0.6109  110.6   1.123   16.3  0.3542   51.0  0.3278 -117.3
 3.900  0.6161  108.9   1.099   14.8  0.3647   50.0  0.3307 -120.2
 4.000  0.6219  107.2   1.077   13.2  0.3753   49.1  0.3345 -123.1
 4.100  0.6243  105.6   1.056   12.0  0.3850   47.8  0.3345 -126.5
 4.200  0.6273  104.0   1.036   10.7  0.3948   46.6  0.3357 -129.9
 4.300  0.6307  102.4   1.016    9.3  0.4049   45.4  0.3381 -133.3
 4.400  0.6345  100.8   0.997    7.9  0.4151   44.3  0.3416 -136.6
 4.500  0.6389   99.3   0.978    6.5  0.4254   43.3  0.3462 -139.8
 4.600  0.6428   97.9   0.960    5.5  0.4345   42.0  0.3488 -143.3
 4.700  0.6471   96.4   0.942    4.5  0.4438   40.8  0.3527 -146.8
 4.800  0.6518   95.0   0.925    3.5  0.4534   39.7  0.3579 -150.2
 4.900  0.6569   93.7   0.908    2.4  0.4630   38.6  0.3643 -153.5
 5.000  0.6624   92.3   0.891    1.3  0.4729   37.5  0.3718 -156.6
 5.100  0.6637   91.0   0.879    0.5  0.4811   36.2  0.3779 -159.7
 5.200  0.6655   89.6   0.867   -0.4  0.4896   34.9  0.3850 -162.6
 5.300  0.6675   88.3   0.856   -1.2  0.4983   33.6  0.3931 -165.5
 5.400  0.6699   87.0   0.844   -2.1  0.5072   32.5  0.4021 -168.2
 5.500  0.6727   85.7   0.833   -3.0  0.5164   31.3  0.4120 -170.8
 5.600  0.6731   84.6   0.822   -3.7  0.5235   30.0  0.4172 -173.2
 5.700  0.6738   83.4   0.812   -4.3  0.5308   28.8  0.4231 -175.6
 5.800  0.6748   82.3   0.801   -5.0  0.5384   27.5  0.4297 -177.9
 5.900  0.6760   81.1   0.791   -5.8  0.5462   26.4  0.4369  179.9
 6.000  0.6775   80.0   0.781   -6.5  0.5542   25.2  0.4448  177.8
!
!  f       NFmin   Gammaopt  rn/50
! GHz       dB    MAG  ANG    -
 0.450      1.25  0.15   94   0.13
 0.900      1.55  0.24  150   0.14
 1.900      2.61  0.47 -148   0.18
 2.400      3.24  0.54 -131   0.36
!
! (c) 2017  Infineon Technologies AG, Munich