! Infineon Technologies  Discrete & RF Semiconductors
! BFR93AW
! VCE =  3.0 V,  IC =  30 mA
! Common Emitter S-Parameters:                            Jan 2017
# GHz  S  MA  R  50
!  f         S11            S21            S12            S22
! GHz     MAG   ANG      MAG   ANG      MAG   ANG      MAG   ANG
 0.010  0.4600  -15.6  49.311  172.1  0.0028   81.8  0.9710   -6.2
 0.020  0.4647  -30.7  48.594  164.8  0.0060   80.4  0.9524  -12.7
 0.030  0.4397  -43.0  45.656  159.0  0.0085   74.2  0.9009  -17.3
 0.040  0.4367  -56.1  43.241  152.5  0.0110   70.8  0.8561  -22.5
 0.050  0.4561  -68.7  41.440  145.4  0.0135   68.7  0.8189  -28.2
 0.060  0.4403  -76.5  38.807  142.3  0.0149   66.5  0.7732  -30.4
 0.070  0.4333  -84.8  36.302  138.8  0.0163   64.6  0.7288  -32.8
 0.080  0.4354  -93.1  33.954  134.8  0.0177   63.1  0.6858  -35.6
 0.090  0.4466 -101.2  31.796  130.2  0.0192   61.7  0.6447  -38.8
 0.100  0.4662 -108.8  29.870  125.0  0.0206   60.6  0.6058  -42.3
 0.110  0.4609 -113.1  28.276  123.2  0.0215   59.9  0.5776  -43.2
 0.120  0.4583 -117.4  26.712  121.2  0.0224   59.3  0.5495  -44.2
 0.130  0.4583 -121.8  25.185  119.0  0.0232   58.8  0.5217  -45.3
 0.140  0.4609 -126.1  23.701  116.5  0.0241   58.3  0.4940  -46.5
 0.150  0.4662 -130.4  22.269  113.6  0.0250   57.8  0.4666  -47.9
 0.200  0.4671 -143.2  17.485  106.4  0.0287   60.3  0.3833  -49.4
 0.250  0.4722 -152.3  14.346  101.2  0.0331   61.6  0.3304  -49.6
 0.300  0.4700 -158.6  12.099   97.6  0.0374   63.5  0.2932  -49.0
 0.350  0.4709 -163.0  10.666   95.1  0.0416   65.1  0.2717  -48.4
 0.400  0.4745 -167.3   9.259   91.8  0.0459   66.4  0.2502  -47.6
 0.450  0.4752 -170.6   8.354   89.9  0.0504   67.1  0.2375  -47.1
 0.500  0.4775 -173.8   7.461   87.5  0.0550   67.7  0.2248  -46.5
 0.600  0.4816 -178.8   6.272   83.8  0.0649   69.0  0.2095  -46.1
 0.700  0.4836  177.0   5.395   80.7  0.0734   70.2  0.1986  -46.1
 0.800  0.4851  173.3   4.745   77.5  0.0832   70.4  0.1909  -46.8
 0.900  0.4877  169.8   4.224   74.7  0.0926   70.4  0.1850  -48.0
 1.000  0.4931  166.6   3.831   72.0  0.1020   69.9  0.1801  -49.4
 1.100  0.4969  163.7   3.498   69.5  0.1117   69.7  0.1768  -51.2
 1.200  0.5003  160.9   3.219   66.9  0.1215   69.4  0.1735  -53.2
 1.300  0.5021  158.3   2.983   64.4  0.1309   68.9  0.1709  -55.9
 1.400  0.5076  156.0   2.792   62.0  0.1414   68.5  0.1677  -58.9
 1.500  0.5132  153.6   2.616   59.8  0.1507   67.8  0.1662  -62.0
 1.600  0.5159  151.3   2.469   57.4  0.1607   67.2  0.1666  -65.1
 1.700  0.5189  148.7   2.338   55.2  0.1701   66.5  0.1653  -68.6
 1.800  0.5252  146.6   2.226   52.9  0.1800   65.6  0.1652  -72.5
 1.900  0.5286  144.6   2.122   50.9  0.1899   65.0  0.1662  -76.1
 2.000  0.5318  142.4   2.025   48.6  0.1994   64.1  0.1680  -80.2
 2.100  0.5368  140.2   1.944   46.6  0.2092   63.2  0.1697  -84.2
 2.200  0.5425  138.1   1.865   44.4  0.2191   62.3  0.1723  -88.1
 2.300  0.5468  136.2   1.796   42.5  0.2287   61.4  0.1759  -92.0
 2.400  0.5517  134.3   1.730   40.4  0.2384   60.5  0.1803  -95.7
 2.500  0.5558  132.4   1.672   38.6  0.2480   59.6  0.1849  -99.2
 2.600  0.5606  130.5   1.615   36.6  0.2576   58.7  0.1901 -102.6
 2.700  0.5642  128.6   1.565   34.9  0.2669   57.7  0.1949 -105.8
 2.800  0.5684  126.8   1.517   33.0  0.2762   56.7  0.2003 -108.8
 2.900  0.5726  124.9   1.474   31.3  0.2858   55.7  0.2047 -111.8
 3.000  0.5775  123.0   1.433   29.5  0.2955   54.8  0.2097 -114.7
 3.100  0.5801  121.2   1.397   28.0  0.3046   53.7  0.2130 -117.6
 3.200  0.5832  119.4   1.363   26.5  0.3139   52.7  0.2168 -120.5
 3.300  0.5869  117.7   1.329   24.8  0.3232   51.7  0.2212 -123.2
 3.400  0.5911  115.9   1.297   23.1  0.3326   50.8  0.2260 -125.8
 3.500  0.5959  114.2   1.266   21.3  0.3421   49.9  0.2313 -128.3
 3.600  0.5993  112.6   1.240   19.9  0.3510   48.7  0.2334 -131.4
 3.700  0.6032  110.9   1.214   18.5  0.3601   47.5  0.2362 -134.3
 3.800  0.6076  109.3   1.190   17.0  0.3694   46.4  0.2396 -137.3
 3.900  0.6125  107.8   1.166   15.5  0.3787   45.4  0.2435 -140.1
 4.000  0.6178  106.2   1.143   13.9  0.3882   44.4  0.2481 -142.8
 4.100  0.6203  104.7   1.122   12.6  0.3965   43.2  0.2508 -146.3
 4.200  0.6233  103.2   1.101   11.3  0.4049   42.0  0.2544 -149.6
 4.300  0.6266  101.8   1.080    9.9  0.4136   40.8  0.2589 -152.9
 4.400  0.6304  100.3   1.061    8.5  0.4224   39.7  0.2642 -156.1
 4.500  0.6345   98.9   1.042    7.0  0.4313   38.7  0.2702 -159.1
 4.600  0.6388   97.5   1.023    6.0  0.4390   37.5  0.2756 -162.4
 4.700  0.6435   96.2   1.005    4.9  0.4469   36.4  0.2819 -165.6
 4.800  0.6485   94.8   0.987    3.8  0.4550   35.3  0.2890 -168.6
 4.900  0.6539   93.5   0.969    2.7  0.4632   34.2  0.2969 -171.5
 5.000  0.6596   92.2   0.952    1.5  0.4716   33.2  0.3055 -174.2
 5.100  0.6610   90.9   0.939    0.6  0.4787   32.0  0.3136 -176.7
 5.200  0.6627   89.7   0.927   -0.3  0.4860   30.8  0.3223 -179.1
 5.300  0.6648   88.5   0.915   -1.3  0.4934   29.6  0.3316  178.7
 5.400  0.6671   87.2   0.903   -2.3  0.5011   28.5  0.3413  176.6
 5.500  0.6698   86.0   0.892   -3.3  0.5090   27.4  0.3514  174.6
 5.600  0.6709   84.9   0.880   -4.1  0.5149   26.2  0.3577  172.7
 5.700  0.6723   83.8   0.869   -4.9  0.5211   25.1  0.3644  171.0
 5.800  0.6739   82.7   0.858   -5.7  0.5274   24.0  0.3714  169.2
 5.900  0.6758   81.7   0.847   -6.5  0.5339   22.9  0.3788  167.6
 6.000  0.6779   80.6   0.836   -7.4  0.5406   21.9  0.3864  166.0
!
!  f       NFmin   Gammaopt  rn/50
! GHz       dB    MAG  ANG    -
 0.450      1.79  0.18  173   0.16
 0.900      2.06  0.26 -175   0.16
 1.900      3.10  0.50 -135   0.29
 2.400      3.75  0.55 -124   0.55
!
! (c) 2017  Infineon Technologies AG, Munich