! Infineon Technologies  Discrete & RF Semiconductors
! BFR93AW
! VCE =  3.0 V,  IC =  2.0 mA
! Common Emitter S-Parameters:                            Jan 2017
# GHz  S  MA  R  50
!  f         S11            S21            S12            S22
! GHz     MAG   ANG      MAG   ANG      MAG   ANG      MAG   ANG
 0.010  0.9317   -3.4   6.946  178.1  0.0036   90.0  1.0000   -1.2
 0.020  0.9482   -6.7   7.047  176.0  0.0080   93.8  0.9946   -2.5
 0.030  0.9320   -9.8   6.988  173.9  0.0120   86.1  0.9920   -3.7
 0.040  0.9186  -12.9   6.940  171.7  0.0161   82.3  0.9899   -4.8
 0.050  0.9081  -16.2   6.901  169.5  0.0203   80.1  0.9881   -6.0
 0.060  0.9020  -19.4   6.834  167.5  0.0239   77.8  0.9820   -7.1
 0.070  0.8986  -22.5   6.775  165.5  0.0276   76.1  0.9762   -8.2
 0.080  0.8981  -25.7   6.724  163.5  0.0313   74.8  0.9708   -9.4
 0.090  0.9003  -28.9   6.682  161.4  0.0350   73.8  0.9658  -10.5
 0.100  0.9053  -32.1   6.649  159.3  0.0387   73.0  0.9612  -11.7
 0.110  0.8941  -35.0   6.564  157.4  0.0417   70.9  0.9527  -12.6
 0.120  0.8853  -37.9   6.485  155.5  0.0448   69.0  0.9444  -13.6
 0.130  0.8787  -40.9   6.414  153.6  0.0479   67.4  0.9364  -14.6
 0.140  0.8746  -43.9   6.351  151.6  0.0510   66.0  0.9287  -15.6
 0.150  0.8729  -46.9   6.295  149.6  0.0542   64.8  0.9213  -16.6
 0.200  0.8411  -60.6   5.884  140.8  0.0669   58.7  0.8769  -20.7
 0.250  0.8092  -72.9   5.477  132.8  0.0771   52.7  0.8329  -23.9
 0.300  0.7757  -83.9   5.048  126.2  0.0852   47.6  0.7890  -26.5
 0.350  0.7431  -92.7   4.665  121.0  0.0900   44.0  0.7544  -28.2
 0.400  0.7294 -102.1   4.327  115.0  0.0952   40.8  0.7206  -30.1
 0.450  0.7052 -109.5   4.014  110.9  0.0981   38.2  0.6942  -31.4
 0.500  0.6933 -117.2   3.724  106.2  0.1011   35.8  0.6681  -32.7
 0.600  0.6689 -129.2   3.256   98.7  0.1043   32.8  0.6309  -34.6
 0.700  0.6537 -139.3   2.875   92.4  0.1052   30.8  0.6040  -36.2
 0.800  0.6446 -147.9   2.579   86.7  0.1053   30.5  0.5840  -38.0
 0.900  0.6360 -155.3   2.327   81.8  0.1053   30.1  0.5693  -39.7
 1.000  0.6331 -161.9   2.128   77.3  0.1046   31.0  0.5567  -41.6
 1.100  0.6311 -168.0   1.959   73.2  0.1048   32.4  0.5483  -43.6
 1.200  0.6308 -173.3   1.815   69.2  0.1040   34.0  0.5404  -45.7
 1.300  0.6305 -178.2   1.689   65.5  0.1040   36.5  0.5349  -48.0
 1.400  0.6343  177.4   1.585   62.0  0.1045   39.1  0.5299  -50.6
 1.500  0.6381  173.2   1.494   58.8  0.1066   42.0  0.5260  -53.1
 1.600  0.6413  169.2   1.409   55.6  0.1090   45.4  0.5250  -55.7
 1.700  0.6454  165.4   1.339   52.7  0.1123   48.7  0.5212  -58.6
 1.800  0.6485  161.7   1.279   49.8  0.1174   51.6  0.5197  -61.4
 1.900  0.6538  158.4   1.220   47.3  0.1229   54.7  0.5186  -64.3
 2.000  0.6560  155.0   1.167   44.5  0.1298   57.1  0.5191  -67.2
 2.100  0.6600  151.8   1.119   42.1  0.1381   59.3  0.5194  -70.4
 2.200  0.6659  148.7   1.074   39.5  0.1465   61.3  0.5213  -73.6
 2.300  0.6698  145.8   1.033   37.4  0.1567   62.8  0.5232  -76.8
 2.400  0.6753  143.0   0.994   35.1  0.1669   64.2  0.5268  -80.0
 2.500  0.6783  140.3   0.958   33.2  0.1784   64.9  0.5289  -83.2
 2.600  0.6829  137.6   0.924   31.2  0.1899   65.5  0.5327  -86.3
 2.700  0.6855  135.0   0.894   29.6  0.2024   65.7  0.5358  -89.4
 2.800  0.6894  132.5   0.865   27.8  0.2150   65.9  0.5405  -92.5
 2.900  0.6919  129.9   0.840   26.3  0.2286   65.6  0.5424  -95.6
 3.000  0.6958  127.3   0.815   24.7  0.2422   65.3  0.5459  -98.7
 3.100  0.6959  124.9   0.795   23.7  0.2564   64.3  0.5453 -101.8
 3.200  0.6972  122.5   0.775   22.6  0.2707   63.4  0.5462 -104.9
 3.300  0.6997  120.1   0.755   21.5  0.2851   62.7  0.5488 -108.0
 3.400  0.7035  117.7   0.735   20.3  0.2995   61.9  0.5530 -111.1
 3.500  0.7084  115.4   0.716   19.0  0.3139   61.3  0.5587 -114.1
 3.600  0.7083  113.3   0.704   18.3  0.3278   59.7  0.5558 -117.3
 3.700  0.7092  111.2   0.691   17.6  0.3420   58.3  0.5546 -120.6
 3.800  0.7110  109.1   0.679   16.8  0.3564   57.0  0.5552 -123.8
 3.900  0.7138  107.0   0.667   16.0  0.3709   55.7  0.5576 -127.0
 4.000  0.7175  104.9   0.655   15.2  0.3856   54.6  0.5617 -130.2
 4.100  0.7156  103.1   0.648   14.6  0.3981   52.8  0.5579 -133.6
 4.200  0.7144  101.3   0.640   14.1  0.4109   51.2  0.5562 -137.1
 4.300  0.7140   99.4   0.633   13.5  0.4241   49.6  0.5565 -140.6
 4.400  0.7142   97.6   0.626   12.9  0.4376   48.2  0.5589 -144.1
 4.500  0.7152   95.8   0.619   12.3  0.4513   46.8  0.5633 -147.5
 4.600  0.7153   94.3   0.614   11.9  0.4618   45.1  0.5616 -150.8
 4.700  0.7159   92.8   0.610   11.6  0.4727   43.5  0.5618 -154.2
 4.800  0.7170   91.3   0.605   11.2  0.4839   42.0  0.5640 -157.5
 4.900  0.7185   89.8   0.601   10.8  0.4954   40.5  0.5680 -160.9
 5.000  0.7206   88.3   0.596   10.4  0.5073   39.1  0.5739 -164.1
 5.100  0.7182   86.9   0.597   10.0  0.5159   37.4  0.5754 -167.0
 5.200  0.7163   85.6   0.597    9.5  0.5249   35.8  0.5784 -169.9
 5.300  0.7147   84.2   0.598    9.1  0.5343   34.3  0.5828 -172.8
 5.400  0.7136   82.8   0.598    8.6  0.5441   32.8  0.5887 -175.6
 5.500  0.7129   81.4   0.599    8.2  0.5543   31.3  0.5959 -178.3
 5.600  0.7107   80.3   0.600    7.8  0.5607   29.8  0.5965  179.4
 5.700  0.7087   79.3   0.600    7.3  0.5675   28.3  0.5981  177.1
 5.800  0.7070   78.2   0.601    6.9  0.5746   26.9  0.6006  174.8
 5.900  0.7055   77.1   0.602    6.4  0.5821   25.5  0.6041  172.5
 6.000  0.7043   76.0   0.603    6.0  0.5899   24.1  0.6085  170.3
!
!  f       NFmin   Gammaopt  rn/50
! GHz       dB    MAG  ANG    -
 0.450      1.49  0.44   71   0.20
 0.900      1.76  0.41  128   0.21
 1.900      3.23  0.56 -159   0.25
 2.400      4.18  0.62 -139   0.45
!
! (c) 2017  Infineon Technologies AG, Munich