! Infineon Technologies  Discrete & RF Semiconductors
! BFR93AW
! VCE =  9.0 V,  IC =  10 mA
! Common Emitter S-Parameters:                            Jan 2017
# GHz  S  MA  R  50
!  f         S11            S21            S12            S22
! GHz     MAG   ANG      MAG   ANG      MAG   ANG      MAG   ANG
 0.010  0.7608   -6.5  25.527  175.5  0.0026   90.3  0.9934   -2.8
 0.020  0.7681  -12.9  25.519  171.7  0.0057   86.6  0.9825   -5.8
 0.030  0.7443  -18.8  24.968  167.9  0.0085   80.3  0.9671   -8.4
 0.040  0.7287  -25.0  24.532  164.0  0.0113   77.2  0.9537  -11.1
 0.050  0.7221  -31.4  24.215  159.9  0.0141   75.3  0.9425  -13.8
 0.060  0.7006  -36.5  23.443  157.0  0.0164   71.8  0.9185  -15.7
 0.070  0.6848  -41.8  22.737  153.8  0.0188   69.2  0.8955  -17.7
 0.080  0.6752  -47.3  22.103  150.5  0.0212   67.2  0.8737  -19.7
 0.090  0.6721  -53.0  21.548  147.0  0.0236   65.6  0.8530  -21.9
 0.100  0.6755  -58.6  21.078  143.3  0.0260   64.3  0.8337  -24.2
 0.110  0.6559  -62.5  20.350  141.1  0.0273   62.8  0.8113  -25.4
 0.120  0.6395  -66.7  19.653  138.8  0.0287   61.4  0.7893  -26.6
 0.130  0.6267  -71.1  18.992  136.3  0.0301   60.2  0.7676  -27.9
 0.140  0.6177  -75.6  18.370  133.6  0.0315   59.0  0.7464  -29.3
 0.150  0.6126  -80.2  17.791  130.7  0.0329   58.0  0.7256  -30.7
 0.200  0.5705  -97.4  15.025  121.4  0.0377   54.6  0.6367  -34.2
 0.250  0.5393 -110.8  12.879  114.3  0.0418   52.4  0.5703  -35.9
 0.300  0.5139 -121.4  11.174  109.0  0.0449   52.1  0.5193  -36.7
 0.350  0.4973 -129.1   9.964  105.4  0.0479   52.5  0.4868  -36.7
 0.400  0.4902 -137.1   8.805  100.8  0.0509   52.8  0.4543  -36.8
 0.450  0.4811 -142.8   7.995   98.1  0.0537   53.9  0.4342  -36.7
 0.500  0.4769 -148.7   7.206   94.9  0.0566   54.8  0.4142  -36.6
 0.600  0.4702 -157.5   6.106   90.0  0.0630   55.9  0.3892  -36.3
 0.700  0.4682 -164.7   5.280   85.9  0.0689   58.3  0.3719  -36.4
 0.800  0.4685 -170.6   4.660   82.1  0.0758   59.7  0.3597  -36.9
 0.900  0.4668 -175.9   4.159   78.7  0.0823   61.1  0.3503  -37.6
 1.000  0.4703  179.6   3.776   75.6  0.0897   62.0  0.3422  -38.5
 1.100  0.4719  175.4   3.454   72.7  0.0970   63.2  0.3375  -39.8
 1.200  0.4753  171.5   3.182   69.8  0.1041   63.6  0.3322  -41.2
 1.300  0.4781  167.9   2.951   67.0  0.1114   64.4  0.3282  -42.9
 1.400  0.4814  164.8   2.760   64.4  0.1195   64.8  0.3241  -44.8
 1.500  0.4855  161.7   2.588   61.9  0.1272   65.2  0.3209  -46.8
 1.600  0.4907  158.8   2.442   59.4  0.1356   65.4  0.3192  -48.8
 1.700  0.4946  155.9   2.314   57.0  0.1437   65.5  0.3162  -51.3
 1.800  0.5006  153.2   2.204   54.5  0.1523   65.4  0.3143  -53.8
 1.900  0.5049  150.6   2.102   52.4  0.1609   65.4  0.3129  -56.3
 2.000  0.5069  148.2   2.005   50.0  0.1697   65.1  0.3126  -59.1
 2.100  0.5125  145.7   1.924   47.8  0.1786   64.8  0.3120  -61.9
 2.200  0.5190  143.2   1.845   45.5  0.1875   64.5  0.3122  -64.8
 2.300  0.5239  141.0   1.777   43.5  0.1967   64.0  0.3130  -67.8
 2.400  0.5295  138.8   1.712   41.3  0.2060   63.6  0.3147  -70.7
 2.500  0.5340  136.6   1.653   39.4  0.2151   63.1  0.3163  -73.6
 2.600  0.5392  134.5   1.595   37.4  0.2243   62.6  0.3187  -76.5
 2.700  0.5436  132.4   1.545   35.6  0.2339   62.0  0.3214  -79.3
 2.800  0.5486  130.4   1.497   33.6  0.2436   61.4  0.3249  -82.1
 2.900  0.5534  128.3   1.454   31.8  0.2534   60.7  0.3272  -84.9
 3.000  0.5590  126.3   1.413   29.9  0.2633   60.0  0.3303  -87.7
 3.100  0.5618  124.3   1.377   28.4  0.2734   59.1  0.3314  -90.5
 3.200  0.5653  122.3   1.341   26.8  0.2836   58.2  0.3332  -93.2
 3.300  0.5695  120.4   1.307   25.2  0.2938   57.4  0.3358  -95.9
 3.400  0.5743  118.5   1.274   23.4  0.3041   56.7  0.3392  -98.5
 3.500  0.5797  116.6   1.242   21.6  0.3144   56.0  0.3432 -101.1
 3.600  0.5837  114.8   1.215   20.2  0.3246   54.9  0.3428 -104.0
 3.700  0.5883  113.0   1.189   18.8  0.3350   53.8  0.3432 -106.8
 3.800  0.5934  111.3   1.164   17.3  0.3454   52.8  0.3445 -109.7
 3.900  0.5990  109.6   1.140   15.7  0.3560   51.9  0.3466 -112.5
 4.000  0.6052  107.9   1.116   14.1  0.3666   51.0  0.3496 -115.3
 4.100  0.6080  106.3   1.094   12.8  0.3765   49.7  0.3487 -118.6
 4.200  0.6112  104.7   1.073   11.5  0.3865   48.5  0.3489 -122.0
 4.300  0.6149  103.2   1.052   10.2  0.3967   47.4  0.3504 -125.3
 4.400  0.6190  101.6   1.032    8.8  0.4070   46.3  0.3530 -128.6
 4.500  0.6236  100.1   1.013    7.3  0.4175   45.3  0.3567 -131.8
 4.600  0.6280   98.6   0.994    6.3  0.4269   44.0  0.3582 -135.4
 4.700  0.6329   97.1   0.976    5.3  0.4364   42.8  0.3610 -138.9
 4.800  0.6382   95.7   0.957    4.2  0.4462   41.7  0.3651 -142.3
 4.900  0.6438   94.3   0.939    3.1  0.4561   40.6  0.3705 -145.7
 5.000  0.6499   92.9   0.922    1.9  0.4662   39.5  0.3772 -148.9
 5.100  0.6512   91.6   0.909    1.1  0.4748   38.2  0.3824 -152.1
 5.200  0.6528   90.2   0.896    0.2  0.4837   36.9  0.3888 -155.2
 5.300  0.6548   88.9   0.884   -0.7  0.4929   35.6  0.3964 -158.2
 5.400  0.6571   87.6   0.871   -1.6  0.5022   34.4  0.4049 -161.1
 5.500  0.6598   86.3   0.859   -2.5  0.5118   33.3  0.4144 -163.8
 5.600  0.6610   85.1   0.847   -3.2  0.5193   32.0  0.4192 -166.4
 5.700  0.6624   84.0   0.836   -3.9  0.5271   30.7  0.4248 -168.9
 5.800  0.6641   82.9   0.824   -4.7  0.5351   29.5  0.4313 -171.3
 5.900  0.6660   81.7   0.813   -5.4  0.5434   28.3  0.4384 -173.6
 6.000  0.6682   80.6   0.802   -6.2  0.5519   27.2  0.4463 -175.9
!
!  f       NFmin   Gammaopt  rn/50
! GHz       dB    MAG  ANG    -
 0.450      1.25  0.15   94   0.13
 0.900      1.55  0.24  150   0.14
 1.900      2.61  0.47 -148   0.18
 2.400      3.24  0.54 -131   0.36
!
! (c) 2017  Infineon Technologies AG, Munich