! Infineon Technologies  Discrete & RF Semiconductors
! BFR93AW
! VCE =  6.0 V,  IC =  33 mA
! Common Emitter S-Parameters:                            Jan 2017
# GHz  S  MA  R  50
!  f         S11            S21            S12            S22
! GHz     MAG   ANG      MAG   ANG      MAG   ANG      MAG   ANG
 0.010  0.5246  -12.7  48.312  172.5  0.0023   80.4  0.9747   -5.3
 0.020  0.5293  -25.3  47.918  165.8  0.0054   81.4  0.9513  -11.0
 0.030  0.4990  -35.8  45.294  160.4  0.0077   74.9  0.9102  -15.1
 0.040  0.4871  -47.2  43.127  154.3  0.0100   71.5  0.8742  -19.6
 0.050  0.4951  -58.7  41.487  147.7  0.0124   69.3  0.8441  -24.5
 0.060  0.4736  -65.8  39.027  144.6  0.0139   67.1  0.8017  -26.5
 0.070  0.4599  -73.4  36.699  141.0  0.0155   65.4  0.7605  -28.8
 0.080  0.4549  -81.4  34.528  137.1  0.0170   64.0  0.7206  -31.3
 0.090  0.4587  -89.4  32.547  132.6  0.0186   62.8  0.6822  -34.2
 0.100  0.4712  -97.1  30.792  127.5  0.0202   61.8  0.6457  -37.3
 0.110  0.4611 -101.5  29.211  125.6  0.0210   61.2  0.6186  -38.1
 0.120  0.4538 -106.1  27.663  123.6  0.0218   60.6  0.5917  -39.0
 0.130  0.4495 -110.8  26.156  121.3  0.0226   60.1  0.5649  -39.9
 0.140  0.4483 -115.5  24.696  118.7  0.0234   59.6  0.5382  -40.9
 0.150  0.4502 -120.3  23.293  115.8  0.0242   59.1  0.5118  -42.1
 0.200  0.4447 -134.7  18.443  108.4  0.0281   60.9  0.4290  -43.2
 0.250  0.4414 -145.0  15.192  102.9  0.0323   61.2  0.3758  -42.9
 0.300  0.4370 -152.3  12.830   99.1  0.0356   62.8  0.3382  -42.0
 0.350  0.4359 -157.4  11.325   96.5  0.0401   64.5  0.3170  -41.2
 0.400  0.4382 -162.5   9.850   93.2  0.0447   65.8  0.2958  -40.2
 0.450  0.4380 -166.2   8.895   91.2  0.0488   66.8  0.2834  -39.6
 0.500  0.4397 -169.9   7.953   88.8  0.0530   67.7  0.2710  -39.0
 0.600  0.4411 -175.4   6.686   85.0  0.0618   69.3  0.2559  -38.4
 0.700  0.4442  179.8   5.756   81.8  0.0704   70.3  0.2452  -38.3
 0.800  0.4485  175.9   5.064   78.6  0.0798   70.7  0.2377  -38.7
 0.900  0.4485  172.1   4.508   75.8  0.0887   70.1  0.2320  -39.7
 1.000  0.4544  168.8   4.089   73.2  0.0980   70.5  0.2262  -40.8
 1.100  0.4597  165.6   3.733   70.7  0.1074   70.2  0.2231  -42.3
 1.200  0.4627  162.8   3.436   68.0  0.1160   69.7  0.2192  -43.8
 1.300  0.4653  159.9   3.185   65.7  0.1250   69.6  0.2166  -46.0
 1.400  0.4691  157.4   2.980   63.3  0.1349   69.1  0.2125  -48.4
 1.500  0.4742  155.1   2.790   61.0  0.1438   68.5  0.2104  -50.8
 1.600  0.4780  152.5   2.633   58.6  0.1536   68.0  0.2094  -53.4
 1.700  0.4814  150.2   2.492   56.5  0.1628   67.4  0.2065  -56.4
 1.800  0.4878  148.0   2.374   54.2  0.1726   66.7  0.2056  -59.5
 1.900  0.4921  145.8   2.262   52.3  0.1818   66.0  0.2048  -62.5
 2.000  0.4968  143.6   2.158   50.0  0.1909   65.2  0.2051  -66.0
 2.100  0.5013  141.4   2.070   48.0  0.2003   64.4  0.2052  -69.6
 2.200  0.5066  139.2   1.985   45.8  0.2097   63.6  0.2061  -73.1
 2.300  0.5113  137.3   1.913   43.9  0.2193   62.7  0.2077  -76.6
 2.400  0.5166  135.5   1.843   41.8  0.2289   61.9  0.2100  -80.1
 2.500  0.5205  133.6   1.780   40.0  0.2381   61.0  0.2126  -83.5
 2.600  0.5249  131.7   1.718   38.0  0.2474   60.2  0.2159  -86.8
 2.700  0.5296  129.8   1.665   36.3  0.2566   59.3  0.2193  -90.0
 2.800  0.5348  128.0   1.614   34.4  0.2659   58.5  0.2233  -93.0
 2.900  0.5392  126.1   1.568   32.7  0.2753   57.5  0.2263  -96.0
 3.000  0.5441  124.2   1.523   30.8  0.2848   56.6  0.2300  -99.0
 3.100  0.5471  122.4   1.485   29.3  0.2939   55.5  0.2321 -101.9
 3.200  0.5507  120.6   1.449   27.8  0.3031   54.5  0.2347 -104.8
 3.300  0.5548  118.8   1.413   26.1  0.3125   53.6  0.2379 -107.6
 3.400  0.5595  117.1   1.379   24.4  0.3218   52.7  0.2417 -110.3
 3.500  0.5646  115.4   1.346   22.6  0.3313   51.9  0.2460 -112.9
 3.600  0.5686  113.7   1.318   21.2  0.3404   50.7  0.2466 -115.9
 3.700  0.5731  112.1   1.290   19.7  0.3497   49.6  0.2480 -118.9
 3.800  0.5780  110.5   1.263   18.2  0.3590   48.6  0.2500 -121.9
 3.900  0.5834  108.9   1.238   16.6  0.3685   47.6  0.2526 -124.8
 4.000  0.5892  107.4   1.213   15.0  0.3781   46.6  0.2559 -127.6
 4.100  0.5926  105.9   1.190   13.7  0.3867   45.4  0.2568 -131.1
 4.200  0.5964  104.4   1.167   12.4  0.3954   44.3  0.2586 -134.6
 4.300  0.6006  103.0   1.145   11.0  0.4043   43.2  0.2615 -138.1
 4.400  0.6052  101.5   1.124    9.5  0.4133   42.1  0.2652 -141.4
 4.500  0.6101  100.1   1.103    8.0  0.4225   41.1  0.2698 -144.7
 4.600  0.6150   98.7   1.083    6.9  0.4306   39.9  0.2734 -148.3
 4.700  0.6204   97.3   1.063    5.8  0.4388   38.8  0.2781 -151.8
 4.800  0.6260   95.9   1.044    4.6  0.4472   37.7  0.2837 -155.1
 4.900  0.6320   94.6   1.025    3.4  0.4558   36.7  0.2903 -158.3
 5.000  0.6384   93.3   1.007    2.2  0.4645   35.7  0.2977 -161.4
 5.100  0.6402   92.0   0.993    1.3  0.4721   34.5  0.3049 -164.3
 5.200  0.6423   90.8   0.980    0.3  0.4799   33.3  0.3128 -167.1
 5.300  0.6447   89.6   0.967   -0.7  0.4879   32.2  0.3214 -169.7
 5.400  0.6474   88.3   0.954   -1.7  0.4961   31.1  0.3307 -172.2
 5.500  0.6504   87.1   0.941   -2.8  0.5045   30.0  0.3406 -174.6
 5.600  0.6521   86.0   0.928   -3.6  0.5110   28.8  0.3467 -176.8
 5.700  0.6541   84.9   0.914   -4.4  0.5177   27.7  0.3534 -178.9
 5.800  0.6563   83.8   0.901   -5.3  0.5247   26.6  0.3605  179.1
 5.900  0.6587   82.7   0.889   -6.2  0.5318   25.5  0.3680  177.2
 6.000  0.6614   81.6   0.876   -7.1  0.5391   24.4  0.3759  175.3
!
!  f       NFmin   Gammaopt  rn/50
! GHz       dB    MAG  ANG    -
 0.450      1.88  0.20  177   0.16
 0.900      2.14  0.27 -173   0.16
 1.900      3.19  0.51 -134   0.30
 2.400      3.85  0.56 -124   0.58
!
! (c) 2017  Infineon Technologies AG, Munich