! Infineon Technologies  Discrete & RF Semiconductors
! BFR93AW
! VCE =  3.0 V,  IC =  70 mA
! Common Emitter S-Parameters:                            Jan 2017
# GHz  S  MA  R  50
!  f         S11            S21            S12            S22
! GHz     MAG   ANG      MAG   ANG      MAG   ANG      MAG   ANG
 0.010  0.2591  -36.3  58.952  168.5  0.0030   76.1  0.8944   -9.0
 0.020  0.3066  -65.4  56.648  157.9  0.0058   71.6  0.8504  -18.3
 0.030  0.3160  -84.4  51.006  151.5  0.0078   67.5  0.7762  -23.4
 0.040  0.3564 -100.7  46.161  143.5  0.0099   65.1  0.7094  -29.6
 0.050  0.4190 -112.9  42.389  134.0  0.0119   63.5  0.6525  -36.9
 0.060  0.4245 -119.8  38.997  131.4  0.0129   62.5  0.6071  -38.4
 0.070  0.4359 -126.5  35.701  128.3  0.0140   61.7  0.5621  -40.2
 0.080  0.4529 -132.7  32.529  124.6  0.0150   61.0  0.5178  -42.3
 0.090  0.4749 -138.4  29.521  120.1  0.0161   60.3  0.4744  -44.8
 0.100  0.5011 -143.6  26.733  114.7  0.0171   59.8  0.4320  -47.8
 0.110  0.5034 -146.3  25.124  113.3  0.0181   60.1  0.4105  -48.1
 0.120  0.5068 -149.0  23.532  111.8  0.0190   60.4  0.3891  -48.4
 0.130  0.5113 -151.6  21.960  110.0  0.0200   60.7  0.3677  -48.8
 0.140  0.5168 -154.2  20.413  107.9  0.0209   60.9  0.3463  -49.2
 0.150  0.5234 -156.7  18.896  105.5  0.0219   61.1  0.3249  -49.7
 0.200  0.5348 -164.1  14.487   99.9  0.0254   64.7  0.2705  -48.8
 0.250  0.5427 -169.4  11.755   95.9  0.0308   66.5  0.2376  -47.2
 0.300  0.5438 -173.2   9.850   93.1  0.0344   69.3  0.2161  -45.9
 0.350  0.5453 -176.0   8.659   91.1  0.0395   70.6  0.2042  -45.1
 0.400  0.5481 -178.8   7.482   88.4  0.0446   71.6  0.1924  -44.3
 0.450  0.5487  178.9   6.747   86.8  0.0496   72.2  0.1855  -44.2
 0.500  0.5502  176.7   6.019   84.8  0.0546   72.7  0.1787  -44.0
 0.600  0.5530  173.0   5.058   81.5  0.0641   72.6  0.1697  -44.7
 0.700  0.5565  170.0   4.356   78.7  0.0738   74.0  0.1642  -46.1
 0.800  0.5591  166.7   3.835   75.7  0.0852   73.9  0.1602  -47.9
 0.900  0.5594  163.9   3.419   73.1  0.0946   73.1  0.1564  -50.7
 1.000  0.5654  161.4   3.105   70.5  0.1049   73.0  0.1526  -53.2
 1.100  0.5670  158.7   2.841   68.1  0.1148   72.5  0.1512  -56.3
 1.200  0.5697  156.2   2.620   65.6  0.1253   71.6  0.1493  -59.6
 1.300  0.5731  153.7   2.433   63.2  0.1353   71.2  0.1480  -63.3
 1.400  0.5755  151.7   2.280   60.8  0.1460   70.4  0.1467  -67.7
 1.500  0.5797  149.4   2.141   58.6  0.1561   69.6  0.1457  -71.8
 1.600  0.5847  147.1   2.026   56.2  0.1668   68.7  0.1473  -75.7
 1.700  0.5859  144.9   1.922   54.1  0.1769   67.9  0.1475  -80.6
 1.800  0.5909  142.6   1.835   51.8  0.1872   66.9  0.1490  -85.0
 1.900  0.5947  140.7   1.752   49.9  0.1980   66.0  0.1519  -89.5
 2.000  0.5966  138.6   1.674   47.6  0.2082   65.1  0.1555  -94.1
 2.100  0.6006  136.4   1.609   45.6  0.2185   64.1  0.1592  -98.6
 2.200  0.6054  134.3   1.547   43.4  0.2289   63.1  0.1639 -102.9
 2.300  0.6084  132.4   1.494   41.5  0.2389   62.0  0.1690 -107.0
 2.400  0.6120  130.6   1.442   39.5  0.2490   61.0  0.1749 -110.8
 2.500  0.6152  128.8   1.396   37.8  0.2589   59.9  0.1809 -114.3
 2.600  0.6190  127.0   1.351   35.9  0.2689   58.9  0.1876 -117.6
 2.700  0.6217  125.1   1.312   34.2  0.2788   57.8  0.1935 -120.7
 2.800  0.6251  123.2   1.274   32.4  0.2889   56.7  0.2000 -123.7
 2.900  0.6277  121.4   1.240   30.7  0.2986   55.6  0.2054 -126.6
 3.000  0.6310  119.6   1.208   29.0  0.3084   54.5  0.2113 -129.4
 3.100  0.6323  117.8   1.180   27.6  0.3177   53.3  0.2152 -132.3
 3.200  0.6342  116.0   1.153   26.1  0.3271   52.1  0.2197 -135.0
 3.300  0.6368  114.2   1.127   24.5  0.3367   51.0  0.2246 -137.7
 3.400  0.6399  112.4   1.102   22.9  0.3464   50.0  0.2300 -140.2
 3.500  0.6437  110.7   1.078   21.2  0.3562   49.0  0.2358 -142.6
 3.600  0.6459  109.1   1.058   19.9  0.3651   47.7  0.2386 -145.6
 3.700  0.6486  107.5   1.038   18.6  0.3743   46.5  0.2420 -148.6
 3.800  0.6518  105.9   1.019   17.2  0.3836   45.3  0.2461 -151.5
 3.900  0.6555  104.3   1.000   15.8  0.3930   44.2  0.2508 -154.2
 4.000  0.6597  102.7   0.982   14.3  0.4026   43.1  0.2560 -156.9
 4.100  0.6609  101.2   0.966   13.1  0.4106   41.8  0.2597 -160.2
 4.200  0.6626   99.8   0.950   11.9  0.4188   40.6  0.2642 -163.4
 4.300  0.6646   98.4   0.934   10.6  0.4271   39.4  0.2694 -166.4
 4.400  0.6671   96.9   0.919    9.3  0.4357   38.2  0.2755 -169.4
 4.500  0.6700   95.5   0.905    8.0  0.4444   37.1  0.2822 -172.2
 4.600  0.6728   94.2   0.891    7.1  0.4516   35.9  0.2882 -175.2
 4.700  0.6760   92.9   0.877    6.2  0.4590   34.7  0.2950 -178.0
 4.800  0.6796   91.6   0.863    5.2  0.4666   33.5  0.3025  179.3
 4.900  0.6835   90.3   0.850    4.2  0.4744   32.4  0.3106  176.7
 5.000  0.6877   89.0   0.837    3.2  0.4823   31.3  0.3193  174.3
 5.100  0.6883   87.8   0.828    2.3  0.4888   30.1  0.3273  172.2
 5.200  0.6891   86.5   0.820    1.5  0.4955   28.8  0.3358  170.1
 5.300  0.6903   85.3   0.811    0.6  0.5024   27.7  0.3447  168.2
 5.400  0.6918   84.1   0.803   -0.4  0.5095   26.5  0.3540  166.3
 5.500  0.6936   82.9   0.795   -1.3  0.5168   25.4  0.3636  164.6
 5.600  0.6935   81.9   0.787   -2.0  0.5222   24.3  0.3694  163.0
 5.700  0.6937   80.8   0.779   -2.7  0.5278   23.1  0.3754  161.4
 5.800  0.6941   79.8   0.771   -3.4  0.5337   22.0  0.3817  159.9
 5.900  0.6947   78.7   0.763   -4.2  0.5397   21.0  0.3883  158.4
 6.000  0.6955   77.7   0.755   -4.9  0.5459   19.9  0.3951  157.0
!
!  f       NFmin   Gammaopt  rn/50
! GHz       dB    MAG  ANG    -
!
! noise parameter not available yet for this operation point!
!
! (c) 2017  Infineon Technologies AG, Munich