! Infineon Technologies  Discrete & RF Semiconductors
! BFR93AW
! VCE =  1.0 V,  IC =  85 mA
! Common Emitter S-Parameters:                            Jan 2017
# GHz  S  MA  R  50
!  f         S11            S21            S12            S22
! GHz     MAG   ANG      MAG   ANG      MAG   ANG      MAG   ANG
 0.010  0.3607 -129.3  31.861  154.2  0.0089   49.8  0.3657  -45.9
 0.020  0.5784 -141.8  25.783  135.9  0.0141   44.3  0.3471  -80.8
 0.030  0.6260 -149.6  21.349  130.9  0.0159   41.7  0.3106  -95.5
 0.040  0.6833 -156.1  17.165  123.3  0.0177   39.7  0.2989 -112.7
 0.050  0.7482 -161.6  13.465  111.2  0.0195   38.0  0.3148 -129.7
 0.060  0.7549 -163.9  12.172  109.8  0.0205   40.1  0.3086 -134.3
 0.070  0.7627 -166.1  10.888  108.0  0.0215   42.0  0.3044 -139.1
 0.080  0.7716 -168.2   9.618  105.7  0.0225   43.7  0.3025 -144.0
 0.090  0.7816 -170.3   8.367  102.8  0.0235   45.3  0.3027 -148.8
 0.100  0.7926 -172.4   7.146   98.8  0.0246   46.7  0.3051 -153.7
 0.110  0.7937 -173.3   6.679   98.0  0.0257   48.1  0.3043 -155.5
 0.120  0.7951 -174.3   6.213   97.1  0.0268   49.5  0.3037 -157.2
 0.130  0.7966 -175.2   5.749   96.1  0.0280   50.7  0.3035 -159.0
 0.140  0.7984 -176.2   5.288   94.9  0.0291   51.8  0.3036 -160.8
 0.150  0.8004 -177.1   4.829   93.4  0.0303   52.8  0.3039 -162.6
 0.200  0.8038  179.9   3.643   89.8  0.0358   58.4  0.3030 -167.0
 0.250  0.8053  177.5   2.935   86.8  0.0427   61.5  0.3034 -170.1
 0.300  0.8012  175.5   2.458   84.6  0.0491   64.0  0.3040 -172.2
 0.350  0.8018  173.7   2.167   82.7  0.0561   65.6  0.3057 -173.5
 0.400  0.8031  172.0   1.878   80.3  0.0632   66.8  0.3075 -174.8
 0.450  0.8029  170.4   1.702   78.7  0.0701   67.6  0.3090 -175.9
 0.500  0.8032  168.9   1.528   76.7  0.0770   68.2  0.3107 -176.9
 0.600  0.8037  166.0   1.304   73.2  0.0916   68.2  0.3167 -178.5
 0.700  0.8044  163.5   1.143   70.1  0.1050   68.6  0.3209 -179.9
 0.800  0.8043  160.7   1.024   66.7  0.1197   68.3  0.3268  178.8
 0.900  0.7997  158.0   0.932   63.8  0.1334   67.4  0.3327  177.6
 1.000  0.8030  155.6   0.865   61.0  0.1475   66.7  0.3393  176.1
 1.100  0.8049  153.0   0.809   58.3  0.1616   65.9  0.3464  175.0
 1.200  0.8042  150.5   0.763   55.6  0.1755   64.5  0.3521  173.5
 1.300  0.8037  148.1   0.725   53.3  0.1892   63.3  0.3592  172.2
 1.400  0.8074  145.8   0.697   51.0  0.2034   62.3  0.3677  170.8
 1.500  0.8082  143.5   0.669   48.7  0.2166   61.1  0.3756  169.4
 1.600  0.8107  141.1   0.647   46.6  0.2303   59.7  0.3819  168.1
 1.700  0.8087  138.8   0.628   44.5  0.2434   58.4  0.3906  166.8
 1.800  0.8110  136.4   0.615   42.5  0.2565   56.8  0.3979  165.3
 1.900  0.8107  134.3   0.600   41.2  0.2694   55.6  0.4052  164.1
 2.000  0.8092  132.0   0.586   39.2  0.2814   54.2  0.4127  162.8
 2.100  0.8088  129.7   0.576   37.7  0.2929   52.6  0.4192  161.5
 2.200  0.8096  127.5   0.566   36.1  0.3047   51.1  0.4260  160.2
 2.300  0.8076  125.5   0.559   34.8  0.3161   49.6  0.4316  158.9
 2.400  0.8065  123.5   0.552   33.4  0.3278   48.2  0.4375  157.7
 2.500  0.8047  121.5   0.547   32.3  0.3380   46.8  0.4421  156.5
 2.600  0.8038  119.5   0.542   31.1  0.3485   45.4  0.4469  155.3
 2.700  0.8022  117.7   0.538   30.0  0.3584   43.9  0.4504  154.0
 2.800  0.8015  115.8   0.534   28.9  0.3686   42.5  0.4541  152.8
 2.900  0.7996  113.9   0.531   28.0  0.3780   41.1  0.4568  151.5
 3.000  0.7986  111.9   0.529   27.0  0.3876   39.7  0.4598  150.2
 3.100  0.7949  110.1   0.529   26.0  0.3952   38.3  0.4611  148.8
 3.200  0.7919  108.3   0.529   25.0  0.4031   36.9  0.4627  147.3
 3.300  0.7897  106.5   0.529   24.0  0.4112   35.5  0.4645  145.9
 3.400  0.7883  104.7   0.529   23.0  0.4196   34.2  0.4667  144.5
 3.500  0.7877  102.9   0.530   22.0  0.4281   33.0  0.4691  143.1
 3.600  0.7850  101.3   0.530   21.1  0.4346   31.6  0.4710  141.5
 3.700  0.7828   99.7   0.531   20.1  0.4414   30.3  0.4732  140.0
 3.800  0.7813   98.1   0.531   19.2  0.4484   29.0  0.4758  138.4
 3.900  0.7804   96.5   0.532   18.2  0.4557   27.7  0.4787  136.9
 4.000  0.7801   94.9   0.533   17.3  0.4631   26.5  0.4819  135.4
 4.100  0.7765   93.5   0.534   16.4  0.4679   25.2  0.4847  133.8
 4.200  0.7733   92.2   0.534   15.4  0.4730   23.9  0.4879  132.3
 4.300  0.7706   90.8   0.535   14.5  0.4783   22.7  0.4915  130.7
 4.400  0.7683   89.4   0.536   13.5  0.4839   21.5  0.4954  129.2
 4.500  0.7665   88.0   0.537   12.6  0.4896   20.3  0.4996  127.7
 4.600  0.7657   86.8   0.537   11.9  0.4933   19.2  0.5033  126.4
 4.700  0.7652   85.7   0.538   11.1  0.4972   18.1  0.5072  125.2
 4.800  0.7650   84.5   0.539   10.4  0.5013   17.0  0.5113  124.0
 4.900  0.7652   83.4   0.539    9.6  0.5056   15.9  0.5157  122.8
 5.000  0.7656   82.2   0.540    8.9  0.5100   14.9  0.5203  121.6
 5.100  0.7628   81.1   0.542    8.1  0.5132   13.8  0.5233  120.7
 5.200  0.7604   80.0   0.545    7.2  0.5166   12.7  0.5264  119.8
 5.300  0.7582   78.9   0.547    6.4  0.5201   11.6  0.5296  119.0
 5.400  0.7562   77.8   0.550    5.6  0.5239   10.5  0.5329  118.1
 5.500  0.7546   76.7   0.553    4.8  0.5278    9.5  0.5364  117.3
 5.600  0.7524   75.8   0.554    4.1  0.5300    8.6  0.5362  116.5
 5.700  0.7503   74.9   0.555    3.4  0.5323    7.6  0.5361  115.7
 5.800  0.7485   74.0   0.556    2.6  0.5348    6.7  0.5361  115.0
 5.900  0.7468   73.1   0.557    1.9  0.5374    5.8  0.5362  114.2
 6.000  0.7453   72.2   0.558    1.2  0.5402    4.9  0.5364  113.4
!
!  f       NFmin   Gammaopt  rn/50
! GHz       dB    MAG  ANG    -
!
! noise parameter not available yet for this operation point!
!
! (c) 2017  Infineon Technologies AG, Munich