! Infineon Technologies  Discrete & RF Semiconductors
! BFR93AW
! VCE =  5.0 V,  IC =  16 mA
! Common Emitter S-Parameters:                            Jan 2017
# GHz  S  MA  R  50
!  f         S11            S21            S12            S22
! GHz     MAG   ANG      MAG   ANG      MAG   ANG      MAG   ANG
 0.010  0.6491   -9.2  34.713  174.3  0.0028   80.6  0.9883   -4.1
 0.020  0.6538  -18.1  34.559  169.2  0.0056   88.7  0.9727   -8.3
 0.030  0.6263  -26.1  33.352  164.5  0.0084   79.9  0.9456  -11.8
 0.040  0.6119  -34.6  32.386  159.5  0.0112   75.5  0.9222  -15.5
 0.050  0.6114  -43.3  31.682  154.2  0.0141   72.9  0.9027  -19.3
 0.060  0.5865  -49.5  30.245  151.1  0.0159   69.7  0.8685  -21.4
 0.070  0.5691  -56.1  28.908  147.6  0.0178   67.1  0.8357  -23.7
 0.080  0.5596  -63.1  27.687  143.8  0.0197   65.0  0.8043  -26.2
 0.090  0.5587  -70.2  26.596  139.7  0.0217   63.3  0.7745  -28.9
 0.100  0.5663  -77.2  25.652  135.3  0.0236   61.9  0.7466  -31.8
 0.110  0.5504  -81.6  24.522  133.2  0.0248   60.7  0.7192  -32.9
 0.120  0.5379  -86.2  23.428  130.9  0.0260   59.7  0.6920  -34.1
 0.130  0.5290  -90.9  22.374  128.4  0.0272   58.7  0.6652  -35.4
 0.140  0.5239  -95.8  21.367  125.7  0.0284   57.8  0.6387  -36.8
 0.150  0.5227 -100.8  20.413  122.7  0.0296   57.0  0.6127  -38.3
 0.200  0.4993 -117.7  16.608  114.1  0.0334   55.1  0.5212  -41.0
 0.250  0.4864 -130.0  13.899  107.8  0.0376   55.0  0.4576  -42.1
 0.300  0.4760 -139.2  11.869  103.3  0.0411   55.4  0.4106  -42.1
 0.350  0.4684 -145.6  10.518  100.2  0.0444   57.2  0.3827  -41.8
 0.400  0.4668 -152.1   9.205   96.3  0.0477   58.7  0.3548  -41.4
 0.450  0.4644 -156.7   8.326   94.0  0.0516   59.6  0.3383  -41.0
 0.500  0.4651 -161.3   7.463   91.2  0.0555   60.3  0.3219  -40.5
 0.600  0.4650 -168.4   6.293   86.9  0.0635   62.0  0.3012  -40.1
 0.700  0.4674 -173.9   5.426   83.3  0.0707   64.2  0.2868  -40.0
 0.800  0.4672 -178.8   4.779   79.8  0.0794   65.2  0.2772  -40.4
 0.900  0.4681  176.7   4.261   76.7  0.0871   66.0  0.2691  -41.2
 1.000  0.4732  172.7   3.867   73.8  0.0959   66.3  0.2627  -42.3
 1.100  0.4779  169.2   3.532   71.1  0.1040   66.5  0.2582  -43.7
 1.200  0.4793  166.0   3.252   68.4  0.1131   66.8  0.2538  -45.3
 1.300  0.4821  163.1   3.015   65.8  0.1212   66.9  0.2506  -47.3
 1.400  0.4861  160.3   2.821   63.3  0.1307   66.9  0.2462  -49.4
 1.500  0.4923  157.5   2.643   60.9  0.1389   66.5  0.2436  -51.8
 1.600  0.4960  154.8   2.495   58.4  0.1483   66.2  0.2427  -54.2
 1.700  0.4984  152.4   2.362   56.2  0.1574   65.9  0.2403  -57.0
 1.800  0.5052  149.8   2.251   53.8  0.1666   65.5  0.2384  -59.8
 1.900  0.5095  147.5   2.146   51.8  0.1756   65.1  0.2376  -62.8
 2.000  0.5126  145.1   2.047   49.4  0.1853   64.6  0.2377  -66.0
 2.100  0.5175  142.8   1.965   47.3  0.1944   63.9  0.2380  -69.3
 2.200  0.5232  140.6   1.885   45.1  0.2036   63.2  0.2390  -72.6
 2.300  0.5282  138.6   1.815   43.1  0.2130   62.5  0.2408  -75.9
 2.400  0.5339  136.6   1.748   41.0  0.2225   61.9  0.2434  -79.2
 2.500  0.5380  134.6   1.688   39.1  0.2319   61.2  0.2459  -82.5
 2.600  0.5428  132.7   1.630   37.1  0.2414   60.5  0.2492  -85.7
 2.700  0.5469  130.7   1.579   35.3  0.2509   59.7  0.2524  -88.7
 2.800  0.5517  128.7   1.530   33.4  0.2605   58.9  0.2563  -91.6
 2.900  0.5565  126.7   1.487   31.7  0.2704   58.0  0.2595  -94.6
 3.000  0.5620  124.8   1.445   29.8  0.2803   57.1  0.2634  -97.5
 3.100  0.5647  122.9   1.409   28.3  0.2898   56.1  0.2653 -100.4
 3.200  0.5679  121.0   1.374   26.7  0.2994   55.2  0.2679 -103.2
 3.300  0.5718  119.2   1.340   25.1  0.3091   54.3  0.2711 -106.0
 3.400  0.5762  117.4   1.307   23.3  0.3189   53.5  0.2750 -108.7
 3.500  0.5812  115.6   1.275   21.5  0.3287   52.7  0.2794 -111.3
 3.600  0.5851  113.9   1.248   20.1  0.3383   51.5  0.2800 -114.3
 3.700  0.5895  112.2   1.222   18.7  0.3479   50.4  0.2814 -117.3
 3.800  0.5944  110.5   1.196   17.1  0.3578   49.4  0.2836 -120.3
 3.900  0.5998  108.9   1.172   15.5  0.3677   48.4  0.2865 -123.2
 4.000  0.6057  107.3   1.148   13.9  0.3777   47.5  0.2901 -126.0
 4.100  0.6086  105.7   1.126   12.6  0.3868   46.3  0.2907 -129.5
 4.200  0.6120  104.2   1.105   11.3  0.3960   45.1  0.2923 -132.9
 4.300  0.6157  102.7   1.084   10.0  0.4054   44.0  0.2949 -136.3
 4.400  0.6200  101.2   1.064    8.6  0.4149   42.9  0.2986 -139.7
 4.500  0.6246   99.7   1.045    7.1  0.4246   41.9  0.3033 -142.9
 4.600  0.6291   98.3   1.026    6.1  0.4331   40.7  0.3067 -146.4
 4.700  0.6340   96.9   1.007    5.0  0.4418   39.5  0.3112 -149.9
 4.800  0.6392   95.5   0.989    3.9  0.4507   38.4  0.3168 -153.2
 4.900  0.6448   94.1   0.971    2.7  0.4597   37.3  0.3235 -156.4
 5.000  0.6508   92.8   0.953    1.5  0.4689   36.3  0.3311 -159.5
 5.100  0.6524   91.5   0.940    0.6  0.4769   35.0  0.3379 -162.5
 5.200  0.6543   90.2   0.927   -0.3  0.4851   33.8  0.3455 -165.4
 5.300  0.6566   88.9   0.914   -1.2  0.4935   32.6  0.3540 -168.1
 5.400  0.6592   87.7   0.901   -2.2  0.5021   31.5  0.3633 -170.7
 5.500  0.6621   86.4   0.889   -3.2  0.5109   30.4  0.3733 -173.2
 5.600  0.6631   85.3   0.877   -4.0  0.5176   29.2  0.3792 -175.5
 5.700  0.6644   84.1   0.865   -4.7  0.5246   28.0  0.3857 -177.7
 5.800  0.6660   83.0   0.854   -5.5  0.5318   26.8  0.3928 -179.8
 5.900  0.6678   81.9   0.842   -6.4  0.5392   25.7  0.4003  178.2
 6.000  0.6698   80.8   0.831   -7.2  0.5468   24.6  0.4084  176.2
!
!  f       NFmin   Gammaopt  rn/50
! GHz       dB    MAG  ANG    -
 0.450      1.41  0.12  146   0.13
 0.900      1.69  0.23  168   0.14
 1.900      2.69  0.47 -141   0.21
 2.400      3.31  0.54 -127   0.41
!
! (c) 2017  Infineon Technologies AG, Munich