! Infineon Technologies  Discrete & RF Semiconductors
! BFR93AW
! VCE =  8.0 V,  IC =  15 mA
! Common Emitter S-Parameters:                            Jan 2017
# GHz  S  MA  R  50
!  f         S11            S21            S12            S22
! GHz     MAG   ANG      MAG   ANG      MAG   ANG      MAG   ANG
 0.010  0.6876   -8.1  32.967  174.5  0.0026   84.9  0.9889   -3.6
 0.020  0.6944  -16.1  32.968  169.9  0.0055   90.1  0.9776   -7.4
 0.030  0.6669  -23.3  31.917  165.5  0.0082   80.4  0.9538  -10.6
 0.040  0.6506  -30.9  31.068  160.8  0.0110   75.5  0.9330  -13.9
 0.050  0.6464  -38.8  30.437  155.9  0.0139   72.7  0.9155  -17.3
 0.060  0.6218  -44.5  29.179  152.8  0.0158   69.9  0.8846  -19.3
 0.070  0.6039  -50.7  28.014  149.4  0.0177   67.6  0.8549  -21.5
 0.080  0.5933  -57.1  26.955  145.8  0.0196   65.8  0.8265  -23.8
 0.090  0.5905  -63.7  26.015  141.8  0.0215   64.3  0.7996  -26.3
 0.100  0.5955  -70.3  25.206  137.6  0.0235   63.1  0.7742  -28.9
 0.110  0.5770  -74.5  24.161  135.5  0.0246   61.9  0.7484  -30.0
 0.120  0.5618  -79.0  23.151  133.2  0.0258   60.8  0.7228  -31.2
 0.130  0.5502  -83.7  22.182  130.7  0.0270   59.8  0.6976  -32.5
 0.140  0.5426  -88.6  21.259  128.0  0.0281   58.9  0.6728  -33.8
 0.150  0.5389  -93.6  20.388  125.0  0.0293   58.1  0.6484  -35.3
 0.200  0.5069 -110.6  16.758  116.2  0.0333   56.0  0.5577  -38.0
 0.250  0.4871 -123.2  14.103  109.6  0.0373   54.9  0.4940  -39.0
 0.300  0.4712 -133.1  12.084  104.9  0.0403   54.7  0.4466  -39.2
 0.350  0.4613 -140.0  10.726  101.7  0.0437   56.4  0.4177  -38.9
 0.400  0.4584 -147.1   9.409   97.7  0.0471   57.8  0.3888  -38.5
 0.450  0.4539 -152.1   8.518   95.3  0.0505   58.9  0.3718  -38.1
 0.500  0.4529 -157.2   7.646   92.3  0.0539   59.8  0.3548  -37.7
 0.600  0.4489 -164.7   6.456   88.0  0.0618   61.4  0.3334  -37.3
 0.700  0.4502 -170.8   5.569   84.3  0.0686   63.9  0.3188  -37.1
 0.800  0.4510 -176.0   4.909   80.8  0.0767   64.7  0.3087  -37.5
 0.900  0.4515  179.1   4.376   77.6  0.0843   65.2  0.3006  -38.2
 1.000  0.4568  175.3   3.971   74.7  0.0923   66.0  0.2941  -39.2
 1.100  0.4600  171.3   3.628   72.0  0.1009   66.5  0.2897  -40.4
 1.200  0.4633  167.9   3.341   69.2  0.1087   66.5  0.2851  -41.8
 1.300  0.4650  164.6   3.098   66.6  0.1168   67.0  0.2815  -43.7
 1.400  0.4697  161.7   2.898   64.1  0.1257   66.9  0.2772  -45.6
 1.500  0.4739  159.1   2.716   61.7  0.1341   66.7  0.2742  -47.7
 1.600  0.4774  156.3   2.562   59.3  0.1430   66.6  0.2732  -50.0
 1.700  0.4816  153.6   2.426   57.0  0.1514   66.4  0.2701  -52.6
 1.800  0.4872  151.0   2.312   54.7  0.1606   66.0  0.2681  -55.2
 1.900  0.4927  148.7   2.203   52.6  0.1696   65.7  0.2668  -57.8
 2.000  0.4952  146.3   2.102   50.2  0.1783   65.2  0.2667  -60.8
 2.100  0.5008  144.0   2.016   48.1  0.1873   64.6  0.2662  -63.8
 2.200  0.5073  141.7   1.933   45.9  0.1964   64.1  0.2664  -66.8
 2.300  0.5119  139.6   1.862   43.9  0.2059   63.5  0.2674  -70.0
 2.400  0.5171  137.5   1.794   41.8  0.2155   62.9  0.2693  -73.1
 2.500  0.5213  135.4   1.732   39.9  0.2246   62.2  0.2713  -76.2
 2.600  0.5261  133.4   1.672   37.9  0.2337   61.5  0.2741  -79.2
 2.700  0.5309  131.4   1.621   36.1  0.2431   60.8  0.2767  -82.1
 2.800  0.5363  129.5   1.571   34.2  0.2526   60.1  0.2801  -85.0
 2.900  0.5408  127.5   1.526   32.4  0.2622   59.3  0.2825  -87.8
 3.000  0.5459  125.6   1.483   30.5  0.2718   58.5  0.2855  -90.6
 3.100  0.5489  123.7   1.445   29.0  0.2814   57.5  0.2869  -93.4
 3.200  0.5525  121.8   1.409   27.4  0.2911   56.6  0.2891  -96.1
 3.300  0.5567  119.9   1.373   25.8  0.3008   55.8  0.2918  -98.9
 3.400  0.5615  118.1   1.339   24.0  0.3106   55.0  0.2953 -101.5
 3.500  0.5669  116.3   1.306   22.2  0.3205   54.2  0.2993 -104.1
 3.600  0.5710  114.6   1.278   20.8  0.3302   53.1  0.2992 -107.0
 3.700  0.5757  112.9   1.251   19.4  0.3401   52.0  0.3000 -109.9
 3.800  0.5808  111.2   1.225   17.9  0.3500   51.0  0.3014 -112.8
 3.900  0.5865  109.5   1.199   16.3  0.3601   50.1  0.3036 -115.6
 4.000  0.5926  107.9   1.175   14.7  0.3702   49.2  0.3066 -118.4
 4.100  0.5958  106.4   1.152   13.4  0.3794   48.0  0.3062 -121.8
 4.200  0.5994  104.8   1.130   12.1  0.3888   46.8  0.3070 -125.2
 4.300  0.6034  103.3   1.109   10.7  0.3984   45.7  0.3088 -128.6
 4.400  0.6079  101.9   1.088    9.2  0.4081   44.6  0.3117 -131.9
 4.500  0.6127  100.4   1.068    7.7  0.4179   43.6  0.3156 -135.2
 4.600  0.6175   99.0   1.048    6.6  0.4267   42.4  0.3178 -138.8
 4.700  0.6228   97.6   1.029    5.5  0.4356   41.2  0.3212 -142.3
 4.800  0.6284   96.2   1.010    4.4  0.4448   40.1  0.3258 -145.8
 4.900  0.6343   94.8   0.991    3.2  0.4541   39.0  0.3316 -149.1
 5.000  0.6406   93.5   0.973    2.0  0.4635   38.0  0.3384 -152.3
 5.100  0.6424   92.2   0.959    1.1  0.4717   36.7  0.3445 -155.4
 5.200  0.6445   90.9   0.946    0.1  0.4802   35.5  0.3515 -158.4
 5.300  0.6469   89.6   0.933   -0.9  0.4888   34.3  0.3595 -161.3
 5.400  0.6497   88.3   0.920   -1.9  0.4977   33.2  0.3683 -164.1
 5.500  0.6528   87.0   0.907   -2.9  0.5067   32.1  0.3780 -166.7
 5.600  0.6542   85.8   0.894   -3.7  0.5138   30.9  0.3835 -169.2
 5.700  0.6559   84.7   0.882   -4.4  0.5211   29.6  0.3897 -171.5
 5.800  0.6578   83.6   0.869   -5.2  0.5286   28.5  0.3966 -173.8
 5.900  0.6600   82.4   0.857   -6.1  0.5363   27.3  0.4040 -176.1
 6.000  0.6624   81.3   0.845   -6.9  0.5443   26.2  0.4121 -178.2
!
!  f       NFmin   Gammaopt  rn/50
! GHz       dB    MAG  ANG    -
 0.450      1.37  0.12  133   0.13
 0.900      1.66  0.23  164   0.14
 1.900      2.67  0.47 -144   0.20
 2.400      3.30  0.54 -129   0.40
!
! (c) 2017  Infineon Technologies AG, Munich