! Infineon Technologies  Discrete & RF Semiconductors
! BFR93AW
! VCE =  7.0 V,  IC =  30 mA
! Common Emitter S-Parameters:                            Jan 2017
# GHz  S  MA  R  50
!  f         S11            S21            S12            S22
! GHz     MAG   ANG      MAG   ANG      MAG   ANG      MAG   ANG
 0.010  0.5554  -11.7  46.325  172.7  0.0025   86.6  0.9776   -5.0
 0.020  0.5600  -23.1  45.803  166.5  0.0048   85.0  0.9566  -10.2
 0.030  0.5290  -32.9  43.545  161.2  0.0072   76.9  0.9183  -14.2
 0.040  0.5148  -43.5  41.703  155.3  0.0098   72.9  0.8849  -18.6
 0.050  0.5190  -54.3  40.332  149.0  0.0123   70.5  0.8570  -23.2
 0.060  0.4957  -61.2  38.038  145.9  0.0138   67.9  0.8166  -25.2
 0.070  0.4802  -68.6  35.873  142.3  0.0153   65.8  0.7774  -27.5
 0.080  0.4732  -76.4  33.861  138.4  0.0168   64.1  0.7394  -29.9
 0.090  0.4751  -84.2  32.030  133.9  0.0184   62.7  0.7030  -32.7
 0.100  0.4858  -91.9  30.414  129.0  0.0199   61.5  0.6684  -35.7
 0.110  0.4738  -96.3  28.897  127.1  0.0208   61.0  0.6410  -36.5
 0.120  0.4647 -100.9  27.415  125.0  0.0217   60.6  0.6137  -37.4
 0.130  0.4587 -105.7  25.974  122.6  0.0227   60.2  0.5865  -38.4
 0.140  0.4560 -110.5  24.582  120.0  0.0236   59.8  0.5596  -39.5
 0.150  0.4565 -115.4  23.248  117.1  0.0245   59.5  0.5329  -40.7
 0.200  0.4463 -130.6  18.465  109.4  0.0286   59.4  0.4487  -42.0
 0.250  0.4410 -141.5  15.261  103.8  0.0325   61.1  0.3942  -41.9
 0.300  0.4351 -149.3  12.927   99.9  0.0360   61.3  0.3559  -41.1
 0.350  0.4323 -154.6  11.414   97.2  0.0400   63.4  0.3337  -40.3
 0.400  0.4332 -160.0   9.932   93.8  0.0440   65.1  0.3115  -39.4
 0.450  0.4322 -163.9   8.971   91.8  0.0481   66.1  0.2984  -38.8
 0.500  0.4333 -167.8   8.024   89.3  0.0523   67.0  0.2854  -38.2
 0.600  0.4356 -173.5   6.748   85.5  0.0611   67.8  0.2699  -37.6
 0.700  0.4367 -178.7   5.812   82.3  0.0700   69.2  0.2592  -37.3
 0.800  0.4429  177.2   5.115   79.0  0.0788   70.1  0.2514  -37.8
 0.900  0.4420  173.4   4.556   76.2  0.0877   69.8  0.2449  -38.6
 1.000  0.4471  170.0   4.129   73.5  0.0967   70.1  0.2396  -39.6
 1.100  0.4519  166.6   3.772   71.0  0.1056   70.1  0.2360  -41.1
 1.200  0.4535  163.8   3.471   68.4  0.1152   69.6  0.2320  -42.6
 1.300  0.4575  160.8   3.218   66.0  0.1234   69.4  0.2291  -44.6
 1.400  0.4615  158.2   3.010   63.6  0.1333   68.9  0.2250  -46.8
 1.500  0.4676  155.9   2.820   61.3  0.1421   68.4  0.2228  -49.3
 1.600  0.4701  153.2   2.659   58.9  0.1512   68.0  0.2217  -51.7
 1.700  0.4745  150.7   2.517   56.8  0.1607   67.4  0.2191  -54.7
 1.800  0.4812  148.4   2.398   54.5  0.1698   66.6  0.2174  -57.4
 1.900  0.4849  146.3   2.283   52.6  0.1792   66.0  0.2166  -60.5
 2.000  0.4883  144.2   2.180   50.2  0.1881   65.3  0.2168  -63.9
 2.100  0.4938  141.9   2.091   48.2  0.1975   64.6  0.2166  -67.2
 2.200  0.5000  139.7   2.005   46.1  0.2070   63.9  0.2171  -70.5
 2.300  0.5045  137.8   1.931   44.2  0.2163   63.0  0.2185  -74.0
 2.400  0.5096  136.0   1.860   42.1  0.2257   62.2  0.2206  -77.4
 2.500  0.5141  134.0   1.796   40.3  0.2348   61.3  0.2230  -80.6
 2.600  0.5191  132.1   1.734   38.3  0.2440   60.5  0.2260  -83.8
 2.700  0.5235  130.2   1.681   36.5  0.2534   59.6  0.2291  -86.9
 2.800  0.5284  128.4   1.629   34.6  0.2629   58.8  0.2328  -90.0
 2.900  0.5334  126.4   1.583   32.9  0.2723   57.9  0.2354  -93.0
 3.000  0.5390  124.5   1.538   31.1  0.2818   57.1  0.2386  -95.9
 3.100  0.5418  122.7   1.499   29.6  0.2909   56.1  0.2404  -98.8
 3.200  0.5450  120.9   1.462   28.0  0.3001   55.1  0.2428 -101.6
 3.300  0.5489  119.1   1.426   26.4  0.3093   54.2  0.2457 -104.3
 3.400  0.5532  117.4   1.391   24.6  0.3187   53.3  0.2493 -107.0
 3.500  0.5580  115.7   1.357   22.8  0.3281   52.5  0.2533 -109.6
 3.600  0.5623  114.0   1.328   21.4  0.3373   51.3  0.2537 -112.6
 3.700  0.5671  112.4   1.301   19.9  0.3467   50.2  0.2549 -115.6
 3.800  0.5724  110.8   1.274   18.4  0.3562   49.2  0.2567 -118.6
 3.900  0.5781  109.2   1.248   16.8  0.3658   48.1  0.2592 -121.5
 4.000  0.5842  107.7   1.223   15.2  0.3755   47.2  0.2623 -124.3
 4.100  0.5877  106.2   1.200   13.9  0.3841   46.0  0.2627 -127.8
 4.200  0.5916  104.7   1.177   12.5  0.3929   44.9  0.2641 -131.3
 4.300  0.5959  103.2   1.155   11.1  0.4018   43.8  0.2665 -134.7
 4.400  0.6005  101.7   1.134    9.6  0.4109   42.7  0.2698 -138.0
 4.500  0.6056  100.3   1.113    8.1  0.4201   41.7  0.2740 -141.3
 4.600  0.6105   98.9   1.093    7.0  0.4283   40.5  0.2772 -144.9
 4.700  0.6157   97.5   1.073    5.9  0.4367   39.4  0.2815 -148.5
 4.800  0.6212   96.1   1.053    4.7  0.4452   38.3  0.2869 -151.9
 4.900  0.6272   94.8   1.034    3.5  0.4539   37.3  0.2932 -155.2
 5.000  0.6334   93.5   1.015    2.3  0.4627   36.3  0.3005 -158.3
 5.100  0.6355   92.2   1.001    1.4  0.4704   35.1  0.3075 -161.3
 5.200  0.6379   90.9   0.987    0.4  0.4783   33.9  0.3152 -164.2
 5.300  0.6406   89.7   0.973   -0.6  0.4864   32.8  0.3237 -166.9
 5.400  0.6436   88.4   0.959   -1.6  0.4946   31.7  0.3330 -169.5
 5.500  0.6469   87.2   0.946   -2.7  0.5031   30.6  0.3428 -171.9
 5.600  0.6487   86.1   0.933   -3.6  0.5097   29.4  0.3488 -174.2
 5.700  0.6507   85.0   0.920   -4.4  0.5165   28.3  0.3554 -176.3
 5.800  0.6530   83.9   0.908   -5.3  0.5236   27.1  0.3625 -178.4
 5.900  0.6555   82.8   0.895   -6.2  0.5308   26.1  0.3700  179.5
 6.000  0.6583   81.7   0.883   -7.2  0.5382   25.0  0.3780  177.6
!
!  f       NFmin   Gammaopt  rn/50
! GHz       dB    MAG  ANG    -
 0.450      1.79  0.18  173   0.16
 0.900      2.06  0.26 -175   0.16
 1.900      3.10  0.50 -135   0.29
 2.400      3.75  0.55 -124   0.55
!
! (c) 2017  Infineon Technologies AG, Munich