! Infineon Technologies  Discrete & RF Semiconductors
! BFR93AW
! VCE =  1.0 V,  IC =  30 mA
! Common Emitter S-Parameters:                            Jan 2017
# GHz  S  MA  R  50
!  f         S11            S21            S12            S22
! GHz     MAG   ANG      MAG   ANG      MAG   ANG      MAG   ANG
 0.010  0.4122  -22.6  48.586  170.4  0.0037   82.2  0.9393   -9.2
 0.020  0.4275  -43.5  47.240  161.3  0.0076   76.4  0.9024  -18.5
 0.030  0.4090  -59.6  43.468  155.0  0.0105   68.7  0.8334  -24.7
 0.040  0.4241  -75.8  40.311  147.7  0.0135   64.4  0.7759  -31.9
 0.050  0.4696  -89.9  37.926  139.2  0.0165   61.7  0.7324  -40.1
 0.060  0.4626  -97.8  35.155  136.3  0.0181   59.8  0.6802  -42.9
 0.070  0.4646 -105.8  32.488  133.0  0.0197   58.2  0.6299  -46.1
 0.080  0.4754 -113.6  29.953  129.0  0.0213   56.8  0.5819  -49.9
 0.090  0.4946 -120.9  27.585  124.4  0.0229   55.6  0.5369  -54.4
 0.100  0.5212 -127.6  25.431  118.9  0.0245   54.6  0.4958  -59.6
 0.110  0.5207 -131.2  23.970  117.3  0.0255   54.4  0.4682  -61.1
 0.120  0.5222 -134.7  22.529  115.6  0.0265   54.3  0.4410  -62.8
 0.130  0.5257 -138.3  21.113  113.5  0.0275   54.1  0.4142  -64.7
 0.140  0.5311 -141.7  19.726  111.2  0.0285   54.0  0.3880  -66.9
 0.150  0.5385 -145.1  18.376  108.6  0.0295   53.9  0.3624  -69.4
 0.200  0.5475 -155.3  14.221  102.1  0.0334   57.5  0.2857  -74.8
 0.250  0.5538 -162.1  11.582   97.4  0.0385   59.3  0.2363  -78.7
 0.300  0.5524 -167.0   9.728   94.1  0.0431   60.8  0.2024  -81.7
 0.350  0.5552 -170.6   8.558   91.8  0.0480   62.4  0.1820  -83.7
 0.400  0.5602 -174.1   7.405   88.8  0.0529   63.7  0.1618  -86.3
 0.450  0.5611 -176.8   6.675   87.0  0.0581   64.7  0.1497  -88.0
 0.500  0.5633 -179.4   5.953   84.7  0.0634   65.5  0.1378  -90.1
 0.600  0.5648  176.2   4.998   81.0  0.0744   66.8  0.1230  -94.4
 0.700  0.5667  173.0   4.298   77.9  0.0851   67.8  0.1135  -97.7
 0.800  0.5706  169.4   3.781   74.7  0.0965   68.1  0.1082 -101.7
 0.900  0.5717  166.3   3.365   71.8  0.1075   67.7  0.1053 -105.4
 1.000  0.5758  163.4   3.055   69.1  0.1181   67.6  0.1030 -109.5
 1.100  0.5789  160.6   2.793   66.5  0.1289   67.2  0.1040 -113.0
 1.200  0.5807  158.0   2.575   63.8  0.1400   66.3  0.1040 -116.9
 1.300  0.5843  155.5   2.389   61.4  0.1511   66.0  0.1069 -120.2
 1.400  0.5884  152.9   2.238   58.9  0.1617   65.3  0.1096 -124.8
 1.500  0.5927  151.0   2.100   56.6  0.1729   64.5  0.1141 -128.2
 1.600  0.5976  148.4   1.987   54.1  0.1839   63.6  0.1196 -130.8
 1.700  0.5994  146.1   1.884   51.8  0.1944   62.8  0.1252 -134.2
 1.800  0.6041  143.8   1.798   49.5  0.2052   61.8  0.1312 -137.7
 1.900  0.6086  141.8   1.715   47.5  0.2160   60.9  0.1383 -140.3
 2.000  0.6084  139.6   1.639   45.1  0.2266   59.8  0.1463 -142.7
 2.100  0.6125  137.4   1.575   43.1  0.2369   58.7  0.1539 -145.3
 2.200  0.6175  135.3   1.513   40.9  0.2473   57.7  0.1617 -147.6
 2.300  0.6209  133.4   1.460   39.0  0.2578   56.7  0.1700 -149.6
 2.400  0.6250  131.5   1.409   36.9  0.2683   55.7  0.1784 -151.5
 2.500  0.6277  129.5   1.362   35.1  0.2782   54.6  0.1863 -153.3
 2.600  0.6312  127.6   1.317   33.2  0.2882   53.5  0.1944 -154.9
 2.700  0.6337  125.7   1.279   31.5  0.2978   52.4  0.2016 -156.6
 2.800  0.6368  123.9   1.242   29.7  0.3075   51.3  0.2089 -158.1
 2.900  0.6397  122.0   1.209   28.0  0.3172   50.2  0.2155 -159.9
 3.000  0.6432  120.2   1.178   26.3  0.3271   49.1  0.2223 -161.6
 3.100  0.6444  118.4   1.151   24.9  0.3361   47.9  0.2277 -163.6
 3.200  0.6462  116.6   1.125   23.4  0.3452   46.7  0.2334 -165.4
 3.300  0.6486  114.8   1.100   21.9  0.3544   45.6  0.2393 -167.2
 3.400  0.6517  113.0   1.076   20.3  0.3638   44.6  0.2454 -168.9
 3.500  0.6554  111.3   1.052   18.6  0.3733   43.6  0.2517 -170.5
 3.600  0.6571  109.6   1.032   17.3  0.3817   42.3  0.2566 -172.9
 3.700  0.6594  108.0   1.013   16.0  0.3903   41.1  0.2620 -175.1
 3.800  0.6622  106.3   0.994   14.6  0.3990   40.0  0.2678 -177.3
 3.900  0.6656  104.7   0.976   13.2  0.4079   38.9  0.2739 -179.4
 4.000  0.6695  103.1   0.959   11.7  0.4170   37.8  0.2804  178.6
 4.100  0.6706  101.6   0.943   10.5  0.4244   36.5  0.2862  176.1
 4.200  0.6722  100.2   0.927    9.3  0.4321   35.3  0.2924  173.6
 4.300  0.6742   98.7   0.912    8.1  0.4399   34.1  0.2992  171.3
 4.400  0.6766   97.2   0.897    6.8  0.4479   32.9  0.3065  169.1
 4.500  0.6795   95.8   0.883    5.5  0.4561   31.8  0.3142  167.0
 4.600  0.6822   94.5   0.869    4.6  0.4626   30.6  0.3217  164.8
 4.700  0.6853   93.2   0.856    3.7  0.4693   29.5  0.3296  162.7
 4.800  0.6888   91.9   0.843    2.8  0.4762   28.4  0.3379  160.8
 4.900  0.6926   90.7   0.830    1.8  0.4832   27.3  0.3466  158.9
 5.000  0.6967   89.4   0.817    0.8  0.4904   26.3  0.3556  157.1
 5.100  0.6970   88.2   0.809   -0.0  0.4962   25.1  0.3640  155.6
 5.200  0.6976   87.0   0.801   -0.9  0.5022   23.9  0.3726  154.1
 5.300  0.6985   85.8   0.793   -1.7  0.5085   22.8  0.3814  152.7
 5.400  0.6997   84.6   0.785   -2.6  0.5149   21.7  0.3904  151.4
 5.500  0.7012   83.4   0.778   -3.5  0.5215   20.6  0.3997  150.1
 5.600  0.7010   82.3   0.770   -4.2  0.5261   19.5  0.4050  148.8
 5.700  0.7010   81.2   0.762   -4.9  0.5309   18.4  0.4106  147.6
 5.800  0.7013   80.2   0.754   -5.6  0.5360   17.4  0.4163  146.4
 5.900  0.7018   79.1   0.747   -6.3  0.5411   16.3  0.4221  145.2
 6.000  0.7026   78.0   0.739   -7.0  0.5465   15.3  0.4282  144.1
!
!  f       NFmin   Gammaopt  rn/50
! GHz       dB    MAG  ANG    -
 0.450      1.79  0.18  173   0.16
 0.900      2.06  0.26 -175   0.16
 1.900      3.10  0.50 -135   0.29
 2.400      3.75  0.55 -124   0.55
!
! (c) 2017  Infineon Technologies AG, Munich