! Infineon Technologies  Discrete & RF Semiconductors
! BFR93AW
! VCE =  1.0 V,  IC =  50 mA
! Common Emitter S-Parameters:                            Jan 2017
# GHz  S  MA  R  50
!  f         S11            S21            S12            S22
! GHz     MAG   ANG      MAG   ANG      MAG   ANG      MAG   ANG
 0.010  0.2845  -59.5  47.183  163.5  0.0059   65.5  0.7215  -18.7
 0.020  0.4004  -93.1  42.867  149.5  0.0106   61.8  0.6514  -35.9
 0.030  0.4303 -110.8  37.000  143.3  0.0132   55.0  0.5609  -44.1
 0.040  0.4944 -125.1  31.730  134.8  0.0160   50.5  0.4859  -55.1
 0.050  0.5815 -135.6  27.404  123.4  0.0188   47.3  0.4345  -69.3
 0.060  0.5888 -140.5  24.930  121.3  0.0198   47.7  0.3963  -72.9
 0.070  0.6001 -145.2  22.495  118.8  0.0208   48.1  0.3600  -77.1
 0.080  0.6153 -149.7  20.115  115.7  0.0218   48.5  0.3262  -82.4
 0.090  0.6342 -153.9  17.809  111.8  0.0228   48.8  0.2956  -88.7
 0.100  0.6563 -157.9  15.612  106.7  0.0238   49.1  0.2695  -96.4
 0.110  0.6587 -159.8  14.621  105.6  0.0248   49.6  0.2556  -99.0
 0.120  0.6619 -161.7  13.635  104.4  0.0258   50.0  0.2423 -101.8
 0.130  0.6658 -163.5  12.656  103.0  0.0268   50.5  0.2296 -105.0
 0.140  0.6704 -165.4  11.686  101.4  0.0278   50.8  0.2177 -108.5
 0.150  0.6756 -167.2  10.727   99.5  0.0288   51.2  0.2067 -112.4
 0.200  0.6807 -172.4   8.126   95.0  0.0333   57.0  0.1774 -123.3
 0.250  0.6857 -176.3   6.545   91.6  0.0390   59.8  0.1612 -131.0
 0.300  0.6841 -179.3   5.468   89.3  0.0441   62.5  0.1519 -137.5
 0.350  0.6852  178.5   4.804   87.5  0.0502   64.0  0.1475 -141.6
 0.400  0.6874  176.3   4.147   85.1  0.0564   65.1  0.1439 -146.0
 0.450  0.6874  174.3   3.743   83.6  0.0622   66.3  0.1424 -148.9
 0.500  0.6883  172.3   3.343   81.7  0.0681   67.3  0.1413 -151.8
 0.600  0.6901  169.1   2.814   78.6  0.0800   68.0  0.1426 -156.2
 0.700  0.6916  166.1   2.437   75.9  0.0919   68.8  0.1435 -159.1
 0.800  0.6916  163.3   2.153   73.0  0.1046   68.4  0.1467 -161.5
 0.900  0.6902  160.3   1.930   70.4  0.1168   68.0  0.1503 -163.7
 1.000  0.6934  157.8   1.764   67.8  0.1290   67.5  0.1551 -165.9
 1.100  0.6957  155.1   1.627   65.3  0.1411   66.7  0.1598 -167.4
 1.200  0.6958  152.6   1.510   62.8  0.1526   65.9  0.1644 -169.2
 1.300  0.6968  150.2   1.413   60.5  0.1647   65.1  0.1702 -170.5
 1.400  0.6985  147.9   1.336   58.2  0.1768   64.4  0.1774 -172.2
 1.500  0.7021  145.7   1.265   56.0  0.1886   63.3  0.1838 -173.4
 1.600  0.7033  143.4   1.205   53.7  0.2005   62.2  0.1899 -174.4
 1.700  0.7046  141.0   1.156   51.5  0.2121   61.2  0.1976 -175.6
 1.800  0.7080  138.7   1.113   49.2  0.2240   60.0  0.2051 -177.1
 1.900  0.7090  136.6   1.071   47.5  0.2349   58.8  0.2121 -178.0
 2.000  0.7080  134.5   1.033   45.3  0.2469   57.7  0.2206 -178.9
 2.100  0.7097  132.3   1.001   43.4  0.2576   56.4  0.2285  180.0
 2.200  0.7124  130.2   0.971   41.3  0.2685   55.3  0.2364  178.9
 2.300  0.7126  128.2   0.945   39.5  0.2791   54.1  0.2437  177.9
 2.400  0.7137  126.3   0.920   37.7  0.2898   52.9  0.2511  177.0
 2.500  0.7139  124.4   0.899   36.1  0.2998   51.7  0.2580  176.0
 2.600  0.7149  122.5   0.878   34.4  0.3100   50.5  0.2649  175.1
 2.700  0.7156  120.6   0.860   32.9  0.3199   49.2  0.2711  174.1
 2.800  0.7171  118.7   0.842   31.3  0.3299   48.0  0.2773  173.1
 2.900  0.7168  116.8   0.827   29.9  0.3395   46.8  0.2828  172.0
 3.000  0.7172  115.0   0.812   28.5  0.3492   45.6  0.2884  170.9
 3.100  0.7159  113.2   0.801   27.2  0.3578   44.3  0.2930  169.5
 3.200  0.7153  111.5   0.789   25.9  0.3666   43.0  0.2978  168.1
 3.300  0.7153  109.7   0.779   24.5  0.3756   41.8  0.3027  166.7
 3.400  0.7160  108.0   0.769   23.1  0.3847   40.7  0.3078  165.5
 3.500  0.7174  106.2   0.759   21.6  0.3940   39.6  0.3131  164.2
 3.600  0.7172  104.6   0.750   20.5  0.4018   38.3  0.3177  162.4
 3.700  0.7176  103.0   0.742   19.3  0.4098   37.0  0.3226  160.7
 3.800  0.7185  101.4   0.734   18.1  0.4180   35.8  0.3277  159.0
 3.900  0.7199   99.9   0.726   16.9  0.4264   34.6  0.3332  157.4
 4.000  0.7219   98.3   0.719   15.6  0.4349   33.5  0.3389  155.8
 4.100  0.7205   96.9   0.712   14.5  0.4413   32.2  0.3445  153.9
 4.200  0.7196   95.4   0.705   13.5  0.4479   30.9  0.3505  152.0
 4.300  0.7192   94.0   0.699   12.4  0.4547   29.7  0.3569  150.2
 4.400  0.7191   92.5   0.693   11.2  0.4617   28.5  0.3636  148.5
 4.500  0.7196   91.1   0.687   10.1  0.4689   27.3  0.3706  146.8
 4.600  0.7207   89.9   0.682    9.3  0.4744   26.1  0.3773  145.2
 4.700  0.7220   88.7   0.676    8.5  0.4801   25.0  0.3843  143.7
 4.800  0.7237   87.5   0.671    7.7  0.4859   23.9  0.3916  142.2
 4.900  0.7258   86.3   0.666    6.8  0.4920   22.8  0.3991  140.8
 5.000  0.7281   85.1   0.661    6.0  0.4982   21.8  0.4069  139.4
 5.100  0.7267   84.0   0.659    5.2  0.5029   20.6  0.4135  138.3
 5.200  0.7257   82.8   0.657    4.4  0.5079   19.5  0.4202  137.2
 5.300  0.7249   81.7   0.655    3.6  0.5130   18.4  0.4270  136.1
 5.400  0.7244   80.5   0.654    2.8  0.5183   17.3  0.4341  135.1
 5.500  0.7242   79.4   0.652    2.0  0.5238   16.2  0.4412  134.1
 5.600  0.7227   78.4   0.649    1.3  0.5274   15.2  0.4445  133.2
 5.700  0.7213   77.5   0.646    0.6  0.5312   14.2  0.4480  132.2
 5.800  0.7202   76.5   0.644   -0.1  0.5351   13.2  0.4515  131.3
 5.900  0.7192   75.6   0.641   -0.9  0.5392   12.2  0.4552  130.4
 6.000  0.7185   74.6   0.639   -1.6  0.5434   11.2  0.4590  129.5
!
!  f       NFmin   Gammaopt  rn/50
! GHz       dB    MAG  ANG    -
 0.450      2.30  0.26 -178   0.17
 0.900      2.59  0.31 -167   0.18
 1.900      3.72  0.53 -132   0.42
 2.400      4.45  0.58 -122   0.79
!
! (c) 2017  Infineon Technologies AG, Munich