! Infineon Technologies  Discrete & RF Semiconductors
! BFR93AW
! VCE =  1.0 V,  IC =  23 mA
! Common Emitter S-Parameters:                            Jan 2017
# GHz  S  MA  R  50
!  f         S11            S21            S12            S22
! GHz     MAG   ANG      MAG   ANG      MAG   ANG      MAG   ANG
 0.010  0.4885  -17.5  43.714  171.7  0.0039   80.9  0.9586   -7.9
 0.020  0.4988  -34.0  42.980  163.8  0.0080   83.8  0.9292  -15.8
 0.030  0.4710  -47.5  40.133  157.8  0.0111   73.3  0.8714  -21.6
 0.040  0.4715  -61.8  37.788  151.0  0.0145   67.5  0.8235  -28.1
 0.050  0.5002  -75.2  36.042  143.4  0.0179   63.9  0.7876  -35.3
 0.060  0.4850  -83.1  33.640  140.4  0.0196   62.0  0.7367  -38.1
 0.070  0.4797  -91.4  31.346  136.9  0.0213   60.3  0.6878  -41.4
 0.080  0.4844  -99.7  29.187  132.9  0.0230   58.9  0.6415  -45.1
 0.090  0.4991 -107.7  27.193  128.2  0.0248   57.7  0.5983  -49.4
 0.100  0.5227 -115.1  25.405  122.9  0.0265   56.7  0.5589  -54.3
 0.110  0.5189 -119.2  24.008  121.2  0.0275   55.8  0.5293  -55.8
 0.120  0.5178 -123.3  22.635  119.2  0.0286   55.0  0.5002  -57.6
 0.130  0.5194 -127.4  21.292  117.0  0.0296   54.2  0.4715  -59.5
 0.140  0.5237 -131.5  19.985  114.5  0.0306   53.5  0.4435  -61.7
 0.150  0.5305 -135.5  18.720  111.7  0.0317   52.8  0.4162  -64.2
 0.200  0.5363 -147.7  14.619  104.6  0.0359   54.3  0.3297  -69.6
 0.250  0.5419 -155.9  11.955   99.5  0.0404   55.7  0.2747  -73.1
 0.300  0.5402 -161.8  10.075   95.9  0.0442   58.0  0.2344  -75.8
 0.350  0.5412 -166.0   8.873   93.4  0.0493   59.5  0.2104  -77.4
 0.400  0.5451 -170.2   7.692   90.2  0.0544   60.8  0.1867  -79.4
 0.450  0.5455 -173.2   6.937   88.2  0.0590   62.0  0.1726  -80.8
 0.500  0.5473 -176.2   6.193   85.8  0.0637   63.0  0.1587  -82.5
 0.600  0.5508  179.1   5.203   82.1  0.0745   64.4  0.1407  -85.6
 0.700  0.5530  175.2   4.478   78.8  0.0842   65.7  0.1285  -88.3
 0.800  0.5561  171.4   3.937   75.5  0.0953   66.3  0.1207  -91.5
 0.900  0.5565  168.3   3.507   72.6  0.1057   66.0  0.1161  -94.9
 1.000  0.5597  165.1   3.182   69.8  0.1161   66.3  0.1119  -98.7
 1.100  0.5644  162.3   2.909   67.2  0.1279   65.9  0.1109 -102.1
 1.200  0.5687  159.4   2.678   64.5  0.1372   65.5  0.1101 -105.6
 1.300  0.5706  156.8   2.486   61.9  0.1475   65.1  0.1118 -109.3
 1.400  0.5740  154.3   2.330   59.5  0.1594   64.5  0.1138 -113.9
 1.500  0.5786  152.0   2.183   57.1  0.1696   63.8  0.1162 -117.7
 1.600  0.5832  149.7   2.064   54.6  0.1806   63.0  0.1207 -120.6
 1.700  0.5865  147.2   1.959   52.3  0.1908   62.3  0.1256 -124.6
 1.800  0.5906  145.0   1.868   49.9  0.2013   61.4  0.1307 -128.2
 1.900  0.5945  142.9   1.781   48.0  0.2121   60.5  0.1369 -131.2
 2.000  0.5966  140.7   1.702   45.5  0.2226   59.6  0.1442 -134.1
 2.100  0.6012  138.5   1.635   43.4  0.2329   58.6  0.1515 -137.1
 2.200  0.6067  136.3   1.570   41.2  0.2433   57.6  0.1592 -139.8
 2.300  0.6092  134.3   1.515   39.3  0.2535   56.6  0.1669 -142.2
 2.400  0.6125  132.4   1.462   37.2  0.2637   55.7  0.1749 -144.4
 2.500  0.6155  130.4   1.414   35.4  0.2735   54.6  0.1824 -146.5
 2.600  0.6193  128.5   1.367   33.5  0.2834   53.6  0.1902 -148.5
 2.700  0.6217  126.6   1.326   31.8  0.2932   52.6  0.1974 -150.3
 2.800  0.6247  124.8   1.287   29.9  0.3031   51.6  0.2048 -152.0
 2.900  0.6281  122.9   1.252   28.2  0.3128   50.5  0.2113 -154.0
 3.000  0.6321  121.0   1.219   26.5  0.3226   49.4  0.2181 -155.8
 3.100  0.6334  119.2   1.191   25.1  0.3316   48.2  0.2235 -157.9
 3.200  0.6352  117.4   1.163   23.6  0.3407   47.1  0.2292 -159.9
 3.300  0.6378  115.6   1.137   22.0  0.3499   46.1  0.2351 -161.9
 3.400  0.6409  113.8   1.111   20.4  0.3593   45.1  0.2414 -163.7
 3.500  0.6447  112.0   1.086   18.7  0.3687   44.1  0.2478 -165.4
 3.600  0.6470  110.3   1.065   17.4  0.3773   42.8  0.2526 -167.9
 3.700  0.6499  108.7   1.045   16.1  0.3861   41.6  0.2579 -170.3
 3.800  0.6533  107.1   1.025   14.7  0.3950   40.5  0.2637 -172.6
 3.900  0.6573  105.5   1.006   13.2  0.4042   39.4  0.2698 -174.8
 4.000  0.6617  103.9   0.988   11.7  0.4134   38.3  0.2763 -176.9
 4.100  0.6631  102.4   0.971   10.5  0.4209   37.1  0.2819 -179.6
 4.200  0.6650  101.0   0.954    9.2  0.4285   35.9  0.2880  177.9
 4.300  0.6673   99.5   0.937    7.9  0.4364   34.7  0.2947  175.4
 4.400  0.6700   98.0   0.921    6.6  0.4444   33.6  0.3019  173.1
 4.500  0.6732   96.6   0.906    5.2  0.4526   32.5  0.3096  170.9
 4.600  0.6763   95.3   0.892    4.3  0.4593   31.3  0.3171  168.6
 4.700  0.6797   93.9   0.878    3.4  0.4662   30.2  0.3250  166.4
 4.800  0.6835   92.6   0.864    2.5  0.4733   29.1  0.3335  164.3
 4.900  0.6877   91.3   0.850    1.5  0.4806   28.0  0.3423  162.4
 5.000  0.6922   90.0   0.837    0.5  0.4880   27.0  0.3515  160.5
 5.100  0.6923   88.8   0.828   -0.3  0.4940   25.8  0.3600  158.9
 5.200  0.6928   87.6   0.819   -1.2  0.5002   24.6  0.3688  157.3
 5.300  0.6935   86.4   0.811   -2.1  0.5066   23.4  0.3779  155.8
 5.400  0.6946   85.2   0.802   -3.0  0.5132   22.3  0.3872  154.4
 5.500  0.6959   84.0   0.794   -3.9  0.5200   21.2  0.3967  153.0
 5.600  0.6961   82.9   0.785   -4.6  0.5249   20.1  0.4021  151.7
 5.700  0.6965   81.8   0.777   -5.3  0.5300   19.1  0.4078  150.4
 5.800  0.6972   80.8   0.768   -6.0  0.5353   18.0  0.4136  149.2
 5.900  0.6981   79.7   0.760   -6.7  0.5407   17.0  0.4197  148.0
 6.000  0.6993   78.6   0.752   -7.4  0.5463   16.0  0.4259  146.8
!
!  f       NFmin   Gammaopt  rn/50
! GHz       dB    MAG  ANG    -
 0.450      1.60  0.15  166   0.15
 0.900      1.88  0.24  177   0.16
 1.900      2.89  0.48 -138   0.24
 2.400      3.53  0.55 -126   0.48
!
! (c) 2017  Infineon Technologies AG, Munich