! Infineon Technologies  Discrete & RF Semiconductors
! BFR93AW
! VCE =  6.0 V,  IC =  18 mA
! Common Emitter S-Parameters:                            Jan 2017
# GHz  S  MA  R  50
!  f         S11            S21            S12            S22
! GHz     MAG   ANG      MAG   ANG      MAG   ANG      MAG   ANG
 0.010  0.6357   -9.4  36.812  174.0  0.0025   82.4  0.9864   -4.1
 0.020  0.6440  -18.6  36.876  168.7  0.0057   81.0  0.9730   -8.5
 0.030  0.6146  -26.7  35.445  164.0  0.0085   76.5  0.9435  -12.0
 0.040  0.5985  -35.4  34.274  158.9  0.0113   74.2  0.9178  -15.8
 0.050  0.5969  -44.4  33.390  153.5  0.0141   72.8  0.8962  -19.7
 0.060  0.5719  -50.6  31.814  150.3  0.0157   69.6  0.8613  -21.8
 0.070  0.5542  -57.3  30.344  146.9  0.0174   67.1  0.8277  -24.1
 0.080  0.5446  -64.4  28.996  143.1  0.0191   65.0  0.7956  -26.5
 0.090  0.5434  -71.6  27.788  138.9  0.0209   63.2  0.7650  -29.2
 0.100  0.5508  -78.7  26.740  134.4  0.0226   61.7  0.7362  -32.1
 0.110  0.5349  -83.1  25.542  132.3  0.0237   60.7  0.7090  -33.2
 0.120  0.5223  -87.7  24.381  130.1  0.0249   59.8  0.6820  -34.3
 0.130  0.5132  -92.5  23.261  127.6  0.0260   59.0  0.6554  -35.5
 0.140  0.5079  -97.5  22.188  124.9  0.0271   58.2  0.6291  -36.9
 0.150  0.5064 -102.5  21.171  121.9  0.0283   57.5  0.6031  -38.3
 0.200  0.4862 -118.9  17.156  113.5  0.0319   56.1  0.5122  -40.7
 0.250  0.4728 -131.2  14.340  107.2  0.0366   56.1  0.4499  -41.5
 0.300  0.4637 -140.1  12.213  102.8  0.0397   57.2  0.4049  -41.4
 0.350  0.4568 -146.4  10.817   99.8  0.0430   58.5  0.3784  -40.9
 0.400  0.4557 -152.9   9.459   96.0  0.0463   59.6  0.3520  -40.3
 0.450  0.4530 -157.4   8.557   93.8  0.0502   60.7  0.3360  -39.9
 0.500  0.4532 -162.0   7.671   91.0  0.0542   61.7  0.3200  -39.5
 0.600  0.4525 -168.9   6.464   86.9  0.0622   63.1  0.3001  -38.9
 0.700  0.4532 -174.5   5.568   83.3  0.0697   65.2  0.2867  -38.8
 0.800  0.4574 -179.3   4.905   79.9  0.0789   66.3  0.2769  -39.1
 0.900  0.4569  176.4   4.371   76.8  0.0866   66.7  0.2698  -40.1
 1.000  0.4619  172.6   3.965   74.0  0.0950   67.7  0.2631  -41.0
 1.100  0.4656  169.0   3.623   71.3  0.1037   67.6  0.2591  -42.3
 1.200  0.4674  165.8   3.334   68.6  0.1128   67.7  0.2546  -43.8
 1.300  0.4705  162.9   3.092   66.0  0.1207   67.6  0.2513  -45.7
 1.400  0.4765  160.0   2.893   63.6  0.1306   67.5  0.2472  -47.8
 1.500  0.4816  157.5   2.710   61.2  0.1389   67.1  0.2448  -50.2
 1.600  0.4848  154.6   2.558   58.8  0.1481   66.8  0.2438  -52.5
 1.700  0.4887  152.1   2.422   56.6  0.1569   66.7  0.2412  -55.2
 1.800  0.4940  149.7   2.307   54.2  0.1659   66.0  0.2391  -58.2
 1.900  0.4994  147.6   2.197   52.2  0.1754   65.7  0.2387  -61.0
 2.000  0.5024  145.0   2.097   49.8  0.1842   65.1  0.2386  -64.3
 2.100  0.5073  142.7   2.012   47.8  0.1936   64.3  0.2385  -67.5
 2.200  0.5130  140.5   1.929   45.6  0.2030   63.6  0.2392  -70.7
 2.300  0.5181  138.5   1.859   43.6  0.2123   62.9  0.2405  -74.0
 2.400  0.5239  136.6   1.791   41.5  0.2217   62.2  0.2425  -77.3
 2.500  0.5275  134.6   1.729   39.6  0.2312   61.4  0.2449  -80.5
 2.600  0.5317  132.6   1.670   37.6  0.2407   60.7  0.2481  -83.6
 2.700  0.5364  130.7   1.619   35.9  0.2500   59.9  0.2513  -86.6
 2.800  0.5416  128.8   1.569   34.0  0.2594   59.1  0.2552  -89.5
 2.900  0.5460  126.9   1.524   32.2  0.2691   58.2  0.2579  -92.5
 3.000  0.5510  125.0   1.480   30.3  0.2788   57.4  0.2612  -95.4
 3.100  0.5539  123.1   1.443   28.8  0.2883   56.4  0.2630  -98.3
 3.200  0.5575  121.2   1.407   27.2  0.2979   55.5  0.2655 -101.1
 3.300  0.5616  119.4   1.372   25.6  0.3075   54.6  0.2685 -103.8
 3.400  0.5663  117.6   1.338   23.8  0.3172   53.8  0.2722 -106.5
 3.500  0.5715  115.8   1.306   22.0  0.3270   53.0  0.2765 -109.1
 3.600  0.5754  114.1   1.278   20.6  0.3365   51.8  0.2768 -112.1
 3.700  0.5797  112.4   1.251   19.2  0.3460   50.7  0.2779 -115.0
 3.800  0.5846  110.7   1.225   17.7  0.3558   49.7  0.2797 -118.0
 3.900  0.5900  109.1   1.200   16.1  0.3656   48.7  0.2823 -120.9
 4.000  0.5958  107.5   1.176   14.5  0.3755   47.8  0.2855 -123.7
 4.100  0.5992  106.0   1.153   13.2  0.3845   46.6  0.2858 -127.2
 4.200  0.6031  104.4   1.131   11.8  0.3936   45.4  0.2872 -130.6
 4.300  0.6073  102.9   1.110   10.4  0.4029   44.3  0.2896 -134.0
 4.400  0.6120  101.5   1.089    8.9  0.4124   43.2  0.2930 -137.4
 4.500  0.6171  100.0   1.069    7.4  0.4220   42.2  0.2974 -140.6
 4.600  0.6217   98.6   1.049    6.4  0.4305   41.0  0.3005 -144.2
 4.700  0.6266   97.2   1.030    5.3  0.4393   39.9  0.3047 -147.7
 4.800  0.6320   95.8   1.011    4.2  0.4482   38.8  0.3101 -151.1
 4.900  0.6377   94.4   0.993    3.0  0.4572   37.7  0.3165 -154.4
 5.000  0.6437   93.1   0.975    1.8  0.4664   36.7  0.3239 -157.5
 5.100  0.6456   91.8   0.961    0.9  0.4742   35.4  0.3307 -160.5
 5.200  0.6478   90.6   0.948   -0.1  0.4822   34.2  0.3383 -163.4
 5.300  0.6503   89.3   0.935   -1.1  0.4904   33.0  0.3467 -166.1
 5.400  0.6532   88.0   0.922   -2.1  0.4989   31.9  0.3559 -168.7
 5.500  0.6563   86.8   0.910   -3.2  0.5075   30.8  0.3658 -171.2
 5.600  0.6573   85.7   0.897   -4.0  0.5144   29.6  0.3716 -173.6
 5.700  0.6586   84.5   0.885   -4.7  0.5215   28.4  0.3779 -175.8
 5.800  0.6602   83.4   0.872   -5.5  0.5288   27.3  0.3849 -178.0
 5.900  0.6620   82.2   0.860   -6.4  0.5364   26.2  0.3924  179.8
 6.000  0.6641   81.1   0.848   -7.2  0.5441   25.1  0.4004  177.8
!
!  f       NFmin   Gammaopt  rn/50
! GHz       dB    MAG  ANG    -
 0.450      1.47  0.13  155   0.14
 0.900      1.74  0.23  172   0.15
 1.900      2.74  0.47 -140   0.22
 2.400      3.36  0.54 -127   0.43
!
! (c) 2017  Infineon Technologies AG, Munich