! Infineon Technologies  Discrete & RF Semiconductors
! BFR93AW
! VCE =  3.0 V,  IC =  72 mA
! Common Emitter S-Parameters:                            Jan 2017
# GHz  S  MA  R  50
!  f         S11            S21            S12            S22
! GHz     MAG   ANG      MAG   ANG      MAG   ANG      MAG   ANG
 0.010  0.2529  -38.7  58.455  168.2  0.0029   71.4  0.8831   -9.2
 0.020  0.3053  -68.5  56.004  157.4  0.0053   77.0  0.8346  -18.8
 0.030  0.3187  -87.7  50.268  151.0  0.0074   67.4  0.7604  -24.0
 0.040  0.3633 -103.8  45.323  143.0  0.0096   62.1  0.6937  -30.2
 0.050  0.4295 -115.6  41.455  133.3  0.0119   58.8  0.6368  -37.6
 0.060  0.4357 -122.2  38.098  130.7  0.0130   58.9  0.5918  -39.1
 0.070  0.4476 -128.6  34.832  127.7  0.0141   59.0  0.5473  -40.8
 0.080  0.4647 -134.6  31.684  124.0  0.0152   59.1  0.5034  -42.9
 0.090  0.4864 -140.1  28.696  119.6  0.0163   59.1  0.4602  -45.3
 0.100  0.5123 -145.1  25.920  114.1  0.0174   59.2  0.4180  -48.2
 0.110  0.5148 -147.8  24.351  112.8  0.0183   59.6  0.3975  -48.4
 0.120  0.5185 -150.5  22.798  111.2  0.0191   59.9  0.3771  -48.7
 0.130  0.5233 -153.1  21.263  109.5  0.0200   60.2  0.3566  -49.0
 0.140  0.5291 -155.7  19.751  107.5  0.0208   60.5  0.3361  -49.3
 0.150  0.5360 -158.2  18.268  105.1  0.0217   60.8  0.3157  -49.7
 0.200  0.5452 -165.1  13.989   99.6  0.0252   65.7  0.2627  -48.6
 0.250  0.5536 -170.1  11.349   95.6  0.0305   66.0  0.2315  -47.0
 0.300  0.5544 -174.0   9.508   92.9  0.0342   68.9  0.2108  -45.8
 0.350  0.5554 -176.7   8.360   90.9  0.0392   70.3  0.1995  -45.1
 0.400  0.5577 -179.4   7.225   88.3  0.0442   71.3  0.1883  -44.3
 0.450  0.5589  178.4   6.518   86.7  0.0493   72.1  0.1820  -44.3
 0.500  0.5609  176.2   5.818   84.7  0.0544   72.7  0.1758  -44.2
 0.600  0.5636  172.6   4.889   81.5  0.0649   73.2  0.1670  -45.0
 0.700  0.5633  169.5   4.211   78.7  0.0742   73.5  0.1613  -46.3
 0.800  0.5681  166.4   3.709   75.7  0.0855   73.9  0.1568  -48.5
 0.900  0.5688  163.5   3.308   73.1  0.0950   72.8  0.1538  -51.5
 1.000  0.5725  160.9   3.006   70.6  0.1056   72.9  0.1503  -54.1
 1.100  0.5761  158.4   2.752   68.1  0.1156   72.3  0.1491  -57.4
 1.200  0.5783  155.9   2.540   65.6  0.1253   71.7  0.1469  -60.6
 1.300  0.5799  153.4   2.360   63.3  0.1358   71.2  0.1463  -64.7
 1.400  0.5839  151.2   2.214   60.9  0.1467   70.6  0.1445  -69.0
 1.500  0.5881  149.1   2.080   58.7  0.1568   69.7  0.1443  -73.1
 1.600  0.5930  146.7   1.967   56.3  0.1673   68.9  0.1456  -77.3
 1.700  0.5946  144.4   1.868   54.1  0.1775   67.9  0.1466  -82.3
 1.800  0.5994  142.3   1.784   51.9  0.1884   66.9  0.1480  -86.8
 1.900  0.6035  140.2   1.704   49.9  0.1985   66.1  0.1506  -91.4
 2.000  0.6046  138.1   1.630   47.7  0.2090   65.0  0.1548  -96.1
 2.100  0.6080  136.0   1.567   45.7  0.2192   64.0  0.1587 -100.6
 2.200  0.6121  134.0   1.507   43.5  0.2295   63.0  0.1635 -104.8
 2.300  0.6148  132.1   1.455   41.6  0.2397   61.9  0.1690 -108.8
 2.400  0.6181  130.2   1.405   39.6  0.2499   60.9  0.1753 -112.6
 2.500  0.6211  128.3   1.361   37.8  0.2600   59.8  0.1814 -116.1
 2.600  0.6248  126.5   1.318   35.9  0.2701   58.7  0.1881 -119.3
 2.700  0.6266  124.7   1.280   34.2  0.2800   57.6  0.1941 -122.4
 2.800  0.6290  122.9   1.244   32.5  0.2900   56.6  0.2007 -125.4
 2.900  0.6326  121.0   1.211   30.8  0.2998   55.5  0.2061 -128.3
 3.000  0.6369  119.1   1.180   29.1  0.3097   54.4  0.2121 -131.1
 3.100  0.6380  117.3   1.154   27.7  0.3190   53.1  0.2161 -133.9
 3.200  0.6397  115.5   1.128   26.2  0.3285   52.0  0.2205 -136.7
 3.300  0.6420  113.8   1.103   24.7  0.3381   50.8  0.2255 -139.3
 3.400  0.6449  112.0   1.079   23.1  0.3478   49.8  0.2309 -141.8
 3.500  0.6484  110.3   1.056   21.4  0.3576   48.8  0.2367 -144.2
 3.600  0.6505  108.7   1.036   20.1  0.3665   47.5  0.2396 -147.2
 3.700  0.6531  107.1   1.017   18.8  0.3757   46.3  0.2432 -150.1
 3.800  0.6563  105.5   0.999   17.4  0.3850   45.1  0.2473 -152.9
 3.900  0.6599  103.9   0.981   16.0  0.3944   44.0  0.2521 -155.7
 4.000  0.6641  102.3   0.964   14.5  0.4040   42.9  0.2574 -158.3
 4.100  0.6649  100.8   0.948   13.3  0.4119   41.6  0.2611 -161.6
 4.200  0.6660   99.4   0.932   12.1  0.4199   40.3  0.2656 -164.8
 4.300  0.6676   98.0   0.917   10.9  0.4282   39.1  0.2709 -167.9
 4.400  0.6697   96.5   0.902    9.6  0.4367   37.9  0.2769 -170.9
 4.500  0.6721   95.1   0.888    8.3  0.4453   36.8  0.2837 -173.7
 4.600  0.6751   93.8   0.875    7.4  0.4525   35.6  0.2899 -176.6
 4.700  0.6785   92.5   0.862    6.4  0.4598   34.4  0.2968 -179.3
 4.800  0.6822   91.2   0.849    5.4  0.4674   33.3  0.3043  178.0
 4.900  0.6863   90.0   0.836    4.4  0.4751   32.2  0.3125  175.6
 5.000  0.6907   88.7   0.824    3.4  0.4830   31.1  0.3212  173.2
 5.100  0.6911   87.5   0.816    2.6  0.4895   29.9  0.3292  171.1
 5.200  0.6918   86.3   0.807    1.7  0.4962   28.6  0.3375  169.1
 5.300  0.6928   85.1   0.799    0.9  0.5031   27.5  0.3463  167.2
 5.400  0.6940   84.0   0.792   -0.0  0.5103   26.3  0.3554  165.4
 5.500  0.6956   82.8   0.784   -0.9  0.5176   25.2  0.3649  163.7
 5.600  0.6953   81.7   0.776   -1.6  0.5228   24.1  0.3706  162.1
 5.700  0.6953   80.6   0.768   -2.3  0.5282   22.9  0.3766  160.5
 5.800  0.6955   79.6   0.760   -3.1  0.5338   21.8  0.3828  159.0
 5.900  0.6959   78.5   0.753   -3.8  0.5395   20.8  0.3893  157.5
 6.000  0.6966   77.4   0.745   -4.6  0.5455   19.7  0.3961  156.1
!
!  f       NFmin   Gammaopt  rn/50
! GHz       dB    MAG  ANG    -
!
! noise parameter not available yet for this operation point!
!
! (c) 2017  Infineon Technologies AG, Munich