! Infineon Technologies  Discrete & RF Semiconductors
! BFR93AW
! VCE =  4.0 V,  IC =  72 mA
! Common Emitter S-Parameters:                            Jan 2017
# GHz  S  MA  R  50
!  f         S11            S21            S12            S22
! GHz     MAG   ANG      MAG   ANG      MAG   ANG      MAG   ANG
 0.010  0.3103  -27.7  58.963  169.5  0.0026   74.9  0.9201   -7.7
 0.020  0.3367  -51.9  56.904  159.9  0.0048   75.4  0.8796  -16.0
 0.030  0.3301  -69.8  51.864  153.5  0.0072   70.8  0.8134  -20.9
 0.040  0.3553  -86.8  47.602  145.9  0.0096   68.6  0.7540  -26.5
 0.050  0.4065 -100.5  44.342  136.9  0.0120   67.2  0.7033  -33.1
 0.060  0.4060 -108.0  40.952  134.1  0.0130   65.1  0.6575  -34.7
 0.070  0.4126 -115.5  37.673  130.9  0.0141   63.3  0.6122  -36.4
 0.080  0.4258 -122.6  34.537  127.1  0.0151   61.7  0.5677  -38.5
 0.090  0.4451 -129.1  31.587  122.5  0.0162   60.4  0.5240  -40.9
 0.100  0.4697 -135.1  28.879  117.0  0.0173   59.2  0.4814  -43.8
 0.110  0.4706 -138.3  27.176  115.5  0.0181   59.6  0.4590  -44.1
 0.120  0.4729 -141.5  25.493  113.9  0.0189   59.9  0.4367  -44.4
 0.130  0.4766 -144.6  23.835  112.0  0.0198   60.2  0.4143  -44.7
 0.140  0.4818 -147.7  22.207  109.8  0.0206   60.5  0.3920  -45.1
 0.150  0.4883 -150.7  20.615  107.3  0.0214   60.8  0.3697  -45.5
 0.200  0.4976 -159.6  15.880  101.4  0.0252   65.0  0.3113  -44.4
 0.250  0.5042 -165.5  12.895   97.1  0.0295   65.7  0.2761  -42.8
 0.300  0.5057 -170.0  10.832   94.1  0.0338   68.9  0.2526  -41.4
 0.350  0.5078 -173.2   9.528   92.0  0.0386   70.1  0.2399  -40.5
 0.400  0.5115 -176.3   8.241   89.2  0.0435   71.1  0.2272  -39.6
 0.450  0.5122 -178.7   7.432   87.6  0.0481   71.8  0.2198  -39.3
 0.500  0.5138  178.9   6.630   85.5  0.0527   72.4  0.2124  -39.0
 0.600  0.5176  175.1   5.569   82.2  0.0629   72.9  0.2031  -39.2
 0.700  0.5200  171.8   4.795   79.3  0.0718   73.7  0.1965  -40.1
 0.800  0.5229  168.5   4.220   76.3  0.0827   73.9  0.1914  -41.6
 0.900  0.5232  165.6   3.760   73.7  0.0924   73.2  0.1875  -43.6
 1.000  0.5287  163.0   3.413   71.1  0.1012   73.0  0.1837  -45.7
 1.100  0.5329  160.1   3.121   68.7  0.1117   72.6  0.1812  -48.2
 1.200  0.5349  157.5   2.876   66.1  0.1213   71.7  0.1780  -50.9
 1.300  0.5369  155.1   2.668   63.8  0.1312   71.3  0.1767  -53.8
 1.400  0.5422  152.9   2.500   61.4  0.1417   70.8  0.1735  -57.3
 1.500  0.5477  150.6   2.344   59.2  0.1512   69.9  0.1721  -60.8
 1.600  0.5518  148.4   2.214   56.8  0.1620   69.2  0.1722  -64.3
 1.700  0.5544  146.2   2.098   54.7  0.1712   68.4  0.1714  -68.4
 1.800  0.5590  143.9   2.003   52.4  0.1815   67.5  0.1707  -72.3
 1.900  0.5638  141.9   1.910   50.5  0.1916   66.7  0.1718  -76.4
 2.000  0.5656  139.8   1.824   48.2  0.2012   65.7  0.1737  -80.7
 2.100  0.5699  137.7   1.752   46.2  0.2112   64.7  0.1756  -85.0
 2.200  0.5749  135.7   1.682   44.1  0.2213   63.8  0.1784  -89.1
 2.300  0.5789  133.8   1.623   42.2  0.2313   62.8  0.1819  -93.1
 2.400  0.5835  131.9   1.565   40.1  0.2414   61.9  0.1862  -96.9
 2.500  0.5869  130.0   1.513   38.3  0.2511   60.8  0.1908 -100.5
 2.600  0.5909  128.2   1.462   36.4  0.2608   59.8  0.1962 -104.0
 2.700  0.5946  126.3   1.419   34.7  0.2707   58.8  0.2008 -107.3
 2.800  0.5989  124.5   1.377   32.8  0.2806   57.8  0.2061 -110.5
 2.900  0.6021  122.7   1.338   31.1  0.2900   56.8  0.2105 -113.6
 3.000  0.6059  120.9   1.301   29.4  0.2995   55.8  0.2155 -116.5
 3.100  0.6078  119.1   1.270   28.0  0.3089   54.6  0.2187 -119.5
 3.200  0.6103  117.2   1.241   26.5  0.3184   53.5  0.2224 -122.3
 3.300  0.6134  115.4   1.212   24.9  0.3280   52.5  0.2267 -125.1
 3.400  0.6171  113.7   1.184   23.2  0.3378   51.5  0.2314 -127.8
 3.500  0.6214  111.9   1.157   21.5  0.3476   50.6  0.2367 -130.3
 3.600  0.6241  110.3   1.134   20.2  0.3566   49.3  0.2384 -133.4
 3.700  0.6272  108.6   1.112   18.8  0.3658   48.1  0.2409 -136.5
 3.800  0.6309  107.0   1.090   17.4  0.3752   46.9  0.2440 -139.5
 3.900  0.6351  105.5   1.069   15.9  0.3847   45.8  0.2477 -142.4
 4.000  0.6397  103.9   1.049   14.4  0.3943   44.8  0.2521 -145.2
 4.100  0.6417  102.4   1.030   13.2  0.4024   43.5  0.2545 -148.6
 4.200  0.6441  100.9   1.012   11.9  0.4108   42.3  0.2577 -152.0
 4.300  0.6469   99.5   0.995   10.6  0.4193   41.1  0.2619 -155.2
 4.400  0.6501   98.0   0.978    9.3  0.4280   40.0  0.2668 -158.4
 4.500  0.6538   96.6   0.961    7.9  0.4368   38.9  0.2725 -161.4
 4.600  0.6575   95.3   0.945    6.9  0.4444   37.7  0.2776 -164.7
 4.700  0.6615   93.9   0.929    6.0  0.4522   36.5  0.2835 -167.8
 4.800  0.6659   92.6   0.913    4.9  0.4602   35.4  0.2903 -170.8
 4.900  0.6706   91.4   0.898    3.9  0.4684   34.3  0.2979 -173.7
 5.000  0.6757   90.1   0.883    2.8  0.4767   33.2  0.3061 -176.4
 5.100  0.6761   88.9   0.873    1.9  0.4835   32.0  0.3138 -178.8
 5.200  0.6767   87.6   0.863    1.1  0.4904   30.8  0.3220  178.8
 5.300  0.6777   86.4   0.853    0.2  0.4976   29.6  0.3307  176.7
 5.400  0.6790   85.2   0.843   -0.8  0.5050   28.5  0.3398  174.6
 5.500  0.6806   84.0   0.834   -1.7  0.5126   27.4  0.3494  172.6
 5.600  0.6812   82.9   0.824   -2.4  0.5184   26.2  0.3552  170.8
 5.700  0.6821   81.9   0.814   -3.2  0.5244   25.1  0.3614  169.1
 5.800  0.6831   80.8   0.805   -3.9  0.5307   24.0  0.3678  167.4
 5.900  0.6845   79.8   0.795   -4.7  0.5371   22.9  0.3746  165.8
 6.000  0.6860   78.7   0.786   -5.5  0.5437   21.8  0.3817  164.2
!
!  f       NFmin   Gammaopt  rn/50
! GHz       dB    MAG  ANG    -
!
! noise parameter not available yet for this operation point!
!
! (c) 2017  Infineon Technologies AG, Munich