! Infineon Technologies  Discrete & RF Semiconductors
! BFR93AW
! VCE =  11. V,  IC =  23 mA
! Common Emitter S-Parameters:                            Jan 2017
# GHz  S  MA  R  50
!  f         S11            S21            S12            S22
! GHz     MAG   ANG      MAG   ANG      MAG   ANG      MAG   ANG
 0.010  0.6448   -9.2  40.523  173.5  0.0024   81.9  0.9783   -4.1
 0.020  0.6494  -18.5  40.150  168.2  0.0049   87.5  0.9619   -8.5
 0.030  0.6188  -26.6  38.596  163.3  0.0074   78.3  0.9326  -12.0
 0.040  0.6015  -35.3  37.341  158.1  0.0099   73.8  0.9071  -15.7
 0.050  0.5988  -44.3  36.415  152.6  0.0125   71.1  0.8855  -19.6
 0.060  0.5718  -50.4  34.630  149.5  0.0142   68.3  0.8502  -21.6
 0.070  0.5519  -57.0  32.959  146.0  0.0158   66.1  0.8160  -23.8
 0.080  0.5397  -64.0  31.422  142.2  0.0176   64.4  0.7830  -26.1
 0.090  0.5360  -71.2  30.039  138.0  0.0193   62.9  0.7515  -28.7
 0.100  0.5407  -78.4  28.832  133.4  0.0210   61.7  0.7217  -31.5
 0.110  0.5238  -82.6  27.512  131.4  0.0221   60.8  0.6954  -32.4
 0.120  0.5100  -87.1  26.229  129.2  0.0232   60.1  0.6693  -33.4
 0.130  0.4994  -91.8  24.989  126.7  0.0243   59.3  0.6434  -34.5
 0.140  0.4924  -96.7  23.799  124.1  0.0254   58.7  0.6178  -35.6
 0.150  0.4890 -101.7  22.666  121.1  0.0265   58.1  0.5924  -36.9
 0.200  0.4629 -118.2  18.274  112.8  0.0296   58.3  0.5051  -38.7
 0.250  0.4478 -130.2  15.246  106.7  0.0338   58.2  0.4473  -39.0
 0.300  0.4350 -139.3  12.973  102.4  0.0366   59.6  0.4050  -38.5
 0.350  0.4281 -145.6  11.484   99.5  0.0406   61.3  0.3804  -37.9
 0.400  0.4265 -152.0  10.033   95.8  0.0447   62.7  0.3558  -37.2
 0.450  0.4231 -156.6   9.070   93.7  0.0484   63.5  0.3414  -36.7
 0.500  0.4224 -161.3   8.123   91.0  0.0522   64.1  0.3271  -36.1
 0.600  0.4216 -168.2   6.843   86.9  0.0602   65.6  0.3094  -35.5
 0.700  0.4224 -173.8   5.898   83.5  0.0682   66.5  0.2976  -35.3
 0.800  0.4252 -178.7   5.196   80.2  0.0765   68.3  0.2893  -35.6
 0.900  0.4261  176.9   4.626   77.3  0.0849   68.0  0.2819  -36.4
 1.000  0.4309  173.2   4.196   74.5  0.0931   68.6  0.2758  -37.4
 1.100  0.4344  169.6   3.833   71.9  0.1020   68.8  0.2721  -38.6
 1.200  0.4378  166.5   3.529   69.3  0.1105   68.6  0.2680  -40.0
 1.300  0.4394  163.3   3.270   66.8  0.1187   68.6  0.2651  -41.7
 1.400  0.4441  160.5   3.060   64.4  0.1280   68.5  0.2608  -43.7
 1.500  0.4493  158.0   2.866   62.1  0.1363   68.0  0.2582  -45.9
 1.600  0.4552  155.1   2.703   59.7  0.1454   67.6  0.2571  -48.0
 1.700  0.4566  152.5   2.559   57.5  0.1541   67.3  0.2541  -50.6
 1.800  0.4631  150.1   2.437   55.2  0.1634   66.6  0.2519  -53.2
 1.900  0.4686  148.0   2.321   53.3  0.1720   66.3  0.2504  -55.9
 2.000  0.4726  145.7   2.216   51.0  0.1811   65.5  0.2502  -58.9
 2.100  0.4777  143.4   2.126   48.9  0.1900   64.9  0.2495  -61.9
 2.200  0.4835  141.2   2.038   46.7  0.1990   64.3  0.2495  -64.9
 2.300  0.4883  139.2   1.963   44.8  0.2083   63.5  0.2502  -68.1
 2.400  0.4936  137.3   1.891   42.7  0.2176   62.8  0.2517  -71.2
 2.500  0.4981  135.3   1.826   40.9  0.2266   62.1  0.2534  -74.3
 2.600  0.5032  133.3   1.763   38.9  0.2356   61.4  0.2558  -77.4
 2.700  0.5078  131.4   1.709   37.1  0.2448   60.6  0.2582  -80.3
 2.800  0.5130  129.5   1.656   35.2  0.2540   59.8  0.2612  -83.2
 2.900  0.5178  127.6   1.608   33.5  0.2632   58.9  0.2634  -86.0
 3.000  0.5231  125.7   1.562   31.6  0.2725   58.1  0.2662  -88.8
 3.100  0.5264  123.8   1.523   30.1  0.2818   57.1  0.2675  -91.6
 3.200  0.5304  122.0   1.485   28.5  0.2911   56.2  0.2693  -94.3
 3.300  0.5348  120.1   1.448   26.9  0.3006   55.4  0.2718  -97.0
 3.400  0.5398  118.4   1.412   25.1  0.3101   54.6  0.2749  -99.6
 3.500  0.5453  116.6   1.378   23.3  0.3196   53.8  0.2785 -102.2
 3.600  0.5495  114.9   1.349   21.9  0.3289   52.7  0.2784 -105.1
 3.700  0.5542  113.3   1.320   20.4  0.3383   51.6  0.2789 -108.0
 3.800  0.5594  111.6   1.292   18.9  0.3478   50.6  0.2802 -110.9
 3.900  0.5650  110.1   1.266   17.3  0.3574   49.6  0.2821 -113.7
 4.000  0.5710  108.5   1.240   15.6  0.3671   48.7  0.2848 -116.5
 4.100  0.5747  107.0   1.216   14.3  0.3760   47.5  0.2843 -119.9
 4.200  0.5789  105.4   1.193   12.9  0.3850   46.4  0.2847 -123.2
 4.300  0.5834  103.9   1.171   11.5  0.3942   45.3  0.2862 -126.6
 4.400  0.5884  102.5   1.149   10.0  0.4036   44.3  0.2886 -129.9
 4.500  0.5937  101.0   1.128    8.5  0.4130   43.3  0.2919 -133.1
 4.600  0.5992   99.6   1.107    7.4  0.4215   42.2  0.2940 -136.7
 4.700  0.6050   98.2   1.087    6.3  0.4302   41.0  0.2973 -140.3
 4.800  0.6112   96.8   1.067    5.1  0.4391   40.0  0.3017 -143.8
 4.900  0.6177   95.5   1.047    3.9  0.4481   39.0  0.3072 -147.2
 5.000  0.6245   94.2   1.028    2.6  0.4572   38.0  0.3137 -150.4
 5.100  0.6266   92.9   1.013    1.6  0.4652   36.8  0.3198 -153.6
 5.200  0.6290   91.6   0.998    0.6  0.4734   35.6  0.3268 -156.6
 5.300  0.6317   90.4   0.984   -0.4  0.4818   34.4  0.3348 -159.5
 5.400  0.6348   89.1   0.970   -1.5  0.4904   33.3  0.3435 -162.3
 5.500  0.6381   87.9   0.956   -2.6  0.4992   32.2  0.3530 -164.9
 5.600  0.6399   86.8   0.942   -3.4  0.5063   31.0  0.3586 -167.4
 5.700  0.6419   85.6   0.929   -4.2  0.5137   29.9  0.3648 -169.8
 5.800  0.6442   84.5   0.916   -5.1  0.5212   28.7  0.3717 -172.1
 5.900  0.6467   83.4   0.903   -6.0  0.5290   27.7  0.3791 -174.3
 6.000  0.6495   82.3   0.890   -6.9  0.5369   26.6  0.3871 -176.4
!
!  f       NFmin   Gammaopt  rn/50
! GHz       dB    MAG  ANG    -
 0.450      1.60  0.15  166   0.15
 0.900      1.88  0.24  177   0.16
 1.900      2.89  0.48 -138   0.24
 2.400      3.53  0.55 -126   0.48
!
! (c) 2017  Infineon Technologies AG, Munich