! Infineon Technologies  Discrete & RF Semiconductors
! BFR93AW
! VCE =  6.0 V,  IC =  15 mA
! Common Emitter S-Parameters:                            Jan 2017
# GHz  S  MA  R  50
!  f         S11            S21            S12            S22
! GHz     MAG   ANG      MAG   ANG      MAG   ANG      MAG   ANG
 0.010  0.6714   -8.6  33.267  174.5  0.0029   85.1  0.9890   -3.8
 0.020  0.6769  -16.9  33.168  169.6  0.0056   88.1  0.9752   -7.8
 0.030  0.6493  -24.4  32.100  165.1  0.0082   79.5  0.9505  -11.1
 0.040  0.6336  -32.4  31.243  160.3  0.0109   75.1  0.9290  -14.5
 0.050  0.6309  -40.7  30.615  155.3  0.0137   72.5  0.9110  -18.1
 0.060  0.6061  -46.6  29.299  152.2  0.0158   69.3  0.8785  -20.2
 0.070  0.5884  -53.0  28.077  148.8  0.0179   66.9  0.8472  -22.4
 0.080  0.5782  -59.6  26.963  145.1  0.0200   65.0  0.8174  -24.8
 0.090  0.5761  -66.4  25.971  141.1  0.0221   63.5  0.7891  -27.4
 0.100  0.5821  -73.2  25.114  136.8  0.0243   62.2  0.7625  -30.2
 0.110  0.5652  -77.5  24.050  134.7  0.0254   60.9  0.7363  -31.3
 0.120  0.5516  -82.0  23.023  132.4  0.0266   59.7  0.7104  -32.5
 0.130  0.5416  -86.8  22.036  129.9  0.0277   58.6  0.6848  -33.8
 0.140  0.5355  -91.6  21.095  127.1  0.0289   57.5  0.6596  -35.1
 0.150  0.5333  -96.6  20.208  124.1  0.0301   56.6  0.6348  -36.6
 0.200  0.5070 -113.6  16.533  115.4  0.0335   55.3  0.5426  -39.5
 0.250  0.4896 -126.3  13.898  108.9  0.0378   54.5  0.4790  -40.5
 0.300  0.4758 -136.0  11.889  104.2  0.0410   55.3  0.4313  -40.7
 0.350  0.4678 -142.5  10.545  101.1  0.0446   56.7  0.4025  -40.4
 0.400  0.4660 -149.2   9.242   97.0  0.0482   57.9  0.3738  -40.0
 0.450  0.4620 -154.1   8.363   94.7  0.0516   58.8  0.3569  -39.7
 0.500  0.4613 -159.0   7.501   91.8  0.0551   59.6  0.3401  -39.3
 0.600  0.4603 -166.6   6.330   87.5  0.0624   61.3  0.3188  -38.8
 0.700  0.4597 -172.4   5.459   83.8  0.0695   63.4  0.3044  -38.7
 0.800  0.4616 -177.4   4.813   80.2  0.0779   65.0  0.2936  -39.1
 0.900  0.4636  177.9   4.291   77.2  0.0856   64.9  0.2858  -40.0
 1.000  0.4675  174.2   3.895   74.2  0.0942   65.9  0.2789  -41.0
 1.100  0.4702  170.5   3.557   71.5  0.1022   66.2  0.2745  -42.2
 1.200  0.4732  167.0   3.276   68.7  0.1109   66.5  0.2701  -43.6
 1.300  0.4762  163.7   3.036   66.2  0.1188   66.6  0.2669  -45.5
 1.400  0.4807  161.0   2.842   63.6  0.1283   66.7  0.2625  -47.7
 1.500  0.4867  158.4   2.662   61.3  0.1364   66.5  0.2595  -49.9
 1.600  0.4907  155.5   2.513   58.7  0.1451   66.3  0.2588  -52.1
 1.700  0.4933  152.9   2.379   56.5  0.1545   66.1  0.2563  -55.0
 1.800  0.5000  150.5   2.266   54.1  0.1635   65.7  0.2543  -57.7
 1.900  0.5034  148.2   2.160   52.1  0.1725   65.3  0.2529  -60.5
 2.000  0.5068  145.8   2.061   49.7  0.1818   64.7  0.2529  -63.6
 2.100  0.5118  143.4   1.978   47.6  0.1909   64.1  0.2530  -66.8
 2.200  0.5177  141.1   1.897   45.4  0.2001   63.6  0.2538  -69.9
 2.300  0.5222  139.0   1.828   43.4  0.2096   63.0  0.2550  -73.2
 2.400  0.5273  137.0   1.761   41.2  0.2191   62.4  0.2571  -76.4
 2.500  0.5319  135.0   1.700   39.4  0.2284   61.7  0.2594  -79.5
 2.600  0.5372  133.0   1.640   37.4  0.2377   61.0  0.2625  -82.6
 2.700  0.5415  131.0   1.590   35.6  0.2472   60.2  0.2657  -85.6
 2.800  0.5464  129.1   1.541   33.6  0.2567   59.5  0.2696  -88.5
 2.900  0.5510  127.0   1.497   31.9  0.2663   58.6  0.2720  -91.4
 3.000  0.5563  125.0   1.455   30.0  0.2760   57.8  0.2751  -94.3
 3.100  0.5593  123.1   1.418   28.5  0.2857   56.8  0.2769  -97.1
 3.200  0.5629  121.3   1.383   26.9  0.2954   55.9  0.2793 -100.0
 3.300  0.5671  119.5   1.348   25.3  0.3053   55.1  0.2824 -102.7
 3.400  0.5719  117.7   1.315   23.5  0.3152   54.3  0.2862 -105.4
 3.500  0.5772  115.9   1.283   21.7  0.3251   53.5  0.2905 -108.0
 3.600  0.5808  114.2   1.256   20.3  0.3348   52.3  0.2908 -111.0
 3.700  0.5850  112.5   1.229   18.9  0.3446   51.2  0.2919 -113.9
 3.800  0.5896  110.8   1.203   17.4  0.3545   50.2  0.2938 -116.9
 3.900  0.5948  109.1   1.178   15.8  0.3645   49.2  0.2964 -119.8
 4.000  0.6004  107.5   1.154   14.2  0.3746   48.3  0.2998 -122.6
 4.100  0.6036  105.9   1.132   12.9  0.3838   47.1  0.2999 -126.0
 4.200  0.6073  104.4   1.110   11.6  0.3931   45.9  0.3011 -129.5
 4.300  0.6114  102.9   1.090   10.2  0.4027   44.8  0.3034 -132.8
 4.400  0.6159  101.4   1.069    8.7  0.4123   43.7  0.3067 -136.2
 4.500  0.6209   99.9   1.050    7.2  0.4221   42.7  0.3110 -139.4
 4.600  0.6253   98.5   1.030    6.2  0.4308   41.5  0.3138 -143.0
 4.700  0.6300   97.1   1.011    5.1  0.4397   40.3  0.3178 -146.5
 4.800  0.6352   95.7   0.992    4.0  0.4488   39.2  0.3230 -149.9
 4.900  0.6407   94.3   0.974    2.8  0.4581   38.1  0.3292 -153.2
 5.000  0.6465   93.0   0.956    1.6  0.4675   37.1  0.3365 -156.3
 5.100  0.6484   91.7   0.943    0.7  0.4755   35.8  0.3430 -159.4
 5.200  0.6507   90.4   0.930   -0.2  0.4838   34.6  0.3504 -162.3
 5.300  0.6533   89.1   0.917   -1.1  0.4922   33.4  0.3588 -165.1
 5.400  0.6562   87.9   0.905   -2.1  0.5009   32.2  0.3679 -167.8
 5.500  0.6594   86.6   0.893   -3.1  0.5098   31.1  0.3778 -170.3
 5.600  0.6604   85.5   0.881   -3.9  0.5167   29.9  0.3833 -172.7
 5.700  0.6617   84.3   0.868   -4.6  0.5239   28.7  0.3895 -175.0
 5.800  0.6632   83.2   0.856   -5.4  0.5313   27.5  0.3963 -177.2
 5.900  0.6650   82.0   0.845   -6.3  0.5389   26.4  0.4036 -179.3
 6.000  0.6670   80.9   0.833   -7.1  0.5467   25.3  0.4115  178.6
!
!  f       NFmin   Gammaopt  rn/50
! GHz       dB    MAG  ANG    -
 0.450      1.37  0.12  133   0.13
 0.900      1.66  0.23  164   0.14
 1.900      2.67  0.47 -144   0.20
 2.400      3.30  0.54 -129   0.40
!
! (c) 2017  Infineon Technologies AG, Munich