! Infineon Technologies  Discrete & RF Semiconductors
! BFR93AW
! VCE =  2.0 V,  IC =  85 mA
! Common Emitter S-Parameters:                            Jan 2017
# GHz  S  MA  R  50
!  f         S11            S21            S12            S22
! GHz     MAG   ANG      MAG   ANG      MAG   ANG      MAG   ANG
 0.010  0.2226  -93.9  45.534  162.3  0.0051   59.6  0.6437  -17.4
 0.020  0.3881 -116.7  40.647  147.6  0.0084   58.9  0.5715  -33.1
 0.030  0.4439 -129.7  34.859  141.5  0.0104   53.2  0.4916  -39.5
 0.040  0.5171 -139.4  29.622  133.1  0.0125   49.3  0.4202  -48.3
 0.050  0.6013 -146.6  25.282  121.4  0.0147   46.6  0.3624  -60.2
 0.060  0.6115 -150.4  22.982  119.5  0.0156   47.9  0.3303  -62.3
 0.070  0.6244 -154.0  20.714  117.2  0.0166   49.1  0.2988  -64.9
 0.080  0.6397 -157.5  18.488  114.3  0.0176   50.2  0.2680  -68.1
 0.090  0.6572 -160.9  16.322  110.6  0.0185   51.1  0.2383  -72.1
 0.100  0.6768 -164.0  14.244  105.8  0.0195   52.0  0.2100  -77.2
 0.110  0.6792 -165.5  13.333  104.9  0.0205   53.2  0.1977  -78.5
 0.120  0.6821 -167.0  12.426  103.8  0.0214   54.3  0.1854  -79.9
 0.130  0.6854 -168.4  11.524  102.5  0.0224   55.3  0.1733  -81.5
 0.140  0.6891 -169.9  10.629  101.0  0.0234   56.2  0.1614  -83.3
 0.150  0.6933 -171.3   9.742   99.3  0.0244   57.0  0.1496  -85.5
 0.200  0.6991 -175.6   7.382   95.3  0.0284   61.6  0.1203  -90.2
 0.250  0.7027 -178.9   5.958   92.2  0.0345   64.2  0.1027  -94.1
 0.300  0.7024  178.5   4.989   90.2  0.0394   66.7  0.0916  -98.0
 0.350  0.7026  176.5   4.392   88.6  0.0449   68.1  0.0866 -100.6
 0.400  0.7037  174.5   3.800   86.5  0.0505   69.2  0.0818 -103.5
 0.450  0.7034  172.6   3.437   85.1  0.0562   70.1  0.0799 -106.2
 0.500  0.7039  170.8   3.077   83.4  0.0619   70.9  0.0781 -109.1
 0.600  0.7045  167.6   2.605   80.6  0.0733   71.3  0.0784 -114.3
 0.700  0.7025  165.0   2.266   78.0  0.0846   72.0  0.0802 -118.2
 0.800  0.7037  162.0   2.015   75.2  0.0965   71.8  0.0839 -122.5
 0.900  0.7033  159.2   1.814   72.7  0.1078   71.1  0.0886 -126.2
 1.000  0.7055  156.8   1.668   70.3  0.1193   70.9  0.0935 -130.6
 1.100  0.7065  154.2   1.543   67.9  0.1311   70.2  0.0993 -133.5
 1.200  0.7076  151.8   1.439   65.3  0.1421   69.2  0.1049 -136.7
 1.300  0.7069  149.3   1.352   63.0  0.1540   68.5  0.1120 -140.1
 1.400  0.7095  147.1   1.283   60.6  0.1652   67.6  0.1196 -143.2
 1.500  0.7119  144.8   1.219   58.2  0.1772   66.7  0.1273 -146.4
 1.600  0.7130  142.5   1.166   55.8  0.1886   65.7  0.1351 -148.6
 1.700  0.7134  140.3   1.119   53.6  0.2005   64.6  0.1438 -151.3
 1.800  0.7156  138.0   1.080   51.3  0.2121   63.3  0.1522 -153.8
 1.900  0.7176  135.9   1.042   49.4  0.2231   62.3  0.1614 -155.9
 2.000  0.7165  133.9   1.006   47.1  0.2343   61.2  0.1708 -157.8
 2.100  0.7180  131.7   0.976   45.1  0.2454   59.9  0.1798 -160.0
 2.200  0.7205  129.5   0.948   43.0  0.2566   58.8  0.1891 -162.0
 2.300  0.7212  127.6   0.924   41.1  0.2674   57.5  0.1981 -163.7
 2.400  0.7226  125.7   0.901   39.2  0.2783   56.3  0.2073 -165.3
 2.500  0.7225  123.7   0.879   37.5  0.2886   55.0  0.2154 -166.9
 2.600  0.7232  121.8   0.858   35.7  0.2990   53.8  0.2236 -168.4
 2.700  0.7240  119.9   0.841   34.1  0.3092   52.6  0.2310 -169.9
 2.800  0.7256  118.1   0.824   32.5  0.3195   51.4  0.2385 -171.4
 2.900  0.7260  116.2   0.809   31.0  0.3292   50.1  0.2452 -173.0
 3.000  0.7271  114.4   0.794   29.5  0.3391   48.9  0.2521 -174.6
 3.100  0.7256  112.6   0.782   28.2  0.3481   47.6  0.2572 -176.5
 3.200  0.7249  110.8   0.771   26.9  0.3572   46.3  0.2626 -178.3
 3.300  0.7248  109.0   0.760   25.5  0.3666   45.1  0.2682  180.0
 3.400  0.7255  107.2   0.749   24.1  0.3761   43.9  0.2740  178.3
 3.500  0.7269  105.4   0.739   22.6  0.3857   42.8  0.2801  176.7
 3.600  0.7263  103.8   0.730   21.5  0.3939   41.5  0.2848  174.5
 3.700  0.7262  102.2   0.722   20.4  0.4022   40.2  0.2899  172.4
 3.800  0.7266  100.7   0.714   19.2  0.4108   38.9  0.2953  170.4
 3.900  0.7276   99.1   0.706   18.0  0.4196   37.7  0.3011  168.4
 4.000  0.7292   97.5   0.699   16.8  0.4285   36.6  0.3073  166.5
 4.100  0.7277   96.1   0.693   15.8  0.4354   35.2  0.3128  164.2
 4.200  0.7266   94.7   0.686   14.7  0.4425   33.9  0.3188  162.0
 4.300  0.7259   93.2   0.680   13.7  0.4499   32.6  0.3252  159.8
 4.400  0.7257   91.8   0.675   12.6  0.4574   31.4  0.3321  157.8
 4.500  0.7260   90.4   0.669   11.5  0.4652   30.2  0.3394  155.8
 4.600  0.7267   89.2   0.664   10.7  0.4710   29.0  0.3463  153.9
 4.700  0.7277   87.9   0.659    9.9  0.4770   27.8  0.3537  152.1
 4.800  0.7291   86.7   0.654    9.1  0.4832   26.7  0.3613  150.3
 4.900  0.7308   85.4   0.649    8.3  0.4895   25.6  0.3693  148.6
 5.000  0.7328   84.2   0.644    7.5  0.4961   24.5  0.3776  147.0
 5.100  0.7314   83.1   0.642    6.7  0.5011   23.3  0.3847  145.6
 5.200  0.7302   81.9   0.640    6.0  0.5063   22.1  0.3919  144.3
 5.300  0.7294   80.8   0.638    5.2  0.5116   21.0  0.3994  143.1
 5.400  0.7288   79.6   0.637    4.5  0.5172   19.9  0.4071  141.9
 5.500  0.7285   78.5   0.635    3.7  0.5230   18.8  0.4149  140.7
 5.600  0.7271   77.5   0.633    3.0  0.5271   17.7  0.4188  139.6
 5.700  0.7259   76.5   0.631    2.4  0.5313   16.6  0.4228  138.5
 5.800  0.7250   75.6   0.629    1.7  0.5357   15.6  0.4269  137.5
 5.900  0.7242   74.6   0.628    1.0  0.5403   14.5  0.4313  136.4
 6.000  0.7237   73.6   0.626    0.3  0.5451   13.5  0.4357  135.4
!
!  f       NFmin   Gammaopt  rn/50
! GHz       dB    MAG  ANG    -
!
! noise parameter not available yet for this operation point!
!
! (c) 2017  Infineon Technologies AG, Munich