! Infineon Technologies  Discrete & RF Semiconductors
! BFR93AW
! VCE =  4.0 V,  IC =  23 mA
! Common Emitter S-Parameters:                            Jan 2017
# GHz  S  MA  R  50
!  f         S11            S21            S12            S22
! GHz     MAG   ANG      MAG   ANG      MAG   ANG      MAG   ANG
 0.010  0.5512  -11.9  42.900  173.1  0.0026   89.0  0.9810   -5.2
 0.020  0.5552  -23.6  42.495  166.9  0.0057   83.4  0.9591  -10.5
 0.030  0.5259  -33.7  40.463  161.6  0.0081   75.8  0.9213  -14.6
 0.040  0.5146  -44.6  38.814  155.8  0.0105   71.7  0.8887  -19.1
 0.050  0.5223  -55.6  37.598  149.5  0.0130   69.1  0.8618  -23.8
 0.060  0.5004  -62.6  35.507  146.3  0.0147   66.4  0.8204  -26.0
 0.070  0.4867  -70.2  33.538  142.8  0.0164   64.2  0.7804  -28.4
 0.080  0.4818  -78.0  31.712  138.8  0.0182   62.5  0.7419  -31.1
 0.090  0.4860  -85.8  30.056  134.4  0.0199   61.0  0.7051  -34.0
 0.100  0.4990  -93.4  28.600  129.5  0.0217   59.8  0.6705  -37.3
 0.110  0.4884  -97.9  27.180  127.6  0.0227   59.3  0.6423  -38.3
 0.120  0.4810 -102.6  25.794  125.5  0.0237   58.8  0.6143  -39.3
 0.130  0.4768 -107.4  24.447  123.1  0.0247   58.4  0.5866  -40.5
 0.140  0.4760 -112.2  23.147  120.4  0.0257   58.0  0.5591  -41.8
 0.150  0.4786 -117.0  21.902  117.5  0.0267   57.6  0.5319  -43.2
 0.200  0.4701 -131.9  17.444  109.7  0.0300   58.4  0.4445  -45.1
 0.250  0.4679 -142.7  14.430  103.9  0.0346   58.1  0.3863  -45.5
 0.300  0.4634 -150.2  12.222   99.9  0.0383   60.4  0.3452  -45.1
 0.350  0.4613 -155.6  10.793   97.2  0.0421   61.5  0.3210  -44.5
 0.400  0.4633 -161.1   9.396   93.7  0.0460   62.5  0.2968  -43.9
 0.450  0.4622 -164.9   8.489   91.6  0.0503   63.9  0.2826  -43.4
 0.500  0.4632 -168.7   7.595   89.1  0.0546   65.1  0.2685  -42.9
 0.600  0.4659 -174.4   6.387   85.2  0.0633   66.5  0.2507  -42.3
 0.700  0.4693 -179.1   5.497   81.8  0.0718   67.4  0.2392  -42.2
 0.800  0.4726  176.7   4.839   78.6  0.0815   68.4  0.2304  -42.7
 0.900  0.4735  172.8   4.309   75.7  0.0898   68.7  0.2239  -43.7
 1.000  0.4766  169.3   3.909   72.9  0.0994   68.7  0.2180  -44.9
 1.100  0.4816  166.3   3.570   70.3  0.1082   68.8  0.2141  -46.5
 1.200  0.4853  163.3   3.286   67.7  0.1169   68.6  0.2103  -48.2
 1.300  0.4871  160.3   3.047   65.2  0.1261   68.2  0.2077  -50.2
 1.400  0.4919  157.8   2.850   62.8  0.1358   68.0  0.2038  -52.8
 1.500  0.4978  155.5   2.671   60.5  0.1454   67.6  0.2012  -55.5
 1.600  0.5008  152.6   2.518   58.0  0.1544   66.9  0.2009  -58.3
 1.700  0.5052  150.3   2.386   55.8  0.1638   66.5  0.1991  -61.3
 1.800  0.5115  147.9   2.273   53.5  0.1733   65.7  0.1976  -64.7
 1.900  0.5159  145.9   2.166   51.5  0.1827   65.3  0.1980  -67.9
 2.000  0.5175  143.7   2.067   49.2  0.1927   64.5  0.1983  -71.4
 2.100  0.5231  141.4   1.983   47.1  0.2020   63.7  0.1993  -75.1
 2.200  0.5295  139.2   1.901   44.9  0.2113   62.9  0.2011  -78.7
 2.300  0.5334  137.3   1.831   43.0  0.2210   62.0  0.2033  -82.3
 2.400  0.5379  135.4   1.764   40.9  0.2308   61.2  0.2063  -85.9
 2.500  0.5421  133.5   1.704   39.1  0.2400   60.3  0.2097  -89.3
 2.600  0.5469  131.6   1.646   37.1  0.2492   59.5  0.2138  -92.5
 2.700  0.5511  129.7   1.595   35.3  0.2589   58.6  0.2177  -95.7
 2.800  0.5559  127.8   1.546   33.4  0.2686   57.8  0.2222  -98.8
 2.900  0.5602  125.8   1.502   31.7  0.2780   56.8  0.2259 -101.8
 3.000  0.5652  123.9   1.459   29.8  0.2874   55.9  0.2302 -104.7
 3.100  0.5678  122.1   1.423   28.3  0.2967   54.8  0.2328 -107.6
 3.200  0.5709  120.3   1.388   26.8  0.3061   53.8  0.2360 -110.5
 3.300  0.5746  118.5   1.354   25.1  0.3157   52.9  0.2398 -113.2
 3.400  0.5789  116.7   1.321   23.4  0.3252   52.0  0.2442 -115.9
 3.500  0.5837  115.0   1.289   21.6  0.3349   51.2  0.2490 -118.5
 3.600  0.5874  113.3   1.262   20.2  0.3440   50.0  0.2503 -121.6
 3.700  0.5917  111.7   1.236   18.8  0.3533   48.9  0.2522 -124.6
 3.800  0.5964  110.1   1.210   17.3  0.3627   47.9  0.2549 -127.6
 3.900  0.6016  108.5   1.186   15.7  0.3723   46.9  0.2582 -130.5
 4.000  0.6072  106.9   1.162   14.1  0.3819   45.9  0.2622 -133.3
 4.100  0.6102  105.4   1.140   12.8  0.3905   44.7  0.2638 -136.8
 4.200  0.6136  103.9   1.118   11.5  0.3993   43.5  0.2663 -140.3
 4.300  0.6175  102.4   1.098   10.1  0.4082   42.3  0.2698 -143.6
 4.400  0.6217  100.9   1.077    8.7  0.4173   41.2  0.2742 -146.9
 4.500  0.6264   99.5   1.058    7.2  0.4265   40.2  0.2795 -150.1
 4.600  0.6306   98.1   1.039    6.2  0.4345   39.0  0.2838 -153.6
 4.700  0.6351   96.7   1.020    5.1  0.4427   37.9  0.2892 -156.9
 4.800  0.6400   95.4   1.002    4.0  0.4511   36.8  0.2955 -160.2
 4.900  0.6453   94.0   0.984    2.9  0.4596   35.8  0.3027 -163.3
 5.000  0.6509   92.7   0.966    1.7  0.4683   34.8  0.3108 -166.2
 5.100  0.6525   91.4   0.953    0.8  0.4759   33.6  0.3183 -169.0
 5.200  0.6544   90.2   0.940   -0.2  0.4836   32.4  0.3265 -171.6
 5.300  0.6566   89.0   0.927   -1.2  0.4916   31.2  0.3354 -174.2
 5.400  0.6592   87.7   0.914   -2.2  0.4998   30.1  0.3449 -176.5
 5.500  0.6620   86.5   0.902   -3.3  0.5081   29.0  0.3550 -178.8
 5.600  0.6632   85.4   0.890   -4.1  0.5144   27.8  0.3614  179.1
 5.700  0.6648   84.2   0.878   -4.8  0.5209   26.6  0.3682  177.1
 5.800  0.6665   83.1   0.866   -5.6  0.5276   25.5  0.3754  175.2
 5.900  0.6685   82.0   0.854   -6.5  0.5345   24.4  0.3831  173.4
 6.000  0.6708   80.9   0.843   -7.3  0.5416   23.3  0.3911  171.6
!
!  f       NFmin   Gammaopt  rn/50
! GHz       dB    MAG  ANG    -
 0.450      1.60  0.15  166   0.15
 0.900      1.88  0.24  177   0.16
 1.900      2.89  0.48 -138   0.24
 2.400      3.53  0.55 -126   0.48
!
! (c) 2017  Infineon Technologies AG, Munich