! Infineon Technologies  Discrete & RF Semiconductors
! BFR93AW
! VCE =  7.0 V,  IC =  23 mA
! Common Emitter S-Parameters:                            Jan 2017
# GHz  S  MA  R  50
!  f         S11            S21            S12            S22
! GHz     MAG   ANG      MAG   ANG      MAG   ANG      MAG   ANG
 0.010  0.6032  -10.3  41.374  173.4  0.0025   87.2  0.9823   -4.5
 0.020  0.6051  -20.4  41.060  167.8  0.0052   86.1  0.9628   -9.3
 0.030  0.5756  -29.2  39.310  162.8  0.0077   78.0  0.9309  -13.0
 0.040  0.5609  -38.7  37.890  157.3  0.0103   73.9  0.9031  -16.9
 0.050  0.5621  -48.4  36.837  151.5  0.0129   71.5  0.8799  -21.1
 0.060  0.5374  -54.9  34.945  148.4  0.0145   68.7  0.8424  -23.2
 0.070  0.5201  -61.9  33.170  144.9  0.0162   66.5  0.8062  -25.5
 0.080  0.5110  -69.2  31.532  141.0  0.0179   64.7  0.7713  -27.9
 0.090  0.5106  -76.7  30.054  136.7  0.0196   63.2  0.7380  -30.6
 0.100  0.5188  -84.1  28.761  132.0  0.0213   61.9  0.7065  -33.6
 0.110  0.5044  -88.5  27.397  130.0  0.0223   60.8  0.6791  -34.5
 0.120  0.4931  -93.1  26.071  127.8  0.0233   59.7  0.6519  -35.6
 0.130  0.4851  -97.9  24.786  125.4  0.0243   58.8  0.6249  -36.7
 0.140  0.4807 -102.8  23.551  122.7  0.0254   57.9  0.5981  -37.9
 0.150  0.4798 -107.8  22.374  119.7  0.0264   57.1  0.5717  -39.2
 0.200  0.4618 -123.9  17.970  111.6  0.0298   58.0  0.4835  -41.1
 0.250  0.4521 -135.5  14.926  105.6  0.0339   58.1  0.4247  -41.4
 0.300  0.4453 -144.2  12.675  101.5  0.0371   59.6  0.3831  -41.0
 0.350  0.4406 -150.1  11.210   98.7  0.0412   60.8  0.3588  -40.3
 0.400  0.4405 -156.0   9.780   95.0  0.0453   61.8  0.3345  -39.5
 0.450  0.4384 -160.3   8.839   92.9  0.0492   63.0  0.3202  -39.1
 0.500  0.4387 -164.6   7.914   90.2  0.0532   64.1  0.3060  -38.6
 0.600  0.4396 -171.0   6.667   86.3  0.0614   65.8  0.2875  -37.9
 0.700  0.4406 -176.2   5.742   82.9  0.0696   67.4  0.2753  -37.7
 0.800  0.4451  179.1   5.056   79.6  0.0787   68.3  0.2670  -38.1
 0.900  0.4444  175.1   4.502   76.6  0.0871   68.4  0.2599  -38.9
 1.000  0.4505  171.5   4.083   73.9  0.0953   69.1  0.2537  -39.9
 1.100  0.4546  168.1   3.731   71.3  0.1042   69.0  0.2501  -41.3
 1.200  0.4562  164.9   3.434   68.7  0.1131   68.7  0.2461  -42.7
 1.300  0.4592  162.1   3.183   66.2  0.1217   68.6  0.2431  -44.8
 1.400  0.4640  159.2   2.977   63.8  0.1313   68.4  0.2385  -46.8
 1.500  0.4686  156.7   2.790   61.5  0.1397   67.9  0.2363  -49.2
 1.600  0.4734  154.0   2.631   59.0  0.1493   67.4  0.2354  -51.4
 1.700  0.4771  151.6   2.490   56.8  0.1580   67.1  0.2326  -54.3
 1.800  0.4828  149.1   2.372   54.6  0.1677   66.4  0.2308  -57.0
 1.900  0.4878  147.1   2.262   52.6  0.1764   66.0  0.2297  -60.0
 2.000  0.4925  144.9   2.157   50.3  0.1855   65.2  0.2296  -63.1
 2.100  0.4971  142.5   2.070   48.2  0.1949   64.5  0.2294  -66.4
 2.200  0.5026  140.2   1.985   46.0  0.2043   63.8  0.2300  -69.6
 2.300  0.5073  138.3   1.912   44.0  0.2137   63.0  0.2312  -73.0
 2.400  0.5126  136.4   1.842   41.9  0.2231   62.3  0.2331  -76.3
 2.500  0.5170  134.4   1.779   40.1  0.2322   61.5  0.2354  -79.5
 2.600  0.5219  132.5   1.717   38.2  0.2414   60.8  0.2384  -82.7
 2.700  0.5258  130.6   1.664   36.4  0.2507   59.9  0.2415  -85.8
 2.800  0.5302  128.8   1.613   34.5  0.2601   59.1  0.2453  -88.8
 2.900  0.5347  126.8   1.567   32.8  0.2696   58.2  0.2478  -91.7
 3.000  0.5399  124.8   1.523   30.9  0.2792   57.3  0.2510  -94.6
 3.100  0.5432  123.0   1.485   29.4  0.2885   56.3  0.2528  -97.5
 3.200  0.5471  121.2   1.447   27.8  0.2978   55.3  0.2551 -100.3
 3.300  0.5515  119.4   1.411   26.2  0.3072   54.4  0.2581 -103.0
 3.400  0.5564  117.6   1.377   24.4  0.3167   53.6  0.2617 -105.7
 3.500  0.5618  115.9   1.343   22.6  0.3263   52.8  0.2658 -108.3
 3.600  0.5657  114.2   1.315   21.2  0.3356   51.7  0.2660 -111.3
 3.700  0.5701  112.6   1.287   19.7  0.3450   50.6  0.2670 -114.2
 3.800  0.5750  111.0   1.260   18.2  0.3546   49.6  0.2687 -117.1
 3.900  0.5803  109.4   1.235   16.6  0.3642   48.6  0.2710 -120.0
 4.000  0.5860  107.8   1.210   15.0  0.3740   47.7  0.2740 -122.8
 4.100  0.5896  106.3   1.187   13.7  0.3828   46.5  0.2743 -126.3
 4.200  0.5937  104.7   1.164   12.4  0.3918   45.3  0.2756 -129.7
 4.300  0.5982  103.2   1.142   11.0  0.4009   44.2  0.2779 -133.1
 4.400  0.6030  101.8   1.121    9.5  0.4102   43.1  0.2811 -136.5
 4.500  0.6083  100.3   1.100    8.0  0.4196   42.1  0.2853 -139.7
 4.600  0.6131   98.9   1.080    6.9  0.4280   41.0  0.2882 -143.3
 4.700  0.6182   97.5   1.060    5.8  0.4365   39.9  0.2923 -146.8
 4.800  0.6238   96.1   1.040    4.6  0.4453   38.8  0.2974 -150.3
 4.900  0.6296   94.8   1.022    3.4  0.4541   37.8  0.3035 -153.5
 5.000  0.6358   93.5   1.003    2.2  0.4631   36.8  0.3106 -156.7
 5.100  0.6376   92.2   0.989    1.3  0.4710   35.5  0.3174 -159.7
 5.200  0.6398   90.9   0.975    0.3  0.4790   34.3  0.3250 -162.6
 5.300  0.6422   89.6   0.961   -0.7  0.4873   33.1  0.3334 -165.4
 5.400  0.6450   88.4   0.948   -1.7  0.4958   32.0  0.3425 -168.0
 5.500  0.6481   87.1   0.935   -2.8  0.5045   30.9  0.3523 -170.5
 5.600  0.6496   86.0   0.922   -3.6  0.5112   29.7  0.3582 -172.9
 5.700  0.6514   84.9   0.909   -4.4  0.5181   28.5  0.3647 -175.1
 5.800  0.6534   83.8   0.896   -5.3  0.5252   27.4  0.3717 -177.4
 5.900  0.6557   82.7   0.883   -6.2  0.5326   26.3  0.3792 -179.5
 6.000  0.6582   81.6   0.871   -7.1  0.5401   25.2  0.3873  178.5
!
!  f       NFmin   Gammaopt  rn/50
! GHz       dB    MAG  ANG    -
 0.450      1.60  0.15  166   0.15
 0.900      1.88  0.24  177   0.16
 1.900      2.89  0.48 -138   0.24
 2.400      3.53  0.55 -126   0.48
!
! (c) 2017  Infineon Technologies AG, Munich