! Infineon Technologies  Discrete & RF Semiconductors
! BFR93AW
! VCE =  8.0 V,  IC =  24 mA
! Common Emitter S-Parameters:                            Jan 2017
# GHz  S  MA  R  50
!  f         S11            S21            S12            S22
! GHz     MAG   ANG      MAG   ANG      MAG   ANG      MAG   ANG
 0.010  0.6073  -10.2  41.988  173.3  0.0026   80.9  0.9810   -4.5
 0.020  0.6108  -20.2  41.787  167.7  0.0052   85.5  0.9619   -9.2
 0.030  0.5805  -28.9  39.967  162.7  0.0077   77.7  0.9299  -12.9
 0.040  0.5649  -38.4  38.481  157.2  0.0104   73.8  0.9020  -16.8
 0.050  0.5653  -48.1  37.369  151.4  0.0130   71.5  0.8787  -21.0
 0.060  0.5401  -54.5  35.434  148.2  0.0146   68.5  0.8409  -23.0
 0.070  0.5223  -61.5  33.620  144.7  0.0161   66.2  0.8043  -25.3
 0.080  0.5128  -68.9  31.945  140.8  0.0177   64.2  0.7690  -27.7
 0.090  0.5119  -76.4  30.435  136.5  0.0194   62.6  0.7352  -30.4
 0.100  0.5198  -83.8  29.113  131.8  0.0210   61.2  0.7032  -33.3
 0.110  0.5047  -88.1  27.733  129.8  0.0220   60.3  0.6764  -34.2
 0.120  0.4926  -92.7  26.390  127.6  0.0230   59.4  0.6499  -35.2
 0.130  0.4839  -97.5  25.089  125.2  0.0240   58.7  0.6235  -36.3
 0.140  0.4786 -102.4  23.837  122.6  0.0250   58.0  0.5974  -37.5
 0.150  0.4769 -107.4  22.643  119.6  0.0260   57.3  0.5716  -38.8
 0.200  0.4599 -123.5  18.169  111.5  0.0294   57.4  0.4837  -40.6
 0.250  0.4485 -135.1  15.106  105.6  0.0341   57.8  0.4263  -40.6
 0.300  0.4398 -143.7  12.826  101.4  0.0372   59.5  0.3852  -40.2
 0.350  0.4349 -149.6  11.346   98.6  0.0410   61.3  0.3609  -39.5
 0.400  0.4348 -155.6   9.900   95.0  0.0448   62.8  0.3367  -38.7
 0.450  0.4328 -159.9   8.944   92.9  0.0488   63.9  0.3228  -38.2
 0.500  0.4333 -164.2   8.003   90.3  0.0528   64.8  0.3089  -37.6
 0.600  0.4323 -170.8   6.739   86.3  0.0613   66.2  0.2911  -37.0
 0.700  0.4348 -176.1   5.808   82.9  0.0692   68.0  0.2788  -36.8
 0.800  0.4380  179.3   5.114   79.7  0.0782   68.6  0.2710  -37.3
 0.900  0.4392  175.2   4.554   76.7  0.0861   69.1  0.2641  -38.0
 1.000  0.4441  171.6   4.131   74.0  0.0950   69.1  0.2581  -39.1
 1.100  0.4482  168.2   3.773   71.5  0.1040   68.9  0.2546  -40.4
 1.200  0.4501  164.9   3.472   68.8  0.1125   68.9  0.2507  -41.8
 1.300  0.4518  162.0   3.219   66.3  0.1214   68.7  0.2470  -43.7
 1.400  0.4587  159.3   3.010   63.9  0.1307   68.7  0.2428  -45.8
 1.500  0.4641  156.8   2.821   61.6  0.1390   68.1  0.2404  -48.0
 1.600  0.4676  154.2   2.661   59.2  0.1483   67.6  0.2396  -50.3
 1.700  0.4708  151.8   2.518   57.1  0.1573   67.2  0.2370  -53.1
 1.800  0.4765  149.4   2.399   54.7  0.1665   66.7  0.2354  -55.8
 1.900  0.4811  147.1   2.286   52.8  0.1755   66.1  0.2341  -58.7
 2.000  0.4843  144.9   2.182   50.5  0.1848   65.4  0.2336  -61.8
 2.100  0.4893  142.6   2.093   48.4  0.1941   64.7  0.2333  -65.1
 2.200  0.4951  140.4   2.006   46.2  0.2034   64.0  0.2338  -68.3
 2.300  0.5001  138.5   1.933   44.3  0.2126   63.2  0.2349  -71.6
 2.400  0.5056  136.6   1.862   42.2  0.2218   62.5  0.2367  -74.8
 2.500  0.5099  134.6   1.798   40.4  0.2310   61.7  0.2385  -78.0
 2.600  0.5148  132.6   1.735   38.4  0.2403   60.9  0.2411  -81.1
 2.700  0.5196  130.7   1.682   36.7  0.2495   60.1  0.2439  -84.1
 2.800  0.5249  128.8   1.630   34.8  0.2588   59.3  0.2474  -87.1
 2.900  0.5289  126.9   1.584   33.0  0.2681   58.4  0.2500  -90.1
 3.000  0.5335  125.0   1.539   31.1  0.2774   57.6  0.2532  -93.0
 3.100  0.5368  123.1   1.500   29.6  0.2867   56.6  0.2548  -95.8
 3.200  0.5406  121.3   1.462   28.1  0.2961   55.6  0.2570  -98.6
 3.300  0.5450  119.5   1.426   26.4  0.3055   54.7  0.2598 -101.3
 3.400  0.5499  117.7   1.390   24.7  0.3150   53.9  0.2632 -103.9
 3.500  0.5554  115.9   1.356   22.9  0.3246   53.1  0.2671 -106.5
 3.600  0.5597  114.2   1.327   21.5  0.3339   52.0  0.2672 -109.5
 3.700  0.5644  112.6   1.300   20.0  0.3433   50.9  0.2681 -112.4
 3.800  0.5696  111.0   1.273   18.5  0.3528   49.9  0.2696 -115.3
 3.900  0.5752  109.4   1.247   16.9  0.3625   48.9  0.2719 -118.2
 4.000  0.5813  107.9   1.222   15.3  0.3722   48.0  0.2748 -121.0
 4.100  0.5848  106.4   1.199   14.0  0.3810   46.8  0.2749 -124.4
 4.200  0.5887  104.9   1.176   12.6  0.3900   45.6  0.2759 -127.9
 4.300  0.5929  103.5   1.154   11.2  0.3991   44.5  0.2779 -131.2
 4.400  0.5976  102.0   1.133    9.7  0.4083   43.5  0.2809 -134.6
 4.500  0.6026  100.6   1.112    8.2  0.4177   42.5  0.2848 -137.8
 4.600  0.6076   99.2   1.092    7.1  0.4261   41.3  0.2875 -141.4
 4.700  0.6130   97.8   1.071    6.0  0.4347   40.2  0.2913 -145.0
 4.800  0.6188   96.4   1.052    4.8  0.4434   39.1  0.2963 -148.5
 4.900  0.6249   95.1   1.033    3.6  0.4523   38.0  0.3022 -151.8
 5.000  0.6313   93.8   1.014    2.3  0.4614   37.0  0.3092 -155.0
 5.100  0.6338   92.5   0.999    1.3  0.4692   35.8  0.3159 -158.1
 5.200  0.6365   91.2   0.985    0.3  0.4773   34.6  0.3234 -161.0
 5.300  0.6396   90.0   0.971   -0.7  0.4855   33.4  0.3317 -163.8
 5.400  0.6430   88.7   0.957   -1.7  0.4940   32.3  0.3408 -166.5
 5.500  0.6467   87.5   0.944   -2.8  0.5026   31.2  0.3506 -169.0
 5.600  0.6481   86.3   0.931   -3.6  0.5095   30.0  0.3563 -171.4
 5.700  0.6497   85.2   0.918   -4.4  0.5166   28.9  0.3627 -173.7
 5.800  0.6516   84.1   0.905   -5.3  0.5238   27.7  0.3695 -175.9
 5.900  0.6537   82.9   0.892   -6.2  0.5313   26.7  0.3770 -178.0
 6.000  0.6561   81.8   0.880   -7.1  0.5390   25.6  0.3849  179.9
!
!  f       NFmin   Gammaopt  rn/50
! GHz       dB    MAG  ANG    -
 0.450      1.63  0.16  169   0.16
 0.900      1.90  0.24  180   0.16
 1.900      2.91  0.49 -137   0.25
 2.400      3.56  0.55 -125   0.49
!
! (c) 2017  Infineon Technologies AG, Munich