! Infineon Technologies  Discrete & RF Semiconductors
! BFR93AW
! VCE =  10. V,  IC =  25 mA
! Common Emitter S-Parameters:                            Jan 2017
# GHz  S  MA  R  50
!  f         S11            S21            S12            S22
! GHz     MAG   ANG      MAG   ANG      MAG   ANG      MAG   ANG
 0.010  0.6241   -9.9  42.310  173.2  0.0028   80.8  0.9783   -4.4
 0.020  0.6269  -19.8  41.981  167.7  0.0053   91.6  0.9599   -9.0
 0.030  0.5963  -28.2  40.205  162.7  0.0077   80.9  0.9288  -12.6
 0.040  0.5799  -37.4  38.758  157.3  0.0103   75.4  0.9016  -16.5
 0.050  0.5788  -46.8  37.677  151.6  0.0129   72.1  0.8788  -20.6
 0.060  0.5521  -53.0  35.751  148.5  0.0145   69.4  0.8418  -22.6
 0.070  0.5325  -59.8  33.945  145.0  0.0160   67.2  0.8059  -24.8
 0.080  0.5209  -67.0  32.277  141.1  0.0177   65.4  0.7713  -27.2
 0.090  0.5177  -74.3  30.772  136.9  0.0193   64.0  0.7381  -29.8
 0.100  0.5231  -81.7  29.453  132.2  0.0209   62.7  0.7066  -32.6
 0.110  0.5073  -86.0  28.061  130.2  0.0218   61.7  0.6800  -33.5
 0.120  0.4946  -90.6  26.706  128.0  0.0228   60.9  0.6537  -34.4
 0.130  0.4852  -95.4  25.395  125.6  0.0238   60.0  0.6275  -35.5
 0.140  0.4793 -100.4  24.135  122.9  0.0247   59.3  0.6015  -36.6
 0.150  0.4771 -105.4  22.934  119.9  0.0257   58.6  0.5758  -37.8
 0.200  0.4542 -121.6  18.420  111.8  0.0288   57.3  0.4892  -39.4
 0.250  0.4434 -133.4  15.318  105.9  0.0336   58.8  0.4323  -39.6
 0.300  0.4339 -142.1  13.017  101.7  0.0364   60.3  0.3918  -39.0
 0.350  0.4276 -148.1  11.513   98.9  0.0404   62.1  0.3679  -38.3
 0.400  0.4260 -154.2  10.045   95.2  0.0444   63.5  0.3441  -37.5
 0.450  0.4231 -158.7   9.079   93.1  0.0484   64.3  0.3303  -37.0
 0.500  0.4229 -163.2   8.128   90.5  0.0524   64.9  0.3165  -36.4
 0.600  0.4244 -169.7   6.842   86.5  0.0605   66.1  0.2995  -35.7
 0.700  0.4249 -175.2   5.897   83.2  0.0677   67.9  0.2879  -35.7
 0.800  0.4268 -180.0   5.192   79.9  0.0774   68.9  0.2795  -35.9
 0.900  0.4281  175.9   4.625   77.0  0.0852   68.7  0.2731  -36.7
 1.000  0.4343  172.2   4.193   74.2  0.0941   69.4  0.2669  -37.8
 1.100  0.4366  168.7   3.831   71.7  0.1028   69.3  0.2640  -39.0
 1.200  0.4412  165.5   3.526   69.0  0.1112   68.9  0.2593  -40.4
 1.300  0.4423  162.4   3.268   66.6  0.1198   68.7  0.2560  -42.2
 1.400  0.4479  159.9   3.055   64.2  0.1290   68.5  0.2518  -44.3
 1.500  0.4529  157.3   2.863   61.9  0.1378   68.2  0.2492  -46.5
 1.600  0.4570  154.6   2.702   59.5  0.1465   67.8  0.2482  -48.6
 1.700  0.4620  152.3   2.557   57.4  0.1556   67.4  0.2454  -51.3
 1.800  0.4664  149.7   2.435   55.1  0.1645   66.7  0.2435  -53.9
 1.900  0.4717  147.5   2.320   53.1  0.1738   66.1  0.2420  -56.8
 2.000  0.4745  145.2   2.213   50.8  0.1831   65.5  0.2416  -59.8
 2.100  0.4804  143.0   2.123   48.8  0.1920   64.8  0.2411  -62.9
 2.200  0.4870  140.9   2.035   46.6  0.2009   64.1  0.2414  -66.0
 2.300  0.4913  138.9   1.961   44.7  0.2103   63.4  0.2422  -69.2
 2.400  0.4961  136.9   1.889   42.6  0.2197   62.7  0.2438  -72.4
 2.500  0.5004  134.9   1.824   40.8  0.2287   61.9  0.2456  -75.5
 2.600  0.5052  133.0   1.761   38.8  0.2377   61.2  0.2480  -78.5
 2.700  0.5100  131.1   1.706   37.1  0.2469   60.3  0.2505  -81.5
 2.800  0.5154  129.3   1.653   35.2  0.2561   59.5  0.2537  -84.5
 2.900  0.5200  127.3   1.606   33.4  0.2652   58.6  0.2560  -87.4
 3.000  0.5253  125.4   1.560   31.5  0.2744   57.8  0.2589  -90.2
 3.100  0.5287  123.6   1.521   30.0  0.2837   56.8  0.2603  -93.0
 3.200  0.5327  121.8   1.483   28.4  0.2930   55.9  0.2623  -95.8
 3.300  0.5372  120.0   1.446   26.8  0.3025   55.0  0.2649  -98.5
 3.400  0.5422  118.2   1.410   25.0  0.3119   54.2  0.2681 -101.2
 3.500  0.5477  116.5   1.376   23.2  0.3215   53.4  0.2719 -103.8
 3.600  0.5518  114.8   1.347   21.8  0.3307   52.3  0.2718 -106.7
 3.700  0.5564  113.1   1.318   20.4  0.3400   51.2  0.2724 -109.6
 3.800  0.5614  111.5   1.291   18.8  0.3495   50.2  0.2737 -112.5
 3.900  0.5669  109.9   1.265   17.2  0.3590   49.3  0.2757 -115.3
 4.000  0.5728  108.3   1.239   15.6  0.3686   48.4  0.2783 -118.1
 4.100  0.5767  106.8   1.215   14.3  0.3775   47.2  0.2780 -121.5
 4.200  0.5810  105.3   1.192   12.9  0.3865   46.1  0.2786 -124.9
 4.300  0.5857  103.8   1.170   11.4  0.3957   45.0  0.2803 -128.3
 4.400  0.5908  102.3   1.148   10.0  0.4051   44.0  0.2829 -131.6
 4.500  0.5963  100.9   1.127    8.4  0.4145   43.0  0.2864 -134.9
 4.600  0.6013   99.5   1.106    7.3  0.4230   41.9  0.2888 -138.5
 4.700  0.6067   98.1   1.086    6.2  0.4316   40.8  0.2922 -142.0
 4.800  0.6124   96.8   1.066    5.0  0.4404   39.7  0.2968 -145.5
 4.900  0.6184   95.5   1.046    3.8  0.4493   38.7  0.3024 -148.8
 5.000  0.6248   94.2   1.027    2.5  0.4584   37.7  0.3090 -152.0
 5.100  0.6273   92.9   1.012    1.5  0.4664   36.5  0.3153 -155.2
 5.200  0.6301   91.6   0.998    0.5  0.4746   35.3  0.3225 -158.2
 5.300  0.6332   90.3   0.984   -0.5  0.4830   34.1  0.3306 -161.1
 5.400  0.6366   89.1   0.970   -1.6  0.4915   33.0  0.3395 -163.8
 5.500  0.6403   87.8   0.957   -2.7  0.5003   31.9  0.3491 -166.4
 5.600  0.6421   86.7   0.943   -3.5  0.5072   30.7  0.3549 -168.8
 5.700  0.6441   85.5   0.930   -4.3  0.5143   29.5  0.3612 -171.2
 5.800  0.6463   84.4   0.917   -5.2  0.5216   28.4  0.3682 -173.4
 5.900  0.6488   83.3   0.904   -6.1  0.5291   27.3  0.3757 -175.6
 6.000  0.6516   82.2   0.891   -7.0  0.5368   26.2  0.3837 -177.7
!
!  f       NFmin   Gammaopt  rn/50
! GHz       dB    MAG  ANG    -
 0.450      1.66  0.17  171   0.16
 0.900      1.93  0.25 -177   0.16
 1.900      2.93  0.49 -136   0.25
 2.400      3.59  0.55 -125   0.50
!
! (c) 2017  Infineon Technologies AG, Munich