! Infineon Technologies  Discrete & RF Semiconductors
! BFR93AW
! VCE =  6.0 V,  IC =  20 mA
! Common Emitter S-Parameters:                            Jan 2017
# GHz  S  MA  R  50
!  f         S11            S21            S12            S22
! GHz     MAG   ANG      MAG   ANG      MAG   ANG      MAG   ANG
 0.010  0.6163   -9.9  38.855  173.8  0.0024   86.3  0.9850   -4.3
 0.020  0.6208  -19.7  38.816  168.3  0.0055   81.5  0.9653   -8.9
 0.030  0.5915  -28.2  37.225  163.4  0.0082   76.1  0.9355  -12.6
 0.040  0.5762  -37.3  35.928  158.1  0.0109   73.4  0.9098  -16.5
 0.050  0.5762  -46.7  34.958  152.5  0.0136   71.8  0.8886  -20.6
 0.060  0.5517  -53.1  33.229  149.3  0.0153   68.6  0.8517  -22.7
 0.070  0.5346  -60.0  31.612  145.8  0.0171   66.1  0.8160  -25.0
 0.080  0.5257  -67.3  30.126  142.0  0.0189   64.1  0.7818  -27.5
 0.090  0.5255  -74.6  28.790  137.7  0.0207   62.4  0.7491  -30.2
 0.100  0.5339  -81.9  27.627  133.1  0.0225   61.0  0.7183  -33.1
 0.110  0.5194  -86.3  26.347  131.1  0.0235   60.3  0.6911  -34.1
 0.120  0.5081  -91.0  25.102  128.9  0.0245   59.7  0.6642  -35.2
 0.130  0.5003  -95.8  23.900  126.4  0.0254   59.1  0.6375  -36.4
 0.140  0.4961 -100.7  22.746  123.7  0.0264   58.5  0.6111  -37.7
 0.150  0.4957 -105.7  21.648  120.7  0.0274   58.0  0.5851  -39.1
 0.200  0.4751 -122.2  17.453  112.5  0.0309   57.0  0.4957  -41.3
 0.250  0.4652 -133.8  14.552  106.4  0.0353   57.2  0.4346  -41.9
 0.300  0.4563 -142.5  12.377  102.1  0.0387   57.8  0.3917  -41.7
 0.350  0.4518 -148.7  10.953   99.2  0.0422   59.7  0.3657  -41.1
 0.400  0.4528 -155.0   9.566   95.4  0.0457   61.3  0.3397  -40.5
 0.450  0.4497 -159.2   8.646   93.2  0.0497   62.2  0.3244  -40.0
 0.500  0.4490 -163.5   7.742   90.5  0.0538   63.0  0.3092  -39.5
 0.600  0.4506 -170.3   6.523   86.5  0.0623   64.4  0.2908  -38.9
 0.700  0.4514 -175.7   5.621   83.0  0.0702   66.1  0.2779  -38.7
 0.800  0.4546  179.8   4.951   79.6  0.0785   67.0  0.2687  -39.1
 0.900  0.4551  175.5   4.409   76.6  0.0870   67.8  0.2612  -40.0
 1.000  0.4601  171.7   4.001   73.9  0.0959   68.0  0.2552  -41.0
 1.100  0.4634  168.4   3.654   71.2  0.1043   68.2  0.2512  -42.3
 1.200  0.4661  165.2   3.363   68.5  0.1130   68.2  0.2475  -43.9
 1.300  0.4684  162.1   3.118   66.0  0.1217   67.9  0.2434  -45.8
 1.400  0.4741  159.4   2.918   63.6  0.1314   67.8  0.2394  -48.0
 1.500  0.4784  156.9   2.733   61.2  0.1402   67.5  0.2371  -50.3
 1.600  0.4843  154.2   2.579   58.8  0.1492   67.1  0.2363  -52.7
 1.700  0.4856  151.8   2.441   56.6  0.1579   66.8  0.2337  -55.5
 1.800  0.4917  149.3   2.326   54.2  0.1677   66.0  0.2315  -58.3
 1.900  0.4967  147.1   2.216   52.2  0.1764   65.7  0.2309  -61.2
 2.000  0.5005  144.9   2.114   49.9  0.1860   64.9  0.2312  -64.5
 2.100  0.5053  142.6   2.028   47.9  0.1953   64.2  0.2310  -67.8
 2.200  0.5109  140.4   1.945   45.7  0.2047   63.5  0.2316  -71.1
 2.300  0.5154  138.4   1.874   43.7  0.2141   62.8  0.2330  -74.4
 2.400  0.5205  136.4   1.805   41.6  0.2235   62.1  0.2352  -77.7
 2.500  0.5249  134.4   1.743   39.8  0.2329   61.3  0.2377  -81.0
 2.600  0.5300  132.5   1.683   37.8  0.2423   60.6  0.2409  -84.2
 2.700  0.5345  130.5   1.632   36.0  0.2515   59.8  0.2439  -87.2
 2.800  0.5396  128.5   1.582   34.1  0.2608   59.0  0.2476  -90.2
 2.900  0.5440  126.6   1.537   32.4  0.2705   58.1  0.2505  -93.1
 3.000  0.5489  124.7   1.493   30.5  0.2802   57.3  0.2541  -96.0
 3.100  0.5519  122.8   1.456   29.0  0.2896   56.3  0.2559  -98.9
 3.200  0.5556  121.0   1.419   27.4  0.2990   55.3  0.2583 -101.7
 3.300  0.5597  119.2   1.384   25.8  0.3085   54.4  0.2614 -104.5
 3.400  0.5644  117.4   1.350   24.0  0.3181   53.5  0.2650 -107.2
 3.500  0.5697  115.7   1.317   22.2  0.3278   52.7  0.2692 -109.8
 3.600  0.5735  114.0   1.289   20.8  0.3372   51.6  0.2697 -112.8
 3.700  0.5778  112.3   1.262   19.4  0.3468   50.5  0.2709 -115.8
 3.800  0.5826  110.7   1.236   17.8  0.3565   49.5  0.2729 -118.7
 3.900  0.5879  109.1   1.210   16.2  0.3663   48.5  0.2756 -121.6
 4.000  0.5936  107.5   1.186   14.6  0.3762   47.6  0.2789 -124.4
 4.100  0.5969  106.0   1.163   13.3  0.3850   46.4  0.2793 -127.9
 4.200  0.6006  104.4   1.141   12.0  0.3939   45.2  0.2807 -131.3
 4.300  0.6047  102.9   1.120   10.6  0.4030   44.0  0.2831 -134.7
 4.400  0.6092  101.5   1.099    9.1  0.4122   42.9  0.2866 -138.1
 4.500  0.6141  100.0   1.079    7.6  0.4216   41.9  0.2909 -141.3
 4.600  0.6190   98.6   1.059    6.5  0.4301   40.7  0.2941 -144.9
 4.700  0.6242   97.2   1.039    5.4  0.4388   39.6  0.2984 -148.4
 4.800  0.6298   95.8   1.020    4.3  0.4477   38.5  0.3038 -151.7
 4.900  0.6358   94.5   1.001    3.1  0.4567   37.5  0.3102 -155.0
 5.000  0.6421   93.2   0.983    1.9  0.4659   36.5  0.3175 -158.1
 5.100  0.6438   91.9   0.969    1.0  0.4737   35.2  0.3243 -161.1
 5.200  0.6458   90.7   0.956    0.0  0.4818   34.0  0.3320 -164.0
 5.300  0.6481   89.4   0.943   -1.0  0.4900   32.8  0.3404 -166.8
 5.400  0.6508   88.1   0.930   -2.0  0.4985   31.7  0.3497 -169.4
 5.500  0.6537   86.9   0.917   -3.0  0.5071   30.6  0.3596 -171.9
 5.600  0.6551   85.8   0.905   -3.8  0.5137   29.4  0.3655 -174.2
 5.700  0.6568   84.6   0.892   -4.6  0.5206   28.2  0.3719 -176.4
 5.800  0.6587   83.5   0.880   -5.4  0.5276   27.1  0.3789 -178.6
 5.900  0.6609   82.4   0.869   -6.2  0.5349   26.0  0.3864  179.4
 6.000  0.6633   81.3   0.857   -7.1  0.5423   24.9  0.3944  177.4
!
!  f       NFmin   Gammaopt  rn/50
! GHz       dB    MAG  ANG    -
 0.450      1.52  0.14  161   0.15
 0.900      1.80  0.23  175   0.15
 1.900      2.80  0.48 -138   0.23
 2.400      3.43  0.54 -126   0.45
!
! (c) 2017  Infineon Technologies AG, Munich