! Infineon Technologies  Discrete & RF Semiconductors
! BFR93AW
! VCE =  12. V,  IC =  5.0 mA
! Common Emitter S-Parameters:                            Jan 2017
# GHz  S  MA  R  50
!  f         S11            S21            S12            S22
! GHz     MAG   ANG      MAG   ANG      MAG   ANG      MAG   ANG
 0.010  0.8688   -4.5  15.187  176.9  0.0029   79.2  0.9971   -1.7
 0.020  0.8822   -9.0  15.348  174.2  0.0060   86.0  0.9883   -3.7
 0.030  0.8635  -13.1  15.142  171.4  0.0090   81.7  0.9821   -5.4
 0.040  0.8492  -17.3  14.972  168.6  0.0120   79.6  0.9768   -7.1
 0.050  0.8397  -21.6  14.840  165.7  0.0150   78.3  0.9724   -8.8
 0.060  0.8261  -25.5  14.576  163.2  0.0176   75.5  0.9596  -10.2
 0.070  0.8165  -29.6  14.341  160.7  0.0201   73.5  0.9474  -11.7
 0.080  0.8111  -33.7  14.134  158.1  0.0227   71.9  0.9358  -13.2
 0.090  0.8099  -37.9  13.958  155.4  0.0254   70.6  0.9249  -14.7
 0.100  0.8130  -42.0  13.814  152.6  0.0280   69.6  0.9147  -16.3
 0.110  0.7963  -45.3  13.506  150.5  0.0301   67.5  0.9001  -17.4
 0.120  0.7823  -48.8  13.216  148.4  0.0323   65.6  0.8858  -18.5
 0.130  0.7713  -52.3  12.946  146.1  0.0345   64.0  0.8719  -19.7
 0.140  0.7634  -56.0  12.697  143.7  0.0367   62.6  0.8583  -20.9
 0.150  0.7586  -59.7  12.470  141.3  0.0389   61.3  0.8451  -22.1
 0.200  0.7076  -75.2  11.139  131.8  0.0453   56.1  0.7769  -26.0
 0.250  0.6662  -88.3   9.958  124.0  0.0511   51.6  0.7169  -28.7
 0.300  0.6289  -99.6   8.873  117.8  0.0551   48.9  0.6651  -30.4
 0.350  0.5984 -108.1   8.033  113.4  0.0581   47.2  0.6290  -31.2
 0.400  0.5822 -117.2   7.250  108.1  0.0611   45.7  0.5930  -32.2
 0.450  0.5626 -123.9   6.636  104.8  0.0635   45.4  0.5688  -32.6
 0.500  0.5512 -131.0   6.048  100.8  0.0659   45.2  0.5447  -33.1
 0.600  0.5359 -142.0   5.186   94.8  0.0694   45.7  0.5133  -33.5
 0.700  0.5224 -150.9   4.514   89.9  0.0733   46.8  0.4908  -34.1
 0.800  0.5191 -158.4   4.010   85.3  0.0774   49.1  0.4752  -34.9
 0.900  0.5135 -165.0   3.590   81.3  0.0810   50.0  0.4632  -35.9
 1.000  0.5125 -170.7   3.272   77.8  0.0854   52.2  0.4532  -37.0
 1.100  0.5146 -175.7   2.995   74.4  0.0902   53.9  0.4466  -38.3
 1.200  0.5160  179.5   2.765   71.1  0.0950   55.5  0.4404  -39.7
 1.300  0.5154  175.4   2.566   68.1  0.1005   57.4  0.4359  -41.4
 1.400  0.5198  171.6   2.403   65.1  0.1068   59.0  0.4309  -43.4
 1.500  0.5237  168.0   2.256   62.4  0.1124   60.3  0.4275  -45.3
 1.600  0.5270  164.4   2.130   59.5  0.1188   61.4  0.4257  -47.3
 1.700  0.5299  161.1   2.016   57.0  0.1257   62.6  0.4226  -49.7
 1.800  0.5348  157.9   1.925   54.4  0.1333   63.2  0.4201  -52.0
 1.900  0.5399  155.0   1.832   52.1  0.1410   64.4  0.4187  -54.4
 2.000  0.5439  152.1   1.751   49.5  0.1492   64.6  0.4183  -56.9
 2.100  0.5483  149.3   1.680   47.2  0.1577   65.1  0.4177  -59.6
 2.200  0.5540  146.5   1.611   44.8  0.1662   65.5  0.4180  -62.3
 2.300  0.5590  143.9   1.551   42.6  0.1755   65.7  0.4187  -65.1
 2.400  0.5651  141.4   1.494   40.3  0.1849   65.8  0.4204  -67.8
 2.500  0.5692  139.1   1.441   38.3  0.1945   65.7  0.4218  -70.6
 2.600  0.5742  136.8   1.390   36.2  0.2041   65.6  0.4242  -73.4
 2.700  0.5781  134.5   1.346   34.4  0.2142   65.2  0.4267  -76.1
 2.800  0.5830  132.2   1.304   32.4  0.2243   64.9  0.4301  -78.8
 2.900  0.5875  129.9   1.266   30.6  0.2351   64.4  0.4319  -81.5
 3.000  0.5929  127.7   1.229   28.6  0.2460   63.9  0.4347  -84.2
 3.100  0.5954  125.5   1.197   27.2  0.2573   63.1  0.4352  -87.0
 3.200  0.5988  123.3   1.165   25.7  0.2687   62.3  0.4367  -89.7
 3.300  0.6031  121.2   1.134   24.1  0.2801   61.6  0.4392  -92.5
 3.400  0.6082  119.1   1.105   22.4  0.2915   61.0  0.4427  -95.2
 3.500  0.6141  117.0   1.076   20.6  0.3030   60.4  0.4472  -97.8
 3.600  0.6169  115.1   1.052   19.3  0.3147   59.2  0.4458 -100.7
 3.700  0.6203  113.1   1.029   18.0  0.3265   58.1  0.4454 -103.5
 3.800  0.6245  111.2   1.007   16.6  0.3385   57.1  0.4463 -106.4
 3.900  0.6293  109.3   0.985   15.2  0.3506   56.1  0.4482 -109.3
 4.000  0.6348  107.5   0.964   13.7  0.3627   55.2  0.4512 -112.1
 4.100  0.6368  105.7   0.945   12.6  0.3740   53.8  0.4487 -115.4
 4.200  0.6394  104.0   0.927   11.4  0.3855   52.5  0.4477 -118.6
 4.300  0.6425  102.3   0.909   10.2  0.3971   51.3  0.4482 -121.9
 4.400  0.6463  100.6   0.891    9.0  0.4090   50.1  0.4501 -125.2
 4.500  0.6506   98.9   0.874    7.7  0.4210   49.0  0.4535 -128.4
 4.600  0.6538   97.4   0.858    6.9  0.4316   47.6  0.4529 -131.9
 4.700  0.6575   95.8   0.843    6.1  0.4424   46.2  0.4540 -135.4
 4.800  0.6616   94.3   0.828    5.2  0.4535   44.9  0.4568 -138.8
 4.900  0.6662   92.9   0.813    4.3  0.4648   43.7  0.4611 -142.2
 5.000  0.6712   91.4   0.798    3.4  0.4763   42.5  0.4671 -145.5
 5.100  0.6713   90.0   0.789    2.8  0.4857   41.0  0.4704 -148.7
 5.200  0.6718   88.7   0.779    2.1  0.4955   39.6  0.4751 -151.8
 5.300  0.6726   87.3   0.770    1.5  0.5055   38.2  0.4811 -154.9
 5.400  0.6739   86.0   0.761    0.8  0.5158   36.9  0.4885 -157.8
 5.500  0.6755   84.6   0.752    0.1  0.5264   35.6  0.4972 -160.7
 5.600  0.6752   83.4   0.744   -0.4  0.5341   34.2  0.5000 -163.3
 5.700  0.6752   82.2   0.736   -0.9  0.5421   32.8  0.5039 -166.0
 5.800  0.6755   80.9   0.728   -1.4  0.5504   31.4  0.5089 -168.5
 5.900  0.6761   79.7   0.720   -2.0  0.5590   30.1  0.5148 -171.0
 6.000  0.6770   78.5   0.712   -2.5  0.5679   28.8  0.5217 -173.5
!
!  f       NFmin   Gammaopt  rn/50
! GHz       dB    MAG  ANG    -
 0.450      1.18  0.25   77   0.14
 0.900      1.50  0.29  137   0.15
 1.900      2.75  0.49 -153   0.19
 2.400      3.37  0.57 -135   0.38
!
! (c) 2017  Infineon Technologies AG, Munich