! Infineon Technologies  Discrete & RF Semiconductors
! BFR93AW
! VCE =  3.0 V,  IC =  40 mA
! Common Emitter S-Parameters:                            Jan 2017
# GHz  S  MA  R  50
!  f         S11            S21            S12            S22
! GHz     MAG   ANG      MAG   ANG      MAG   ANG      MAG   ANG
 0.010  0.3894  -19.2  54.652  171.2  0.0026   83.5  0.9609   -6.9
 0.020  0.4001  -36.9  53.799  163.1  0.0054   81.7  0.9327  -14.1
 0.030  0.3803  -51.3  49.955  157.1  0.0077   74.4  0.8752  -19.0
 0.040  0.3862  -66.3  46.745  150.2  0.0102   70.5  0.8250  -24.6
 0.050  0.4167  -79.9  44.307  142.4  0.0126   68.1  0.7835  -30.8
 0.060  0.4069  -88.0  41.274  139.4  0.0139   66.1  0.7361  -32.9
 0.070  0.4055  -96.3  38.369  136.0  0.0151   64.4  0.6899  -35.2
 0.080  0.4126 -104.4  35.626  132.0  0.0164   63.0  0.6450  -37.9
 0.090  0.4277 -112.2  33.084  127.4  0.0177   61.8  0.6017  -41.0
 0.100  0.4500 -119.3  30.792  122.0  0.0190   60.7  0.5605  -44.6
 0.110  0.4476 -123.2  29.074  120.3  0.0199   60.8  0.5334  -45.3
 0.120  0.4474 -127.2  27.384  118.5  0.0207   60.9  0.5064  -46.1
 0.130  0.4493 -131.2  25.727  116.3  0.0216   61.0  0.4795  -47.1
 0.140  0.4534 -135.1  24.110  113.9  0.0224   61.0  0.4527  -48.1
 0.150  0.4595 -138.9  22.541  111.2  0.0233   61.1  0.4261  -49.2
 0.200  0.4703 -150.0  17.548  104.4  0.0273   62.3  0.3495  -50.1
 0.250  0.4730 -157.8  14.347   99.5  0.0321   64.3  0.3013  -49.7
 0.300  0.4733 -163.4  12.071   96.1  0.0354   65.8  0.2683  -49.0
 0.350  0.4748 -167.2  10.628   93.8  0.0403   67.5  0.2492  -48.2
 0.400  0.4783 -171.0   9.209   90.7  0.0452   68.8  0.2301  -47.2
 0.450  0.4800 -173.9   8.307   88.9  0.0498   69.2  0.2193  -46.7
 0.500  0.4829 -176.8   7.416   86.6  0.0544   69.6  0.2086  -46.1
 0.600  0.4854  178.8   6.228   83.1  0.0644   70.7  0.1943  -45.7
 0.700  0.4882  175.1   5.356   80.0  0.0738   71.7  0.1850  -45.8
 0.800  0.4908  171.4   4.707   77.0  0.0838   71.9  0.1785  -46.7
 0.900  0.4921  168.3   4.192   74.2  0.0938   71.3  0.1736  -48.1
 1.000  0.4977  165.3   3.800   71.6  0.1032   71.5  0.1684  -49.9
 1.100  0.5026  162.5   3.470   69.1  0.1131   70.9  0.1663  -51.6
 1.200  0.5068  159.7   3.194   66.5  0.1226   70.4  0.1629  -53.8
 1.300  0.5078  157.3   2.960   64.1  0.1325   69.7  0.1607  -56.8
 1.400  0.5123  154.9   2.769   61.7  0.1424   69.1  0.1581  -59.8
 1.500  0.5177  152.7   2.595   59.5  0.1524   68.4  0.1566  -63.0
 1.600  0.5211  150.3   2.449   57.2  0.1623   67.8  0.1569  -66.4
 1.700  0.5254  148.0   2.320   55.0  0.1724   66.9  0.1563  -70.3
 1.800  0.5311  145.9   2.209   52.7  0.1820   66.0  0.1560  -74.1
 1.900  0.5352  143.9   2.106   50.7  0.1914   65.3  0.1571  -78.1
 2.000  0.5382  141.7   2.009   48.4  0.2016   64.4  0.1592  -82.3
 2.100  0.5424  139.6   1.927   46.4  0.2112   63.5  0.1616  -86.5
 2.200  0.5474  137.5   1.848   44.3  0.2209   62.6  0.1648  -90.5
 2.300  0.5518  135.6   1.782   42.4  0.2308   61.6  0.1687  -94.4
 2.400  0.5568  133.8   1.718   40.3  0.2408   60.6  0.1734  -98.2
 2.500  0.5607  131.9   1.659   38.5  0.2503   59.6  0.1781 -101.8
 2.600  0.5653  130.0   1.602   36.5  0.2598   58.7  0.1834 -105.2
 2.700  0.5689  128.1   1.553   34.8  0.2692   57.7  0.1884 -108.4
 2.800  0.5730  126.3   1.506   32.9  0.2787   56.7  0.1939 -111.4
 2.900  0.5772  124.4   1.464   31.2  0.2881   55.7  0.1986 -114.4
 3.000  0.5820  122.6   1.423   29.4  0.2976   54.8  0.2038 -117.3
 3.100  0.5844  120.8   1.388   27.9  0.3068   53.7  0.2072 -120.2
 3.200  0.5874  119.0   1.354   26.4  0.3162   52.6  0.2112 -123.0
 3.300  0.5910  117.3   1.321   24.8  0.3257   51.6  0.2156 -125.7
 3.400  0.5951  115.5   1.290   23.1  0.3352   50.6  0.2205 -128.3
 3.500  0.5998  113.8   1.259   21.3  0.3449   49.7  0.2258 -130.8
 3.600  0.6032  112.2   1.233   20.0  0.3537   48.5  0.2281 -133.9
 3.700  0.6072  110.5   1.207   18.6  0.3627   47.3  0.2311 -136.9
 3.800  0.6116  108.9   1.183   17.1  0.3718   46.2  0.2346 -139.8
 3.900  0.6165  107.4   1.159   15.6  0.3810   45.1  0.2388 -142.6
 4.000  0.6218  105.8   1.136   14.0  0.3904   44.1  0.2435 -145.3
 4.100  0.6244  104.3   1.115   12.7  0.3986   42.9  0.2464 -148.8
 4.200  0.6275  102.9   1.095   11.4  0.4071   41.7  0.2502 -152.1
 4.300  0.6309  101.4   1.075   10.0  0.4157   40.5  0.2548 -155.4
 4.400  0.6348  100.0   1.056    8.6  0.4244   39.4  0.2602 -158.5
 4.500  0.6390   98.6   1.037    7.1  0.4333   38.4  0.2664 -161.5
 4.600  0.6431   97.2   1.019    6.1  0.4408   37.2  0.2721 -164.8
 4.700  0.6475   95.9   1.001    5.1  0.4486   36.1  0.2785 -167.9
 4.800  0.6523   94.5   0.983    4.0  0.4564   35.0  0.2858 -170.8
 4.900  0.6575   93.2   0.966    2.9  0.4645   33.9  0.2938 -173.6
 5.000  0.6630   91.9   0.949    1.7  0.4727   32.9  0.3025 -176.3
 5.100  0.6643   90.7   0.936    0.8  0.4796   31.7  0.3107 -178.7
 5.200  0.6659   89.4   0.924   -0.1  0.4868   30.5  0.3194  179.0
 5.300  0.6678   88.2   0.912   -1.1  0.4941   29.3  0.3286  176.9
 5.400  0.6700   87.0   0.900   -2.1  0.5017   28.2  0.3383  174.8
 5.500  0.6725   85.8   0.889   -3.1  0.5094   27.1  0.3483  172.9
 5.600  0.6735   84.7   0.877   -3.9  0.5152   25.9  0.3547  171.1
 5.700  0.6748   83.6   0.866   -4.7  0.5212   24.8  0.3615  169.3
 5.800  0.6763   82.5   0.855   -5.5  0.5274   23.7  0.3685  167.7
 5.900  0.6780   81.4   0.844   -6.3  0.5338   22.6  0.3759  166.1
 6.000  0.6800   80.3   0.833   -7.2  0.5404   21.6  0.3836  164.5
!
!  f       NFmin   Gammaopt  rn/50
! GHz       dB    MAG  ANG    -
 0.450      2.04  0.23 -180   0.16
 0.900      2.33  0.29 -170   0.17
 1.900      3.40  0.52 -133   0.35
 2.400      4.10  0.57 -123   0.66
!
! (c) 2017  Infineon Technologies AG, Munich