! Infineon Technologies  Discrete & RF Semiconductors
! BFR93AW
! VCE =  4.0 V,  IC =  11 mA
! Common Emitter S-Parameters:                            Jan 2017
# GHz  S  MA  R  50
!  f         S11            S21            S12            S22
! GHz     MAG   ANG      MAG   ANG      MAG   ANG      MAG   ANG
 0.010  0.7113   -7.9  28.075  175.2  0.0030   85.4  0.9920   -3.5
 0.020  0.7188  -15.4  28.122  170.6  0.0066   89.3  0.9809   -7.2
 0.030  0.6923  -22.4  27.335  166.4  0.0094   80.4  0.9594  -10.3
 0.040  0.6768  -29.8  26.704  161.9  0.0124   75.6  0.9408  -13.5
 0.050  0.6730  -37.4  26.242  157.3  0.0154   72.7  0.9253  -16.9
 0.060  0.6495  -43.1  25.242  154.2  0.0176   69.4  0.8957  -19.0
 0.070  0.6330  -49.3  24.321  150.9  0.0197   66.8  0.8674  -21.3
 0.080  0.6240  -55.6  23.489  147.3  0.0220   64.8  0.8405  -23.6
 0.090  0.6228  -62.1  22.755  143.5  0.0242   63.1  0.8152  -26.2
 0.100  0.6296  -68.5  22.129  139.4  0.0265   61.7  0.7916  -28.9
 0.110  0.6117  -72.8  21.256  137.2  0.0280   60.3  0.7658  -30.1
 0.120  0.5974  -77.2  20.416  134.9  0.0294   59.1  0.7404  -31.5
 0.130  0.5869  -81.9  19.614  132.3  0.0309   58.0  0.7154  -32.9
 0.140  0.5805  -86.7  18.853  129.6  0.0324   56.9  0.6909  -34.4
 0.150  0.5782  -91.6  18.140  126.6  0.0339   56.0  0.6669  -36.0
 0.200  0.5490 -108.7  15.040  117.6  0.0381   53.0  0.5734  -39.5
 0.250  0.5287 -122.0  12.733  110.7  0.0423   51.7  0.5057  -41.2
 0.300  0.5132 -132.0  10.948  105.8  0.0455   51.5  0.4543  -41.8
 0.350  0.5032 -139.0   9.726  102.4  0.0487   52.5  0.4228  -41.8
 0.400  0.5008 -146.1   8.548   98.1  0.0519   53.3  0.3912  -41.8
 0.450  0.4957 -151.2   7.746   95.6  0.0551   54.2  0.3720  -41.7
 0.500  0.4946 -156.4   6.962   92.6  0.0584   55.0  0.3529  -41.5
 0.600  0.4920 -164.3   5.882   87.9  0.0654   56.9  0.3284  -41.2
 0.700  0.4912 -170.5   5.075   84.0  0.0723   59.3  0.3120  -41.2
 0.800  0.4927 -175.9   4.475   80.3  0.0795   61.0  0.3004  -41.8
 0.900  0.4945  179.5   3.993   77.0  0.0871   61.8  0.2918  -42.7
 1.000  0.4970  175.4   3.623   74.0  0.0948   62.7  0.2844  -43.8
 1.100  0.5003  171.6   3.313   71.1  0.1029   63.6  0.2794  -45.2
 1.200  0.5026  168.0   3.050   68.2  0.1106   63.9  0.2750  -46.8
 1.300  0.5038  164.8   2.830   65.5  0.1188   64.5  0.2716  -48.8
 1.400  0.5101  161.8   2.649   62.9  0.1277   64.9  0.2672  -51.0
 1.500  0.5149  159.2   2.482   60.4  0.1360   64.9  0.2647  -53.3
 1.600  0.5189  156.2   2.343   57.9  0.1450   64.7  0.2636  -55.7
 1.700  0.5219  153.5   2.219   55.5  0.1536   64.7  0.2609  -58.7
 1.800  0.5285  151.0   2.115   53.1  0.1626   64.4  0.2598  -61.4
 1.900  0.5319  148.7   2.017   51.0  0.1717   64.3  0.2591  -64.4
 2.000  0.5365  146.2   1.924   48.5  0.1807   63.9  0.2600  -67.6
 2.100  0.5411  143.8   1.846   46.4  0.1903   63.4  0.2603  -70.8
 2.200  0.5466  141.4   1.771   44.1  0.1999   62.9  0.2614  -74.0
 2.300  0.5514  139.3   1.706   42.1  0.2093   62.3  0.2632  -77.4
 2.400  0.5570  137.2   1.644   39.9  0.2187   61.8  0.2659  -80.7
 2.500  0.5607  135.1   1.587   38.0  0.2280   61.1  0.2688  -83.8
 2.600  0.5652  133.0   1.532   36.0  0.2373   60.5  0.2725  -86.9
 2.700  0.5696  131.0   1.484   34.2  0.2471   59.7  0.2762  -89.9
 2.800  0.5746  129.0   1.438   32.2  0.2569   59.0  0.2806  -92.9
 2.900  0.5790  127.0   1.397   30.4  0.2668   58.2  0.2837  -95.8
 3.000  0.5841  125.0   1.357   28.5  0.2768   57.5  0.2875  -98.7
 3.100  0.5866  123.1   1.323   27.0  0.2868   56.5  0.2897 -101.6
 3.200  0.5898  121.1   1.290   25.5  0.2968   55.6  0.2927 -104.5
 3.300  0.5937  119.2   1.258   23.8  0.3069   54.8  0.2964 -107.3
 3.400  0.5982  117.3   1.227   22.1  0.3171   54.0  0.3008 -110.0
 3.500  0.6033  115.5   1.197   20.3  0.3273   53.2  0.3058 -112.7
 3.600  0.6065  113.7   1.172   18.9  0.3373   52.0  0.3065 -115.7
 3.700  0.6102  112.0   1.147   17.5  0.3474   50.9  0.3081 -118.7
 3.800  0.6145  110.3   1.123   16.0  0.3577   49.8  0.3105 -121.7
 3.900  0.6194  108.6   1.099   14.5  0.3680   48.8  0.3137 -124.6
 4.000  0.6248  106.9   1.077   12.9  0.3785   47.9  0.3177 -127.5
 4.100  0.6273  105.3   1.056   11.7  0.3879   46.6  0.3184 -131.0
 4.200  0.6303  103.8   1.036   10.4  0.3974   45.4  0.3202 -134.4
 4.300  0.6337  102.2   1.017    9.1  0.4071   44.3  0.3231 -137.8
 4.400  0.6376  100.7   0.997    7.7  0.4170   43.2  0.3272 -141.1
 4.500  0.6419   99.2   0.979    6.3  0.4270   42.1  0.3323 -144.3
 4.600  0.6460   97.7   0.961    5.3  0.4358   40.8  0.3356 -147.8
 4.700  0.6506   96.3   0.944    4.3  0.4448   39.6  0.3402 -151.2
 4.800  0.6555   94.9   0.926    3.3  0.4539   38.5  0.3459 -154.5
 4.900  0.6609   93.5   0.910    2.2  0.4633   37.4  0.3528 -157.7
 5.000  0.6666   92.1   0.893    1.1  0.4728   36.3  0.3607 -160.8
 5.100  0.6677   90.8   0.881    0.3  0.4808   35.0  0.3673 -163.8
 5.200  0.6691   89.5   0.869   -0.6  0.4890   33.7  0.3749 -166.6
 5.300  0.6708   88.2   0.858   -1.4  0.4975   32.5  0.3833 -169.3
 5.400  0.6729   87.0   0.846   -2.3  0.5062   31.3  0.3926 -171.9
 5.500  0.6753   85.7   0.835   -3.2  0.5151   30.2  0.4026 -174.4
 5.600  0.6758   84.6   0.824   -3.9  0.5219   29.0  0.4082 -176.7
 5.700  0.6766   83.4   0.813   -4.6  0.5289   27.7  0.4144 -178.9
 5.800  0.6776   82.3   0.803   -5.3  0.5361   26.6  0.4212  178.9
 5.900  0.6789   81.1   0.792   -6.0  0.5435   25.4  0.4286  176.8
 6.000  0.6805   80.0   0.782   -6.8  0.5512   24.3  0.4366  174.8
!
!  f       NFmin   Gammaopt  rn/50
! GHz       dB    MAG  ANG    -
 0.450      1.26  0.12  111   0.13
 0.900      1.57  0.23  157   0.14
 1.900      2.62  0.47 -146   0.18
 2.400      3.24  0.54 -130   0.37
!
! (c) 2017  Infineon Technologies AG, Munich