! Infineon Technologies  Discrete & RF Semiconductors
! BFR93AW
! VCE =  7.0 V,  IC =  40 mA
! Common Emitter S-Parameters:                            Jan 2017
# GHz  S  MA  R  50
!  f         S11            S21            S12            S22
! GHz     MAG   ANG      MAG   ANG      MAG   ANG      MAG   ANG
 0.010  0.5114  -13.4  51.191  172.0  0.0026   82.8  0.9699   -5.4
 0.020  0.5149  -26.4  50.417  165.2  0.0046   81.7  0.9494  -11.3
 0.030  0.4840  -37.4  47.539  159.6  0.0070   74.1  0.9043  -15.5
 0.040  0.4729  -49.4  45.176  153.3  0.0094   70.4  0.8645  -20.1
 0.050  0.4829  -61.4  43.412  146.4  0.0118   68.2  0.8308  -25.1
 0.060  0.4615  -68.5  40.735  143.3  0.0133   66.4  0.7878  -27.0
 0.070  0.4479  -76.2  38.192  139.8  0.0147   64.9  0.7458  -29.2
 0.080  0.4428  -84.3  35.811  135.8  0.0162   63.7  0.7050  -31.6
 0.090  0.4464  -92.3  33.628  131.3  0.0177   62.7  0.6656  -34.4
 0.100  0.4587 -100.1  31.682  126.2  0.0192   61.9  0.6279  -37.4
 0.110  0.4495 -104.5  30.018  124.4  0.0200   61.4  0.6013  -38.1
 0.120  0.4431 -109.0  28.388  122.4  0.0208   61.0  0.5749  -38.8
 0.130  0.4395 -113.6  26.797  120.1  0.0217   60.6  0.5485  -39.7
 0.140  0.4388 -118.3  25.253  117.6  0.0225   60.2  0.5223  -40.6
 0.150  0.4410 -123.0  23.765  114.7  0.0233   59.9  0.4962  -41.6
 0.200  0.4345 -137.0  18.718  107.4  0.0267   61.6  0.4170  -42.2
 0.250  0.4353 -146.8  15.390  102.1  0.0312   63.0  0.3675  -41.6
 0.300  0.4308 -153.8  12.995   98.4  0.0346   64.1  0.3330  -40.5
 0.350  0.4307 -158.7  11.464   95.9  0.0393   65.8  0.3133  -39.6
 0.400  0.4338 -163.6   9.960   92.7  0.0440   67.2  0.2936  -38.6
 0.450  0.4329 -167.2   8.989   90.8  0.0481   68.1  0.2821  -38.0
 0.500  0.4337 -170.8   8.030   88.4  0.0523   68.9  0.2707  -37.3
 0.600  0.4363 -176.3   6.752   84.8  0.0611   69.6  0.2566  -36.7
 0.700  0.4372  179.4   5.813   81.6  0.0694   71.1  0.2470  -36.7
 0.800  0.4417  175.4   5.111   78.5  0.0788   71.3  0.2400  -37.2
 0.900  0.4432  171.8   4.552   75.7  0.0883   70.8  0.2346  -38.2
 1.000  0.4485  168.4   4.125   73.1  0.0971   71.0  0.2292  -39.3
 1.100  0.4525  165.4   3.769   70.7  0.1069   70.8  0.2259  -40.8
 1.200  0.4565  162.6   3.469   68.1  0.1158   70.4  0.2227  -42.4
 1.300  0.4574  159.8   3.214   65.7  0.1246   70.0  0.2198  -44.5
 1.400  0.4617  157.3   3.006   63.3  0.1345   69.5  0.2161  -46.8
 1.500  0.4692  154.9   2.816   61.1  0.1433   69.0  0.2137  -49.3
 1.600  0.4709  152.4   2.657   58.8  0.1528   68.4  0.2128  -51.8
 1.700  0.4765  149.9   2.515   56.6  0.1621   67.8  0.2101  -54.9
 1.800  0.4830  147.8   2.396   54.3  0.1715   67.0  0.2084  -57.8
 1.900  0.4858  145.6   2.281   52.4  0.1806   66.2  0.2078  -61.0
 2.000  0.4904  143.5   2.178   50.2  0.1903   65.5  0.2077  -64.3
 2.100  0.4952  141.3   2.089   48.2  0.1997   64.7  0.2079  -67.9
 2.200  0.5006  139.2   2.003   46.0  0.2092   63.9  0.2088  -71.4
 2.300  0.5062  137.3   1.929   44.1  0.2184   63.0  0.2102  -74.9
 2.400  0.5124  135.4   1.858   42.0  0.2277   62.2  0.2124  -78.3
 2.500  0.5159  133.5   1.795   40.2  0.2369   61.4  0.2147  -81.7
 2.600  0.5199  131.7   1.733   38.2  0.2461   60.6  0.2177  -85.0
 2.700  0.5241  129.8   1.680   36.5  0.2554   59.6  0.2208  -88.1
 2.800  0.5289  128.0   1.628   34.6  0.2647   58.7  0.2246  -91.1
 2.900  0.5339  126.1   1.581   32.9  0.2740   57.8  0.2275  -94.2
 3.000  0.5394  124.2   1.536   31.1  0.2833   56.9  0.2311  -97.2
 3.100  0.5425  122.4   1.498   29.6  0.2925   55.8  0.2329 -100.1
 3.200  0.5460  120.6   1.461   28.0  0.3017   54.8  0.2353 -102.9
 3.300  0.5502  118.8   1.425   26.4  0.3111   53.9  0.2383 -105.7
 3.400  0.5548  117.1   1.390   24.6  0.3205   53.0  0.2418 -108.4
 3.500  0.5599  115.4   1.357   22.8  0.3300   52.2  0.2458 -111.0
 3.600  0.5640  113.8   1.328   21.4  0.3390   51.0  0.2463 -114.0
 3.700  0.5685  112.2   1.301   20.0  0.3482   49.9  0.2476 -117.0
 3.800  0.5735  110.6   1.274   18.5  0.3575   48.9  0.2494 -120.0
 3.900  0.5789  109.0   1.248   16.9  0.3670   47.9  0.2520 -122.9
 4.000  0.5847  107.5   1.223   15.3  0.3765   46.9  0.2552 -125.8
 4.100  0.5884  106.0   1.200   14.0  0.3850   45.7  0.2558 -129.3
 4.200  0.5925  104.5   1.177   12.6  0.3937   44.6  0.2573 -132.8
 4.300  0.5970  103.1   1.155   11.2  0.4026   43.5  0.2597 -136.2
 4.400  0.6019  101.6   1.134    9.7  0.4116   42.4  0.2631 -139.5
 4.500  0.6071  100.2   1.114    8.2  0.4207   41.4  0.2673 -142.8
 4.600  0.6120   98.8   1.093    7.1  0.4289   40.3  0.2707 -146.4
 4.700  0.6173   97.4   1.073    6.0  0.4372   39.2  0.2752 -150.0
 4.800  0.6229   96.1   1.053    4.9  0.4458   38.1  0.2806 -153.4
 4.900  0.6288   94.8   1.034    3.6  0.4544   37.1  0.2871 -156.7
 5.000  0.6351   93.5   1.015    2.4  0.4632   36.1  0.2944 -159.8
 5.100  0.6370   92.2   1.001    1.4  0.4708   34.9  0.3014 -162.8
 5.200  0.6393   90.9   0.987    0.4  0.4786   33.7  0.3092 -165.6
 5.300  0.6419   89.6   0.973   -0.6  0.4866   32.5  0.3177 -168.3
 5.400  0.6448   88.4   0.960   -1.6  0.4947   31.4  0.3268 -170.8
 5.500  0.6480   87.1   0.947   -2.7  0.5031   30.3  0.3366 -173.2
 5.600  0.6496   86.0   0.934   -3.6  0.5097   29.1  0.3427 -175.4
 5.700  0.6515   84.9   0.921   -4.4  0.5165   28.0  0.3494 -177.6
 5.800  0.6536   83.8   0.908   -5.3  0.5234   26.9  0.3565 -179.7
 5.900  0.6559   82.7   0.895   -6.2  0.5306   25.8  0.3641  178.3
 6.000  0.6585   81.6   0.883   -7.2  0.5380   24.7  0.3721  176.4
!
!  f       NFmin   Gammaopt  rn/50
! GHz       dB    MAG  ANG    -
 0.450      2.04  0.23 -180   0.16
 0.900      2.33  0.29 -170   0.17
 1.900      3.40  0.52 -133   0.35
 2.400      4.10  0.57 -123   0.66
!
! (c) 2017  Infineon Technologies AG, Munich