! Infineon Technologies  Discrete & RF Semiconductors
! BFR93AW
! VCE =  10. V,  IC =  20 mA
! Common Emitter S-Parameters:                            Jan 2017
# GHz  S  MA  R  50
!  f         S11            S21            S12            S22
! GHz     MAG   ANG      MAG   ANG      MAG   ANG      MAG   ANG
 0.010  0.6574   -8.9  38.124  173.8  0.0022   82.5  0.9834   -4.0
 0.020  0.6622  -17.7  37.884  168.7  0.0051   82.6  0.9668   -8.2
 0.030  0.6326  -25.5  36.505  164.0  0.0078   76.8  0.9399  -11.6
 0.040  0.6158  -33.9  35.388  159.0  0.0105   74.0  0.9164  -15.2
 0.050  0.6128  -42.6  34.558  153.7  0.0132   72.4  0.8967  -18.9
 0.060  0.5867  -48.5  32.942  150.6  0.0148   69.8  0.8625  -20.9
 0.070  0.5673  -54.9  31.434  147.1  0.0164   67.6  0.8295  -23.1
 0.080  0.5555  -61.7  30.052  143.3  0.0180   65.9  0.7978  -25.4
 0.090  0.5517  -68.7  28.814  139.2  0.0197   64.4  0.7675  -28.0
 0.100  0.5561  -75.6  27.739  134.7  0.0213   63.2  0.7388  -30.7
 0.110  0.5390  -79.9  26.510  132.7  0.0224   61.9  0.7125  -31.7
 0.120  0.5251  -84.4  25.317  130.4  0.0235   60.6  0.6865  -32.8
 0.130  0.5147  -89.2  24.167  128.0  0.0246   59.5  0.6607  -33.9
 0.140  0.5079  -94.1  23.066  125.3  0.0258   58.5  0.6352  -35.2
 0.150  0.5050  -99.1  22.021  122.3  0.0269   57.6  0.6100  -36.5
 0.200  0.4758 -116.1  17.863  113.8  0.0306   57.4  0.5211  -38.6
 0.250  0.4595 -128.2  14.935  107.6  0.0347   57.1  0.4610  -39.1
 0.300  0.4450 -137.4  12.728  103.2  0.0379   58.2  0.4174  -38.8
 0.350  0.4374 -143.9  11.277  100.2  0.0413   59.3  0.3913  -38.3
 0.400  0.4355 -150.5   9.866   96.4  0.0448   60.3  0.3653  -37.7
 0.450  0.4310 -155.3   8.923   94.2  0.0487   61.6  0.3505  -37.2
 0.500  0.4296 -160.2   7.996   91.4  0.0526   62.7  0.3357  -36.7
 0.600  0.4291 -167.1   6.741   87.3  0.0607   64.3  0.3168  -36.1
 0.700  0.4311 -172.9   5.814   83.7  0.0680   65.9  0.3035  -36.0
 0.800  0.4318 -178.1   5.120   80.4  0.0768   67.1  0.2943  -36.3
 0.900  0.4328  177.7   4.563   77.4  0.0847   67.5  0.2879  -37.1
 1.000  0.4369  173.7   4.137   74.6  0.0924   67.9  0.2811  -38.1
 1.100  0.4403  170.2   3.781   72.0  0.1015   68.5  0.2771  -39.2
 1.200  0.4447  166.7   3.480   69.3  0.1099   68.1  0.2728  -40.7
 1.300  0.4475  163.6   3.225   66.8  0.1180   68.1  0.2695  -42.4
 1.400  0.4527  160.7   3.017   64.3  0.1273   68.0  0.2654  -44.3
 1.500  0.4583  158.2   2.827   62.0  0.1357   67.7  0.2625  -46.4
 1.600  0.4610  155.5   2.666   59.6  0.1445   67.5  0.2610  -48.6
 1.700  0.4643  153.1   2.524   57.4  0.1535   67.1  0.2581  -51.2
 1.800  0.4709  150.5   2.405   55.1  0.1622   66.4  0.2560  -53.8
 1.900  0.4742  148.2   2.291   53.1  0.1712   66.2  0.2552  -56.5
 2.000  0.4775  145.8   2.186   50.8  0.1801   65.6  0.2547  -59.4
 2.100  0.4830  143.5   2.096   48.8  0.1893   64.9  0.2541  -62.4
 2.200  0.4893  141.2   2.009   46.6  0.1985   64.3  0.2542  -65.5
 2.300  0.4947  139.2   1.936   44.6  0.2077   63.6  0.2549  -68.7
 2.400  0.5008  137.2   1.865   42.5  0.2169   62.9  0.2564  -71.8
 2.500  0.5049  135.2   1.801   40.6  0.2258   62.2  0.2582  -74.9
 2.600  0.5096  133.3   1.739   38.6  0.2347   61.5  0.2608  -77.9
 2.700  0.5141  131.4   1.686   36.9  0.2442   60.7  0.2633  -80.8
 2.800  0.5192  129.5   1.634   35.0  0.2538   59.9  0.2665  -83.7
 2.900  0.5240  127.5   1.587   33.3  0.2630   59.0  0.2688  -86.6
 3.000  0.5294  125.6   1.541   31.4  0.2723   58.2  0.2718  -89.4
 3.100  0.5327  123.7   1.502   29.9  0.2817   57.2  0.2731  -92.2
 3.200  0.5365  121.9   1.465   28.3  0.2911   56.3  0.2749  -94.9
 3.300  0.5409  120.1   1.428   26.6  0.3006   55.5  0.2774  -97.6
 3.400  0.5458  118.3   1.393   24.9  0.3102   54.7  0.2805 -100.2
 3.500  0.5512  116.5   1.359   23.0  0.3198   53.9  0.2842 -102.8
 3.600  0.5555  114.8   1.330   21.6  0.3292   52.8  0.2841 -105.7
 3.700  0.5602  113.1   1.302   20.2  0.3387   51.7  0.2846 -108.5
 3.800  0.5655  111.5   1.275   18.6  0.3483   50.7  0.2859 -111.4
 3.900  0.5712  109.9   1.248   17.1  0.3580   49.8  0.2879 -114.2
 4.000  0.5773  108.3   1.223   15.4  0.3678   48.9  0.2906 -117.0
 4.100  0.5809  106.8   1.199   14.1  0.3769   47.7  0.2901 -120.4
 4.200  0.5850  105.3   1.176   12.7  0.3861   46.5  0.2906 -123.8
 4.300  0.5894  103.8   1.154   11.2  0.3955   45.4  0.2921 -127.1
 4.400  0.5943  102.3   1.133    9.8  0.4050   44.4  0.2945 -130.4
 4.500  0.5995  100.9   1.112    8.2  0.4146   43.4  0.2980 -133.7
 4.600  0.6045   99.4   1.091    7.1  0.4232   42.2  0.3002 -137.3
 4.700  0.6099   98.0   1.071    6.0  0.4320   41.1  0.3036 -140.9
 4.800  0.6156   96.6   1.051    4.8  0.4409   40.0  0.3082 -144.3
 4.900  0.6217   95.2   1.032    3.6  0.4500   39.0  0.3138 -147.7
 5.000  0.6282   93.9   1.013    2.3  0.4592   38.0  0.3205 -150.9
 5.100  0.6303   92.6   0.998    1.4  0.4673   36.8  0.3266 -154.1
 5.200  0.6328   91.3   0.984    0.4  0.4756   35.6  0.3337 -157.1
 5.300  0.6356   90.1   0.970   -0.6  0.4841   34.4  0.3416 -160.0
 5.400  0.6386   88.8   0.956   -1.6  0.4927   33.3  0.3504 -162.8
 5.500  0.6420   87.6   0.943   -2.7  0.5016   32.2  0.3600 -165.4
 5.600  0.6439   86.5   0.930   -3.5  0.5088   31.0  0.3655 -167.9
 5.700  0.6461   85.3   0.916   -4.3  0.5161   29.8  0.3716 -170.2
 5.800  0.6485   84.2   0.903   -5.1  0.5237   28.7  0.3784 -172.5
 5.900  0.6511   83.1   0.891   -6.0  0.5315   27.6  0.3858 -174.8
 6.000  0.6540   82.0   0.878   -6.9  0.5395   26.5  0.3937 -176.9
!
!  f       NFmin   Gammaopt  rn/50
! GHz       dB    MAG  ANG    -
 0.450      1.52  0.14  161   0.15
 0.900      1.80  0.23  175   0.15
 1.900      2.80  0.48 -138   0.23
 2.400      3.43  0.54 -126   0.45
!
! (c) 2017  Infineon Technologies AG, Munich