! Infineon Technologies  Discrete & RF Semiconductors
! BFR93AW
! VCE =  3.0 V,  IC =  11 mA
! Common Emitter S-Parameters:                            Jan 2017
# GHz  S  MA  R  50
!  f         S11            S21            S12            S22
! GHz     MAG   ANG      MAG   ANG      MAG   ANG      MAG   ANG
 0.010  0.7004   -8.3  28.478  175.0  0.0033   86.9  0.9909   -3.8
 0.020  0.7065  -16.4  28.525  170.3  0.0063   85.4  0.9761   -7.7
 0.030  0.6797  -23.8  27.673  165.9  0.0096   77.8  0.9533  -11.1
 0.040  0.6650  -31.6  26.991  161.3  0.0129   74.1  0.9339  -14.6
 0.050  0.6630  -39.6  26.493  156.5  0.0163   71.9  0.9182  -18.2
 0.060  0.6391  -45.5  25.426  153.4  0.0186   68.7  0.8867  -20.4
 0.070  0.6226  -51.9  24.441  150.0  0.0209   66.1  0.8566  -22.8
 0.080  0.6139  -58.4  23.549  146.3  0.0232   64.1  0.8281  -25.3
 0.090  0.6136  -65.1  22.760  142.4  0.0256   62.5  0.8013  -28.0
 0.100  0.6215  -71.7  22.086  138.2  0.0280   61.1  0.7764  -30.9
 0.110  0.6044  -76.1  21.192  136.0  0.0294   59.6  0.7497  -32.2
 0.120  0.5911  -80.7  20.331  133.7  0.0308   58.3  0.7233  -33.5
 0.130  0.5817  -85.4  19.506  131.2  0.0322   57.1  0.6974  -35.0
 0.140  0.5765  -90.3  18.723  128.4  0.0337   55.9  0.6720  -36.6
 0.150  0.5755  -95.3  17.988  125.4  0.0351   54.9  0.6472  -38.3
 0.200  0.5480 -112.5  14.822  116.4  0.0392   52.1  0.5516  -42.0
 0.250  0.5321 -125.3  12.511  109.7  0.0436   50.6  0.4828  -43.9
 0.300  0.5200 -135.0  10.732  104.8  0.0462   51.3  0.4311  -44.6
 0.350  0.5098 -141.8   9.525  101.5  0.0495   52.4  0.3992  -44.7
 0.400  0.5069 -148.7   8.359   97.3  0.0529   53.4  0.3674  -44.8
 0.450  0.5037 -153.6   7.571   94.8  0.0563   54.3  0.3483  -44.7
 0.500  0.5042 -158.6   6.801   91.8  0.0598   55.1  0.3292  -44.5
 0.600  0.5027 -166.1   5.738   87.2  0.0674   56.8  0.3047  -44.4
 0.700  0.5034 -171.9   4.956   83.4  0.0736   59.1  0.2883  -44.5
 0.800  0.5037 -177.0   4.367   79.7  0.0816   60.4  0.2767  -45.1
 0.900  0.5040  178.3   3.895   76.4  0.0889   61.2  0.2677  -46.1
 1.000  0.5093  174.4   3.535   73.4  0.0976   62.6  0.2605  -47.3
 1.100  0.5129  170.7   3.230   70.5  0.1056   63.3  0.2560  -48.8
 1.200  0.5149  167.2   2.977   67.6  0.1137   63.6  0.2506  -50.6
 1.300  0.5174  163.9   2.759   64.9  0.1223   63.9  0.2474  -52.6
 1.400  0.5215  161.0   2.583   62.3  0.1311   64.2  0.2433  -55.1
 1.500  0.5282  158.3   2.421   59.9  0.1398   64.1  0.2412  -57.5
 1.600  0.5320  155.5   2.286   57.3  0.1484   64.0  0.2407  -60.2
 1.700  0.5348  152.8   2.166   54.9  0.1575   64.1  0.2387  -63.3
 1.800  0.5410  150.3   2.064   52.5  0.1667   63.7  0.2372  -66.2
 1.900  0.5448  148.1   1.968   50.4  0.1758   63.4  0.2376  -69.4
 2.000  0.5467  145.6   1.878   47.9  0.1854   63.0  0.2388  -72.8
 2.100  0.5524  143.2   1.802   45.8  0.1950   62.5  0.2398  -76.3
 2.200  0.5591  140.8   1.728   43.5  0.2046   62.0  0.2416  -79.7
 2.300  0.5629  138.7   1.666   41.5  0.2141   61.4  0.2444  -83.1
 2.400  0.5675  136.6   1.606   39.3  0.2236   60.8  0.2481  -86.5
 2.500  0.5712  134.5   1.550   37.4  0.2332   60.1  0.2515  -89.8
 2.600  0.5756  132.5   1.496   35.4  0.2429   59.4  0.2558  -93.0
 2.700  0.5802  130.5   1.451   33.6  0.2526   58.6  0.2601  -96.1
 2.800  0.5855  128.6   1.407   31.6  0.2624   57.9  0.2651  -99.1
 2.900  0.5894  126.5   1.367   29.9  0.2724   57.1  0.2689 -102.1
 3.000  0.5940  124.5   1.328   28.0  0.2824   56.3  0.2735 -105.0
 3.100  0.5965  122.6   1.295   26.5  0.2922   55.3  0.2761 -107.9
 3.200  0.5997  120.7   1.262   25.0  0.3022   54.3  0.2795 -110.8
 3.300  0.6035  118.8   1.231   23.3  0.3122   53.4  0.2835 -113.6
 3.400  0.6080  116.9   1.200   21.6  0.3223   52.6  0.2882 -116.3
 3.500  0.6131  115.1   1.171   19.8  0.3324   51.8  0.2935 -118.9
 3.600  0.6163  113.4   1.146   18.5  0.3423   50.6  0.2948 -122.0
 3.700  0.6200  111.6   1.122   17.1  0.3522   49.5  0.2970 -125.0
 3.800  0.6243  109.9   1.099   15.6  0.3624   48.5  0.3000 -128.0
 3.900  0.6291  108.3   1.076   14.1  0.3726   47.5  0.3038 -131.0
 4.000  0.6345  106.6   1.054   12.5  0.3829   46.6  0.3084 -133.8
 4.100  0.6368  105.0   1.034   11.3  0.3921   45.3  0.3100 -137.3
 4.200  0.6395  103.4   1.014   10.0  0.4016   44.1  0.3127 -140.7
 4.300  0.6427  101.9   0.995    8.7  0.4112   42.9  0.3165 -144.0
 4.400  0.6464  100.3   0.977    7.3  0.4210   41.8  0.3214 -147.3
 4.500  0.6506   98.8   0.959    5.9  0.4309   40.7  0.3272 -150.4
 4.600  0.6543   97.4   0.942    5.0  0.4394   39.5  0.3313 -153.8
 4.700  0.6585   96.0   0.925    4.0  0.4481   38.3  0.3366 -157.1
 4.800  0.6630   94.6   0.908    3.0  0.4569   37.1  0.3430 -160.4
 4.900  0.6679   93.2   0.892    1.9  0.4660   36.1  0.3504 -163.4
 5.000  0.6732   91.9   0.876    0.8  0.4752   35.0  0.3588 -166.4
 5.100  0.6742   90.6   0.865    0.0  0.4829   33.7  0.3659 -169.2
 5.200  0.6756   89.2   0.853   -0.8  0.4909   32.4  0.3740 -172.0
 5.300  0.6773   87.9   0.842   -1.7  0.4991   31.2  0.3828 -174.6
 5.400  0.6794   86.6   0.832   -2.5  0.5075   30.0  0.3923 -177.0
 5.500  0.6818   85.3   0.821   -3.4  0.5161   28.9  0.4026 -179.4
 5.600  0.6821   84.2   0.811   -4.1  0.5226   27.7  0.4085  178.5
 5.700  0.6826   83.1   0.800   -4.7  0.5294   26.4  0.4148  176.4
 5.800  0.6834   81.9   0.790   -5.4  0.5364   25.3  0.4218  174.5
 5.900  0.6844   80.8   0.780   -6.2  0.5436   24.1  0.4291  172.5
 6.000  0.6857   79.7   0.770   -6.9  0.5510   23.0  0.4370  170.7
!
!  f       NFmin   Gammaopt  rn/50
! GHz       dB    MAG  ANG    -
 0.450      1.26  0.12  111   0.13
 0.900      1.57  0.23  157   0.14
 1.900      2.62  0.47 -146   0.18
 2.400      3.24  0.54 -130   0.37
!
! (c) 2017  Infineon Technologies AG, Munich