! Infineon Technologies  Discrete & RF Semiconductors
! BFR93AW
! VCE =  1.0 V,  IC =  11 mA
! Common Emitter S-Parameters:                            Jan 2017
# GHz  S  MA  R  50
!  f         S11            S21            S12            S22
! GHz     MAG   ANG      MAG   ANG      MAG   ANG      MAG   ANG
 0.010  0.6819  -10.2  28.608  174.4  0.0045   85.2  0.9831   -5.1
 0.020  0.6897  -19.8  28.622  168.9  0.0088   83.6  0.9669  -10.4
 0.030  0.6596  -28.5  27.551  164.0  0.0128   76.1  0.9349  -14.7
 0.040  0.6459  -37.8  26.695  158.8  0.0169   72.2  0.9087  -19.3
 0.050  0.6498  -47.3  26.073  153.3  0.0210   69.8  0.8886  -24.2
 0.060  0.6239  -54.0  24.837  150.1  0.0236   66.1  0.8488  -27.0
 0.070  0.6070  -61.1  23.687  146.6  0.0263   63.1  0.8111  -30.0
 0.080  0.5999  -68.5  22.636  142.7  0.0290   60.7  0.7759  -33.3
 0.090  0.6031  -75.9  21.697  138.5  0.0318   58.7  0.7435  -36.9
 0.100  0.6162  -83.2  20.887  133.9  0.0346   57.0  0.7143  -40.8
 0.110  0.6016  -87.8  19.945  131.8  0.0361   55.5  0.6842  -42.5
 0.120  0.5909  -92.5  19.033  129.5  0.0376   54.0  0.6547  -44.3
 0.130  0.5845  -97.4  18.154  127.0  0.0391   52.7  0.6260  -46.3
 0.140  0.5824 -102.3  17.313  124.2  0.0406   51.5  0.5981  -48.5
 0.150  0.5846 -107.3  16.517  121.2  0.0422   50.4  0.5711  -50.9
 0.200  0.5701 -123.7  13.378  112.5  0.0467   48.4  0.4693  -56.6
 0.250  0.5613 -135.5  11.174  106.2  0.0512   47.6  0.3985  -60.2
 0.300  0.5542 -144.3   9.521  101.6  0.0549   48.4  0.3455  -62.5
 0.350  0.5492 -150.3   8.423   98.5  0.0583   49.5  0.3121  -63.8
 0.400  0.5503 -156.3   7.358   94.4  0.0617   50.5  0.2789  -65.3
 0.450  0.5485 -160.6   6.654   92.1  0.0656   51.6  0.2586  -66.1
 0.500  0.5498 -165.0   5.964   89.2  0.0695   52.6  0.2384  -67.1
 0.600  0.5516 -171.4   5.028   84.7  0.0776   53.9  0.2123  -68.7
 0.700  0.5515 -176.7   4.332   80.9  0.0856   56.4  0.1941  -70.0
 0.800  0.5533  178.5   3.816   77.2  0.0942   58.0  0.1821  -71.9
 0.900  0.5528  174.5   3.401   74.0  0.1032   59.0  0.1733  -74.1
 1.000  0.5569  170.7   3.090   70.9  0.1126   59.5  0.1655  -76.6
 1.100  0.5610  167.3   2.825   68.1  0.1214   60.1  0.1619  -79.2
 1.200  0.5626  164.2   2.602   65.2  0.1305   60.3  0.1584  -81.8
 1.300  0.5669  161.2   2.417   62.4  0.1401   60.5  0.1571  -85.1
 1.400  0.5705  158.5   2.265   59.8  0.1498   60.5  0.1555  -89.0
 1.500  0.5763  155.7   2.124   57.3  0.1593   60.4  0.1558  -92.6
 1.600  0.5796  153.0   2.008   54.7  0.1694   60.0  0.1584  -95.8
 1.700  0.5820  150.5   1.904   52.3  0.1791   59.9  0.1602 -100.0
 1.800  0.5871  148.0   1.817   49.8  0.1891   59.3  0.1635 -103.8
 1.900  0.5921  145.7   1.733   47.7  0.1988   58.8  0.1675 -107.5
 2.000  0.5945  143.5   1.657   45.2  0.2094   58.3  0.1732 -111.1
 2.100  0.5987  141.0   1.591   43.1  0.2192   57.6  0.1786 -114.9
 2.200  0.6040  138.6   1.527   40.8  0.2291   57.0  0.1847 -118.4
 2.300  0.6079  136.6   1.474   38.8  0.2392   56.2  0.1916 -121.6
 2.400  0.6125  134.6   1.422   36.6  0.2494   55.5  0.1990 -124.6
 2.500  0.6151  132.6   1.375   34.7  0.2593   54.7  0.2062 -127.5
 2.600  0.6184  130.6   1.329   32.7  0.2692   53.9  0.2139 -130.2
 2.700  0.6218  128.6   1.289   31.0  0.2790   53.1  0.2210 -132.7
 2.800  0.6260  126.6   1.251   29.1  0.2888   52.3  0.2285 -135.0
 2.900  0.6293  124.5   1.217   27.4  0.2990   51.3  0.2348 -137.6
 3.000  0.6335  122.5   1.184   25.6  0.3092   50.4  0.2416 -140.0
 3.100  0.6351  120.6   1.156   24.2  0.3187   49.3  0.2468 -142.6
 3.200  0.6374  118.7   1.128   22.7  0.3284   48.3  0.2525 -145.0
 3.300  0.6404  116.9   1.102   21.1  0.3381   47.3  0.2586 -147.4
 3.400  0.6440  115.0   1.076   19.4  0.3480   46.4  0.2652 -149.6
 3.500  0.6483  113.2   1.051   17.7  0.3579   45.5  0.2721 -151.7
 3.600  0.6505  111.5   1.030   16.4  0.3672   44.3  0.2763 -154.5
 3.700  0.6534  109.8   1.010   15.1  0.3766   43.1  0.2812 -157.2
 3.800  0.6568  108.1   0.990   13.7  0.3862   42.0  0.2867 -159.9
 3.900  0.6607  106.4   0.971   12.3  0.3959   41.0  0.2927 -162.4
 4.000  0.6652  104.8   0.953   10.8  0.4057   40.0  0.2993 -164.8
 4.100  0.6664  103.2   0.936    9.6  0.4140   38.7  0.3042 -167.9
 4.200  0.6680  101.7   0.920    8.4  0.4226   37.5  0.3100 -170.9
 4.300  0.6702  100.1   0.904    7.2  0.4313   36.4  0.3165 -173.7
 4.400  0.6728   98.6   0.888    5.9  0.4402   35.3  0.3239 -176.5
 4.500  0.6759   97.1   0.873    4.6  0.4492   34.2  0.3319 -179.1
 4.600  0.6788   95.7   0.859    3.7  0.4565   33.0  0.3390  178.3
 4.700  0.6821   94.3   0.845    2.8  0.4640   31.8  0.3467  175.7
 4.800  0.6858   93.0   0.832    1.9  0.4717   30.7  0.3551  173.3
 4.900  0.6899   91.6   0.818    1.0  0.4796   29.6  0.3641  171.0
 5.000  0.6943   90.3   0.805    0.0  0.4876   28.5  0.3737  168.8
 5.100  0.6947   89.1   0.796   -0.7  0.4942   27.3  0.3822  166.8
 5.200  0.6954   87.8   0.787   -1.5  0.5010   26.0  0.3910  164.9
 5.300  0.6964   86.6   0.779   -2.3  0.5081   24.9  0.4004  163.1
 5.400  0.6977   85.3   0.770   -3.1  0.5153   23.7  0.4100  161.4
 5.500  0.6994   84.1   0.762   -3.9  0.5228   22.6  0.4201  159.7
 5.600  0.6991   83.0   0.755   -4.5  0.5280   21.4  0.4259  158.1
 5.700  0.6991   81.9   0.747   -5.2  0.5334   20.3  0.4319  156.6
 5.800  0.6993   80.9   0.740   -5.8  0.5390   19.2  0.4383  155.1
 5.900  0.6997   79.8   0.733   -6.5  0.5448   18.1  0.4450  153.6
 6.000  0.7004   78.7   0.726   -7.2  0.5508   17.0  0.4519  152.2
!
!  f       NFmin   Gammaopt  rn/50
! GHz       dB    MAG  ANG    -
 0.450      1.26  0.12  111   0.13
 0.900      1.57  0.23  157   0.14
 1.900      2.62  0.47 -146   0.18
 2.400      3.24  0.54 -130   0.37
!
! (c) 2017  Infineon Technologies AG, Munich