! Infineon Technologies  Discrete & RF Semiconductors
! BFR93AW
! VCE =  12. V,  IC =  15 mA
! Common Emitter S-Parameters:                            Jan 2017
# GHz  S  MA  R  50
!  f         S11            S21            S12            S22
! GHz     MAG   ANG      MAG   ANG      MAG   ANG      MAG   ANG
 0.010  0.7180   -7.5  32.490  174.5  0.0026   81.3  0.9829   -3.4
 0.020  0.7275  -15.0  32.585  170.1  0.0055   85.9  0.9732   -6.9
 0.030  0.6985  -21.7  31.579  165.9  0.0080   77.8  0.9513   -9.9
 0.040  0.6797  -28.9  30.753  161.5  0.0106   73.6  0.9322  -13.0
 0.050  0.6720  -36.3  30.121  156.8  0.0132   71.0  0.9159  -16.3
 0.060  0.6472  -41.7  28.933  153.7  0.0151   68.5  0.8869  -18.2
 0.070  0.6286  -47.6  27.837  150.4  0.0171   66.6  0.8591  -20.3
 0.080  0.6169  -53.7  26.842  146.8  0.0191   65.1  0.8324  -22.5
 0.090  0.6123  -59.9  25.962  142.9  0.0211   63.8  0.8070  -24.8
 0.100  0.6152  -66.2  25.207  138.8  0.0231   62.8  0.7830  -27.3
 0.110  0.5957  -70.3  24.194  136.7  0.0243   61.4  0.7584  -28.4
 0.120  0.5795  -74.7  23.217  134.4  0.0255   60.2  0.7340  -29.5
 0.130  0.5668  -79.3  22.281  131.9  0.0267   59.0  0.7100  -30.8
 0.140  0.5579  -84.0  21.391  129.1  0.0279   58.0  0.6863  -32.1
 0.150  0.5530  -88.9  20.553  126.2  0.0291   57.0  0.6630  -33.5
 0.200  0.5137 -105.9  16.977  117.3  0.0332   55.1  0.5736  -36.2
 0.250  0.4858 -118.8  14.359  110.6  0.0372   55.2  0.5102  -37.2
 0.300  0.4684 -128.9  12.314  105.8  0.0400   55.4  0.4634  -37.3
 0.350  0.4554 -136.1  10.939  102.6  0.0434   56.5  0.4348  -37.0
 0.400  0.4499 -143.6   9.609   98.4  0.0468   57.5  0.4063  -36.7
 0.450  0.4430 -148.8   8.707   96.0  0.0503   58.6  0.3890  -36.4
 0.500  0.4399 -154.1   7.823   93.1  0.0538   59.6  0.3717  -36.0
 0.600  0.4365 -162.1   6.609   88.6  0.0607   60.7  0.3506  -35.5
 0.700  0.4355 -168.3   5.701   84.9  0.0677   63.2  0.3365  -35.4
 0.800  0.4357 -174.1   5.027   81.4  0.0757   64.6  0.3255  -35.7
 0.900  0.4360 -178.9   4.483   78.2  0.0830   65.3  0.3180  -36.4
 1.000  0.4398  176.8   4.070   75.3  0.0908   65.8  0.3110  -37.3
 1.100  0.4437  172.9   3.718   72.6  0.0987   66.3  0.3065  -38.6
 1.200  0.4460  169.1   3.423   69.8  0.1064   66.4  0.3020  -39.8
 1.300  0.4479  165.9   3.173   67.2  0.1146   66.6  0.2988  -41.5
 1.400  0.4534  162.9   2.968   64.7  0.1230   67.0  0.2939  -43.3
 1.500  0.4587  160.1   2.781   62.4  0.1314   66.8  0.2912  -45.4
 1.600  0.4616  157.2   2.624   59.9  0.1398   66.6  0.2896  -47.5
 1.700  0.4659  154.6   2.483   57.6  0.1482   66.5  0.2866  -49.9
 1.800  0.4706  151.9   2.367   55.3  0.1569   66.2  0.2848  -52.3
 1.900  0.4762  149.7   2.255   53.2  0.1657   66.0  0.2831  -54.9
 2.000  0.4795  147.2   2.152   50.9  0.1749   65.3  0.2827  -57.7
 2.100  0.4841  144.7   2.064   48.8  0.1837   64.8  0.2820  -60.5
 2.200  0.4896  142.3   1.978   46.6  0.1925   64.4  0.2820  -63.4
 2.300  0.4955  140.2   1.906   44.6  0.2015   63.8  0.2825  -66.4
 2.400  0.5020  138.2   1.837   42.5  0.2106   63.2  0.2837  -69.4
 2.500  0.5064  136.2   1.773   40.6  0.2199   62.6  0.2853  -72.3
 2.600  0.5114  134.2   1.711   38.6  0.2292   62.1  0.2876  -75.2
 2.700  0.5156  132.1   1.659   36.8  0.2382   61.4  0.2900  -78.1
 2.800  0.5204  130.1   1.608   34.9  0.2473   60.7  0.2931  -80.9
 2.900  0.5255  128.1   1.561   33.2  0.2569   59.9  0.2951  -83.7
 3.000  0.5312  126.2   1.516   31.3  0.2665   59.1  0.2977  -86.4
 3.100  0.5343  124.3   1.478   29.8  0.2760   58.2  0.2988  -89.1
 3.200  0.5381  122.4   1.440   28.2  0.2856   57.3  0.3006  -91.8
 3.300  0.5424  120.5   1.404   26.5  0.2952   56.5  0.3030  -94.5
 3.400  0.5473  118.7   1.369   24.7  0.3049   55.7  0.3060  -97.1
 3.500  0.5527  116.9   1.336   22.8  0.3146   55.0  0.3097  -99.6
 3.600  0.5571  115.2   1.307   21.4  0.3242   53.9  0.3092 -102.4
 3.700  0.5619  113.5   1.280   20.0  0.3340   52.8  0.3094 -105.3
 3.800  0.5673  111.8   1.253   18.4  0.3438   51.8  0.3104 -108.1
 3.900  0.5731  110.2   1.227   16.9  0.3538   50.9  0.3122 -110.9
 4.000  0.5794  108.6   1.202   15.2  0.3638   50.0  0.3147 -113.7
 4.100  0.5828  107.0   1.179   13.9  0.3731   48.8  0.3139 -117.0
 4.200  0.5867  105.5   1.156   12.5  0.3826   47.7  0.3142 -120.3
 4.300  0.5910  103.9   1.134   11.1  0.3923   46.6  0.3155 -123.6
 4.400  0.5957  102.4   1.113    9.6  0.4020   45.6  0.3178 -126.9
 4.500  0.6008  100.9   1.093    8.1  0.4119   44.6  0.3212 -130.1
 4.600  0.6059   99.5   1.072    7.0  0.4208   43.4  0.3227 -133.7
 4.700  0.6114   98.1   1.052    5.9  0.4300   42.3  0.3254 -137.3
 4.800  0.6173   96.7   1.032    4.8  0.4393   41.2  0.3294 -140.7
 4.900  0.6235   95.3   1.013    3.5  0.4487   40.1  0.3345 -144.1
 5.000  0.6301   94.0   0.994    2.3  0.4583   39.1  0.3408 -147.4
 5.100  0.6320   92.7   0.979    1.4  0.4666   37.8  0.3464 -150.6
 5.200  0.6342   91.4   0.965    0.4  0.4752   36.6  0.3530 -153.7
 5.300  0.6367   90.1   0.951   -0.6  0.4840   35.4  0.3606 -156.7
 5.400  0.6395   88.8   0.937   -1.6  0.4929   34.3  0.3692 -159.5
 5.500  0.6427   87.5   0.924   -2.7  0.5021   33.2  0.3786 -162.2
 5.600  0.6447   86.3   0.911   -3.5  0.5095   31.9  0.3839 -164.7
 5.700  0.6469   85.2   0.898   -4.3  0.5172   30.7  0.3900 -167.2
 5.800  0.6494   84.1   0.885   -5.1  0.5251   29.6  0.3967 -169.6
 5.900  0.6522   82.9   0.872   -5.9  0.5332   28.4  0.4042 -171.9
 6.000  0.6552   81.8   0.860   -6.8  0.5415   27.3  0.4122 -174.1
!
!  f       NFmin   Gammaopt  rn/50
! GHz       dB    MAG  ANG    -
 0.450      1.37  0.12  133   0.13
 0.900      1.66  0.23  164   0.14
 1.900      2.67  0.47 -144   0.20
 2.400      3.30  0.54 -129   0.40
!
! (c) 2017  Infineon Technologies AG, Munich