! Infineon Technologies  Discrete & RF Semiconductors
! BFR93AW
! VCE =  7.0 V,  IC =  5.0 mA
! Common Emitter S-Parameters:                            Jan 2017
# GHz  S  MA  R  50
!  f         S11            S21            S12            S22
! GHz     MAG   ANG      MAG   ANG      MAG   ANG      MAG   ANG
 0.010  0.8515   -4.8  15.290  177.0  0.0028   86.7  0.9990   -1.9
 0.020  0.8686   -9.5  15.501  174.0  0.0065   88.8  0.9920   -4.0
 0.030  0.8480  -13.8  15.268  171.1  0.0097   83.1  0.9843   -5.8
 0.040  0.8324  -18.2  15.074  168.2  0.0129   80.2  0.9776   -7.6
 0.050  0.8219  -22.8  14.921  165.2  0.0161   78.5  0.9719   -9.4
 0.060  0.8075  -26.9  14.634  162.7  0.0188   75.7  0.9582  -10.9
 0.070  0.7974  -31.2  14.377  160.0  0.0215   73.6  0.9452  -12.5
 0.080  0.7918  -35.5  14.151  157.3  0.0243   72.0  0.9329  -14.1
 0.090  0.7908  -39.9  13.959  154.5  0.0270   70.7  0.9214  -15.7
 0.100  0.7943  -44.2  13.801  151.6  0.0298   69.7  0.9106  -17.4
 0.110  0.7777  -47.7  13.480  149.5  0.0317   67.4  0.8945  -18.6
 0.120  0.7640  -51.3  13.179  147.3  0.0337   65.4  0.8788  -19.8
 0.130  0.7535  -55.0  12.897  145.0  0.0358   63.6  0.8635  -21.0
 0.140  0.7462  -58.8  12.638  142.6  0.0378   62.0  0.8486  -22.3
 0.150  0.7423  -62.7  12.401  140.1  0.0399   60.6  0.8342  -23.6
 0.200  0.6968  -78.6  11.018  130.6  0.0471   55.4  0.7617  -27.7
 0.250  0.6571  -92.2   9.800  122.7  0.0534   50.9  0.6992  -30.5
 0.300  0.6222 -103.4   8.707  116.6  0.0574   48.1  0.6467  -32.2
 0.350  0.5952 -112.0   7.868  112.2  0.0604   46.8  0.6095  -33.0
 0.400  0.5825 -121.1   7.084  106.9  0.0635   45.6  0.5724  -33.9
 0.450  0.5656 -127.7   6.475  103.6  0.0655   45.2  0.5481  -34.3
 0.500  0.5566 -134.6   5.892   99.7  0.0675   44.9  0.5238  -34.8
 0.600  0.5417 -145.0   5.043   93.8  0.0716   45.2  0.4919  -35.4
 0.700  0.5353 -153.6   4.388   88.9  0.0751   47.0  0.4695  -35.9
 0.800  0.5283 -160.9   3.893   84.4  0.0791   48.8  0.4540  -36.8
 0.900  0.5261 -167.0   3.486   80.4  0.0834   49.8  0.4412  -37.8
 1.000  0.5266 -172.6   3.173   76.8  0.0882   51.9  0.4323  -39.0
 1.100  0.5273 -177.7   2.907   73.4  0.0930   53.6  0.4255  -40.4
 1.200  0.5312  177.8   2.682   70.1  0.0976   55.2  0.4192  -41.9
 1.300  0.5289  173.8   2.490   67.0  0.1036   57.0  0.4150  -43.7
 1.400  0.5349  170.1   2.332   64.1  0.1100   58.4  0.4099  -45.7
 1.500  0.5391  166.6   2.190   61.4  0.1156   59.8  0.4065  -47.8
 1.600  0.5428  163.1   2.066   58.5  0.1228   61.0  0.4051  -49.9
 1.700  0.5466  160.0   1.959   56.0  0.1301   62.0  0.4021  -52.4
 1.800  0.5509  156.8   1.868   53.4  0.1377   62.6  0.3994  -54.8
 1.900  0.5558  153.9   1.781   51.1  0.1458   63.5  0.3986  -57.4
 2.000  0.5588  151.0   1.700   48.5  0.1539   64.0  0.3981  -60.1
 2.100  0.5640  148.2   1.631   46.2  0.1627   64.3  0.3978  -62.9
 2.200  0.5705  145.5   1.564   43.7  0.1716   64.6  0.3985  -65.7
 2.300  0.5743  143.1   1.506   41.5  0.1810   64.7  0.3997  -68.7
 2.400  0.5792  140.7   1.451   39.2  0.1904   64.7  0.4019  -71.6
 2.500  0.5836  138.3   1.400   37.3  0.2002   64.6  0.4036  -74.5
 2.600  0.5890  136.0   1.350   35.2  0.2101   64.5  0.4063  -77.3
 2.700  0.5932  133.7   1.308   33.4  0.2205   64.1  0.4093  -80.1
 2.800  0.5983  131.5   1.267   31.4  0.2309   63.8  0.4133  -82.9
 2.900  0.6025  129.2   1.230   29.6  0.2417   63.2  0.4153  -85.7
 3.000  0.6077  127.0   1.195   27.6  0.2526   62.7  0.4183  -88.5
 3.100  0.6101  124.8   1.164   26.2  0.2641   61.8  0.4191  -91.3
 3.200  0.6134  122.7   1.133   24.7  0.2757   61.0  0.4210  -94.2
 3.300  0.6175  120.6   1.103   23.1  0.2873   60.3  0.4239  -97.0
 3.400  0.6224  118.5   1.074   21.4  0.2989   59.6  0.4278  -99.7
 3.500  0.6282  116.4   1.046   19.6  0.3106   59.0  0.4326 -102.4
 3.600  0.6307  114.5   1.023   18.4  0.3223   57.8  0.4315 -105.4
 3.700  0.6339  112.5   1.001   17.1  0.3342   56.6  0.4316 -108.4
 3.800  0.6377  110.6   0.979   15.8  0.3461   55.5  0.4329 -111.3
 3.900  0.6423  108.8   0.958   14.4  0.3582   54.5  0.4353 -114.3
 4.000  0.6476  106.9   0.937   12.9  0.3704   53.6  0.4389 -117.2
 4.100  0.6493  105.2   0.919   11.8  0.3816   52.2  0.4369 -120.5
 4.200  0.6516  103.5   0.902   10.7  0.3930   50.9  0.4365 -123.9
 4.300  0.6545  101.8   0.884    9.6  0.4046   49.7  0.4375 -127.3
 4.400  0.6580  100.1   0.867    8.4  0.4164   48.5  0.4401 -130.6
 4.500  0.6620   98.4   0.851    7.1  0.4283   47.4  0.4441 -133.9
 4.600  0.6648   96.9   0.836    6.3  0.4386   46.0  0.4444 -137.4
 4.700  0.6680   95.4   0.822    5.5  0.4491   44.6  0.4463 -140.8
 4.800  0.6717   93.9   0.808    4.7  0.4599   43.3  0.4498 -144.2
 4.900  0.6758   92.4   0.794    3.9  0.4709   42.0  0.4548 -147.5
 5.000  0.6804   91.0   0.780    3.0  0.4821   40.8  0.4614 -150.8
 5.100  0.6805   89.6   0.771    2.4  0.4912   39.3  0.4652 -154.0
 5.200  0.6810   88.3   0.762    1.8  0.5007   37.9  0.4705 -157.0
 5.300  0.6819   86.9   0.753    1.1  0.5104   36.5  0.4770 -160.1
 5.400  0.6832   85.6   0.745    0.5  0.5205   35.2  0.4848 -163.0
 5.500  0.6849   84.2   0.736   -0.2  0.5308   33.9  0.4939 -165.8
 5.600  0.6846   83.0   0.728   -0.7  0.5383   32.5  0.4970 -168.4
 5.700  0.6846   81.8   0.721   -1.2  0.5461   31.1  0.5012 -170.9
 5.800  0.6849   80.7   0.714   -1.8  0.5542   29.8  0.5063 -173.5
 5.900  0.6854   79.5   0.706   -2.3  0.5626   28.5  0.5124 -175.9
 6.000  0.6863   78.3   0.699   -2.9  0.5713   27.2  0.5194 -178.3
!
!  f       NFmin   Gammaopt  rn/50
! GHz       dB    MAG  ANG    -
 0.450      1.18  0.25   77   0.14
 0.900      1.50  0.29  137   0.15
 1.900      2.75  0.49 -153   0.19
 2.400      3.37  0.57 -135   0.38
!
! (c) 2017  Infineon Technologies AG, Munich