! Infineon Technologies  Discrete & RF Semiconductors
! BFR93AW
! VCE =  3.0 V,  IC =  45 mA
! Common Emitter S-Parameters:                            Jan 2017
# GHz  S  MA  R  50
!  f         S11            S21            S12            S22
! GHz     MAG   ANG      MAG   ANG      MAG   ANG      MAG   ANG
 0.010  0.3608  -21.0  56.508  170.8  0.0026   75.5  0.9551   -7.1
 0.020  0.3749  -40.2  55.106  162.4  0.0055   71.9  0.9291  -14.7
 0.030  0.3583  -55.6  51.038  156.3  0.0076   68.4  0.8675  -19.7
 0.040  0.3690  -71.3  47.653  149.1  0.0096   66.5  0.8133  -25.3
 0.050  0.4048  -85.2  45.104  141.1  0.0117   65.2  0.7681  -31.7
 0.060  0.3980  -93.2  41.917  138.2  0.0129   64.2  0.7202  -33.7
 0.070  0.3991 -101.3  38.856  134.8  0.0141   63.4  0.6732  -36.0
 0.080  0.4080 -109.2  35.955  130.8  0.0154   62.7  0.6275  -38.6
 0.090  0.4243 -116.6  33.255  126.2  0.0166   62.1  0.5834  -41.7
 0.100  0.4472 -123.4  30.808  120.8  0.0178   61.6  0.5411  -45.2
 0.110  0.4464 -127.2  29.072  119.2  0.0188   61.3  0.5146  -45.9
 0.120  0.4475 -131.0  27.363  117.3  0.0198   61.0  0.4883  -46.6
 0.130  0.4507 -134.8  25.685  115.3  0.0208   60.8  0.4620  -47.5
 0.140  0.4557 -138.5  24.046  112.9  0.0218   60.6  0.4358  -48.4
 0.150  0.4626 -142.1  22.453  110.2  0.0228   60.4  0.4098  -49.5
 0.200  0.4703 -152.8  17.435  103.6  0.0262   62.8  0.3363  -50.2
 0.250  0.4777 -159.9  14.220   98.9  0.0316   65.4  0.2903  -49.6
 0.300  0.4778 -165.1  11.965   95.6  0.0351   66.8  0.2595  -48.6
 0.350  0.4796 -168.8  10.531   93.3  0.0399   68.1  0.2415  -47.7
 0.400  0.4833 -172.4   9.119   90.3  0.0448   69.2  0.2236  -46.7
 0.450  0.4843 -175.2   8.222   88.5  0.0497   70.0  0.2131  -46.3
 0.500  0.4864 -177.9   7.335   86.3  0.0546   70.7  0.2027  -45.8
 0.600  0.4890  177.8   6.158   82.8  0.0646   71.5  0.1895  -45.4
 0.700  0.4922  174.0   5.300   79.8  0.0737   72.0  0.1811  -45.6
 0.800  0.4960  170.9   4.657   76.7  0.0839   72.4  0.1745  -46.6
 0.900  0.4969  167.7   4.145   74.0  0.0935   71.9  0.1700  -48.1
 1.000  0.5035  164.7   3.758   71.4  0.1035   71.7  0.1650  -49.7
 1.100  0.5056  161.9   3.432   68.9  0.1137   71.3  0.1627  -51.8
 1.200  0.5110  159.2   3.160   66.3  0.1228   70.6  0.1598  -54.2
 1.300  0.5122  156.7   2.928   64.0  0.1327   70.1  0.1578  -57.0
 1.400  0.5173  154.5   2.740   61.6  0.1433   69.5  0.1550  -60.3
 1.500  0.5221  152.4   2.567   59.3  0.1527   68.8  0.1538  -63.7
 1.600  0.5274  149.9   2.423   57.0  0.1626   67.9  0.1541  -67.0
 1.700  0.5289  147.5   2.295   54.8  0.1727   67.1  0.1535  -71.0
 1.800  0.5359  145.4   2.186   52.5  0.1827   66.2  0.1536  -74.9
 1.900  0.5409  143.5   2.083   50.6  0.1925   65.5  0.1549  -78.9
 2.000  0.5421  141.4   1.988   48.3  0.2023   64.4  0.1576  -83.3
 2.100  0.5475  139.3   1.908   46.3  0.2122   63.5  0.1599  -87.5
 2.200  0.5537  137.2   1.831   44.1  0.2221   62.6  0.1630  -91.5
 2.300  0.5576  135.3   1.763   42.2  0.2318   61.7  0.1671  -95.5
 2.400  0.5622  133.4   1.698   40.2  0.2416   60.8  0.1719  -99.3
 2.500  0.5659  131.5   1.641   38.4  0.2511   59.8  0.1769 -102.9
 2.600  0.5701  129.7   1.585   36.4  0.2607   58.8  0.1825 -106.3
 2.700  0.5741  127.9   1.537   34.7  0.2703   57.8  0.1876 -109.5
 2.800  0.5787  126.1   1.491   32.8  0.2800   56.8  0.1932 -112.5
 2.900  0.5819  124.2   1.448   31.1  0.2896   55.8  0.1978 -115.5
 3.000  0.5858  122.4   1.407   29.3  0.2992   54.8  0.2030 -118.4
 3.100  0.5881  120.6   1.373   27.8  0.3083   53.7  0.2066 -121.3
 3.200  0.5910  118.8   1.340   26.3  0.3175   52.6  0.2106 -124.1
 3.300  0.5945  117.0   1.308   24.7  0.3267   51.6  0.2152 -126.8
 3.400  0.5985  115.2   1.277   23.0  0.3361   50.6  0.2202 -129.4
 3.500  0.6031  113.5   1.247   21.2  0.3456   49.7  0.2257 -131.9
 3.600  0.6066  111.9   1.221   19.9  0.3545   48.5  0.2281 -135.0
 3.700  0.6105  110.2   1.196   18.5  0.3637   47.3  0.2311 -138.0
 3.800  0.6150  108.6   1.172   17.0  0.3729   46.2  0.2348 -140.9
 3.900  0.6199  107.1   1.149   15.5  0.3823   45.1  0.2390 -143.8
 4.000  0.6253  105.5   1.126   13.9  0.3918   44.1  0.2438 -146.5
 4.100  0.6276  104.0   1.105   12.6  0.3999   42.8  0.2468 -149.9
 4.200  0.6302  102.6   1.085   11.3  0.4082   41.6  0.2507 -153.3
 4.300  0.6333  101.1   1.065   10.0  0.4167   40.5  0.2554 -156.5
 4.400  0.6367   99.7   1.046    8.6  0.4254   39.4  0.2609 -159.6
 4.500  0.6406   98.3   1.028    7.1  0.4342   38.3  0.2671 -162.6
 4.600  0.6447   97.0   1.010    6.1  0.4417   37.1  0.2727 -165.8
 4.700  0.6492   95.6   0.992    5.1  0.4494   36.0  0.2792 -168.9
 4.800  0.6541   94.3   0.975    4.0  0.4573   34.9  0.2864 -171.9
 4.900  0.6592   93.1   0.958    2.9  0.4653   33.8  0.2943 -174.7
 5.000  0.6647   91.8   0.941    1.7  0.4735   32.8  0.3029 -177.3
 5.100  0.6660   90.5   0.929    0.8  0.4804   31.6  0.3112 -179.7
 5.200  0.6676   89.3   0.917   -0.1  0.4876   30.4  0.3200  178.1
 5.300  0.6696   88.1   0.905   -1.1  0.4950   29.2  0.3293  175.9
 5.400  0.6718   86.8   0.894   -2.1  0.5025   28.1  0.3390  173.9
 5.500  0.6744   85.6   0.883   -3.1  0.5103   27.0  0.3491  172.0
 5.600  0.6753   84.5   0.872   -3.9  0.5161   25.8  0.3555  170.2
 5.700  0.6765   83.4   0.861   -4.6  0.5222   24.7  0.3622  168.5
 5.800  0.6779   82.3   0.850   -5.4  0.5284   23.6  0.3692  166.9
 5.900  0.6796   81.2   0.839   -6.3  0.5349   22.5  0.3765  165.3
 6.000  0.6815   80.1   0.829   -7.1  0.5415   21.5  0.3841  163.8
!
!  f       NFmin   Gammaopt  rn/50
! GHz       dB    MAG  ANG    -
 0.450      2.16  0.24 -179   0.17
 0.900      2.46  0.30 -169   0.17
 1.900      3.55  0.53 -132   0.39
 2.400      4.27  0.57 -122   0.72
!
! (c) 2017  Infineon Technologies AG, Munich