! Infineon Technologies  Discrete & RF Semiconductors
! BFR93AW
! VCE =  4.0 V,  IC =  36 mA
! Common Emitter S-Parameters:                            Jan 2017
# GHz  S  MA  R  50
!  f         S11            S21            S12            S22
! GHz     MAG   ANG      MAG   ANG      MAG   ANG      MAG   ANG
 0.010  0.4525  -15.5  51.562  171.9  0.0025   84.8  0.9692   -6.1
 0.020  0.4576  -30.8  50.741  164.5  0.0053   82.1  0.9454  -12.5
 0.030  0.4320  -43.2  47.615  158.7  0.0075   74.6  0.8955  -17.0
 0.040  0.4283  -56.4  45.039  152.2  0.0098   70.5  0.8519  -22.1
 0.050  0.4473  -69.2  43.110  145.0  0.0121   68.0  0.8155  -27.6
 0.060  0.4315  -76.9  40.344  142.0  0.0135   66.3  0.7702  -29.7
 0.070  0.4240  -85.0  37.710  138.5  0.0150   64.8  0.7260  -32.0
 0.080  0.4252  -93.2  35.235  134.5  0.0165   63.7  0.6833  -34.6
 0.090  0.4350 -101.3  32.956  129.9  0.0179   62.7  0.6421  -37.6
 0.100  0.4529 -108.8  30.917  124.7  0.0194   61.9  0.6029  -41.0
 0.110  0.4474 -113.1  29.258  122.9  0.0202   61.4  0.5755  -41.8
 0.120  0.4445 -117.4  27.630  121.0  0.0211   61.0  0.5481  -42.6
 0.130  0.4441 -121.8  26.039  118.7  0.0219   60.5  0.5210  -43.6
 0.140  0.4463 -126.1  24.493  116.2  0.0228   60.2  0.4939  -44.6
 0.150  0.4510 -130.4  22.999  113.4  0.0236   59.8  0.4671  -45.8
 0.200  0.4537 -143.3  18.034  106.3  0.0276   62.1  0.3876  -46.7
 0.250  0.4576 -152.3  14.792  101.1  0.0321   63.2  0.3364  -46.4
 0.300  0.4568 -158.5  12.472   97.5  0.0358   64.1  0.3009  -45.5
 0.350  0.4564 -162.9  10.995   95.0  0.0403   66.0  0.2806  -44.7
 0.400  0.4586 -167.3   9.544   91.8  0.0449   67.5  0.2604  -43.7
 0.450  0.4594 -170.6   8.611   89.9  0.0493   68.2  0.2488  -43.2
 0.500  0.4618 -173.9   7.690   87.6  0.0538   68.7  0.2372  -42.6
 0.600  0.4649 -178.8   6.464   84.0  0.0630   69.6  0.2228  -42.0
 0.700  0.4672  177.1   5.560   80.9  0.0722   70.9  0.2126  -41.9
 0.800  0.4702  173.4   4.891   77.8  0.0819   71.2  0.2060  -42.5
 0.900  0.4729  170.0   4.354   75.0  0.0912   70.5  0.2003  -43.7
 1.000  0.4773  166.9   3.947   72.3  0.1008   70.9  0.1949  -45.0
 1.100  0.4823  163.9   3.604   69.8  0.1104   70.7  0.1919  -46.7
 1.200  0.4848  161.1   3.317   67.3  0.1196   69.9  0.1882  -48.7
 1.300  0.4883  158.5   3.076   64.9  0.1289   69.7  0.1858  -51.0
 1.400  0.4920  156.1   2.877   62.5  0.1387   69.2  0.1824  -53.7
 1.500  0.4983  153.7   2.696   60.2  0.1482   68.4  0.1806  -56.5
 1.600  0.5015  151.4   2.543   57.9  0.1577   67.8  0.1802  -59.6
 1.700  0.5049  149.0   2.407   55.7  0.1674   67.2  0.1782  -62.9
 1.800  0.5101  146.6   2.293   53.4  0.1777   66.3  0.1777  -66.3
 1.900  0.5147  144.7   2.185   51.4  0.1868   65.6  0.1777  -69.9
 2.000  0.5182  142.6   2.085   49.2  0.1969   64.7  0.1788  -73.9
 2.100  0.5232  140.4   2.001   47.2  0.2064   63.8  0.1799  -77.7
 2.200  0.5290  138.3   1.919   45.0  0.2159   63.0  0.1818  -81.5
 2.300  0.5337  136.4   1.849   43.1  0.2253   62.1  0.1844  -85.3
 2.400  0.5389  134.6   1.782   41.0  0.2348   61.2  0.1878  -89.0
 2.500  0.5423  132.7   1.721   39.2  0.2442   60.3  0.1915  -92.6
 2.600  0.5462  130.8   1.661   37.2  0.2537   59.4  0.1959  -96.0
 2.700  0.5504  128.9   1.610   35.5  0.2631   58.4  0.2002  -99.1
 2.800  0.5552  127.1   1.560   33.6  0.2725   57.5  0.2050 -102.1
 2.900  0.5593  125.2   1.516   31.9  0.2820   56.5  0.2089 -105.2
 3.000  0.5641  123.3   1.473   30.1  0.2916   55.6  0.2134 -108.2
 3.100  0.5668  121.5   1.437   28.6  0.3007   54.5  0.2163 -111.1
 3.200  0.5700  119.7   1.401   27.1  0.3100   53.5  0.2197 -114.0
 3.300  0.5738  117.9   1.367   25.4  0.3193   52.5  0.2237 -116.8
 3.400  0.5781  116.2   1.334   23.7  0.3287   51.6  0.2282 -119.4
 3.500  0.5830  114.5   1.302   21.9  0.3382   50.7  0.2331 -122.0
 3.600  0.5867  112.9   1.275   20.5  0.3472   49.5  0.2346 -125.1
 3.700  0.5910  111.3   1.249   19.1  0.3564   48.4  0.2367 -128.1
 3.800  0.5956  109.7   1.223   17.6  0.3657   47.3  0.2395 -131.1
 3.900  0.6007  108.1   1.199   16.0  0.3751   46.3  0.2429 -134.0
 4.000  0.6063  106.6   1.175   14.4  0.3846   45.3  0.2469 -136.8
 4.100  0.6093  105.1   1.153   13.1  0.3929   44.1  0.2488 -140.3
 4.200  0.6126  103.6   1.131   11.8  0.4015   42.9  0.2516 -143.8
 4.300  0.6164  102.2   1.111   10.4  0.4101   41.8  0.2554 -147.2
 4.400  0.6205  100.7   1.090    9.0  0.4189   40.7  0.2600 -150.5
 4.500  0.6251   99.3   1.071    7.5  0.4279   39.7  0.2654 -153.6
 4.600  0.6296   97.9   1.051    6.5  0.4357   38.5  0.2702 -157.0
 4.700  0.6345   96.6   1.032    5.4  0.4436   37.4  0.2760 -160.3
 4.800  0.6398   95.2   1.013    4.3  0.4517   36.3  0.2826 -163.5
 4.900  0.6454   93.9   0.995    3.1  0.4600   35.2  0.2900 -166.5
 5.000  0.6513   92.6   0.977    1.9  0.4684   34.2  0.2982 -169.3
 5.100  0.6531   91.4   0.964    1.0  0.4757   33.0  0.3059 -172.0
 5.200  0.6551   90.1   0.951   -0.0  0.4831   31.8  0.3143 -174.5
 5.300  0.6575   88.9   0.938   -1.0  0.4908   30.6  0.3232 -177.0
 5.400  0.6601   87.7   0.926   -2.0  0.4987   29.5  0.3327 -179.2
 5.500  0.6631   86.5   0.914   -3.1  0.5067   28.4  0.3427  178.6
 5.600  0.6640   85.4   0.902   -3.9  0.5130   27.3  0.3491  176.6
 5.700  0.6652   84.3   0.889   -4.7  0.5194   26.2  0.3559  174.7
 5.800  0.6666   83.2   0.877   -5.5  0.5261   25.1  0.3631  172.9
 5.900  0.6682   82.1   0.866   -6.3  0.5329   24.0  0.3706  171.2
 6.000  0.6701   81.0   0.854   -7.2  0.5399   23.0  0.3785  169.5
!
!  f       NFmin   Gammaopt  rn/50
! GHz       dB    MAG  ANG    -
 0.450      1.95  0.21  178   0.16
 0.900      2.22  0.28 -172   0.17
 1.900      3.28  0.52 -134   0.32
 2.400      3.96  0.56 -123   0.61
!
! (c) 2017  Infineon Technologies AG, Munich