! Infineon Technologies  Discrete & RF Semiconductors
! BFR93AW
! VCE =  7.0 V,  IC =  11 mA
! Common Emitter S-Parameters:                            Jan 2017
# GHz  S  MA  R  50
!  f         S11            S21            S12            S22
! GHz     MAG   ANG      MAG   ANG      MAG   ANG      MAG   ANG
 0.010  0.7352   -7.1  27.335  175.3  0.0031   91.3  0.9930   -3.2
 0.020  0.7455  -14.1  27.550  171.1  0.0056   90.9  0.9790   -6.5
 0.030  0.7196  -20.4  26.804  167.1  0.0085   82.1  0.9618   -9.3
 0.040  0.7030  -27.1  26.195  163.0  0.0115   77.9  0.9469  -12.1
 0.050  0.6963  -34.0  25.730  158.6  0.0145   75.4  0.9345  -15.1
 0.060  0.6738  -39.3  24.826  155.6  0.0167   72.2  0.9084  -17.1
 0.070  0.6575  -45.0  23.996  152.4  0.0189   69.7  0.8835  -19.1
 0.080  0.6479  -50.9  23.247  148.9  0.0212   67.8  0.8598  -21.3
 0.090  0.6454  -56.9  22.587  145.3  0.0235   66.2  0.8374  -23.7
 0.100  0.6499  -62.9  22.025  141.4  0.0258   64.9  0.8165  -26.1
 0.110  0.6304  -67.0  21.216  139.2  0.0270   63.0  0.7922  -27.3
 0.120  0.6143  -71.3  20.440  136.9  0.0283   61.2  0.7682  -28.5
 0.130  0.6018  -75.8  19.701  134.3  0.0296   59.6  0.7446  -29.9
 0.140  0.5932  -80.4  19.004  131.6  0.0309   58.1  0.7215  -31.3
 0.150  0.5886  -85.2  18.352  128.7  0.0322   56.7  0.6988  -32.8
 0.200  0.5503 -102.5  15.338  119.5  0.0365   53.8  0.6080  -36.1
 0.250  0.5256 -115.8  13.068  112.5  0.0408   52.5  0.5413  -37.7
 0.300  0.5046 -126.1  11.287  107.4  0.0435   52.0  0.4902  -38.3
 0.350  0.4911 -133.5  10.046  103.9  0.0470   53.0  0.4585  -38.3
 0.400  0.4860 -141.1   8.853   99.5  0.0506   53.8  0.4268  -38.2
 0.450  0.4792 -146.7   8.028   96.9  0.0537   54.8  0.4077  -38.1
 0.500  0.4770 -152.4   7.223   93.8  0.0569   55.7  0.3887  -37.9
 0.600  0.4715 -160.6   6.112   89.1  0.0633   57.5  0.3645  -37.5
 0.700  0.4707 -167.3   5.278   85.1  0.0698   59.3  0.3478  -37.6
 0.800  0.4702 -173.1   4.660   81.4  0.0772   61.4  0.3358  -38.1
 0.900  0.4706 -177.9   4.156   78.1  0.0842   62.1  0.3274  -38.8
 1.000  0.4723  177.6   3.774   75.0  0.0915   63.4  0.3194  -39.8
 1.100  0.4759  173.5   3.451   72.2  0.0990   63.8  0.3143  -41.1
 1.200  0.4792  169.8   3.177   69.3  0.1061   64.1  0.3095  -42.5
 1.300  0.4819  166.4   2.948   66.6  0.1142   65.0  0.3058  -44.3
 1.400  0.4867  163.5   2.758   64.0  0.1227   65.4  0.3012  -46.3
 1.500  0.4922  160.6   2.584   61.5  0.1309   65.5  0.2988  -48.3
 1.600  0.4955  157.7   2.439   58.9  0.1395   65.4  0.2970  -50.6
 1.700  0.5002  154.8   2.310   56.6  0.1476   65.5  0.2945  -53.1
 1.800  0.5044  152.1   2.201   54.2  0.1569   65.4  0.2926  -55.7
 1.900  0.5103  149.7   2.097   52.1  0.1651   65.3  0.2913  -58.4
 2.000  0.5121  147.2   2.003   49.7  0.1743   64.8  0.2909  -61.2
 2.100  0.5175  144.7   1.922   47.5  0.1835   64.4  0.2907  -64.2
 2.200  0.5238  142.2   1.843   45.2  0.1928   64.0  0.2913  -67.2
 2.300  0.5290  140.2   1.775   43.2  0.2020   63.5  0.2923  -70.3
 2.400  0.5349  138.2   1.710   41.0  0.2112   63.1  0.2941  -73.3
 2.500  0.5387  136.0   1.651   39.1  0.2204   62.5  0.2961  -76.3
 2.600  0.5432  133.9   1.594   37.1  0.2296   61.9  0.2989  -79.2
 2.700  0.5475  131.8   1.544   35.3  0.2394   61.2  0.3018  -82.1
 2.800  0.5525  129.8   1.496   33.3  0.2492   60.5  0.3054  -85.0
 2.900  0.5573  127.8   1.453   31.5  0.2589   59.7  0.3077  -87.9
 3.000  0.5627  125.9   1.411   29.6  0.2687   59.0  0.3107  -90.7
 3.100  0.5656  123.9   1.375   28.1  0.2787   58.1  0.3122  -93.5
 3.200  0.5692  121.9   1.341   26.5  0.2888   57.2  0.3144  -96.3
 3.300  0.5735  120.0   1.307   24.9  0.2989   56.4  0.3174  -99.0
 3.400  0.5784  118.1   1.274   23.1  0.3091   55.7  0.3211 -101.7
 3.500  0.5839  116.2   1.243   21.3  0.3193   55.0  0.3254 -104.3
 3.600  0.5876  114.4   1.216   19.9  0.3294   53.9  0.3252 -107.2
 3.700  0.5919  112.7   1.190   18.5  0.3395   52.8  0.3259 -110.1
 3.800  0.5967  111.0   1.165   17.1  0.3498   51.8  0.3275 -113.0
 3.900  0.6020  109.3   1.141   15.5  0.3602   50.8  0.3298 -115.9
 4.000  0.6078  107.7   1.117   13.9  0.3707   49.9  0.3330 -118.7
 4.100  0.6104  106.1   1.095   12.6  0.3805   48.6  0.3326 -122.1
 4.200  0.6135  104.5   1.074   11.3  0.3904   47.4  0.3333 -125.5
 4.300  0.6171  103.0   1.053   10.0  0.4005   46.3  0.3352 -128.8
 4.400  0.6211  101.4   1.033    8.6  0.4107   45.2  0.3382 -132.2
 4.500  0.6255   99.9   1.014    7.1  0.4211   44.2  0.3423 -135.4
 4.600  0.6301   98.4   0.995    6.1  0.4302   43.0  0.3444 -139.0
 4.700  0.6352   97.0   0.977    5.1  0.4395   41.8  0.3477 -142.5
 4.800  0.6406   95.6   0.958    4.0  0.4490   40.6  0.3523 -145.9
 4.900  0.6464   94.2   0.940    2.9  0.4587   39.5  0.3582 -149.2
 5.000  0.6526   92.8   0.923    1.7  0.4685   38.5  0.3652 -152.4
 5.100  0.6538   91.5   0.910    0.8  0.4769   37.2  0.3710 -155.5
 5.200  0.6554   90.2   0.898   -0.1  0.4855   35.9  0.3779 -158.6
 5.300  0.6573   88.9   0.885   -1.0  0.4944   34.6  0.3857 -161.5
 5.400  0.6595   87.6   0.873   -1.9  0.5035   33.5  0.3946 -164.2
 5.500  0.6621   86.3   0.861   -2.9  0.5128   32.3  0.4043 -166.9
 5.600  0.6633   85.1   0.849   -3.6  0.5200   31.0  0.4093 -169.4
 5.700  0.6647   84.0   0.838   -4.3  0.5274   29.8  0.4151 -171.8
 5.800  0.6664   82.9   0.826   -5.0  0.5351   28.5  0.4217 -174.2
 5.900  0.6684   81.7   0.815   -5.7  0.5430   27.4  0.4289 -176.5
 6.000  0.6706   80.6   0.804   -6.5  0.5511   26.2  0.4368 -178.7
!
!  f       NFmin   Gammaopt  rn/50
! GHz       dB    MAG  ANG    -
 0.450      1.26  0.12  111   0.13
 0.900      1.57  0.23  157   0.14
 1.900      2.62  0.47 -146   0.18
 2.400      3.24  0.54 -130   0.37
!
! (c) 2017  Infineon Technologies AG, Munich