! Infineon Technologies  Discrete & RF Semiconductors
! BFR93AW
! VCE =  3.0 V,  IC =  32 mA
! Common Emitter S-Parameters:                            Jan 2017
# GHz  S  MA  R  50
!  f         S11            S21            S12            S22
! GHz     MAG   ANG      MAG   ANG      MAG   ANG      MAG   ANG
 0.010  0.4444  -16.2  50.577  171.9  0.0027   80.2  0.9689   -6.4
 0.020  0.4515  -32.0  50.032  164.3  0.0059   80.8  0.9471  -13.0
 0.030  0.4270  -44.8  46.839  158.5  0.0082   73.1  0.8950  -17.7
 0.040  0.4257  -58.4  44.189  152.0  0.0105   68.8  0.8496  -22.9
 0.050  0.4476  -71.3  42.183  144.7  0.0129   66.1  0.8121  -28.7
 0.060  0.4331  -79.1  39.451  141.6  0.0143   64.8  0.7657  -30.9
 0.070  0.4271  -87.4  36.847  138.2  0.0157   63.8  0.7205  -33.3
 0.080  0.4301  -95.6  34.401  134.1  0.0171   62.9  0.6768  -36.1
 0.090  0.4418 -103.6  32.148  129.5  0.0185   62.1  0.6349  -39.2
 0.100  0.4616 -111.1  30.132  124.3  0.0199   61.5  0.5952  -42.8
 0.110  0.4572 -115.3  28.507  122.5  0.0208   60.8  0.5673  -43.7
 0.120  0.4553 -119.6  26.911  120.6  0.0217   60.2  0.5395  -44.6
 0.130  0.4559 -123.9  25.352  118.3  0.0226   59.6  0.5119  -45.7
 0.140  0.4591 -128.1  23.836  115.8  0.0235   59.0  0.4845  -46.9
 0.150  0.4648 -132.3  22.371  113.0  0.0244   58.5  0.4573  -48.2
 0.200  0.4675 -144.7  17.539  105.9  0.0281   60.9  0.3756  -49.7
 0.250  0.4706 -153.5  14.370  100.8  0.0331   61.9  0.3233  -49.7
 0.300  0.4713 -159.6  12.125   97.2  0.0367   63.9  0.2873  -49.0
 0.350  0.4717 -163.9  10.682   94.8  0.0413   65.6  0.2663  -48.3
 0.400  0.4747 -168.2   9.265   91.6  0.0459   66.9  0.2453  -47.5
 0.450  0.4755 -171.3   8.358   89.7  0.0503   67.8  0.2331  -47.1
 0.500  0.4776 -174.4   7.462   87.3  0.0548   68.6  0.2209  -46.6
 0.600  0.4814 -179.6   6.272   83.7  0.0645   69.1  0.2057  -46.1
 0.700  0.4828  176.6   5.394   80.5  0.0732   70.3  0.1952  -46.0
 0.800  0.4871  172.8   4.745   77.4  0.0837   70.9  0.1878  -46.8
 0.900  0.4890  169.5   4.222   74.6  0.0930   70.4  0.1825  -48.2
 1.000  0.4933  166.4   3.829   71.9  0.1027   70.3  0.1768  -49.5
 1.100  0.4971  163.4   3.497   69.4  0.1126   70.0  0.1740  -51.4
 1.200  0.5000  160.7   3.220   66.8  0.1219   69.5  0.1704  -53.3
 1.300  0.5037  158.2   2.984   64.4  0.1317   69.1  0.1686  -56.0
 1.400  0.5085  155.8   2.792   62.0  0.1415   68.5  0.1652  -59.1
 1.500  0.5137  153.4   2.615   59.7  0.1510   68.0  0.1637  -62.3
 1.600  0.5165  150.9   2.468   57.3  0.1609   67.1  0.1641  -65.3
 1.700  0.5212  148.5   2.338   55.2  0.1705   66.6  0.1625  -69.1
 1.800  0.5274  146.4   2.226   52.9  0.1803   65.6  0.1625  -72.9
 1.900  0.5306  144.3   2.122   50.9  0.1904   65.1  0.1635  -76.6
 2.000  0.5326  142.3   2.025   48.6  0.1999   64.2  0.1658  -80.8
 2.100  0.5381  140.1   1.943   46.6  0.2096   63.3  0.1676  -84.8
 2.200  0.5444  137.9   1.863   44.4  0.2194   62.4  0.1702  -88.7
 2.300  0.5480  136.0   1.795   42.5  0.2290   61.5  0.1739  -92.6
 2.400  0.5521  134.2   1.730   40.4  0.2387   60.6  0.1783  -96.3
 2.500  0.5564  132.3   1.672   38.6  0.2483   59.6  0.1829  -99.8
 2.600  0.5613  130.4   1.615   36.6  0.2579   58.7  0.1882 -103.2
 2.700  0.5647  128.5   1.565   34.9  0.2676   57.7  0.1932 -106.4
 2.800  0.5686  126.7   1.517   33.0  0.2773   56.7  0.1987 -109.4
 2.900  0.5730  124.8   1.474   31.3  0.2866   55.7  0.2030 -112.4
 3.000  0.5779  123.0   1.433   29.4  0.2960   54.7  0.2078 -115.3
 3.100  0.5805  121.2   1.398   27.9  0.3051   53.6  0.2112 -118.2
 3.200  0.5838  119.4   1.363   26.4  0.3144   52.6  0.2151 -121.0
 3.300  0.5875  117.7   1.330   24.8  0.3237   51.6  0.2194 -123.7
 3.400  0.5918  115.9   1.298   23.1  0.3332   50.7  0.2243 -126.3
 3.500  0.5967  114.2   1.267   21.3  0.3427   49.8  0.2296 -128.8
 3.600  0.6000  112.5   1.241   19.9  0.3516   48.6  0.2318 -131.9
 3.700  0.6037  110.9   1.215   18.5  0.3607   47.5  0.2346 -134.9
 3.800  0.6080  109.3   1.191   17.0  0.3699   46.4  0.2381 -137.8
 3.900  0.6127  107.7   1.167   15.5  0.3793   45.4  0.2422 -140.7
 4.000  0.6179  106.1   1.144   13.9  0.3887   44.4  0.2468 -143.4
 4.100  0.6204  104.6   1.123   12.6  0.3970   43.1  0.2495 -146.8
 4.200  0.6234  103.1   1.102   11.3  0.4055   41.9  0.2531 -150.2
 4.300  0.6268  101.7   1.081    9.9  0.4142   40.8  0.2576 -153.5
 4.400  0.6305  100.2   1.062    8.5  0.4230   39.7  0.2628 -156.6
 4.500  0.6347   98.8   1.043    7.0  0.4320   38.6  0.2688 -159.6
 4.600  0.6391   97.4   1.024    6.0  0.4396   37.4  0.2742 -162.9
 4.700  0.6438   96.1   1.006    4.9  0.4473   36.3  0.2806 -166.1
 4.800  0.6489   94.7   0.988    3.8  0.4552   35.2  0.2877 -169.1
 4.900  0.6543   93.4   0.970    2.7  0.4633   34.1  0.2956 -172.0
 5.000  0.6601   92.1   0.953    1.5  0.4715   33.1  0.3042 -174.7
 5.100  0.6616   90.9   0.940    0.6  0.4785   31.9  0.3124 -177.2
 5.200  0.6634   89.6   0.928   -0.3  0.4858   30.7  0.3211 -179.5
 5.300  0.6655   88.4   0.916   -1.3  0.4932   29.6  0.3303  178.3
 5.400  0.6679   87.2   0.904   -2.3  0.5009   28.5  0.3399  176.3
 5.500  0.6706   86.0   0.892   -3.3  0.5087   27.4  0.3500  174.3
 5.600  0.6716   84.9   0.881   -4.1  0.5146   26.2  0.3564  172.4
 5.700  0.6729   83.8   0.869   -4.9  0.5208   25.1  0.3631  170.6
 5.800  0.6744   82.7   0.858   -5.7  0.5271   24.0  0.3702  168.9
 5.900  0.6761   81.6   0.848   -6.5  0.5337   22.9  0.3776  167.2
 6.000  0.6781   80.5   0.837   -7.4  0.5404   21.9  0.3853  165.6
!
!  f       NFmin   Gammaopt  rn/50
! GHz       dB    MAG  ANG    -
 0.450      1.86  0.19  175   0.16
 0.900      2.12  0.26 -174   0.16
 1.900      3.16  0.51 -135   0.30
 2.400      3.82  0.56 -124   0.57
!
! (c) 2017  Infineon Technologies AG, Munich