! Infineon Technologies  Discrete & RF Semiconductors
! BFR93AW
! VCE =  4.0 V,  IC =  75 mA
! Common Emitter S-Parameters:                            Jan 2017
# GHz  S  MA  R  50
!  f         S11            S21            S12            S22
! GHz     MAG   ANG      MAG   ANG      MAG   ANG      MAG   ANG
 0.010  0.3012  -29.5  58.615  169.2  0.0029   75.8  0.9096   -8.0
 0.020  0.3325  -55.2  56.785  159.2  0.0054   75.4  0.8706  -16.5
 0.030  0.3291  -73.4  51.492  152.8  0.0074   67.9  0.8020  -21.3
 0.040  0.3577  -90.3  46.972  145.1  0.0096   63.6  0.7401  -27.0
 0.050  0.4118 -103.7  43.468  136.0  0.0117   60.9  0.6868  -33.7
 0.060  0.4124 -111.1  40.088  133.3  0.0128   60.2  0.6417  -35.2
 0.070  0.4197 -118.3  36.812  130.1  0.0139   59.7  0.5972  -36.8
 0.080  0.4335 -125.2  33.670  126.4  0.0149   59.2  0.5532  -38.8
 0.090  0.4531 -131.6  30.704  121.9  0.0160   58.8  0.5100  -41.1
 0.100  0.4778 -137.4  27.969  116.4  0.0171   58.4  0.4677  -43.8
 0.110  0.4794 -140.6  26.311  115.0  0.0179   59.0  0.4461  -44.0
 0.120  0.4824 -143.7  24.672  113.3  0.0187   59.6  0.4245  -44.3
 0.130  0.4869 -146.8  23.057  111.4  0.0195   60.2  0.4029  -44.5
 0.140  0.4927 -149.8  21.469  109.3  0.0203   60.6  0.3813  -44.9
 0.150  0.4999 -152.7  19.917  106.8  0.0211   61.1  0.3597  -45.2
 0.200  0.5104 -161.0  15.318  101.0  0.0249   64.6  0.3042  -43.9
 0.250  0.5160 -166.9  12.436   96.8  0.0296   65.9  0.2706  -42.3
 0.300  0.5175 -170.8  10.448   93.9  0.0337   67.9  0.2482  -40.8
 0.350  0.5189 -173.8   9.190   91.8  0.0386   69.8  0.2363  -39.9
 0.400  0.5217 -176.8   7.948   89.1  0.0436   71.2  0.2244  -39.0
 0.450  0.5230 -179.2   7.169   87.5  0.0482   72.1  0.2171  -38.9
 0.500  0.5252  178.4   6.396   85.5  0.0529   72.9  0.2099  -38.7
 0.600  0.5280  174.4   5.379   82.2  0.0631   73.2  0.2010  -39.2
 0.700  0.5301  171.1   4.634   79.3  0.0724   74.1  0.1952  -40.1
 0.800  0.5324  168.0   4.079   76.4  0.0821   73.7  0.1904  -41.9
 0.900  0.5338  164.8   3.635   73.7  0.0918   73.4  0.1868  -43.9
 1.000  0.5381  162.4   3.303   71.2  0.1018   73.1  0.1822  -46.4
 1.100  0.5426  159.7   3.021   68.7  0.1120   72.7  0.1806  -48.9
 1.200  0.5445  157.0   2.783   66.2  0.1217   72.2  0.1780  -51.5
 1.300  0.5482  154.6   2.585   63.8  0.1316   71.4  0.1755  -54.8
 1.400  0.5524  152.4   2.422   61.4  0.1420   70.8  0.1725  -58.4
 1.500  0.5565  150.2   2.273   59.2  0.1514   70.2  0.1716  -62.0
 1.600  0.5603  147.8   2.149   56.8  0.1618   69.3  0.1713  -65.5
 1.700  0.5620  145.7   2.037   54.7  0.1719   68.4  0.1701  -69.7
 1.800  0.5682  143.4   1.944   52.4  0.1821   67.5  0.1703  -73.8
 1.900  0.5719  141.6   1.855   50.5  0.1923   66.7  0.1719  -77.7
 2.000  0.5734  139.4   1.774   48.2  0.2019   65.8  0.1734  -82.2
 2.100  0.5784  137.3   1.704   46.2  0.2121   64.8  0.1756  -86.5
 2.200  0.5842  135.2   1.637   44.1  0.2224   63.9  0.1788  -90.7
 2.300  0.5875  133.3   1.579   42.1  0.2322   62.9  0.1824  -94.7
 2.400  0.5915  131.4   1.523   40.0  0.2421   61.9  0.1868  -98.6
 2.500  0.5945  129.5   1.473   38.3  0.2521   60.9  0.1912 -102.2
 2.600  0.5981  127.7   1.425   36.4  0.2621   59.9  0.1964 -105.7
 2.700  0.6019  125.8   1.383   34.7  0.2718   58.8  0.2013 -108.9
 2.800  0.6063  124.0   1.342   32.9  0.2815   57.8  0.2069 -112.0
 2.900  0.6092  122.1   1.305   31.2  0.2912   56.7  0.2114 -115.1
 3.000  0.6127  120.3   1.270   29.5  0.3010   55.7  0.2165 -118.1
 3.100  0.6144  118.5   1.240   28.1  0.3104   54.5  0.2196 -121.1
 3.200  0.6167  116.7   1.212   26.6  0.3199   53.4  0.2234 -123.9
 3.300  0.6197  115.0   1.184   25.0  0.3295   52.3  0.2276 -126.7
 3.400  0.6231  113.2   1.157   23.3  0.3392   51.3  0.2324 -129.4
 3.500  0.6272  111.5   1.131   21.6  0.3490   50.4  0.2376 -131.9
 3.600  0.6298  109.8   1.109   20.3  0.3580   49.1  0.2394 -135.0
 3.700  0.6329  108.2   1.087   19.0  0.3673   47.9  0.2420 -138.0
 3.800  0.6365  106.6   1.066   17.6  0.3766   46.7  0.2452 -141.0
 3.900  0.6407  105.0   1.046   16.1  0.3861   45.6  0.2490 -143.9
 4.000  0.6453  103.4   1.026   14.6  0.3958   44.6  0.2535 -146.7
 4.100  0.6469  101.9   1.008   13.4  0.4040   43.3  0.2561 -150.1
 4.200  0.6489  100.5   0.991   12.1  0.4125   42.1  0.2595 -153.4
 4.300  0.6513   99.0   0.974   10.8  0.4211   40.9  0.2639 -156.7
 4.400  0.6541   97.6   0.958    9.5  0.4299   39.7  0.2690 -159.8
 4.500  0.6573   96.2   0.942    8.1  0.4389   38.6  0.2749 -162.8
 4.600  0.6607   94.9   0.926    7.1  0.4463   37.4  0.2799 -166.0
 4.700  0.6645   93.6   0.911    6.2  0.4539   36.2  0.2858 -169.1
 4.800  0.6686   92.3   0.896    5.1  0.4617   35.1  0.2925 -172.1
 4.900  0.6730   91.0   0.881    4.1  0.4697   34.0  0.3000 -174.9
 5.000  0.6778   89.8   0.867    3.0  0.4778   33.0  0.3081 -177.6
 5.100  0.6783   88.6   0.857    2.2  0.4845   31.8  0.3158 -180.0
 5.200  0.6791   87.3   0.848    1.3  0.4915   30.5  0.3240  177.7
 5.300  0.6802   86.1   0.838    0.4  0.4987   29.4  0.3328  175.6
 5.400  0.6816   84.8   0.829   -0.5  0.5060   28.2  0.3419  173.5
 5.500  0.6834   83.6   0.820   -1.4  0.5136   27.1  0.3515  171.6
 5.600  0.6838   82.5   0.811   -2.1  0.5193   25.9  0.3573  169.8
 5.700  0.6845   81.4   0.802   -2.8  0.5253   24.8  0.3634  168.1
 5.800  0.6854   80.4   0.793   -3.6  0.5314   23.7  0.3698  166.4
 5.900  0.6865   79.3   0.784   -4.3  0.5377   22.6  0.3766  164.8
 6.000  0.6879   78.2   0.775   -5.1  0.5442   21.6  0.3836  163.2
!
!  f       NFmin   Gammaopt  rn/50
! GHz       dB    MAG  ANG    -
!
! noise parameter not available yet for this operation point!
!
! (c) 2017  Infineon Technologies AG, Munich