! Infineon Technologies  Discrete & RF Semiconductors
! BFR93AW
! VCE =  6.0 V,  IC =  5.0 mA
! Common Emitter S-Parameters:                            Jan 2017
# GHz  S  MA  R  50
!  f         S11            S21            S12            S22
! GHz     MAG   ANG      MAG   ANG      MAG   ANG      MAG   ANG
 0.010  0.8495   -4.9  15.323  176.9  0.0031   90.0  0.9993   -1.9
 0.020  0.8577   -9.5  15.408  174.1  0.0060   91.2  0.9879   -4.0
 0.030  0.8401  -13.9  15.216  171.2  0.0095   83.7  0.9811   -5.9
 0.040  0.8277  -18.4  15.066  168.2  0.0131   80.3  0.9754   -7.8
 0.050  0.8206  -23.1  14.957  165.1  0.0167   78.3  0.9708   -9.7
 0.060  0.8058  -27.3  14.666  162.5  0.0194   75.2  0.9567  -11.2
 0.070  0.7954  -31.6  14.406  159.9  0.0221   72.9  0.9433  -12.8
 0.080  0.7896  -36.0  14.177  157.1  0.0248   71.0  0.9307  -14.4
 0.090  0.7885  -40.4  13.983  154.3  0.0276   69.6  0.9188  -16.1
 0.100  0.7921  -44.8  13.823  151.4  0.0304   68.4  0.9077  -17.8
 0.110  0.7753  -48.3  13.493  149.3  0.0325   66.3  0.8914  -19.0
 0.120  0.7615  -52.0  13.182  147.0  0.0346   64.5  0.8755  -20.2
 0.130  0.7508  -55.7  12.893  144.7  0.0367   62.9  0.8599  -21.4
 0.140  0.7436  -59.6  12.626  142.2  0.0389   61.5  0.8448  -22.7
 0.150  0.7397  -63.5  12.383  139.7  0.0411   60.2  0.8302  -24.1
 0.200  0.6922  -79.6  10.985  130.2  0.0478   54.3  0.7561  -28.3
 0.250  0.6553  -93.2   9.753  122.3  0.0540   50.8  0.6932  -31.1
 0.300  0.6216 -104.5   8.658  116.2  0.0579   47.6  0.6396  -32.8
 0.350  0.5957 -113.0   7.817  111.9  0.0608   46.2  0.6025  -33.6
 0.400  0.5839 -122.0   7.031  106.6  0.0637   45.0  0.5656  -34.6
 0.450  0.5680 -128.7   6.425  103.3  0.0662   44.6  0.5412  -35.0
 0.500  0.5601 -135.6   5.845   99.4  0.0687   44.3  0.5168  -35.4
 0.600  0.5460 -146.0   5.001   93.5  0.0727   44.9  0.4840  -36.0
 0.700  0.5378 -154.3   4.349   88.6  0.0761   46.5  0.4620  -36.6
 0.800  0.5340 -161.6   3.858   84.0  0.0808   48.2  0.4463  -37.5
 0.900  0.5294 -167.8   3.454   80.1  0.0843   49.5  0.4343  -38.5
 1.000  0.5314 -173.2   3.144   76.5  0.0892   51.5  0.4247  -39.7
 1.100  0.5317 -178.2   2.878   73.1  0.0939   53.6  0.4183  -41.1
 1.200  0.5343  177.3   2.657   69.8  0.0993   54.7  0.4114  -42.7
 1.300  0.5335  173.4   2.467   66.7  0.1049   56.6  0.4072  -44.5
 1.400  0.5388  169.7   2.311   63.8  0.1107   58.1  0.4023  -46.6
 1.500  0.5442  166.1   2.170   61.1  0.1173   59.5  0.3989  -48.6
 1.600  0.5468  162.8   2.048   58.2  0.1240   60.5  0.3973  -50.8
 1.700  0.5511  159.6   1.942   55.7  0.1312   61.8  0.3941  -53.4
 1.800  0.5554  156.4   1.851   53.0  0.1392   62.4  0.3925  -55.8
 1.900  0.5602  153.6   1.764   50.7  0.1470   63.2  0.3911  -58.4
 2.000  0.5647  150.9   1.684   48.1  0.1552   63.7  0.3909  -61.2
 2.100  0.5686  148.1   1.616   45.8  0.1643   63.9  0.3908  -64.1
 2.200  0.5738  145.3   1.550   43.4  0.1734   64.1  0.3917  -66.9
 2.300  0.5791  142.9   1.493   41.2  0.1828   64.3  0.3929  -69.9
 2.400  0.5855  140.5   1.438   38.9  0.1923   64.4  0.3952  -72.8
 2.500  0.5887  138.1   1.388   36.9  0.2022   64.2  0.3972  -75.7
 2.600  0.5929  135.8   1.339   34.8  0.2122   64.0  0.4002  -78.6
 2.700  0.5976  133.5   1.297   33.0  0.2225   63.6  0.4030  -81.5
 2.800  0.6033  131.2   1.256   31.0  0.2328   63.3  0.4068  -84.3
 2.900  0.6069  129.0   1.219   29.2  0.2440   62.7  0.4092  -87.1
 3.000  0.6113  126.8   1.183   27.3  0.2552   62.2  0.4125  -89.9
 3.100  0.6135  124.6   1.152   25.9  0.2666   61.3  0.4134  -92.8
 3.200  0.6165  122.5   1.122   24.4  0.2781   60.5  0.4154  -95.7
 3.300  0.6205  120.4   1.093   22.8  0.2896   59.8  0.4183  -98.5
 3.400  0.6252  118.3   1.064   21.1  0.3011   59.1  0.4223 -101.3
 3.500  0.6308  116.2   1.037   19.3  0.3127   58.5  0.4273 -104.0
 3.600  0.6333  114.3   1.015   18.1  0.3244   57.3  0.4264 -107.0
 3.700  0.6365  112.3   0.993   16.8  0.3363   56.1  0.4267 -110.0
 3.800  0.6405  110.4   0.971   15.5  0.3482   55.0  0.4281 -112.9
 3.900  0.6451  108.5   0.950   14.1  0.3603   54.0  0.4307 -115.9
 4.000  0.6504  106.7   0.930   12.7  0.3725   53.1  0.4344 -118.8
 4.100  0.6520  105.0   0.912   11.6  0.3836   51.7  0.4327 -122.2
 4.200  0.6542  103.3   0.895   10.5  0.3950   50.4  0.4326 -125.6
 4.300  0.6569  101.6   0.878    9.4  0.4065   49.1  0.4339 -129.0
 4.400  0.6603   99.9   0.861    8.2  0.4183   47.9  0.4368 -132.3
 4.500  0.6642   98.2   0.845    6.9  0.4302   46.8  0.4411 -135.6
 4.600  0.6669   96.7   0.830    6.2  0.4404   45.4  0.4416 -139.1
 4.700  0.6701   95.2   0.816    5.4  0.4508   44.0  0.4437 -142.6
 4.800  0.6738   93.7   0.801    4.6  0.4615   42.7  0.4474 -146.0
 4.900  0.6779   92.2   0.787    3.8  0.4725   41.5  0.4527 -149.3
 5.000  0.6824   90.8   0.773    2.9  0.4836   40.3  0.4595 -152.6
 5.100  0.6824   89.4   0.764    2.3  0.4926   38.8  0.4635 -155.7
 5.200  0.6828   88.1   0.756    1.6  0.5020   37.3  0.4689 -158.8
 5.300  0.6836   86.7   0.747    1.0  0.5116   35.9  0.4757 -161.8
 5.400  0.6848   85.4   0.739    0.3  0.5216   34.6  0.4836 -164.7
 5.500  0.6864   84.0   0.731   -0.4  0.5318   33.3  0.4928 -167.5
 5.600  0.6858   82.8   0.724   -0.9  0.5392   31.9  0.4959 -170.1
 5.700  0.6854   81.6   0.717   -1.4  0.5468   30.5  0.5000 -172.6
 5.800  0.6854   80.5   0.710   -1.9  0.5548   29.2  0.5051 -175.0
 5.900  0.6857   79.3   0.703   -2.4  0.5631   27.9  0.5110 -177.4
 6.000  0.6862   78.1   0.696   -2.9  0.5716   26.7  0.5179 -179.8
!
!  f       NFmin   Gammaopt  rn/50
! GHz       dB    MAG  ANG    -
 0.450      1.18  0.25   77   0.14
 0.900      1.50  0.29  137   0.15
 1.900      2.75  0.49 -153   0.19
 2.400      3.37  0.57 -135   0.38
!
! (c) 2017  Infineon Technologies AG, Munich