! Infineon Technologies  Discrete & RF Semiconductors
! BFR93AW
! VCE =  4.0 V,  IC =  30 mA
! Common Emitter S-Parameters:                            Jan 2017
# GHz  S  MA  R  50
!  f         S11            S21            S12            S22
! GHz     MAG   ANG      MAG   ANG      MAG   ANG      MAG   ANG
 0.010  0.4914  -13.9  48.192  172.4  0.0028   85.2  0.9746   -5.7
 0.020  0.4972  -27.7  47.855  165.4  0.0053   82.8  0.9527  -11.7
 0.030  0.4693  -38.9  45.102  159.8  0.0077   75.7  0.9072  -16.1
 0.040  0.4613  -51.1  42.826  153.6  0.0102   72.0  0.8675  -20.9
 0.050  0.4741  -63.1  41.106  146.8  0.0127   69.7  0.8346  -26.2
 0.060  0.4553  -70.6  38.604  143.7  0.0141   67.2  0.7908  -28.3
 0.070  0.4449  -78.6  36.230  140.2  0.0156   65.1  0.7481  -30.6
 0.080  0.4434  -86.7  34.013  136.2  0.0170   63.4  0.7068  -33.3
 0.090  0.4509  -94.8  31.985  131.6  0.0185   61.9  0.6672  -36.2
 0.100  0.4670 -102.5  30.184  126.5  0.0200   60.7  0.6296  -39.5
 0.110  0.4597 -106.9  28.605  124.7  0.0210   59.8  0.6018  -40.4
 0.120  0.4552 -111.5  27.059  122.6  0.0219   59.0  0.5742  -41.4
 0.130  0.4536 -116.1  25.552  120.4  0.0229   58.3  0.5467  -42.4
 0.140  0.4550 -120.7  24.090  117.8  0.0238   57.6  0.5195  -43.6
 0.150  0.4592 -125.2  22.682  114.9  0.0248   57.0  0.4925  -44.9
 0.200  0.4589 -138.9  17.891  107.5  0.0284   60.2  0.4082  -46.3
 0.250  0.4591 -148.7  14.712  102.2  0.0327   61.0  0.3551  -46.3
 0.300  0.4576 -155.4  12.428   98.4  0.0367   62.6  0.3170  -45.5
 0.350  0.4572 -160.1  10.962   95.8  0.0409   64.4  0.2954  -44.8
 0.400  0.4599 -164.8   9.525   92.5  0.0451   65.8  0.2739  -43.9
 0.450  0.4591 -168.3   8.598   90.6  0.0495   66.7  0.2613  -43.4
 0.500  0.4601 -171.8   7.682   88.2  0.0540   67.4  0.2487  -42.8
 0.600  0.4634 -177.2   6.459   84.4  0.0633   68.4  0.2325  -42.2
 0.700  0.4668  178.7   5.560   81.3  0.0715   69.8  0.2222  -42.1
 0.800  0.4697  174.6   4.889   78.1  0.0818   70.5  0.2143  -42.7
 0.900  0.4705  171.0   4.354   75.3  0.0910   70.1  0.2081  -43.8
 1.000  0.4750  167.7   3.950   72.6  0.0995   70.1  0.2024  -45.1
 1.100  0.4797  164.9   3.604   70.1  0.1093   70.0  0.1994  -46.6
 1.200  0.4832  161.9   3.318   67.5  0.1190   69.6  0.1957  -48.3
 1.300  0.4869  159.1   3.076   65.0  0.1282   69.1  0.1931  -50.7
 1.400  0.4917  156.7   2.876   62.6  0.1377   68.7  0.1898  -53.4
 1.500  0.4952  154.4   2.695   60.4  0.1468   68.2  0.1871  -56.1
 1.600  0.5002  151.8   2.543   57.9  0.1566   67.3  0.1873  -59.0
 1.700  0.5029  149.7   2.408   55.8  0.1665   67.0  0.1854  -62.3
 1.800  0.5098  147.3   2.293   53.5  0.1760   66.1  0.1841  -65.6
 1.900  0.5143  145.3   2.186   51.5  0.1856   65.4  0.1842  -69.2
 2.000  0.5172  143.0   2.085   49.2  0.1951   64.6  0.1853  -72.9
 2.100  0.5221  140.8   2.000   47.2  0.2046   63.7  0.1865  -76.7
 2.200  0.5278  138.7   1.918   45.0  0.2142   62.9  0.1885  -80.4
 2.300  0.5325  136.8   1.848   43.1  0.2237   62.0  0.1909  -84.1
 2.400  0.5378  134.9   1.781   41.0  0.2333   61.2  0.1940  -87.7
 2.500  0.5413  133.0   1.720   39.2  0.2427   60.3  0.1974  -91.2
 2.600  0.5454  131.1   1.661   37.2  0.2522   59.4  0.2015  -94.6
 2.700  0.5497  129.2   1.610   35.5  0.2616   58.5  0.2056  -97.8
 2.800  0.5545  127.4   1.560   33.6  0.2710   57.6  0.2104 -100.8
 2.900  0.5584  125.5   1.516   31.9  0.2806   56.6  0.2143 -103.9
 3.000  0.5630  123.6   1.474   30.1  0.2902   55.7  0.2187 -106.8
 3.100  0.5658  121.8   1.437   28.6  0.2994   54.6  0.2215 -109.8
 3.200  0.5691  120.0   1.402   27.1  0.3086   53.6  0.2248 -112.6
 3.300  0.5730  118.2   1.367   25.4  0.3180   52.7  0.2287 -115.4
 3.400  0.5774  116.5   1.334   23.7  0.3274   51.7  0.2332 -118.1
 3.500  0.5823  114.8   1.302   21.9  0.3369   50.9  0.2381 -120.7
 3.600  0.5860  113.2   1.275   20.5  0.3460   49.7  0.2395 -123.8
 3.700  0.5902  111.5   1.249   19.1  0.3552   48.6  0.2415 -126.8
 3.800  0.5948  109.9   1.223   17.6  0.3645   47.5  0.2442 -129.7
 3.900  0.5999  108.3   1.199   16.0  0.3740   46.5  0.2476 -132.6
 4.000  0.6055  106.8   1.175   14.4  0.3836   45.5  0.2515 -135.4
 4.100  0.6086  105.3   1.153   13.1  0.3921   44.3  0.2534 -138.9
 4.200  0.6122  103.8   1.131   11.8  0.4007   43.1  0.2562 -142.4
 4.300  0.6161  102.4   1.110   10.4  0.4095   42.0  0.2598 -145.7
 4.400  0.6205  100.9   1.090    8.9  0.4184   40.9  0.2644 -149.0
 4.500  0.6252   99.5   1.070    7.4  0.4275   39.9  0.2698 -152.1
 4.600  0.6295   98.1   1.051    6.4  0.4353   38.7  0.2744 -155.6
 4.700  0.6341   96.7   1.032    5.3  0.4433   37.6  0.2799 -158.9
 4.800  0.6391   95.4   1.013    4.2  0.4514   36.5  0.2864 -162.1
 4.900  0.6444   94.0   0.995    3.0  0.4597   35.4  0.2937 -165.2
 5.000  0.6501   92.7   0.977    1.8  0.4682   34.4  0.3018 -168.1
 5.100  0.6518   91.5   0.964    0.9  0.4755   33.2  0.3094 -170.8
 5.200  0.6538   90.2   0.951   -0.1  0.4830   32.0  0.3178 -173.4
 5.300  0.6562   89.0   0.938   -1.1  0.4908   30.8  0.3267 -175.9
 5.400  0.6588   87.8   0.925   -2.1  0.4987   29.7  0.3362 -178.2
 5.500  0.6617   86.6   0.913   -3.1  0.5068   28.6  0.3462  179.6
 5.600  0.6630   85.5   0.901   -3.9  0.5130   27.4  0.3526  177.6
 5.700  0.6645   84.3   0.888   -4.8  0.5194   26.3  0.3594  175.7
 5.800  0.6663   83.2   0.876   -5.6  0.5260   25.2  0.3666  173.9
 5.900  0.6683   82.1   0.865   -6.5  0.5328   24.1  0.3742  172.1
 6.000  0.6706   81.0   0.853   -7.4  0.5398   23.1  0.3821  170.4
!
!  f       NFmin   Gammaopt  rn/50
! GHz       dB    MAG  ANG    -
 0.450      1.79  0.18  173   0.16
 0.900      2.06  0.26 -175   0.16
 1.900      3.10  0.50 -135   0.29
 2.400      3.75  0.55 -124   0.55
!
! (c) 2017  Infineon Technologies AG, Munich