! Infineon Technologies  Discrete & RF Semiconductors
! BFR93AW
! VCE =  11. V,  IC =  10 mA
! Common Emitter S-Parameters:                            Jan 2017
# GHz  S  MA  R  50
!  f         S11            S21            S12            S22
! GHz     MAG   ANG      MAG   ANG      MAG   ANG      MAG   ANG
 0.010  0.7712   -6.3  25.404  175.6  0.0026   82.3  0.9921   -2.7
 0.020  0.7818  -12.5  25.630  171.8  0.0057   88.2  0.9831   -5.7
 0.030  0.7579  -18.2  25.017  168.1  0.0084   80.3  0.9677   -8.2
 0.040  0.7420  -24.3  24.511  164.3  0.0112   76.2  0.9542  -10.8
 0.050  0.7346  -30.5  24.120  160.3  0.0140   73.8  0.9426  -13.4
 0.060  0.7127  -35.5  23.367  157.4  0.0162   71.1  0.9198  -15.2
 0.070  0.6964  -40.7  22.679  154.2  0.0184   69.1  0.8980  -17.2
 0.080  0.6862  -46.1  22.063  150.9  0.0207   67.5  0.8773  -19.2
 0.090  0.6822  -51.6  21.524  147.4  0.0229   66.2  0.8577  -21.3
 0.100  0.6847  -57.2  21.069  143.8  0.0252   65.2  0.8393  -23.5
 0.110  0.6649  -61.1  20.355  141.6  0.0266   63.5  0.8170  -24.7
 0.120  0.6483  -65.2  19.673  139.3  0.0281   61.9  0.7950  -25.9
 0.130  0.6352  -69.4  19.025  136.8  0.0295   60.5  0.7735  -27.2
 0.140  0.6257  -73.9  18.417  134.1  0.0310   59.3  0.7523  -28.6
 0.150  0.6201  -78.4  17.850  131.3  0.0325   58.1  0.7316  -30.0
 0.200  0.5738  -95.3  15.123  122.0  0.0374   54.9  0.6448  -33.4
 0.250  0.5414 -108.8  12.984  114.7  0.0415   52.1  0.5788  -35.1
 0.300  0.5150 -119.5  11.275  109.5  0.0442   52.0  0.5274  -35.9
 0.350  0.4973 -127.2  10.058  105.8  0.0471   52.4  0.4948  -36.0
 0.400  0.4891 -135.3   8.893  101.2  0.0501   52.7  0.4623  -36.1
 0.450  0.4790 -141.2   8.078   98.5  0.0532   53.6  0.4423  -36.0
 0.500  0.4741 -147.2   7.284   95.3  0.0564   54.4  0.4223  -35.8
 0.600  0.4665 -156.1   6.175   90.4  0.0627   56.1  0.3969  -35.6
 0.700  0.4634 -163.5   5.340   86.3  0.0682   58.1  0.3800  -35.6
 0.800  0.4615 -169.5   4.717   82.4  0.0748   59.8  0.3679  -36.1
 0.900  0.4604 -174.9   4.209   79.1  0.0817   60.8  0.3584  -36.8
 1.000  0.4634 -179.7   3.825   75.9  0.0882   62.5  0.3508  -37.8
 1.100  0.4672  176.0   3.497   73.0  0.0958   63.3  0.3459  -38.9
 1.200  0.4678  172.3   3.220   70.1  0.1026   63.7  0.3401  -40.3
 1.300  0.4702  168.5   2.986   67.4  0.1100   64.6  0.3361  -42.0
 1.400  0.4755  165.4   2.794   64.7  0.1180   65.0  0.3317  -43.8
 1.500  0.4796  162.1   2.620   62.3  0.1257   65.2  0.3286  -45.7
 1.600  0.4845  159.2   2.472   59.7  0.1339   65.6  0.3273  -47.7
 1.700  0.4873  156.4   2.341   57.3  0.1420   65.7  0.3243  -50.1
 1.800  0.4930  153.6   2.231   54.9  0.1504   65.5  0.3217  -52.6
 1.900  0.4982  151.1   2.125   52.8  0.1589   65.5  0.3205  -55.2
 2.000  0.5013  148.7   2.028   50.4  0.1679   65.2  0.3201  -57.7
 2.100  0.5067  146.1   1.946   48.2  0.1767   64.9  0.3194  -60.5
 2.200  0.5131  143.5   1.867   45.9  0.1855   64.7  0.3194  -63.4
 2.300  0.5170  141.3   1.798   43.9  0.1947   64.2  0.3201  -66.3
 2.400  0.5217  139.2   1.732   41.7  0.2039   63.8  0.3216  -69.2
 2.500  0.5259  137.0   1.672   39.8  0.2131   63.3  0.3231  -72.0
 2.600  0.5309  134.9   1.613   37.8  0.2223   62.8  0.3254  -74.8
 2.700  0.5359  132.8   1.563   36.0  0.2318   62.2  0.3279  -77.6
 2.800  0.5417  130.7   1.515   34.0  0.2413   61.7  0.3311  -80.4
 2.900  0.5465  128.6   1.471   32.2  0.2510   61.0  0.3331  -83.2
 3.000  0.5519  126.6   1.428   30.3  0.2608   60.3  0.3359  -85.9
 3.100  0.5549  124.6   1.391   28.8  0.2709   59.4  0.3370  -88.6
 3.200  0.5585  122.6   1.356   27.2  0.2810   58.6  0.3388  -91.3
 3.300  0.5628  120.7   1.321   25.5  0.2912   57.8  0.3414  -93.9
 3.400  0.5677  118.8   1.288   23.8  0.3014   57.1  0.3447  -96.5
 3.500  0.5732  116.9   1.256   21.9  0.3117   56.4  0.3487  -99.1
 3.600  0.5771  115.1   1.229   20.5  0.3219   55.3  0.3481 -101.9
 3.700  0.5816  113.3   1.202   19.1  0.3323   54.3  0.3484 -104.8
 3.800  0.5866  111.6   1.177   17.6  0.3427   53.3  0.3495 -107.6
 3.900  0.5922  109.9   1.152   16.0  0.3533   52.4  0.3515 -110.4
 4.000  0.5983  108.2   1.128   14.4  0.3639   51.5  0.3543 -113.2
 4.100  0.6013  106.6   1.106   13.1  0.3737   50.2  0.3531 -116.5
 4.200  0.6048  105.0   1.085   11.8  0.3838   49.0  0.3530 -119.8
 4.300  0.6088  103.5   1.064   10.4  0.3939   47.9  0.3541 -123.1
 4.400  0.6132  101.9   1.044    9.0  0.4042   46.8  0.3564 -126.4
 4.500  0.6180  100.4   1.024    7.5  0.4147   45.8  0.3598 -129.6
 4.600  0.6226   98.9   1.005    6.5  0.4242   44.6  0.3609 -133.1
 4.700  0.6275   97.4   0.986    5.5  0.4339   43.4  0.3633 -136.6
 4.800  0.6329   96.0   0.968    4.4  0.4438   42.2  0.3670 -140.1
 4.900  0.6387   94.6   0.950    3.3  0.4539   41.1  0.3721 -143.4
 5.000  0.6448   93.2   0.932    2.2  0.4641   40.1  0.3784 -146.7
 5.100  0.6465   91.9   0.919    1.3  0.4728   38.7  0.3835 -149.9
 5.200  0.6485   90.5   0.905    0.4  0.4817   37.4  0.3898 -153.0
 5.300  0.6509   89.2   0.892   -0.5  0.4909   36.2  0.3971 -156.0
 5.400  0.6536   87.9   0.880   -1.4  0.5003   35.0  0.4055 -158.8
 5.500  0.6567   86.6   0.867   -2.4  0.5099   33.8  0.4149 -161.6
 5.600  0.6573   85.4   0.855   -3.1  0.5174   32.5  0.4196 -164.2
 5.700  0.6581   84.2   0.843   -3.8  0.5253   31.2  0.4251 -166.7
 5.800  0.6592   83.0   0.832   -4.5  0.5333   30.0  0.4314 -169.2
 5.900  0.6606   81.9   0.820   -5.2  0.5416   28.8  0.4386 -171.6
 6.000  0.6623   80.7   0.809   -6.0  0.5501   27.7  0.4464 -173.9
!
!  f       NFmin   Gammaopt  rn/50
! GHz       dB    MAG  ANG    -
 0.450      1.25  0.15   94   0.13
 0.900      1.55  0.24  150   0.14
 1.900      2.61  0.47 -148   0.18
 2.400      3.24  0.54 -131   0.36
!
! (c) 2017  Infineon Technologies AG, Munich