! Infineon Technologies  Discrete & RF Semiconductors
! BFR93AW
! VCE =  3.0 V,  IC =  10 mA
! Common Emitter S-Parameters:                            Jan 2017
# GHz  S  MA  R  50
!  f         S11            S21            S12            S22
! GHz     MAG   ANG      MAG   ANG      MAG   ANG      MAG   ANG
 0.010  0.7191   -7.9  26.691  175.3  0.0034   86.3  0.9922   -3.6
 0.020  0.7301  -15.6  26.891  170.7  0.0066   85.5  0.9826   -7.3
 0.030  0.7030  -22.5  26.110  166.5  0.0099   78.7  0.9607  -10.5
 0.040  0.6869  -29.9  25.477  162.1  0.0133   75.4  0.9419  -13.8
 0.050  0.6826  -37.5  25.001  157.5  0.0167   73.4  0.9263  -17.2
 0.060  0.6590  -43.2  24.053  154.4  0.0190   70.0  0.8967  -19.4
 0.070  0.6424  -49.3  23.182  151.1  0.0214   67.4  0.8685  -21.7
 0.080  0.6335  -55.7  22.394  147.5  0.0237   65.3  0.8419  -24.2
 0.090  0.6325  -62.1  21.701  143.7  0.0262   63.6  0.8169  -26.8
 0.100  0.6394  -68.5  21.110  139.6  0.0286   62.2  0.7937  -29.6
 0.110  0.6223  -72.8  20.291  137.4  0.0301   60.4  0.7674  -30.9
 0.120  0.6088  -77.3  19.503  135.1  0.0317   58.8  0.7415  -32.3
 0.130  0.5993  -82.0  18.752  132.5  0.0333   57.4  0.7161  -33.8
 0.140  0.5940  -86.8  18.040  129.8  0.0349   56.1  0.6913  -35.5
 0.150  0.5929  -91.7  17.373  126.8  0.0365   54.9  0.6670  -37.2
 0.200  0.5609 -109.3  14.417  117.7  0.0405   51.5  0.5710  -41.0
 0.250  0.5430 -122.2  12.213  110.8  0.0452   50.2  0.5016  -43.0
 0.300  0.5296 -132.2  10.513  105.8  0.0481   50.4  0.4491  -43.9
 0.350  0.5186 -139.2   9.341  102.4  0.0514   51.1  0.4160  -44.0
 0.400  0.5154 -146.3   8.211   98.0  0.0547   51.7  0.3830  -44.2
 0.450  0.5110 -151.4   7.443   95.5  0.0579   52.5  0.3632  -44.2
 0.500  0.5107 -156.6   6.692   92.4  0.0612   53.3  0.3434  -44.1
 0.600  0.5080 -164.5   5.650   87.7  0.0676   55.3  0.3177  -44.0
 0.700  0.5066 -170.5   4.879   83.7  0.0740   57.6  0.3000  -44.2
 0.800  0.5088 -176.0   4.301   79.9  0.0822   59.4  0.2888  -44.8
 0.900  0.5081  179.3   3.837   76.6  0.0896   60.2  0.2795  -45.8
 1.000  0.5123  175.2   3.482   73.5  0.0971   61.3  0.2717  -47.0
 1.100  0.5157  171.5   3.185   70.6  0.1048   62.3  0.2668  -48.5
 1.200  0.5204  167.9   2.934   67.7  0.1128   62.5  0.2616  -50.2
 1.300  0.5208  164.8   2.720   65.0  0.1208   63.0  0.2582  -52.2
 1.400  0.5253  161.8   2.547   62.3  0.1295   63.4  0.2542  -54.7
 1.500  0.5306  158.9   2.389   59.8  0.1384   63.6  0.2516  -57.2
 1.600  0.5350  156.0   2.255   57.2  0.1471   63.7  0.2512  -59.8
 1.700  0.5385  153.5   2.136   54.9  0.1559   63.7  0.2494  -62.8
 1.800  0.5439  150.8   2.035   52.4  0.1648   63.3  0.2482  -65.8
 1.900  0.5479  148.3   1.940   50.2  0.1743   63.3  0.2479  -68.9
 2.000  0.5514  145.9   1.853   47.8  0.1832   62.8  0.2492  -72.2
 2.100  0.5563  143.5   1.778   45.6  0.1927   62.3  0.2503  -75.6
 2.200  0.5622  141.1   1.706   43.3  0.2022   61.9  0.2522  -79.0
 2.300  0.5664  139.0   1.643   41.3  0.2119   61.4  0.2547  -82.4
 2.400  0.5714  137.0   1.583   39.1  0.2216   60.9  0.2580  -85.8
 2.500  0.5750  134.9   1.529   37.2  0.2311   60.2  0.2616  -89.0
 2.600  0.5793  132.8   1.476   35.2  0.2406   59.6  0.2660  -92.2
 2.700  0.5836  130.8   1.431   33.4  0.2506   58.8  0.2702  -95.3
 2.800  0.5887  128.8   1.387   31.4  0.2606   58.1  0.2752  -98.2
 2.900  0.5928  126.8   1.347   29.7  0.2705   57.3  0.2789 -101.2
 3.000  0.5977  124.8   1.308   27.8  0.2804   56.5  0.2833 -104.1
 3.100  0.6001  122.8   1.275   26.3  0.2904   55.5  0.2859 -107.0
 3.200  0.6032  120.9   1.243   24.8  0.3006   54.6  0.2893 -109.9
 3.300  0.6071  119.0   1.213   23.1  0.3107   53.8  0.2933 -112.7
 3.400  0.6116  117.1   1.183   21.4  0.3210   53.0  0.2981 -115.5
 3.500  0.6167  115.2   1.154   19.6  0.3313   52.2  0.3035 -118.1
 3.600  0.6198  113.4   1.130   18.3  0.3412   51.0  0.3047 -121.2
 3.700  0.6235  111.7   1.106   16.9  0.3513   49.9  0.3067 -124.2
 3.800  0.6278  109.9   1.084   15.5  0.3615   48.8  0.3096 -127.2
 3.900  0.6326  108.2   1.061   14.0  0.3719   47.8  0.3133 -130.1
 4.000  0.6380  106.5   1.040   12.4  0.3823   46.9  0.3178 -133.0
 4.100  0.6403  104.9   1.020   11.2  0.3917   45.6  0.3192 -136.5
 4.200  0.6430  103.3   1.000    9.9  0.4013   44.4  0.3218 -139.9
 4.300  0.6463  101.8   0.981    8.6  0.4111   43.2  0.3255 -143.3
 4.400  0.6500  100.2   0.962    7.2  0.4210   42.1  0.3303 -146.5
 4.500  0.6542   98.7   0.944    5.8  0.4311   41.0  0.3362 -149.7
 4.600  0.6575   97.3   0.927    4.9  0.4397   39.7  0.3401 -153.1
 4.700  0.6612   95.8   0.910    3.9  0.4485   38.5  0.3453 -156.5
 4.800  0.6654   94.4   0.894    3.0  0.4575   37.4  0.3516 -159.7
 4.900  0.6699   93.1   0.878    2.0  0.4667   36.3  0.3589 -162.8
 5.000  0.6748   91.7   0.862    0.9  0.4761   35.2  0.3673 -165.8
 5.100  0.6756   90.4   0.851    0.1  0.4840   33.9  0.3743 -168.7
 5.200  0.6768   89.1   0.840   -0.7  0.4922   32.6  0.3823 -171.4
 5.300  0.6783   87.8   0.829   -1.6  0.5006   31.4  0.3911 -174.0
 5.400  0.6801   86.6   0.818   -2.4  0.5092   30.2  0.4006 -176.5
 5.500  0.6823   85.3   0.808   -3.3  0.5180   29.1  0.4109 -178.9
 5.600  0.6827   84.2   0.798   -3.9  0.5245   27.9  0.4166  179.0
 5.700  0.6833   83.0   0.789   -4.6  0.5312   26.6  0.4229  176.9
 5.800  0.6842   81.9   0.779   -5.3  0.5382   25.5  0.4298  174.8
 5.900  0.6854   80.7   0.770   -6.0  0.5454   24.3  0.4371  172.9
 6.000  0.6868   79.6   0.761   -6.7  0.5528   23.2  0.4450  171.0
!
!  f       NFmin   Gammaopt  rn/50
! GHz       dB    MAG  ANG    -
 0.450      1.25  0.15   94   0.13
 0.900      1.55  0.24  150   0.14
 1.900      2.61  0.47 -148   0.18
 2.400      3.24  0.54 -131   0.36
!
! (c) 2017  Infineon Technologies AG, Munich