! Infineon Technologies  Discrete & RF Semiconductors
! BFR93AW
! VCE =  3.0 V,  IC =  47 mA
! Common Emitter S-Parameters:                            Jan 2017
# GHz  S  MA  R  50
!  f         S11            S21            S12            S22
! GHz     MAG   ANG      MAG   ANG      MAG   ANG      MAG   ANG
 0.010  0.3517  -21.6  57.101  170.7  0.0029   80.2  0.9525   -7.3
 0.020  0.3657  -41.6  55.687  162.2  0.0050   74.9  0.9184  -14.9
 0.030  0.3508  -57.4  51.479  156.0  0.0073   70.2  0.8581  -19.9
 0.040  0.3637  -73.3  47.976  148.8  0.0096   67.7  0.8053  -25.6
 0.050  0.4018  -87.2  45.342  140.6  0.0119   66.2  0.7616  -32.1
 0.060  0.3959  -95.2  42.111  137.7  0.0132   64.4  0.7134  -34.1
 0.070  0.3980 -103.3  39.007  134.3  0.0144   62.9  0.6662  -36.3
 0.080  0.4078 -111.2  36.063  130.3  0.0157   61.7  0.6202  -38.9
 0.090  0.4248 -118.5  33.320  125.7  0.0170   60.6  0.5757  -41.9
 0.100  0.4482 -125.2  30.832  120.3  0.0183   59.7  0.5330  -45.4
 0.110  0.4476 -128.9  29.077  118.7  0.0191   60.0  0.5071  -46.1
 0.120  0.4488 -132.6  27.347  116.9  0.0199   60.2  0.4813  -46.8
 0.130  0.4520 -136.3  25.647  114.9  0.0208   60.5  0.4555  -47.7
 0.140  0.4569 -139.9  23.985  112.6  0.0216   60.7  0.4299  -48.6
 0.150  0.4636 -143.4  22.367  109.9  0.0224   60.9  0.4044  -49.7
 0.200  0.4719 -153.7  17.356  103.4  0.0260   64.0  0.3319  -50.1
 0.250  0.4801 -160.7  14.147   98.6  0.0309   65.7  0.2868  -49.5
 0.300  0.4811 -165.8  11.904   95.4  0.0357   67.1  0.2560  -48.4
 0.350  0.4829 -169.4  10.473   93.1  0.0404   68.8  0.2385  -47.6
 0.400  0.4865 -172.9   9.064   90.1  0.0451   70.2  0.2211  -46.6
 0.450  0.4867 -175.6   8.175   88.3  0.0498   70.5  0.2111  -46.0
 0.500  0.4879 -178.3   7.296   86.1  0.0545   70.7  0.2012  -45.4
 0.600  0.4920  177.4   6.121   82.7  0.0644   71.3  0.1881  -45.4
 0.700  0.4949  173.9   5.267   79.7  0.0738   72.5  0.1795  -45.4
 0.800  0.4995  170.5   4.628   76.6  0.0845   72.5  0.1735  -46.4
 0.900  0.4989  167.3   4.119   73.9  0.0937   72.2  0.1689  -48.3
 1.000  0.5042  164.7   3.734   71.3  0.1036   71.8  0.1644  -49.8
 1.100  0.5075  161.9   3.414   68.9  0.1136   71.4  0.1619  -52.0
 1.200  0.5135  159.4   3.140   66.3  0.1237   70.9  0.1588  -54.3
 1.300  0.5145  156.6   2.912   63.9  0.1330   70.4  0.1568  -57.3
 1.400  0.5202  154.3   2.725   61.5  0.1435   69.5  0.1544  -60.6
 1.500  0.5243  152.1   2.552   59.3  0.1529   68.7  0.1532  -64.0
 1.600  0.5289  149.9   2.410   56.9  0.1630   68.0  0.1533  -67.2
 1.700  0.5316  147.5   2.282   54.7  0.1726   67.3  0.1529  -71.3
 1.800  0.5374  145.3   2.172   52.4  0.1831   66.2  0.1531  -75.3
 1.900  0.5417  143.3   2.072   50.5  0.1925   65.6  0.1544  -79.4
 2.000  0.5454  141.2   1.978   48.2  0.2027   64.5  0.1570  -83.7
 2.100  0.5500  139.1   1.898   46.2  0.2125   63.6  0.1594  -87.9
 2.200  0.5553  137.1   1.820   44.1  0.2223   62.8  0.1626  -92.0
 2.300  0.5589  135.2   1.754   42.2  0.2322   61.8  0.1668  -96.1
 2.400  0.5632  133.3   1.690   40.1  0.2421   60.8  0.1718  -99.9
 2.500  0.5672  131.4   1.633   38.3  0.2517   59.7  0.1766 -103.4
 2.600  0.5718  129.5   1.577   36.3  0.2614   58.7  0.1820 -106.7
 2.700  0.5753  127.7   1.529   34.6  0.2708   57.7  0.1872 -109.9
 2.800  0.5793  126.0   1.482   32.8  0.2802   56.8  0.1930 -113.0
 2.900  0.5829  124.0   1.440   31.1  0.2898   55.8  0.1978 -116.0
 3.000  0.5872  122.1   1.400   29.3  0.2995   54.8  0.2031 -118.8
 3.100  0.5897  120.3   1.366   27.8  0.3086   53.6  0.2066 -121.7
 3.200  0.5928  118.6   1.333   26.3  0.3179   52.5  0.2107 -124.6
 3.300  0.5965  116.8   1.301   24.7  0.3273   51.5  0.2152 -127.3
 3.400  0.6007  115.1   1.270   23.0  0.3367   50.5  0.2202 -129.9
 3.500  0.6054  113.4   1.240   21.2  0.3463   49.6  0.2257 -132.4
 3.600  0.6087  111.8   1.215   19.9  0.3552   48.4  0.2281 -135.5
 3.700  0.6126  110.1   1.190   18.5  0.3642   47.2  0.2312 -138.5
 3.800  0.6169  108.5   1.166   17.0  0.3734   46.1  0.2348 -141.4
 3.900  0.6217  107.0   1.142   15.5  0.3827   45.0  0.2391 -144.2
 4.000  0.6270  105.4   1.120   13.9  0.3922   44.0  0.2439 -146.9
 4.100  0.6292  103.9   1.099   12.6  0.4004   42.8  0.2469 -150.3
 4.200  0.6318  102.5   1.079   11.3  0.4087   41.6  0.2508 -153.7
 4.300  0.6348  101.0   1.059   10.0  0.4173   40.4  0.2555 -156.9
 4.400  0.6382   99.6   1.040    8.6  0.4260   39.3  0.2611 -160.0
 4.500  0.6420   98.2   1.022    7.1  0.4348   38.3  0.2673 -163.0
 4.600  0.6461   96.8   1.005    6.1  0.4423   37.1  0.2730 -166.2
 4.700  0.6505   95.5   0.987    5.1  0.4499   35.9  0.2795 -169.3
 4.800  0.6553   94.2   0.971    4.0  0.4577   34.8  0.2868 -172.3
 4.900  0.6604   92.9   0.954    2.9  0.4657   33.7  0.2948 -175.1
 5.000  0.6659   91.6   0.938    1.7  0.4739   32.7  0.3035 -177.7
 5.100  0.6672   90.3   0.926    0.8  0.4809   31.5  0.3117  179.9
 5.200  0.6688   89.1   0.914   -0.1  0.4881   30.3  0.3204  177.7
 5.300  0.6707   87.9   0.902   -1.0  0.4955   29.2  0.3296  175.6
 5.400  0.6730   86.6   0.890   -2.0  0.5030   28.1  0.3392  173.6
 5.500  0.6755   85.4   0.879   -3.0  0.5108   27.0  0.3492  171.7
 5.600  0.6764   84.3   0.868   -3.8  0.5165   25.8  0.3556  169.9
 5.700  0.6775   83.2   0.857   -4.5  0.5224   24.7  0.3623  168.2
 5.800  0.6789   82.1   0.847   -5.3  0.5285   23.6  0.3693  166.5
 5.900  0.6805   81.1   0.836   -6.2  0.5348   22.5  0.3766  164.9
 6.000  0.6824   80.0   0.826   -7.0  0.5413   21.5  0.3842  163.4
!
!  f       NFmin   Gammaopt  rn/50
! GHz       dB    MAG  ANG    -
 0.450      2.21  0.25 -178   0.17
 0.900      2.51  0.30 -168   0.17
 1.900      3.61  0.53 -132   0.40
 2.400      4.34  0.57 -122   0.75
!
! (c) 2017  Infineon Technologies AG, Munich