! Coilcraft 0805CS-270 Chip Inductor				
! 11 June 2002			
# MHZ S MA R 50
!Freq             MagS11           AngS11           MagS21           AngS21           MagS12           AngS12           MagS22           AngS22
1                0.00344910499    29.2683895       0.996992637      -0.0969077368    0.996992637      -0.0969077368    0.00344910499    29.2683895       
11.47            0.0198281694     76.5856075       0.995586859      -1.11004365      0.995586859      -1.11004365      0.0198281694     76.5856075       
21.94            0.0373352398     80.3604216       0.994429667      -2.12124604      0.994429667      -2.12124604      0.0373352398     80.3604216       
32.41            0.0548735355     81.2274825       0.993112975      -3.13034727      0.993112975      -3.13034727      0.0548735355     81.2274825       
42.88            0.072375166      81.2477046       0.991570735      -4.13693853      0.991570735      -4.13693853      0.072375166      81.2477046       
53.35            0.0898134337     80.9016119       0.989778765      -5.14055202      0.989778765      -5.14055202      0.0898134337     80.9016119       
63.82            0.10716981       80.3631354       0.987726809      -6.140699        0.987726809      -6.140699        0.10716981       80.3631354       
74.29            0.124428483      79.7113889       0.985411052      -7.13688488      0.985411052      -7.13688488      0.124428483      79.7113889       
84.76            0.141574941      78.987931        0.982831304      -8.12861728      0.982831304      -8.12861728      0.141574941      78.987931        
95.23            0.158595522      78.2169031       0.979989707      -9.11541104      0.979989707      -9.11541104      0.158595522      78.2169031       
105.7            0.175477252      77.4134229       0.976890042      -10.0967917      0.976890042      -10.0967917      0.175477252      77.4134229       
116.17           0.192207799      76.58753         0.973537336      -11.0722981      0.973537336      -11.0722981      0.192207799      76.58753         
126.64           0.20877547       75.7462156       0.969937589      -12.0414847      0.969937589      -12.0414847      0.20877547       75.7462156       
137.11           0.225169213      74.8945429       0.9660976        -13.0039229      0.9660976        -13.0039229      0.225169213      74.8945429       
147.58           0.241378642      74.036302        0.96202482       -13.9592028      0.96202482       -13.9592028      0.241378642      74.036302        
158.05           0.257394044      73.17441         0.957727245      -14.9069339      0.957727245      -14.9069339      0.257394044      73.17441         
168.52           0.273206397      72.3111662       0.953213319      -15.8467464      0.953213319      -15.8467464      0.273206397      72.3111662       
178.99           0.288807378      71.44842         0.948491857      -16.7782918      0.948491857      -16.7782918      0.288807378      71.44842         
189.46           0.304189367      70.587684        0.943571968      -17.7012432      0.943571968      -17.7012432      0.304189367      70.587684        
199.93           0.319345452      69.7302136       0.93846299       -18.615296       0.93846299       -18.615296       0.319345452      69.7302136       
210.4            0.334269423      68.8770625       0.933174432      -19.5201679      0.933174432      -19.5201679      0.334269423      68.8770625       
220.87           0.348955763      68.029124        0.927715917      -20.4155988      0.927715917      -20.4155988      0.348955763      68.029124        
231.34           0.363399644      67.1871604       0.922097127      -21.3013511      0.922097127      -21.3013511      0.363399644      67.1871604       
241.81           0.377596905      66.3518265       0.916327762      -22.1772094      0.916327762      -22.1772094      0.377596905      66.3518265       
252.28           0.39154404       65.5236862       0.910417492      -23.04298        0.910417492      -23.04298        0.39154404       65.5236862       
262.75           0.405238174      64.7032264       0.904375917      -23.8984907      0.904375917      -23.8984907      0.405238174      64.7032264       
273.22           0.418677043      63.8908678       0.898212534      -24.7435902      0.898212534      -24.7435902      0.418677043      63.8908678       
283.69           0.431858968      63.0869729       0.891936698      -25.5781479      0.891936698      -25.5781479      0.431858968      63.0869729       
294.16           0.444782828      62.2918537       0.885557602      -26.4020527      0.885557602      -26.4020527      0.444782828      62.2918537       
304.63           0.457448034      61.5057769       0.879084239      -27.2152128      0.879084239      -27.2152128      0.457448034      61.5057769       
315.1            0.469854499      60.7289692       0.87252539       -28.0175546      0.87252539       -28.0175546      0.469854499      60.7289692       
325.57           0.482002607      59.9616209       0.865889598      -28.8090224      0.865889598      -28.8090224      0.482002607      59.9616209       
336.04           0.493893187      59.20389         0.85918515       -29.5895771      0.85918515       -29.5895771      0.493893187      59.20389         
346.51           0.505527479      58.4559048       0.852420069      -30.3591958      0.852420069      -30.3591958      0.505527479      58.4559048       
356.98           0.516907108      57.717767        0.845602094      -31.1178707      0.845602094      -31.1178707      0.516907108      57.717767        
367.45           0.528034051      56.9895537       0.838738681      -31.8656083      0.838738681      -31.8656083      0.528034051      56.9895537       
377.92           0.538910608      56.2713199       0.831836985      -32.6024288      0.831836985      -32.6024288      0.538910608      56.2713199       
388.39           0.549539377      55.5631004       0.824903866      -33.3283649      0.824903866      -33.3283649      0.549539377      55.5631004       
398.86           0.559923224      54.8649115       0.817945877      -34.0434612      0.817945877      -34.0434612      0.559923224      54.8649115       
409.33           0.570065255      54.1767526       0.810969271      -34.7477734      0.810969271      -34.7477734      0.570065255      54.1767526       
419.8            0.579968794      53.4986077       0.803979997      -35.4413673      0.803979997      -35.4413673      0.579968794      53.4986077       
430.27           0.589637355      52.8304469       0.796983702      -36.1243182      0.796983702      -36.1243182      0.589637355      52.8304469       
440.74           0.59907462       52.1722273       0.789985738      -36.7967103      0.789985738      -36.7967103      0.59907462       52.1722273       
451.21           0.60828442       51.5238949       0.782991161      -37.4586354      0.782991161      -37.4586354      0.60828442       51.5238949       
461.68           0.617270707      50.8853847       0.776004743      -38.1101929      0.776004743      -38.1101929      0.617270707      50.8853847       
472.15           0.626037541      50.2566228       0.769030974      -38.7514885      0.769030974      -38.7514885      0.626037541      50.2566228       
482.62           0.634589068      49.6375263       0.76207407       -39.3826341      0.76207407       -39.3826341      0.634589068      49.6375263       
493.09           0.642929506      49.0280049       0.755137981      -40.0037469      0.755137981      -40.0037469      0.642929506      49.0280049       
503.56           0.651063122      48.4279616       0.7482264        -40.6149485      0.7482264        -40.6149485      0.651063122      48.4279616       
514.03           0.658994227      47.8372929       0.74134277       -41.2163651      0.74134277       -41.2163651      0.658994227      47.8372929       
524.5            0.666727156      47.2558905       0.734490294      -41.8081263      0.734490294      -41.8081263      0.666727156      47.2558905       
534.97           0.674266254      46.6836409       0.727671945      -42.3903649      0.727671945      -42.3903649      0.674266254      46.6836409       
545.44           0.68161587       46.1204269       0.720890471      -42.9632166      0.720890471      -42.9632166      0.68161587       46.1204269       
555.91           0.688780344      45.5661273       0.71414841       -43.526819       0.71414841       -43.526819       0.688780344      45.5661273       
566.38           0.695763995      45.0206184       0.707448097      -44.0813118      0.707448097      -44.0813118      0.695763995      45.0206184       
576.85           0.702571117      44.4837737       0.70079167       -44.6268362      0.70079167       -44.6268362      0.702571117      44.4837737       
587.32           0.709205967      43.9554644       0.694181085      -45.1635342      0.694181085      -45.1635342      0.709205967      43.9554644       
597.79           0.715672762      43.4355604       0.687618121      -45.6915489      0.687618121      -45.6915489      0.715672762      43.4355604       
608.26           0.721975668      42.9239301       0.681104389      -46.2110238      0.681104389      -46.2110238      0.721975668      42.9239301       
618.73           0.728118801      42.420441        0.674641344      -46.7221025      0.674641344      -46.7221025      0.728118801      42.420441        
629.2            0.734106214      41.9249598       0.66823029       -47.2249287      0.66823029       -47.2249287      0.734106214      41.9249598       
639.67           0.739941903      41.4373531       0.661872387      -47.7196456      0.661872387      -47.7196456      0.739941903      41.4373531       
650.14           0.745629793      40.9574873       0.655568666      -48.206396       0.655568666      -48.206396       0.745629793      40.9574873       
660.61           0.751173743      40.4852288       0.649320028      -48.6853221      0.649320028      -48.6853221      0.751173743      40.4852288       
671.08           0.756577539      40.0204446       0.643127258      -49.156565       0.643127258      -49.156565       0.756577539      40.0204446       
681.55           0.761844894      39.5630023       0.636991028      -49.6202649      0.636991028      -49.6202649      0.761844894      39.5630023       
692.02           0.766979444      39.11277         0.630911906      -50.0765607      0.630911906      -50.0765607      0.766979444      39.11277         
702.49           0.771984751      38.669617        0.624890363      -50.5255899      0.624890363      -50.5255899      0.771984751      38.669617        
712.96           0.776864298      38.2334134       0.618926776      -50.9674888      0.618926776      -50.9674888      0.776864298      38.2334134       
723.43           0.781621488      37.8040308       0.613021439      -51.4023919      0.613021439      -51.4023919      0.781621488      37.8040308       
733.9            0.786259647      37.3813419       0.607174565      -51.8304322      0.607174565      -51.8304322      0.786259647      37.3813419       
744.37           0.790782024      36.9652208       0.601386293      -52.2517409      0.601386293      -52.2517409      0.790782024      36.9652208       
754.84           0.795191786      36.5555433       0.595656691      -52.6664475      0.595656691      -52.6664475      0.795191786      36.5555433       
765.31           0.799492022      36.1521866       0.589985764      -53.0746793      0.589985764      -53.0746793      0.799492022      36.1521866       
775.78           0.803685747      35.7550296       0.584373459      -53.4765622      0.584373459      -53.4765622      0.803685747      35.7550296       
786.25           0.807775893      35.363953        0.578819664      -53.8722199      0.578819664      -53.8722199      0.807775893      35.363953        
796.72           0.811765321      34.9788392       0.573324219      -54.2617739      0.573324219      -54.2617739      0.811765321      34.9788392       
807.19           0.815656814      34.5995724       0.567886915      -54.6453439      0.567886915      -54.6453439      0.815656814      34.5995724       
817.66           0.819453079      34.2260386       0.562507502      -55.0230477      0.562507502      -55.0230477      0.819453079      34.2260386       
828.13           0.823156754      33.8581257       0.557185689      -55.3950007      0.557185689      -55.3950007      0.823156754      33.8581257       
838.6            0.826770401      33.4957237       0.551921146      -55.7613166      0.551921146      -55.7613166      0.826770401      33.4957237       
849.07           0.830296514      33.1387241       0.546713514      -56.1221066      0.546713514      -56.1221066      0.830296514      33.1387241       
859.54           0.833737515      32.7870207       0.541562401      -56.4774802      0.541562401      -56.4774802      0.833737515      32.7870207       
870.01           0.837095759      32.4405089       0.536467387      -56.8275446      0.536467387      -56.8275446      0.837095759      32.4405089       
880.48           0.840373537      32.0990864       0.531428029      -57.1724051      0.531428029      -57.1724051      0.840373537      32.0990864       
890.95           0.843573071      31.7626525       0.526443858      -57.5121647      0.526443858      -57.5121647      0.843573071      31.7626525       
901.42           0.84669652       31.4311085       0.521514388      -57.8469247      0.521514388      -57.8469247      0.84669652       31.4311085       
911.89           0.849745983      31.1043577       0.516639114      -58.176784       0.516639114      -58.176784       0.849745983      31.1043577       
922.36           0.852723497      30.7823051       0.511817512      -58.5018399      0.511817512      -58.5018399      0.852723497      30.7823051       
932.83           0.855631038      30.4648579       0.507049047      -58.8221872      0.507049047      -58.8221872      0.855631038      30.4648579       
943.3            0.858470527      30.1519249       0.502333169      -59.1379192      0.502333169      -59.1379192      0.858470527      30.1519249       
953.77           0.861243828      29.8434168       0.497669319      -59.449127       0.497669319      -59.449127       0.861243828      29.8434168       
964.24           0.863952749      29.5392462       0.493056927      -59.7558998      0.493056927      -59.7558998      0.863952749      29.5392462       
974.71           0.866599046      29.2393275       0.488495414      -60.0583251      0.488495414      -60.0583251      0.866599046      29.2393275       
985.18           0.869184423      28.9435767       0.483984197      -60.3564882      0.483984197      -60.3564882      0.869184423      28.9435767       
995.65           0.871710533      28.6519117       0.479522684      -60.6504729      0.479522684      -60.6504729      0.871710533      28.6519117       
1006.12          0.874178979      28.3642523       0.475110282      -60.9403609      0.475110282      -60.9403609      0.874178979      28.3642523       
1016.59          0.87659132       28.0805196       0.470746391      -61.2262324      0.470746391      -61.2262324      0.87659132       28.0805196       
1027.06          0.878949065      27.8006368       0.466430411      -61.5081657      0.466430411      -61.5081657      0.878949065      27.8006368       
1037.53          0.881253679      27.5245284       0.46216174       -61.7862373      0.46216174       -61.7862373      0.881253679      27.5245284       
1048             0.883506585      27.2521207       0.457939774      -62.0605222      0.457939774      -62.0605222      0.883506585      27.2521207       
1058.47          0.885709161      26.9833417       0.453763909      -62.3310936      0.453763909      -62.3310936      0.885709161      26.9833417       
1068.94          0.887862748      26.7181206       0.449633544      -62.5980232      0.449633544      -62.5980232      0.887862748      26.7181206       
1079.41          0.889968642      26.4563885       0.445548077      -62.861381       0.445548077      -62.861381       0.889968642      26.4563885       
1089.88          0.892028104      26.1980779       0.441506908      -63.1212355      0.441506908      -63.1212355      0.892028104      26.1980779       
1100.35          0.894042356      25.9431226       0.437509441      -63.3776537      0.437509441      -63.3776537      0.894042356      25.9431226       
1110.82          0.896012585      25.691458        0.433555082      -63.630701       0.433555082      -63.630701       0.896012585      25.691458        
1121.29          0.897939941      25.443021        0.42964324       -63.8804413      0.42964324       -63.8804413      0.897939941      25.443021        
1131.76          0.899825541      25.1977498       0.425773329      -64.1269374      0.425773329      -64.1269374      0.899825541      25.1977498       
1142.23          0.901670469      24.9555838       0.421944765      -64.3702503      0.421944765      -64.3702503      0.901670469      24.9555838       
1152.7           0.903475777      24.7164639       0.418156971      -64.6104397      0.418156971      -64.6104397      0.903475777      24.7164639       
1163.17          0.905242483      24.4803324       0.414409373      -64.8475642      0.414409373      -64.8475642      0.905242483      24.4803324       
1173.64          0.90697158       24.2471327       0.410701404      -65.0816809      0.410701404      -65.0816809      0.90697158       24.2471327       
1184.11          0.908664029      24.0168095       0.4070325        -65.3128455      0.4070325        -65.3128455      0.908664029      24.0168095       
1194.58          0.910320761      23.7893086       0.403402104      -65.5411126      0.403402104      -65.5411126      0.910320761      23.7893086       
1205.05          0.911942683      23.5645773       0.399809666      -65.7665357      0.399809666      -65.7665357      0.911942683      23.5645773       
1215.52          0.913530674      23.3425637       0.396254638      -65.9891667      0.396254638      -65.9891667      0.913530674      23.3425637       
1225.99          0.915085586      23.1232173       0.392736483      -66.2090568      0.392736483      -66.2090568      0.915085586      23.1232173       
1236.46          0.916608249      22.9064886       0.389254666      -66.4262557      0.389254666      -66.4262557      0.916608249      22.9064886       
1246.93          0.918099467      22.6923293       0.385808662      -66.640812       0.385808662      -66.640812       0.918099467      22.6923293       
1257.4           0.91956002       22.4806919       0.382397948      -66.8527735      0.382397948      -66.8527735      0.91956002       22.4806919       
1267.87          0.920990667      22.2715303       0.379022013      -67.0621866      0.379022013      -67.0621866      0.920990667      22.2715303       
1278.34          0.922392145      22.0647991       0.375680347      -67.2690967      0.375680347      -67.2690967      0.922392145      22.0647991       
1288.81          0.923765168      21.8604541       0.372372452      -67.4735485      0.372372452      -67.4735485      0.923765168      21.8604541       
1299.28          0.925110432      21.6584519       0.369097831      -67.6755852      0.369097831      -67.6755852      0.925110432      21.6584519       
1309.75          0.92642861       21.4587503       0.365855999      -67.8752494      0.365855999      -67.8752494      0.92642861       21.4587503       
1320.22          0.927720359      21.2613076       0.362646475      -68.0725827      0.362646475      -68.0725827      0.927720359      21.2613076       
1330.69          0.928986315      21.0660835       0.359468784      -68.2676255      0.359468784      -68.2676255      0.928986315      21.0660835       
