! Coilcraft 0805CS-390 Chip Inductor				
! 11 June 2002			
# MHZ S MA R 50
!Freq             MagS11           AngS11           MagS21           AngS21           MagS12           AngS12           MagS22           AngS22
1                0.004323655      34.2435468       0.996428807      -0.13989876      0.996428807      -0.13989876      0.004323655      34.2435468       
9.48             0.0236373236     76.5366097       0.994762308      -1.32415345      0.994762308      -1.32415345      0.0236373236     76.5366097       
17.96            0.0440928891     80.004647        0.993296495      -2.50558064      0.993296495      -2.50558064      0.0440928891     80.004647        
26.44            0.0645630441     80.6732282       0.991585386      -3.6838009       0.991585386      -3.6838009       0.0645630441     80.6732282       
34.92            0.0849654535     80.5154912       0.989554321      -4.85811966      0.989554321      -4.85811966      0.0849654535     80.5154912       
43.4             0.105263443      79.9990037       0.987177379      -6.02776839      0.987177379      -6.02776839      0.105263443      79.9990037       
51.88            0.125429741      79.2944589       0.984445301      -7.19195746      0.984445301      -7.19195746      0.125429741      79.2944589       
60.36            0.14544047       78.4800081       0.981356787      -8.34989817      0.981356787      -8.34989817      0.14544047       78.4800081       
68.84            0.165273614      77.5969626       0.977915173      -9.50081489      0.977915173      -9.50081489      0.165273614      77.5969626       
77.32            0.184908563      76.6694812       0.974126868      -10.6439529      0.974126868      -10.6439529      0.184908563      76.6694812       
85.8             0.204325975      75.7128055       0.970000506      -11.7785842      0.970000506      -11.7785842      0.204325975      75.7128055       
94.28            0.223507752      74.7371396       0.965546418      -12.9040115      0.965546418      -12.9040115      0.223507752      74.7371396       
102.76           0.242437062      73.7496511       0.960776273      -14.019572       0.960776273      -14.019572       0.242437062      73.7496511       
111.24           0.261098356      72.7555762       0.955702806      -15.1246398      0.955702806      -15.1246398      0.261098356      72.7555762       
119.72           0.279477399      71.7588674       0.950339603      -16.2186277      0.950339603      -16.2186277      0.279477399      71.7588674       
128.2            0.297561283      70.7625886       0.944700918      -17.3009892      0.944700918      -17.3009892      0.297561283      70.7625886       
136.68           0.315338434      69.7691689       0.938801511      -18.3712192      0.938801511      -18.3712192      0.315338434      69.7691689       
145.16           0.332798606      68.7805685       0.932656509      -19.4288547      0.932656509      -19.4288547      0.332798606      68.7805685       
153.64           0.34993287       67.7983918       0.926281277      -20.4734749      0.926281277      -20.4734749      0.34993287       67.7983918       
162.12           0.366733587      66.8239667       0.9196913        -21.5047014      0.9196913        -21.5047014      0.366733587      66.8239667       
170.6            0.383194378      65.8584007       0.912902081      -22.5221974      0.912902081      -22.5221974      0.383194378      65.8584007       
179.08           0.399310081      64.9026223       0.905929042      -23.5256673      0.905929042      -23.5256673      0.399310081      64.9026223       
187.56           0.415076704      63.9574119       0.898787441      -24.5148554      0.898787441      -24.5148554      0.415076704      63.9574119       
196.04           0.430491374      63.0234253       0.891492295      -25.4895452      0.891492295      -25.4895452      0.430491374      63.0234253       
204.52           0.445552273      62.1012123       0.884058316      -26.4495576      0.884058316      -26.4495576      0.445552273      62.1012123       
213              0.460258585      61.1912306       0.876499846      -27.3947497      0.876499846      -27.3947497      0.460258585      61.1912306       
221.48           0.474610425      60.2938586       0.868830812      -28.3250129      0.868830812      -28.3250129      0.474610425      60.2938586       
229.96           0.488608778      59.409404        0.861064686      -29.2402715      0.861064686      -29.2402715      0.488608778      59.409404        
238.44           0.502255428      58.5381131       0.853214442      -30.1404807      0.853214442      -30.1404807      0.502255428      58.5381131       
246.92           0.515552899      57.6801765       0.845292538      -31.0256249      0.845292538      -31.0256249      0.515552899      57.6801765       
255.4            0.528504381      56.8357362       0.837310888      -31.8957157      0.837310888      -31.8957157      0.528504381      56.8357362       
263.88           0.541113672      56.0048901       0.829280852      -32.7507901      0.829280852      -32.7507901      0.541113672      56.0048901       
272.36           0.553385111      55.1876967       0.821213224      -33.5909086      0.821213224      -33.5909086      0.553385111      55.1876967       
280.84           0.565323523      54.3841795       0.813118225      -34.4161535      0.813118225      -34.4161535      0.565323523      54.3841795       
289.32           0.576934156      53.5943303       0.80500551       -35.2266271      0.80500551       -35.2266271      0.576934156      53.5943303       
297.8            0.58822263       52.8181129       0.796884164      -36.0224496      0.796884164      -36.0224496      0.58822263       52.8181129       
306.28           0.59919488       52.0554656       0.788762715      -36.8037581      0.788762715      -36.8037581      0.59919488       52.0554656       
314.76           0.609857115      51.3063044       0.780649141      -37.5707041      0.780649141      -37.5707041      0.609857115      51.3063044       
323.24           0.620215766      50.5705254       0.772550882      -38.3234529      0.772550882      -38.3234529      0.620215766      50.5705254       
331.72           0.630277443      49.8480068       0.76447486       -39.0621813      0.76447486       -39.0621813      0.630277443      49.8480068       
340.2            0.640048903      49.1386113       0.75642749       -39.7870768      0.75642749       -39.7870768      0.640048903      49.1386113       
348.68           0.649537006      48.442188        0.748414698      -40.4983358      0.748414698      -40.4983358      0.649537006      48.442188        
357.16           0.658748686      47.7585738       0.740441945      -41.1961628      0.740441945      -41.1961628      0.658748686      47.7585738       
365.64           0.667690921      47.0875955       0.732514242      -41.8807689      0.732514242      -41.8807689      0.667690921      47.0875955       
374.12           0.676370704      46.429071        0.72463617       -42.552371       0.72463617       -42.552371       0.676370704      46.429071        
382.6            0.68479502       45.7828106       0.716811906      -43.2111904      0.716811906      -43.2111904      0.68479502       45.7828106       
391.08           0.692970824      45.1486184       0.709045234      -43.8574523      0.709045234      -43.8574523      0.692970824      45.1486184       
399.56           0.70090502       44.5262931       0.701339577      -44.4913848      0.701339577      -44.4913848      0.70090502       44.5262931       
408.04           0.708604449      43.9156296       0.693698006      -45.113218       0.693698006      -45.113218       0.708604449      43.9156296       
416.52           0.716075865      43.3164193       0.68612327       -45.7231832      0.68612327       -45.7231832      0.716075865      43.3164193       
425              0.72332593       42.7284512       0.678617807      -46.3215125      0.678617807      -46.3215125      0.72332593       42.7284512       
433.48           0.730361198      42.1515128       0.67118377       -46.9084383      0.67118377       -46.9084383      0.730361198      42.1515128       
441.96           0.73718811       41.5853905       0.663823038      -47.4841921      0.663823038      -47.4841921      0.73718811       41.5853905       
450.44           0.743812979      41.0298705       0.656537241      -48.0490048      0.656537241      -48.0490048      0.743812979      41.0298705       
458.92           0.750241989      40.484739        0.649327772      -48.6031059      0.649327772      -48.6031059      0.750241989      40.484739        
467.4            0.756481189      39.9497832       0.642195807      -49.1467229      0.642195807      -49.1467229      0.756481189      39.9497832       
475.88           0.762536486      39.4247911       0.635142315      -49.6800813      0.635142315      -49.6800813      0.762536486      39.4247911       
484.36           0.768413642      38.9095525       0.62816808       -50.2034043      0.62816808       -50.2034043      0.768413642      38.9095525       
492.84           0.774118276      38.4038589       0.62127371       -50.7169121      0.62127371       -50.7169121      0.774118276      38.4038589       
501.32           0.779655858      37.9075041       0.61445965       -51.2208223      0.61445965       -51.2208223      0.779655858      37.9075041       
509.8            0.785031707      37.4202842       0.6077262        -51.7153491      0.6077262        -51.7153491      0.785031707      37.4202842       
518.28           0.790250997      36.9419981       0.601073521      -52.2007035      0.601073521      -52.2007035      0.790250997      36.9419981       
526.76           0.795318753      36.4724475       0.594501648      -52.6770929      0.594501648      -52.6770929      0.795318753      36.4724475       
535.24           0.800239852      36.0114371       0.588010503      -53.1447214      0.588010503      -53.1447214      0.800239852      36.0114371       
543.72           0.805019024      35.5587748       0.581599902      -53.603789       0.581599902      -53.603789       0.805019024      35.5587748       
552.2            0.809660859      35.1142718       0.575269566      -54.0544923      0.575269566      -54.0544923      0.809660859      35.1142718       
560.68           0.814169801      34.6777428       0.569019128      -54.4970238      0.569019128      -54.4970238      0.814169801      34.6777428       
569.16           0.818550155      34.2490057       0.562848143      -54.9315724      0.562848143      -54.9315724      0.818550155      34.2490057       
577.64           0.822806091      33.8278822       0.556756094      -55.3583227      0.556756094      -55.3583227      0.822806091      33.8278822       
586.12           0.826941644      33.4141973       0.550742401      -55.7774557      0.550742401      -55.7774557      0.826941644      33.4141973       
594.6            0.830960716      33.0077799       0.544806423      -56.1891484      0.544806423      -56.1891484      0.830960716      33.0077799       
603.08           0.834867083      32.6084623       0.538947473      -56.5935738      0.538947473      -56.5935738      0.834867083      32.6084623       
611.56           0.838664393      32.2160805       0.533164813      -56.990901       0.533164813      -56.990901       0.838664393      32.2160805       
620.04           0.842356176      31.8304739       0.527457666      -57.3812952      0.527457666      -57.3812952      0.842356176      31.8304739       
628.52           0.845945841      31.4514858       0.521825221      -57.7649179      0.521825221      -57.7649179      0.845945841      31.4514858       
637              0.849436681      31.078963        0.516266633      -58.1419266      0.516266633      -58.1419266      0.849436681      31.078963        
645.48           0.852831878      30.7127557       0.510781031      -58.512475       0.510781031      -58.512475       0.852831878      30.7127557       
653.96           0.856134505      30.3527176       0.505367521      -58.8767133      0.505367521      -58.8767133      0.856134505      30.3527176       
662.44           0.859347531      29.9987062       0.500025188      -59.2347879      0.500025188      -59.2347879      0.859347531      29.9987062       
670.92           0.86247382       29.650582        0.494753103      -59.5868415      0.494753103      -59.5868415      0.86247382       29.650582        
679.4            0.86551614       29.308209        0.489550321      -59.9330134      0.489550321      -59.9330134      0.86551614       29.308209        
687.88           0.868477162      28.9714548       0.484415886      -60.2734393      0.484415886      -60.2734393      0.868477162      28.9714548       
696.36           0.871359463      28.6401898       0.479348835      -60.6082516      0.479348835      -60.6082516      0.871359463      28.6401898       
704.84           0.874165532      28.314288        0.474348198      -60.9375792      0.474348198      -60.9375792      0.874165532      28.314288        
713.32           0.876897772      27.9936263       0.469413002      -61.2615478      0.469413002      -61.2615478      0.876897772      27.9936263       
721.8            0.879558502      27.6780848       0.464542271      -61.5802798      0.464542271      -61.5802798      0.879558502      27.6780848       
730.28           0.882149958      27.3675466       0.459735029      -61.8938945      0.459735029      -61.8938945      0.882149958      27.3675466       
738.76           0.8846743        27.0618977       0.454990302      -62.2025083      0.454990302      -62.2025083      0.8846743        27.0618977       
747.24           0.887133614      26.761027        0.450307117      -62.5062342      0.450307117      -62.5062342      0.887133614      26.761027        
755.72           0.889529911      26.4648264       0.445684506      -62.8051825      0.445684506      -62.8051825      0.889529911      26.4648264       
764.2            0.891865134      26.1731904       0.441121507      -63.0994608      0.441121507      -63.0994608      0.891865134      26.1731904       
772.68           0.894141157      25.8860162       0.436617162      -63.3891734      0.436617162      -63.3891734      0.894141157      25.8860162       
781.16           0.896359788      25.6032037       0.432170521      -63.6744224      0.432170521      -63.6744224      0.896359788      25.6032037       
789.64           0.898522776      25.3246553       0.427780644      -63.9553068      0.427780644      -63.9553068      0.898522776      25.3246553       
798.12           0.900631805      25.050276        0.423446597      -64.2319234      0.423446597      -64.2319234      0.900631805      25.050276        
806.6            0.902688504      24.7799732       0.419167455      -64.5043662      0.419167455      -64.5043662      0.902688504      24.7799732       
815.08           0.904694445      24.5136566       0.414942307      -64.7727267      0.414942307      -64.7727267      0.904694445      24.5136566       
823.56           0.906651145      24.2512385       0.410770248      -65.0370942      0.410770248      -65.0370942      0.906651145      24.2512385       
832.04           0.908560069      23.9926332       0.406650386      -65.2975555      0.406650386      -65.2975555      0.908560069      23.9926332       
840.52           0.910422633      23.7377572       0.40258184       -65.5541953      0.40258184       -65.5541953      0.910422633      23.7377572       
849              0.912240203      23.4865294       0.39856374       -65.8070959      0.39856374       -65.8070959      0.912240203      23.4865294       
857.48           0.9140141        23.2388705       0.39459523       -66.0563375      0.39459523       -66.0563375      0.9140141        23.2388705       
865.96           0.915745598      22.9947034       0.390675464      -66.3019981      0.390675464      -66.3019981      0.915745598      22.9947034       
874.44           0.917435931      22.7539529       0.386803608      -66.544154       0.386803608      -66.544154       0.917435931      22.7539529       
882.92           0.919086287      22.5165458       0.382978843      -66.7828791      0.382978843      -66.7828791      0.919086287      22.5165458       
891.4            0.920697817      22.2824109       0.37920036       -67.0182457      0.37920036       -67.0182457      0.920697817      22.2824109       
899.88           0.922271634      22.0514784       0.375467364      -67.2503239      0.375467364      -67.2503239      0.922271634      22.0514784       
908.36           0.92380881       21.8236807       0.371779073      -67.4791823      0.371779073      -67.4791823      0.92380881       21.8236807       
916.84           0.925310385      21.5989518       0.368134717      -67.7048875      0.368134717      -67.7048875      0.925310385      21.5989518       
925.32           0.926777362      21.3772273       0.364533539      -67.9275044      0.364533539      -67.9275044      0.926777362      21.3772273       
933.8            0.928210712      21.1584446       0.360974795      -68.1470963      0.360974795      -68.1470963      0.928210712      21.1584446       
942.28           0.929611373      20.9425423       0.357457753      -68.3637249      0.357457753      -68.3637249      0.929611373      20.9425423       
950.76           0.930980253      20.7294611       0.353981695      -68.5774501      0.353981695      -68.5774501      0.930980253      20.7294611       
959.24           0.93231823       20.5191428       0.350545914      -68.7883304      0.350545914      -68.7883304      0.93231823       20.5191428       
967.72           0.933626153      20.3115307       0.347149717      -68.9964229      0.347149717      -68.9964229      0.933626153      20.3115307       
976.2            0.934904844      20.1065698       0.343792422      -69.201783       0.343792422      -69.201783       0.934904844      20.1065698       
984.68           0.936155097      19.9042061       0.34047336       -69.4044649      0.34047336       -69.4044649      0.936155097      19.9042061       
993.16           0.937377681      19.7043871       0.337191874      -69.6045214      0.337191874      -69.6045214      0.937377681      19.7043871       
1001.64          0.938573341      19.5070618       0.333947319      -69.8020036      0.333947319      -69.8020036      0.938573341      19.5070618       
1010.12          0.939742797      19.3121801       0.330739063      -69.9969619      0.330739063      -69.9969619      0.939742797      19.3121801       
1018.6           0.940886748      19.1196934       0.327566484      -70.1894449      0.327566484      -70.1894449      0.940886748      19.1196934       
1027.08          0.942005868      18.9295542       0.324428972      -70.3795003      0.324428972      -70.3795003      0.942005868      18.9295542       
1035.56          0.943100811      18.7417161       0.321325929      -70.5671744      0.321325929      -70.5671744      0.943100811      18.7417161       
1044.04          0.94417221       18.5561341       0.318256769      -70.7525124      0.318256769      -70.7525124      0.94417221       18.5561341       
1052.52          0.94522068       18.372764        0.315220914      -70.9355584      0.315220914      -70.9355584      0.94522068       18.372764        
1061             0.946246815      18.1915627       0.3122178        -71.1163554      0.3122178        -71.1163554      0.946246815      18.1915627       
1069.48          0.947251189      18.0124884       0.309246874      -71.2949453      0.309246874      -71.2949453      0.947251189      18.0124884       
1077.96          0.948234362      17.8355          0.306307591      -71.4713688      0.306307591      -71.4713688      0.948234362      17.8355          
