! Coilcraft 0805CS-221 Chip Inductor				
! 11 June 2002			
# MHZ S MA R 50
!Freq             MagS11           AngS11           MagS21           AngS21           MagS12           AngS12           MagS22           AngS22
1                0.0168714542     51.6425749       0.989618598      -0.765988136     0.989618598      -0.765988136     0.0168714542     51.6425749       
4.74             0.0645723579     73.711813        0.98384375       -3.61193687      0.98384375       -3.61193687      0.0645723579     73.711813        
8.48             0.113160559      75.1796341       0.977197405      -6.42766266      0.977197405      -6.42766266      0.113160559      75.1796341       
12.22            0.160992699      74.2694272       0.968826026      -9.2039552       0.968826026      -9.2039552       0.160992699      74.2694272       
15.96            0.207666962      72.6156827       0.958661706      -11.9306099      0.958661706      -11.9306099      0.207666962      72.6156827       
19.7             0.252903167      70.6562642       0.946794269      -14.5980334      0.946794269      -14.5980334      0.252903167      70.6562642       
23.44            0.296481189      68.564139        0.933379552      -17.1977462      0.933379552      -17.1977462      0.296481189      68.564139        
27.18            0.338231468      66.4239206       0.918606589      -19.7226122      0.918606589      -19.7226122      0.338231468      66.4239206       
30.92            0.378031782      64.282891        0.902679775      -22.1669294      0.902679775      -22.1669294      0.378031782      64.282891        
34.66            0.415804005      62.1697656       0.885806964      -24.5264288      0.885806964      -24.5264288      0.415804005      62.1697656       
38.4             0.451509897      60.102826        0.868190937      -26.7982084      0.868190937      -26.7982084      0.451509897      60.102826        
42.14            0.485146041      58.0939127       0.850023314      -28.9806218      0.850023314      -28.9806218      0.485146041      58.0939127       
45.88            0.516738334      56.1506007       0.831480449      -31.0731384      0.831480449      -31.0731384      0.516738334      56.1506007       
49.62            0.546336404      54.2774945       0.812720959      -33.0761891      0.812720959      -33.0761891      0.546336404      54.2774945       
53.36            0.57400827       52.4770612       0.793884577      -34.9910099      0.793884577      -34.9910099      0.57400827       52.4770612       
57.1             0.599835464      50.7502008       0.775092028      -36.8194893      0.775092028      -36.8194893      0.599835464      50.7502008       
60.84            0.62390876       49.0966563       0.756445664      -38.5640277      0.756445664      -38.5640277      0.62390876       49.0966563       
64.58            0.646324538      47.5153188       0.738030616      -40.2274107      0.738030616      -40.2274107      0.646324538      47.5153188       
68.32            0.667181804      46.0044602       0.719916269      -41.8126986      0.719916269      -41.8126986      0.667181804      46.0044602       
72.06            0.68657982       44.5619131       0.702157898      -43.3231318      0.702157898      -43.3231318      0.68657982       44.5619131       
75.8             0.704616271      43.1852098       0.684798357      -44.7620528      0.684798357      -44.7620528      0.704616271      43.1852098       
79.54            0.721385909      41.871691        0.667869726      -46.1328418      0.667869726      -46.1328418      0.721385909      41.871691        
83.28            0.736979591      40.6185895       0.651394871      -47.4388656      0.651394871      -47.4388656      0.736979591      40.6185895       
87.02            0.751483639      39.4230953       0.635388871      -48.683438       0.635388871      -48.683438       0.751483639      39.4230953       
90.76            0.764979456      38.2824038       0.619860314      -49.8697899      0.619860314      -49.8697899      0.764979456      38.2824038       
94.5             0.777543347      37.1937529       0.60481243       -51.0010465      0.60481243       -51.0010465      0.777543347      37.1937529       
98.24            0.789246484      36.1544498       0.590244088      -52.0802127      0.590244088      -52.0802127      0.789246484      36.1544498       
101.98           0.800154994      35.1618896       0.576150656      -53.1101623      0.576150656      -53.1101623      0.800154994      35.1618896       
105.72           0.810330116      34.2135689       0.56252473       -54.0936327      0.56252473       -54.0936327      0.810330116      34.2135689       
109.46           0.819828417      33.3070935       0.549356753      -55.0332223      0.549356753      -55.0332223      0.819828417      33.3070935       
113.2            0.828702047      32.4401829       0.536635537      -55.9313905      0.536635537      -55.9313905      0.828702047      32.4401829       
116.94           0.836999003      31.6106723       0.524348692      -56.7904601      0.524348692      -56.7904601      0.836999003      31.6106723       
120.68           0.84476341       30.8165116       0.51248298       -57.6126207      0.51248298       -57.6126207      0.84476341       30.8165116       
124.42           0.852035796      30.0557639       0.501024614      -58.3999333      0.501024614      -58.3999333      0.852035796      30.0557639       
128.16           0.858853363      29.3266022       0.489959489      -59.1543355      0.489959489      -59.1543355      0.858853363      29.3266022       
131.9            0.86525025       28.6273053       0.479273373      -59.8776477      0.479273373      -59.8776477      0.86525025       28.6273053       
135.64           0.871257774      27.9562533       0.468952066      -60.5715785      0.468952066      -60.5715785      0.871257774      27.9562533       
139.38           0.876904668      27.3119234       0.458981509      -61.2377309      0.458981509      -61.2377309      0.876904668      27.3119234       
143.12           0.882217294      26.692884        0.449347889      -61.8776087      0.449347889      -61.8776087      0.882217294      26.692884        
146.86           0.887219849      26.0977906       0.440037701      -62.4926219      0.440037701      -62.4926219      0.887219849      26.0977906       
150.6            0.891934546      25.5253802       0.431037805      -63.084093       0.431037805      -63.084093       0.891934546      25.5253802       
154.34           0.896381789      24.974467        0.422335465      -63.6532618      0.422335465      -63.6532618      0.896381789      24.974467        
158.08           0.900580326      24.4439374       0.413918373      -64.2012916      0.413918373      -64.2012916      0.900580326      24.4439374       
161.82           0.904547399      23.9327454       0.405774665      -64.7292732      0.405774665      -64.7292732      0.904547399      23.9327454       
165.56           0.90829887       23.4399087       0.397892933      -65.2382304      0.397892933      -65.2382304      0.90829887       23.4399087       
169.3            0.911849344      22.9645044       0.390262223      -65.7291241      0.390262223      -65.7291241      0.911849344      22.9645044       
173.04           0.915212276      22.5056651       0.382872038      -66.2028566      0.382872038      -66.2028566      0.915212276      22.5056651       
176.78           0.918400071      22.0625754       0.375712325      -66.6602756      0.375712325      -66.6602756      0.918400071      22.0625754       
180.52           0.921424177      21.6344685       0.368773472      -67.1021774      0.368773472      -67.1021774      0.921424177      21.6344685       
184.26           0.924295163      21.2206229       0.362046292      -67.5293111      0.362046292      -67.5293111      0.924295163      21.2206229       
188              0.927022799      20.8203597       0.355522013      -67.9423811      0.355522013      -67.9423811      0.927022799      20.8203597       
191.74           0.929616118      20.4330394       0.349192265      -68.3420505      0.349192265      -68.3420505      0.929616118      20.4330394       
195.48           0.932083482      20.0580595       0.34304906       -68.7289436      0.34304906       -68.7289436      0.932083482      20.0580595       
199.22           0.934432638      19.6948522       0.337084783      -69.1036486      0.337084783      -69.1036486      0.934432638      19.6948522       
202.96           0.936670768      19.342882        0.331292171      -69.4667201      0.331292171      -69.4667201      0.936670768      19.342882        
206.7            0.938804536      19.0016436       0.325664302      -69.818681       0.325664302      -69.818681       0.938804536      19.0016436       
210.44           0.940840128      18.6706599       0.320194579      -70.1600249      0.320194579      -70.1600249      0.940840128      18.6706599       
214.18           0.942783296      18.3494804       0.314876712      -70.4912179      0.314876712      -70.4912179      0.942783296      18.3494804       
217.92           0.944639389      18.0376791       0.309704706      -70.8127002      0.309704706      -70.8127002      0.944639389      18.0376791       
221.66           0.946413384      17.7348535       0.304672849      -71.124888       0.304672849      -71.124888       0.946413384      17.7348535       
225.4            0.948109921      17.4406225       0.299775694      -71.4281751      0.299775694      -71.4281751      0.948109921      17.4406225       
229.14           0.949733322      17.1546255       0.295008047      -71.7229339      0.295008047      -71.7229339      0.949733322      17.1546255       
232.88           0.951287622      16.8765209       0.290364956      -72.0095173      0.290364956      -72.0095173      0.951287622      16.8765209       
236.62           0.952776588      16.605985        0.2858417        -72.2882593      0.2858417        -72.2882593      0.952776588      16.605985        
240.36           0.954203739      16.3427109       0.281433772      -72.5594769      0.281433772      -72.5594769      0.954203739      16.3427109       
244.1            0.955572367      16.0864074       0.277136874      -72.8234705      0.277136874      -72.8234705      0.955572367      16.0864074       
247.84           0.956885551      15.8367982       0.272946904      -73.0805251      0.272946904      -73.0805251      0.956885551      15.8367982       
251.58           0.958146176      15.5936208       0.268859944      -73.3309116      0.268859944      -73.3309116      0.958146176      15.5936208       
255.32           0.959356945      15.3566259       0.264872257      -73.5748871      0.264872257      -73.5748871      0.959356945      15.3566259       
259.06           0.960520392      15.1255764       0.260980269      -73.8126959      0.260980269      -73.8126959      0.960520392      15.1255764       
262.8            0.961638897      14.9002468       0.257180568      -74.0445706      0.257180568      -74.0445706      0.961638897      14.9002468       
266.54           0.962714693      14.6804226       0.253469892      -74.2707323      0.253469892      -74.2707323      0.962714693      14.6804226       
270.28           0.963749879      14.4658995       0.249845124      -74.4913914      0.249845124      -74.4913914      0.963749879      14.4658995       
274.02           0.964746431      14.256483        0.246303282      -74.7067485      0.246303282      -74.7067485      0.964746431      14.256483        
277.76           0.965706204      14.0519875       0.242841512      -74.9169944      0.242841512      -74.9169944      0.965706204      14.0519875       
281.5            0.966630948      13.8522362       0.239457086      -75.1223115      0.239457086      -75.1223115      0.966630948      13.8522362       
285.24           0.96752231       13.6570606       0.236147391      -75.3228732      0.236147391      -75.3228732      0.96752231       13.6570606       
288.98           0.968381844      13.4662995       0.232909926      -75.5188452      0.232909926      -75.5188452      0.968381844      13.4662995       
292.72           0.969211016      13.2797994       0.229742294      -75.7103859      0.229742294      -75.7103859      0.969211016      13.2797994       
296.46           0.970011207      13.0974134       0.226642199      -75.8976461      0.226642199      -75.8976461      0.970011207      13.0974134       
300.2            0.970783724      12.9190013       0.22360744       -76.0807703      0.22360744       -76.0807703      0.970783724      12.9190013       
303.94           0.971529801      12.7444288       0.220635909      -76.2598965      0.220635909      -76.2598965      0.971529801      12.7444288       
307.68           0.972250606      12.5735676       0.217725581      -76.4351565      0.217725581      -76.4351565      0.972250606      12.5735676       
311.42           0.972947242      12.406295        0.214874515      -76.6066766      0.214874515      -76.6066766      0.972947242      12.406295        
315.16           0.973620754      12.2424935       0.212080849      -76.7745776      0.212080849      -76.7745776      0.973620754      12.2424935       
318.9            0.974272132      12.0820505       0.209342793      -76.9389751      0.209342793      -76.9389751      0.974272132      12.0820505       
322.64           0.974902314      11.9248582       0.20665863       -77.0999799      0.20665863       -77.0999799      0.974902314      11.9248582       
326.38           0.975512188      11.7708131       0.20402671       -77.2576982      0.20402671       -77.2576982      0.975512188      11.7708131       
330.12           0.976102599      11.6198161       0.201445448      -77.4122317      0.201445448      -77.4122317      0.976102599      11.6198161       
333.86           0.976674346      11.4717723       0.19891332       -77.563678       0.19891332       -77.563678       0.976674346      11.4717723       
337.6            0.97722819       11.3265903       0.19642886       -77.7121308      0.19642886       -77.7121308      0.97722819       11.3265903       
341.34           0.977764852      11.1841825       0.193990659      -77.8576798      0.193990659      -77.8576798      0.977764852      11.1841825       
345.08           0.978285018      11.044465        0.191597361      -78.0004114      0.191597361      -78.0004114      0.978285018      11.044465        
348.82           0.978789342      10.9073568       0.189247661      -78.1404082      0.189247661      -78.1404082      0.978789342      10.9073568       
352.56           0.979278444      10.7727803       0.186940302      -78.2777499      0.186940302      -78.2777499      0.979278444      10.7727803       
356.3            0.979752914      10.6406609       0.184674076      -78.4125129      0.184674076      -78.4125129      0.979752914      10.6406609       
360.04           0.980213315      10.5109268       0.182447815      -78.5447707      0.182447815      -78.5447707      0.980213315      10.5109268       
363.78           0.980660184      10.3835089       0.180260398      -78.674594       0.180260398      -78.674594       0.980660184      10.3835089       
367.52           0.98109403       10.2583407       0.178110743      -78.8020508      0.178110743      -78.8020508      0.98109403       10.2583407       
371.26           0.981515341      10.1353583       0.175997805      -78.9272065      0.175997805      -78.9272065      0.981515341      10.1353583       
375              0.98192458       10.0145001       0.173920578      -79.050124       0.173920578      -79.050124       0.98192458       10.0145001       
378.74           0.982322193      9.89570672       0.171878092      -79.1708639      0.171878092      -79.1708639      0.982322193      9.89570672       
382.48           0.982708601      9.77892094       0.169869411      -79.2894847      0.169869411      -79.2894847      0.982708601      9.77892094       
386.22           0.983084208      9.66408765       0.167893629      -79.4060425      0.167893629      -79.4060425      0.983084208      9.66408765       
389.96           0.983449401      9.55115369       0.165949874      -79.5205916      0.165949874      -79.5205916      0.983449401      9.55115369       
393.7            0.983804548      9.44006779       0.164037304      -79.6331841      0.164037304      -79.6331841      0.983804548      9.44006779       
397.44           0.984150003      9.3307805        0.162155105      -79.7438705      0.162155105      -79.7438705      0.984150003      9.3307805        
401.18           0.984486103      9.22324407       0.160302489      -79.8526993      0.160302489      -79.8526993      0.984486103      9.22324407       
404.92           0.984813171      9.11741242       0.158478696      -79.9597174      0.158478696      -79.9597174      0.984813171      9.11741242       
408.66           0.985131515      9.01324106       0.156682992      -80.0649698      0.156682992      -80.0649698      0.985131515      9.01324106       
412.4            0.985441432      8.91068699       0.154914667      -80.1685004      0.154914667      -80.1685004      0.985441432      8.91068699       
416.14           0.985743206      8.80970869       0.153173031      -80.2703511      0.153173031      -80.2703511      0.985743206      8.80970869       
419.88           0.986037107      8.71026603       0.151457422      -80.3705626      0.151457422      -80.3705626      0.986037107      8.71026603       
423.62           0.986323397      8.6123202        0.149767194      -80.4691742      0.149767194      -80.4691742      0.986323397      8.6123202        
427.36           0.986602324      8.51583369       0.148101727      -80.5662238      0.148101727      -80.5662238      0.986602324      8.51583369       
431.1            0.98687413       8.42077022       0.146460416      -80.661748       0.146460416      -80.661748       0.98687413       8.42077022       
434.84           0.987139042      8.32709466       0.144842678      -80.7557823      0.144842678      -80.7557823      0.987139042      8.32709466       
438.58           0.987397283      8.23477306       0.143247948      -80.8483608      0.143247948      -80.8483608      0.987397283      8.23477306       
442.32           0.987649063      8.14377252       0.141675677      -80.9395167      0.141675677      -80.9395167      0.987649063      8.14377252       
446.06           0.987894587      8.05406121       0.140125335      -81.0292819      0.140125335      -81.0292819      0.987894587      8.05406121       
449.8            0.988134049      7.96560829       0.138596408      -81.1176874      0.138596408      -81.1176874      0.988134049      7.96560829       
453.54           0.988367638      7.87838389       0.137088396      -81.2047631      0.137088396      -81.2047631      0.988367638      7.87838389       
457.28           0.988595533      7.79235908       0.135600816      -81.2905378      0.135600816      -81.2905378      0.988595533      7.79235908       
461.02           0.988817909      7.7075058        0.1341332        -81.3750397      0.1341332        -81.3750397      0.988817909      7.7075058        
464.76           0.989034933      7.62379687       0.132685091      -81.4582958      0.132685091      -81.4582958      0.989034933      7.62379687       
468.5            0.989246765      7.54120593       0.131256049      -81.5403323      0.131256049      -81.5403323      0.989246765      7.54120593       
472.24           0.98945356       7.45970742       0.129845645      -81.6211745      0.129845645      -81.6211745      0.98945356       7.45970742       
475.98           0.989655467      7.37927654       0.128453463      -81.7008472      0.128453463      -81.7008472      0.989655467      7.37927654       
