! Coilcraft 0805CS-020 Chip Inductor				
! 11 June 2002			
# MHZ S MA R 50
!Freq             MagS11           AngS11           MagS21           AngS21           MagS12           AngS12           MagS22           AngS22
1                0.000685658082   14.5762516       0.999336426      -0.00989343067   0.999336426      -0.00989343067   0.000685658082   14.5762516       
43.89            0.00764448178    81.875983        0.998948377      -0.434061649     0.998948377      -0.434061649     0.00764448178    81.875983        
86.78            0.0150229544     84.5807921       0.998693192      -0.858057981     0.998693192      -0.858057981     0.0150229544     84.5807921       
129.67           0.0224108925     85.324032        0.998422934      -1.28190423      0.998422934      -1.28190423      0.0224108925     85.324032        
172.56           0.0297985167     85.5279761       0.998118747      -1.70559139      0.998118747      -1.70559139      0.0297985167     85.5279761       
215.45           0.0371830574     85.5028638       0.997773315      -2.12910291      0.997773315      -2.12910291      0.0371830574     85.5028638       
258.34           0.0445630185     85.3578497       0.997382924      -2.55241896      0.997382924      -2.55241896      0.0445630185     85.3578497       
301.23           0.0519372823     85.1417032       0.996945419      -2.97551787      0.996945419      -2.97551787      0.0519372823     85.1417032       
344.12           0.0593048759     84.879674        0.996459446      -3.39837691      0.996459446      -3.39837691      0.0593048759     84.879674        
387.01           0.0666648914     84.5862246       0.99592412       -3.82097265      0.99592412       -3.82097265      0.0666648914     84.5862246       
429.9            0.0740164546     84.2702753       0.99533885       -4.24328123      0.99533885       -4.24328123      0.0740164546     84.2702753       
472.79           0.081358711      83.9376489       0.994703244      -4.66527845      0.994703244      -4.66527845      0.081358711      83.9376489       
515.68           0.0886908188     83.5923217       0.994017051      -5.08693997      0.994017051      -5.08693997      0.0886908188     83.5923217       
558.57           0.096011946      83.2371104       0.993280125      -5.50824132      0.993280125      -5.50824132      0.096011946      83.2371104       
601.46           0.103321269      82.8740722       0.992492403      -5.92915798      0.992492403      -5.92915798      0.103321269      82.8740722       
644.35           0.11061797       82.504749        0.991653887      -6.34966543      0.991653887      -6.34966543      0.11061797       82.504749        
687.24           0.117901242      82.1303226       0.99076463       -6.76973919      0.99076463       -6.76973919      0.117901242      82.1303226       
730.13           0.125170281      81.7517166       0.989824731      -7.18935485      0.989824731      -7.18935485      0.125170281      81.7517166       
773.02           0.132424293      81.3696653       0.988834329      -7.60848811      0.988834329      -7.60848811      0.132424293      81.3696653       
815.91           0.139662491      80.9847617       0.987793594      -8.02711475      0.987793594      -8.02711475      0.139662491      80.9847617       
858.8            0.146884096      80.5974912       0.986702729      -8.44521074      0.986702729      -8.44521074      0.146884096      80.5974912       
901.69           0.154088338      80.2082559       0.98556196       -8.86275218      0.98556196       -8.86275218      0.154088338      80.2082559       
944.58           0.161274455      79.8173931       0.984371541      -9.27971536      0.984371541      -9.27971536      0.161274455      79.8173931       
987.47           0.168441695      79.4251886       0.983131746      -9.69607676      0.983131746      -9.69607676      0.168441695      79.4251886       
1030.36          0.175589314      79.0318867       0.981842872      -10.1118131      0.981842872      -10.1118131      0.175589314      79.0318867       
1073.25          0.182716579      78.6376983       0.980505234      -10.5269012      0.980505234      -10.5269012      0.182716579      78.6376983       
1116.14          0.189822768      78.2428071       0.979119165      -10.9413182      0.979119165      -10.9413182      0.189822768      78.2428071       
1159.03          0.196907167      77.8473739       0.977685016      -11.3550416      0.977685016      -11.3550416      0.196907167      77.8473739       
1201.92          0.203969075      77.451541        0.976203153      -11.768049       0.976203153      -11.768049       0.203969075      77.451541        
1244.81          0.211007802      77.0554347       0.974673958      -12.1803183      0.974673958      -12.1803183      0.211007802      77.0554347       
1287.7           0.218022668      76.6591683       0.973097827      -12.5918276      0.973097827      -12.5918276      0.218022668      76.6591683       
1330.59          0.225013006      76.2628434       0.971475171      -13.0025555      0.971475171      -13.0025555      0.225013006      76.2628434       
1373.48          0.231978161      75.8665522       0.969806412      -13.4124806      0.969806412      -13.4124806      0.231978161      75.8665522       
1416.37          0.238917488      75.4703786       0.968091985      -13.8215821      0.968091985      -13.8215821      0.238917488      75.4703786       
1459.26          0.245830358      75.074399        0.966332337      -14.2298393      0.966332337      -14.2298393      0.245830358      75.074399        
1502.15          0.252716152      74.6786839       0.964527928      -14.6372318      0.964527928      -14.6372318      0.252716152      74.6786839       
1545.04          0.259574265      74.2832979       0.962679226      -15.0437398      0.962679226      -15.0437398      0.259574265      74.2832979       
1587.93          0.266404105      73.8883011       0.96078671       -15.4493435      0.96078671       -15.4493435      0.266404105      73.8883011       
1630.82          0.273205092      73.493749        0.958850869      -15.8540236      0.958850869      -15.8540236      0.273205092      73.493749        
1673.71          0.279976661      73.0996936       0.9568722        -16.257761       0.9568722        -16.257761       0.279976661      73.0996936       
1716.6           0.28671826       72.7061833       0.95485121       -16.6605372      0.95485121       -16.6605372      0.28671826       72.7061833       
1759.49          0.29342935       72.3132634       0.952788414      -17.0623339      0.952788414      -17.0623339      0.29342935       72.3132634       
1802.38          0.300109406      71.9209766       0.950684334      -17.463133       0.950684334      -17.463133       0.300109406      71.9209766       
1845.27          0.306757917      71.529363        0.948539499      -17.862917       0.948539499      -17.862917       0.306757917      71.529363        
1888.16          0.313374388      71.1384605       0.946354446      -18.2616687      0.946354446      -18.2616687      0.313374388      71.1384605       
1931.05          0.319958334      70.7483049       0.944129717      -18.6593711      0.944129717      -18.6593711      0.319958334      70.7483049       
1973.94          0.326509286      70.3589301       0.941865861      -19.0560079      0.941865861      -19.0560079      0.326509286      70.3589301       
2016.83          0.333026791      69.9703682       0.939563431      -19.4515628      0.939563431      -19.4515628      0.333026791      69.9703682       
2059.72          0.339510407      69.5826498       0.937222987      -19.8460201      0.937222987      -19.8460201      0.339510407      69.5826498       
2102.61          0.345959709      69.1958039       0.934845093      -20.2393644      0.934845093      -20.2393644      0.345959709      69.1958039       
2145.5           0.352374283      68.8098581       0.932430315      -20.6315807      0.932430315      -20.6315807      0.352374283      68.8098581       
2188.39          0.358753733      68.4248389       0.929979227      -21.0226543      0.929979227      -21.0226543      0.358753733      68.4248389       
2231.28          0.365097673      68.0407714       0.927492402      -21.4125711      0.927492402      -21.4125711      0.365097673      68.0407714       
2274.17          0.371405735      67.6576795       0.924970421      -21.8013171      0.924970421      -21.8013171      0.371405735      67.6576795       
2317.06          0.377677564      67.2755862       0.922413863      -22.1888788      0.922413863      -22.1888788      0.377677564      67.2755862       
2359.95          0.383912816      66.8945134       0.919823312      -22.575243       0.919823312      -22.575243       0.383912816      66.8945134       
2402.84          0.390111166      66.514482        0.917199354      -22.9603972      0.917199354      -22.9603972      0.390111166      66.514482        
2445.73          0.3962723        66.1355121       0.914542575      -23.3443287      0.914542575      -23.3443287      0.3962723        66.1355121       
2488.62          0.402395918      65.7576228       0.911853564      -23.7270258      0.911853564      -23.7270258      0.402395918      65.7576228       
2531.51          0.408481733      65.3808325       0.909132911      -24.1084768      0.909132911      -24.1084768      0.408481733      65.3808325       
2574.4           0.414529475      65.0051587       0.906381204      -24.4886703      0.906381204      -24.4886703      0.414529475      65.0051587       
2617.29          0.420538884      64.6306182       0.903599035      -24.8675957      0.903599035      -24.8675957      0.420538884      64.6306182       
2660.18          0.426509714      64.2572271       0.900786993      -25.2452423      0.900786993      -25.2452423      0.426509714      64.2572271       
2703.07          0.432441735      63.8850006       0.897945668      -25.6216         0.897945668      -25.6216         0.432441735      63.8850006       
2745.96          0.438334728      63.5139535       0.89507565       -25.9966591      0.89507565       -25.9966591      0.438334728      63.5139535       
2788.85          0.444188486      63.1440999       0.892177527      -26.3704103      0.892177527      -26.3704103      0.444188486      63.1440999       
2831.74          0.450002818      62.7754531       0.889251887      -26.7428444      0.889251887      -26.7428444      0.450002818      62.7754531       
2874.63          0.455777543      62.4080259       0.886299314      -27.1139528      0.886299314      -27.1139528      0.455777543      62.4080259       
2917.52          0.461512494      62.0418305       0.883320393      -27.4837272      0.883320393      -27.4837272      0.461512494      62.0418305       
2960.41          0.467207516      61.6768786       0.880315706      -27.8521597      0.880315706      -27.8521597      0.467207516      61.6768786       
3003.3           0.472862467      61.3131813       0.877285832      -28.2192426      0.877285832      -28.2192426      0.472862467      61.3131813       
3046.19          0.478477215      60.9507492       0.874231349      -28.5849687      0.874231349      -28.5849687      0.478477215      60.9507492       
3089.08          0.484051644      60.5895923       0.871152832      -28.9493311      0.871152832      -28.9493311      0.484051644      60.5895923       
3131.97          0.489585644      60.2297201       0.868050851      -29.3123232      0.868050851      -29.3123232      0.489585644      60.2297201       
3174.86          0.495079122      59.8711417       0.864925976      -29.6739388      0.864925976      -29.6739388      0.495079122      59.8711417       
3217.75          0.500531994      59.5138657       0.861778772      -30.034172       0.861778772      -30.034172       0.500531994      59.5138657       
3260.64          0.505944186      59.1579001       0.858609799      -30.3930173      0.858609799      -30.3930173      0.505944186      59.1579001       
3303.53          0.511315636      58.8032528       0.855419616      -30.7504693      0.855419616      -30.7504693      0.511315636      58.8032528       
3346.42          0.516646294      58.4499308       0.852208777      -31.1065233      0.852208777      -31.1065233      0.516646294      58.4499308       
3389.31          0.521936119      58.0979409       0.848977831      -31.4611745      0.848977831      -31.4611745      0.521936119      58.0979409       
3432.2           0.527185081      57.7472897       0.845727323      -31.8144186      0.845727323      -31.8144186      0.527185081      57.7472897       
3475.09          0.53239316       57.3979829       0.842457795      -32.1662518      0.842457795      -32.1662518      0.53239316       57.3979829       
3517.98          0.537560345      57.0500263       0.839169783      -32.5166704      0.839169783      -32.5166704      0.537560345      57.0500263       
3560.87          0.542686636      56.703425        0.835863817      -32.8656709      0.835863817      -32.8656709      0.542686636      56.703425        
3603.76          0.547772042      56.3581837       0.832540426      -33.2132502      0.832540426      -33.2132502      0.547772042      56.3581837       
3646.65          0.552816582      56.0143071       0.82920013       -33.5594056      0.82920013       -33.5594056      0.552816582      56.0143071       
3689.54          0.557820282      55.671799        0.825843447      -33.9041346      0.825843447      -33.9041346      0.557820282      55.671799        
3732.43          0.56278318       55.3306633       0.822470886      -34.247435       0.822470886      -34.247435       0.56278318       55.3306633       
3775.32          0.567705319      54.9909034       0.819082955      -34.5893047      0.819082955      -34.5893047      0.567705319      54.9909034       
3818.21          0.572586753      54.6525224       0.815680153      -34.9297421      0.815680153      -34.9297421      0.572586753      54.6525224       
3861.1           0.577427543      54.3155228       0.812262975      -35.2687457      0.812262975      -35.2687457      0.577427543      54.3155228       
3903.99          0.58222776       53.9799073       0.80883191       -35.6063145      0.80883191       -35.6063145      0.58222776       53.9799073       
3946.88          0.586987479      53.6456779       0.805387442      -35.9424474      0.805387442      -35.9424474      0.586987479      53.6456779       
3989.77          0.591706787      53.3128364       0.801930048      -36.2771439      0.801930048      -36.2771439      0.591706787      53.3128364       
4032.66          0.596385774      52.9813843       0.7984602        -36.6104036      0.7984602        -36.6104036      0.596385774      52.9813843       
4075.55          0.60102454       52.6513229       0.794978364      -36.9422261      0.794978364      -36.9422261      0.60102454       52.6513229       
4118.44          0.605623192      52.3226531       0.791484998      -37.2726117      0.791484998      -37.2726117      0.605623192      52.3226531       
4161.33          0.610181841      51.9953756       0.787980558      -37.6015605      0.787980558      -37.6015605      0.610181841      51.9953756       
4204.22          0.614700608      51.6694908       0.78446549       -37.9290732      0.78446549       -37.9290732      0.614700608      51.6694908       
4247.11          0.619179618      51.3449988       0.780940235      -38.2551504      0.780940235      -38.2551504      0.619179618      51.3449988       
4290             0.623619002      51.0218997       0.777405229      -38.5797931      0.777405229      -38.5797931      0.623619002      51.0218997       
4332.89          0.628018899      50.700193        0.773860902      -38.9030024      0.773860902      -38.9030024      0.628018899      50.700193        
4375.78          0.63237945       50.3798782       0.770307674      -39.2247797      0.770307674      -39.2247797      0.63237945       50.3798782       
4418.67          0.636700807      50.0609545       0.766745964      -39.5451265      0.766745964      -39.5451265      0.636700807      50.0609545       
4461.56          0.640983121      49.7434208       0.763176181      -39.8640446      0.763176181      -39.8640446      0.640983121      49.7434208       
4504.45          0.645226553      49.4272759       0.759598729      -40.1815359      0.759598729      -40.1815359      0.645226553      49.4272759       
4547.34          0.649431266      49.1125184       0.756014006      -40.4976026      0.756014006      -40.4976026      0.649431266      49.1125184       
4590.23          0.653597429      48.7991465       0.752422403      -40.8122469      0.752422403      -40.8122469      0.653597429      48.7991465       
4633.12          0.657725216      48.4871585       0.748824305      -41.1254713      0.748824305      -41.1254713      0.657725216      48.4871585       
4676.01          0.661814804      48.1765522       0.745220091      -41.4372785      0.745220091      -41.4372785      0.661814804      48.1765522       
4718.9           0.665866376      47.8673254       0.741610133      -41.7476713      0.741610133      -41.7476713      0.665866376      47.8673254       
4761.79          0.669880116      47.5594757       0.737994797      -42.0566526      0.737994797      -42.0566526      0.669880116      47.5594757       
4804.68          0.673856215      47.2530005       0.734374444      -42.3642255      0.734374444      -42.3642255      0.673856215      47.2530005       
4847.57          0.677794866      46.9478969       0.730749427      -42.6703934      0.730749427      -42.6703934      0.677794866      46.9478969       
4890.46          0.681696266      46.6441621       0.727120094      -42.9751596      0.727120094      -42.9751596      0.681696266      46.6441621       
4933.35          0.685560616      46.341793        0.723486785      -43.2785277      0.723486785      -43.2785277      0.685560616      46.341793        
4976.24          0.689388118      46.0407862       0.719849837      -43.5805015      0.719849837      -43.5805015      0.689388118      46.0407862       
5019.13          0.693178978      45.7411383       0.716209579      -43.8810846      0.716209579      -43.8810846      0.693178978      45.7411383       
5062.02          0.696933407      45.4428459       0.712566333      -44.1802812      0.712566333      -44.1802812      0.696933407      45.4428459       
5104.91          0.700651617      45.1459051       0.708920416      -44.4780952      0.708920416      -44.4780952      0.700651617      45.1459051       
5147.8           0.704333821      44.8503122       0.70527214       -44.7745309      0.70527214       -44.7745309      0.704333821      44.8503122       
5190.69          0.707980236      44.5560631       0.701621809      -45.0695926      0.701621809      -45.0695926      0.707980236      44.5560631       
5233.58          0.711591083      44.2631538       0.697969723      -45.3632847      0.697969723      -45.3632847      0.711591083      44.2631538       
5276.47          0.715166581      43.9715801       0.694316175      -45.6556118      0.694316175      -45.6556118      0.715166581      43.9715801       
5319.36          0.718706956      43.6813375       0.690661452      -45.9465785      0.690661452      -45.9465785      0.718706956      43.6813375       
5362.25          0.722212431      43.3924217       0.687005836      -46.2361895      0.687005836      -46.2361895      0.722212431      43.3924217       
5405.14          0.725683235      43.1048281       0.683349604      -46.5244496      0.683349604      -46.5244496      0.725683235      43.1048281       
5448.03          0.729119594      42.818552        0.679693025      -46.8113639      0.679693025      -46.8113639      0.729119594      42.818552        
