! Coilcraft 0805CS-560 Chip Inductor				
! 11 June 2002			
# MHZ S MA R 50
!Freq             MagS11           AngS11           MagS21           AngS21           MagS12           AngS12           MagS22           AngS22
1                0.00561687381    38.3844228       0.995603253      -0.200714065     0.995603253      -0.200714065     0.00561687381    38.3844228       
7.73             0.0277162432     75.5941234       0.993467254      -1.54839506      0.993467254      -1.54839506      0.0277162432     75.5941234       
14.46            0.0509591367     79.0086352       0.991546766      -2.89184621      0.991546766      -2.89184621      0.0509591367     79.0086352       
21.19            0.0741973673     79.6076996       0.989311262      -4.23047844      0.989311262      -4.23047844      0.0741973673     79.6076996       
27.92            0.0973274263     79.3543764       0.986667756      -5.56326382      0.986667756      -5.56326382      0.0973274263     79.3543764       
34.65            0.120299442      78.7273761       0.983585415      -6.88907467      0.983585415      -6.88907467      0.120299442      78.7273761       
41.38            0.143075221      77.9041123       0.98005518       -8.20676187      0.98005518       -8.20676187      0.143075221      77.9041123       
48.11            0.165621173      76.9666965       0.976078618      -9.51518835      0.976078618      -9.51518835      0.165621173      76.9666965       
54.84            0.187906542      75.9589338       0.971663583      -10.8132481      0.971663583      -10.8132481      0.187906542      75.9589338       
61.57            0.209902898      74.9066615       0.966822139      -12.0998783      0.966822139      -12.0998783      0.209902898      74.9066615       
68.3             0.231584016      73.8263139       0.961569383      -13.3740685      0.961569383      -13.3740685      0.231584016      73.8263139       
75.03            0.252925867      72.7289798       0.955922695      -14.6348671      0.955922695      -14.6348671      0.252925867      72.7289798       
81.76            0.273906646      71.6225021       0.949901191      -15.881386       0.949901191      -15.881386       0.273906646      71.6225021       
88.49            0.294506799      70.5126433       0.943525305      -17.1128043      0.943525305      -17.1128043      0.294506799      70.5126433       
95.22            0.31470903       69.4037697       0.936816444      -18.3283705      0.936816444      -18.3283705      0.31470903       69.4037697       
101.95           0.334498295      68.2992711       0.929796688      -19.5274044      0.929796688      -19.5274044      0.334498295      68.2992711       
108.68           0.353861768      67.2018306       0.922488534      -20.7092968      0.922488534      -20.7092968      0.353861768      67.2018306       
115.41           0.372788795      66.1136028       0.914914662      -21.8735098      0.914914662      -21.8735098      0.372788795      66.1136028       
122.14           0.391270819      65.0363356       0.907097738      -23.0195757      0.907097738      -23.0195757      0.391270819      65.0363356       
128.87           0.409301297      63.971456        0.899060229      -24.1470953      0.899060229      -24.1470953      0.409301297      63.971456        
135.6            0.426875605      62.9201323       0.890824249      -25.2557358      0.890824249      -25.2557358      0.426875605      62.9201323       
142.33           0.443990918      61.8833202       0.882411425      -26.3452287      0.882411425      -26.3452287      0.443990918      61.8833202       
149.06           0.460646105      60.8617975       0.873842775      -27.4153662      0.873842775      -27.4153662      0.460646105      60.8617975       
155.79           0.476841593      59.8561915       0.865138618      -28.4659989      0.865138618      -28.4659989      0.476841593      59.8561915       
162.52           0.492579252      58.8670005       0.856318489      -29.4970318      0.856318489      -29.4970318      0.492579252      58.8670005       
169.25           0.507862255      57.8946115       0.847401079      -30.5084212      0.847401079      -30.5084212      0.507862255      57.8946115       
175.98           0.522694963      56.9393148       0.838404187      -31.5001708      0.838404187      -31.5001708      0.522694963      56.9393148       
182.71           0.537082791      56.0013161       0.829344687      -32.4723285      0.829344687      -32.4723285      0.537082791      56.0013161       
189.44           0.551032088      55.080747        0.820238504      -33.4249824      0.820238504      -33.4249824      0.551032088      55.080747        
196.17           0.564550026      54.1776739       0.811100608      -34.3582578      0.811100608      -34.3582578      0.564550026      54.1776739       
202.9            0.577644483      53.2921062       0.801945011      -35.2723129      0.801945011      -35.2723129      0.577644483      53.2921062       
209.63           0.590323938      52.4240031       0.792784775      -36.1673364      0.792784775      -36.1673364      0.590323938      52.4240031       
216.36           0.602597379      51.5732799       0.783632032      -37.0435435      0.783632032      -37.0435435      0.602597379      51.5732799       
223.09           0.614474204      50.7398132       0.774497999      -37.9011734      0.774497999      -37.9011734      0.614474204      50.7398132       
229.82           0.625964143      49.9234464       0.76539301       -38.7404859      0.76539301       -38.7404859      0.625964143      49.9234464       
236.55           0.637077176      49.1239935       0.756326548      -39.5617591      0.756326548      -39.5617591      0.637077176      49.1239935       
243.28           0.647823467      48.3412439       0.747307271      -40.3652866      0.747307271      -40.3652866      0.647823467      48.3412439       
250.01           0.658213297      47.5749651       0.738343059      -41.1513751      0.738343059      -41.1513751      0.658213297      47.5749651       
256.74           0.668257009      46.8249067       0.729441043      -41.9203421      0.729441043      -41.9203421      0.668257009      46.8249067       
263.47           0.677964958      46.090803        0.72060765       -42.6725142      0.72060765       -42.6725142      0.677964958      46.090803        
270.2            0.687347464      45.3723756       0.711848638      -43.4082248      0.711848638      -43.4082248      0.687347464      45.3723756       
276.93           0.696414773      44.6693358       0.703169139      -44.1278128      0.703169139      -44.1278128      0.696414773      44.6693358       
283.66           0.705177025      43.9813869       0.694573697      -44.8316206      0.694573697      -44.8316206      0.705177025      43.9813869       
290.39           0.713644223      43.3082258       0.686066303      -45.519993       0.686066303      -45.519993       0.713644223      43.3082258       
297.12           0.721826205      42.649545        0.677650439      -46.1932758      0.677650439      -46.1932758      0.721826205      42.649545        
303.85           0.729732629      42.0050336       0.669329108      -46.8518147      0.669329108      -46.8518147      0.729732629      42.0050336       
310.58           0.737372948      41.3743795       0.661104871      -47.4959543      0.661104871      -47.4959543      0.737372948      41.3743795       
317.31           0.744756403      40.7572697       0.652979883      -48.1260373      0.652979883      -48.1260373      0.744756403      40.7572697       
324.04           0.751892005      40.1533918       0.644955919      -48.7424033      0.644955919      -48.7424033      0.751892005      40.1533918       
330.77           0.758788531      39.5624348       0.637034411      -49.3453885      0.637034411      -49.3453885      0.758788531      39.5624348       
337.5            0.765454512      38.9840902       0.62921647       -49.9353252      0.62921647       -49.9353252      0.765454512      38.9840902       
344.23           0.771898237      38.4180521       0.62150292       -50.5125407      0.62150292       -50.5125407      0.771898237      38.4180521       
350.96           0.778127741      37.8640183       0.613894318      -51.0773575      0.613894318      -51.0773575      0.778127741      37.8640183       
357.69           0.784150808      37.3216906       0.606390978      -51.6300925      0.606390978      -51.6300925      0.784150808      37.3216906       
364.42           0.789974975      36.7907752       0.598992997      -52.1710568      0.598992997      -52.1710568      0.789974975      36.7907752       
371.15           0.795607527      36.2709834       0.591700274      -52.7005555      0.591700274      -52.7005555      0.795607527      36.2709834       
377.88           0.8010555        35.7620313       0.584512526      -53.2188875      0.584512526      -53.2188875      0.8010555        35.7620313       
384.61           0.806325691      35.2636408       0.577429313      -53.7263453      0.577429313      -53.7263453      0.806325691      35.2636408       
391.34           0.811424654      34.7755391       0.570450047      -54.2232148      0.570450047      -54.2232148      0.811424654      34.7755391       
398.07           0.816358709      34.2974592       0.563574013      -54.7097752      0.563574013      -54.7097752      0.816358709      34.2974592       
404.8            0.821133947      33.8291402       0.556800381      -55.1862994      0.556800381      -55.1862994      0.821133947      33.8291402       
411.53           0.825756232      33.3703269       0.550128219      -55.6530532      0.550128219      -55.6530532      0.825756232      33.3703269       
418.26           0.830231213      32.9207702       0.543556506      -56.1102961      0.543556506      -56.1102961      0.830231213      32.9207702       
424.99           0.834564322      32.4802271       0.537084142      -56.5582806      0.537084142      -56.5582806      0.834564322      32.4802271       
431.72           0.838760788      32.0484606       0.53070996       -56.9972529      0.53070996       -56.9972529      0.838760788      32.0484606       
438.45           0.84282564       31.6252396       0.524432731      -57.4274524      0.524432731      -57.4274524      0.84282564       31.6252396       
445.18           0.846763709      31.2103391       0.518251179      -57.8491123      0.518251179      -57.8491123      0.846763709      31.2103391       
451.91           0.850579644      30.80354         0.512163983      -58.2624591      0.512163983      -58.2624591      0.850579644      30.80354         
458.64           0.854277909      30.404629        0.506169789      -58.6677134      0.506169789      -58.6677134      0.854277909      30.404629        
465.37           0.857862795      30.0133987       0.50026721       -59.0650893      0.50026721       -59.0650893      0.857862795      30.0133987       
472.1            0.861338424      29.6296471       0.494454838      -59.4547951      0.494454838      -59.4547951      0.861338424      29.6296471       
478.83           0.864708757      29.253178        0.488731248      -59.837033       0.488731248      -59.837033       0.864708757      29.253178        
485.56           0.867977597      28.8838008       0.483095         -60.2119994      0.483095         -60.2119994      0.867977597      28.8838008       
492.29           0.871148596      28.5213299       0.477544645      -60.579885       0.477544645      -60.579885       0.871148596      28.5213299       
499.02           0.874225264      28.1655853       0.472078731      -60.9408753      0.472078731      -60.9408753      0.874225264      28.1655853       
505.75           0.877210971      27.8163919       0.466695802      -61.2951498      0.466695802      -61.2951498      0.877210971      27.8163919       
512.48           0.880108951      27.4735798       0.461394404      -61.6428833      0.461394404      -61.6428833      0.880108951      27.4735798       
519.21           0.882922312      27.136984        0.456173091      -61.9842451      0.456173091      -61.9842451      0.882922312      27.136984        
525.94           0.88565404       26.806444        0.451030418      -62.3193996      0.451030418      -62.3193996      0.88565404       26.806444        
532.67           0.888307001      26.4818042       0.445964955      -62.6485063      0.445964955      -62.6485063      0.888307001      26.4818042       
539.4            0.890883946      26.1629136       0.440975279      -62.9717201      0.440975279      -62.9717201      0.890883946      26.1629136       
546.13           0.893387522      25.8496254       0.436059982      -63.2891911      0.436059982      -63.2891911      0.893387522      25.8496254       
552.86           0.895820266      25.5417973       0.43121767       -63.6010652      0.43121767       -63.6010652      0.895820266      25.5417973       
559.59           0.89818462       25.2392908       0.426446964      -63.9074838      0.426446964      -63.9074838      0.89818462       25.2392908       
566.32           0.900482927      24.941972        0.421746503      -64.2085839      0.421746503      -64.2085839      0.900482927      24.941972        
573.05           0.90271744       24.6497104       0.417114944      -64.5044988      0.417114944      -64.5044988      0.90271744       24.6497104       
579.78           0.904890322      24.3623796       0.412550961      -64.7953576      0.412550961      -64.7953576      0.904890322      24.3623796       
586.51           0.907003652      24.0798569       0.408053249      -65.0812857      0.408053249      -65.0812857      0.907003652      24.0798569       
593.24           0.909059431      23.8020231       0.403620524      -65.3624045      0.403620524      -65.3624045      0.909059431      23.8020231       
599.97           0.911059579      23.5287626       0.399251519      -65.6388321      0.399251519      -65.6388321      0.911059579      23.5287626       
606.7            0.913005943      23.2599631       0.394944993      -65.910683       0.394944993      -65.910683       0.913005943      23.2599631       
613.43           0.914900299      22.9955156       0.390699722      -66.1780683      0.390699722      -66.1780683      0.914900299      22.9955156       
620.16           0.916744354      22.7353142       0.386514504      -66.4410957      0.386514504      -66.4410957      0.916744354      22.7353142       
626.89           0.918539752      22.4792562       0.382388162      -66.6998699      0.382388162      -66.6998699      0.918539752      22.4792562       
633.62           0.920288071      22.2272418       0.378319537      -66.9544924      0.378319537      -66.9544924      0.920288071      22.2272418       
640.35           0.921990832      21.9791741       0.374307494      -67.2050618      0.374307494      -67.2050618      0.921990832      21.9791741       
647.08           0.923649497      21.7349591       0.370350917      -67.4516738      0.370350917      -67.4516738      0.923649497      21.7349591       
653.81           0.925265473      21.4945055       0.366448716      -67.6944213      0.366448716      -67.6944213      0.925265473      21.4945055       
660.54           0.926840114      21.2577244       0.362599818      -67.9333943      0.362599818      -67.9333943      0.926840114      21.2577244       
667.27           0.928374725      21.0245296       0.358803175      -68.1686806      0.358803175      -68.1686806      0.928374725      21.0245296       
674              0.929870561      20.7948376       0.355057758      -68.4003649      0.355057758      -68.4003649      0.929870561      20.7948376       
680.73           0.93132883       20.5685668       0.351362559      -68.62853        0.351362559      -68.62853        0.93132883       20.5685668       
687.46           0.932750698      20.3456383       0.347716594      -68.853256       0.347716594      -68.853256       0.932750698      20.3456383       
694.19           0.934137285      20.1259752       0.344118894      -69.0746206      0.344118894      -69.0746206      0.934137285      20.1259752       
700.92           0.935489672      19.9095031       0.340568516      -69.2926997      0.340568516      -69.2926997      0.935489672      19.9095031       
707.65           0.9368089        19.6961492       0.337064533      -69.5075665      0.337064533      -69.5075665      0.9368089        19.6961492       
714.38           0.938095973      19.4858432       0.33360604       -69.7192926      0.33360604       -69.7192926      0.938095973      19.4858432       
721.11           0.939351858      19.2785164       0.33019215       -69.9279472      0.33019215       -69.9279472      0.939351858      19.2785164       
727.84           0.940577488      19.0741023       0.326821996      -70.1335977      0.326821996      -70.1335977      0.940577488      19.0741023       
734.57           0.941773762      18.8725361       0.323494729      -70.3363097      0.323494729      -70.3363097      0.941773762      18.8725361       
741.3            0.942941548      18.6737549       0.320209519      -70.5361467      0.320209519      -70.5361467      0.942941548      18.6737549       
748.03           0.944081682      18.4776972       0.316965553      -70.7331706      0.316965553      -70.7331706      0.944081682      18.4776972       
754.76           0.945194972      18.2843036       0.313762039      -70.9274417      0.313762039      -70.9274417      0.945194972      18.2843036       
761.49           0.946282197      18.0935161       0.310598197      -71.1190182      0.310598197      -71.1190182      0.946282197      18.0935161       
768.22           0.947344108      17.9052783       0.307473269      -71.3079571      0.307473269      -71.3079571      0.947344108      17.9052783       
774.95           0.948381431      17.7195354       0.304386512      -71.4943137      0.304386512      -71.4943137      0.948381431      17.7195354       
781.68           0.949394867      17.536234        0.301337199      -71.6781416      0.301337199      -71.6781416      0.949394867      17.536234        
788.41           0.950385094      17.355322        0.298324618      -71.8594932      0.298324618      -71.8594932      0.950385094      17.355322        
795.14           0.951352763      17.176749        0.295348076      -72.0384194      0.295348076      -72.0384194      0.951352763      17.176749        
801.87           0.952298507      17.0004657       0.292406892      -72.2149695      0.292406892      -72.2149695      0.952298507      17.0004657       
808.6            0.953222936      16.8264243       0.289500401      -72.3891917      0.289500401      -72.3891917      0.953222936      16.8264243       
815.33           0.954126639      16.6545779       0.286627955      -72.5611327      0.286627955      -72.5611327      0.954126639      16.6545779       
822.06           0.955010185      16.4848813       0.283788916      -72.7308383      0.283788916      -72.7308383      0.955010185      16.4848813       
828.79           0.955874127      16.3172901       0.280982665      -72.8983526      0.280982665      -72.8983526      0.955874127      16.3172901       
835.52           0.956718995      16.1517613       0.278208593      -73.0637188      0.278208593      -73.0637188      0.956718995      16.1517613       
842.25           0.957545305      15.9882529       0.275466105      -73.2269789      0.275466105      -73.2269789      0.957545305      15.9882529       
848.98           0.958353556      15.8267239       0.272754621      -73.3881738      0.272754621      -73.3881738      0.958353556      15.8267239       
855.71           0.959144228      15.6671345       0.270073573      -73.5473432      0.270073573      -73.5473432      0.959144228      15.6671345       
