! Infineon Technologies  Discrete & RF Semiconductors
! BFP196W
! VCE =  10. V,  IC =  65 mA
! Common Emitter S-Parameters:                            Jan 2017
# GHz  S  MA  R  50
!  f         S11            S21            S12            S22
! GHz     MAG   ANG      MAG   ANG      MAG   ANG      MAG   ANG
 0.010  0.2871  -42.6  85.370  168.6  0.0031   73.5  0.9146  -14.2
 0.020  0.3705  -74.8  80.517  157.4  0.0062   65.2  0.8650  -27.6
 0.030  0.4076  -93.7  72.646  151.0  0.0081   59.0  0.7776  -36.6
 0.040  0.4800 -108.2  65.899  143.1  0.0101   55.2  0.7140  -47.6
 0.050  0.5744 -118.4  60.652  133.7  0.0121   52.7  0.6810  -60.2
 0.060  0.5866 -124.9  55.766  131.1  0.0129   50.5  0.6275  -64.7
 0.070  0.6060 -131.0  51.016  128.0  0.0136   48.5  0.5786  -70.0
 0.080  0.6318 -136.7  46.445  124.3  0.0144   46.8  0.5354  -76.2
 0.090  0.6634 -141.9  42.112  119.8  0.0152   45.2  0.4996  -83.4
 0.100  0.6999 -146.6  38.096  114.3  0.0160   43.8  0.4727  -91.5
 0.110  0.7051 -149.1  35.802  113.0  0.0164   43.4  0.4498  -94.6
 0.120  0.7117 -151.6  33.530  111.4  0.0168   43.1  0.4284  -98.0
 0.130  0.7195 -154.0  31.285  109.7  0.0173   42.8  0.4087 -101.7
 0.140  0.7285 -156.3  29.075  107.6  0.0177   42.5  0.3908 -105.8
 0.150  0.7388 -158.6  26.906  105.3  0.0181   42.2  0.3752 -110.3
 0.200  0.7491 -165.2  20.578   99.8  0.0190   44.9  0.3304 -122.2
 0.250  0.7583 -169.8  16.611   95.9  0.0214   47.2  0.3041 -131.2
 0.300  0.7612 -173.1  13.905   93.2  0.0232   48.3  0.2883 -137.6
 0.350  0.7619 -175.6  12.207   91.3  0.0254   51.7  0.2794 -141.9
 0.400  0.7639 -178.0  10.527   88.8  0.0277   54.5  0.2721 -146.5
 0.450  0.7641 -179.8   9.475   87.3  0.0297   55.5  0.2679 -149.4
 0.500  0.7651  178.5   8.430   85.5  0.0318   56.4  0.2643 -152.3
 0.600  0.7659  175.5   7.049   82.7  0.0366   58.5  0.2622 -156.5
 0.700  0.7675  173.0   6.040   80.2  0.0406   60.8  0.2591 -159.5
 0.800  0.7695  170.5   5.294   77.5  0.0467   62.7  0.2584 -161.5
 0.900  0.7672  168.3   4.694   75.2  0.0510   62.4  0.2584 -163.4
 1.000  0.7692  166.0   4.241   72.9  0.0555   62.8  0.2588 -165.2
 1.100  0.7723  163.9   3.865   70.8  0.0610   63.1  0.2598 -166.2
 1.200  0.7737  162.0   3.541   68.5  0.0658   62.7  0.2604 -167.6
 1.300  0.7739  159.9   3.271   66.5  0.0705   63.1  0.2625 -168.6
 1.400  0.7758  157.9   3.055   64.3  0.0758   62.5  0.2646 -169.8
 1.500  0.7787  156.2   2.846   62.2  0.0804   62.0  0.2673 -170.8
 1.600  0.7810  154.3   2.679   60.1  0.0858   61.8  0.2698 -171.7
 1.700  0.7837  152.3   2.528   58.0  0.0906   61.3  0.2735 -172.7
 1.800  0.7871  150.3   2.399   55.8  0.0953   60.8  0.2772 -173.6
 1.900  0.7890  148.7   2.273   54.0  0.0999   60.0  0.2815 -174.5
 2.000  0.7900  146.8   2.157   51.8  0.1049   59.0  0.2857 -175.3
 2.100  0.7919  144.9   2.060   49.8  0.1094   58.2  0.2905 -176.3
 2.200  0.7946  143.0   1.966   47.7  0.1140   57.5  0.2954 -177.2
 2.300  0.7970  141.3   1.883   45.8  0.1188   56.6  0.3007 -178.0
 2.400  0.8001  139.7   1.803   43.7  0.1237   55.8  0.3060 -178.8
 2.500  0.8014  138.1   1.731   41.9  0.1279   55.0  0.3113 -179.6
 2.600  0.8033  136.5   1.660   40.0  0.1321   54.2  0.3167  179.7
 2.700  0.8064  134.9   1.599   38.3  0.1363   53.4  0.3220  178.8
 2.800  0.8101  133.3   1.540   36.4  0.1405   52.6  0.3274  178.0
 2.900  0.8113  131.7   1.487   34.7  0.1446   51.6  0.3331  177.1
 3.000  0.8132  130.1   1.436   32.9  0.1488   50.7  0.3389  176.2
 3.100  0.8152  128.6   1.392   31.4  0.1527   49.8  0.3439  175.2
 3.200  0.8178  127.1   1.350   29.9  0.1566   49.0  0.3490  174.3
 3.300  0.8210  125.6   1.308   28.2  0.1606   48.2  0.3542  173.4
 3.400  0.8247  124.2   1.268   26.4  0.1646   47.5  0.3595  172.5
 3.500  0.8289  122.7   1.229   24.5  0.1686   46.8  0.3649  171.6
 3.600  0.8301  121.3   1.196   23.1  0.1723   45.9  0.3706  170.5
 3.700  0.8318  119.9   1.164   21.6  0.1761   45.0  0.3765  169.4
 3.800  0.8339  118.5   1.133   20.1  0.1799   44.1  0.3825  168.4
 3.900  0.8366  117.2   1.102   18.4  0.1838   43.3  0.3887  167.4
 4.000  0.8397  115.8   1.073   16.7  0.1877   42.5  0.3949  166.4
 4.100  0.8405  114.5   1.046   15.4  0.1912   41.6  0.4015  165.2
 4.200  0.8417  113.3   1.020   14.0  0.1947   40.7  0.4083  164.0
 4.300  0.8433  112.0   0.994   12.5  0.1982   39.8  0.4153  162.9
 4.400  0.8453  110.7   0.969   11.0  0.2019   39.0  0.4224  161.8
 4.500  0.8477  109.5   0.945    9.4  0.2055   38.2  0.4296  160.8
 4.600  0.8492  108.5   0.923    8.3  0.2088   37.4  0.4369  159.8
 4.700  0.8510  107.5   0.901    7.2  0.2121   36.6  0.4443  158.9
 4.800  0.8530  106.5   0.879    6.1  0.2154   35.8  0.4518  158.0
 4.900  0.8552  105.6   0.858    4.9  0.2188   35.1  0.4594  157.1
 5.000  0.8577  104.6   0.837    3.6  0.2222   34.4  0.4671  156.3
 5.100  0.8584  103.7   0.822    2.6  0.2255   33.6  0.4745  155.7
 5.200  0.8594  102.8   0.807    1.6  0.2288   32.9  0.4819  155.0
 5.300  0.8605  101.8   0.792    0.6  0.2322   32.1  0.4893  154.4
 5.400  0.8619  100.9   0.778   -0.5  0.2356   31.4  0.4968  153.9
 5.500  0.8635  100.0   0.764   -1.6  0.2390   30.7  0.5044  153.3
 5.600  0.8630   99.1   0.750   -2.5  0.2423   29.9  0.5090  152.8
 5.700  0.8626   98.1   0.737   -3.3  0.2457   29.1  0.5136  152.3
 5.800  0.8626   97.2   0.723   -4.3  0.2491   28.3  0.5183  151.8
 5.900  0.8627   96.2   0.710   -5.2  0.2525   27.5  0.5230  151.3
 6.000  0.8631   95.3   0.697   -6.2  0.2560   26.8  0.5277  150.8
!
!  f       NFmin   Gammaopt  rn/50
! GHz       dB    MAG  ANG    -
 0.450      1.51  0.53 -175   0.06
 0.900      1.64  0.57 -170   0.07
 1.900      2.49  0.70 -148   0.18
 2.400      2.88  0.74 -144   0.28
!
! (c) 2017  Infineon Technologies AG, Munich