! Infineon Technologies  Discrete & RF Semiconductors
! BFP196W
! VCE =  10. V,  IC =  50 mA
! Common Emitter S-Parameters:                            Jan 2017
# GHz  S  MA  R  50
!  f         S11            S21            S12            S22
! GHz     MAG   ANG      MAG   ANG      MAG   ANG      MAG   ANG
 0.010  0.3418  -33.9  77.879  169.6  0.0036   76.5  0.9302  -13.0
 0.020  0.4006  -62.9  73.693  159.2  0.0066   71.8  0.8857  -25.2
 0.030  0.4210  -82.1  67.252  152.8  0.0088   62.4  0.8049  -33.8
 0.040  0.4821  -98.0  61.814  145.2  0.0110   56.8  0.7462  -44.1
 0.050  0.5710 -109.6  57.663  136.3  0.0134   53.2  0.7149  -55.7
 0.060  0.5795 -116.8  53.200  133.6  0.0142   50.6  0.6601  -60.1
 0.070  0.5968 -123.6  48.881  130.3  0.0150   48.3  0.6098  -65.2
 0.080  0.6220 -130.0  44.745  126.5  0.0158   46.2  0.5652  -71.2
 0.090  0.6543 -135.8  40.851  121.9  0.0166   44.3  0.5278  -78.1
 0.100  0.6926 -141.0  37.272  116.4  0.0175   42.6  0.4993  -86.0
 0.110  0.6981 -143.8  35.071  115.0  0.0180   41.9  0.4744  -89.0
 0.120  0.7052 -146.6  32.896  113.3  0.0185   41.2  0.4511  -92.4
 0.130  0.7139 -149.3  30.750  111.5  0.0190   40.6  0.4294  -96.1
 0.140  0.7242 -151.9  28.642  109.4  0.0195   40.0  0.4098 -100.2
 0.150  0.7360 -154.5  26.579  106.9  0.0200   39.4  0.3924 -104.7
 0.200  0.7478 -162.2  20.391  101.0  0.0211   41.4  0.3398 -116.8
 0.250  0.7558 -167.4  16.511   96.9  0.0235   43.4  0.3081 -126.0
 0.300  0.7588 -171.1  13.822   94.0  0.0249   45.6  0.2896 -132.8
 0.350  0.7605 -173.8  12.143   92.0  0.0266   47.5  0.2789 -137.3
 0.400  0.7638 -176.5  10.484   89.4  0.0283   49.1  0.2700 -142.2
 0.450  0.7634 -178.4   9.437   87.9  0.0304   51.4  0.2651 -145.2
 0.500  0.7639  179.7   8.398   86.0  0.0326   53.4  0.2609 -148.4
 0.600  0.7669  176.6   7.026   83.0  0.0373   55.4  0.2560 -152.9
 0.700  0.7660  173.8   6.016   80.5  0.0412   58.0  0.2525 -156.2
 0.800  0.7673  171.3   5.275   77.8  0.0463   60.2  0.2520 -158.5
 0.900  0.7667  169.0   4.680   75.5  0.0507   60.2  0.2521 -160.4
 1.000  0.7705  166.7   4.228   73.1  0.0553   60.6  0.2521 -162.5
 1.100  0.7726  164.5   3.851   71.0  0.0606   60.9  0.2534 -163.6
 1.200  0.7726  162.4   3.531   68.6  0.0652   60.9  0.2537 -164.9
 1.300  0.7720  160.4   3.261   66.6  0.0698   61.2  0.2556 -166.0
 1.400  0.7748  158.5   3.043   64.4  0.0749   60.8  0.2583 -167.2
 1.500  0.7782  156.6   2.837   62.3  0.0797   60.5  0.2609 -168.4
 1.600  0.7814  154.6   2.669   60.1  0.0848   60.1  0.2635 -169.3
 1.700  0.7817  152.6   2.520   58.1  0.0891   60.2  0.2674 -170.2
 1.800  0.7845  150.7   2.392   55.8  0.0944   59.1  0.2713 -171.2
 1.900  0.7888  149.1   2.263   54.0  0.0985   58.8  0.2756 -172.1
 2.000  0.7902  147.1   2.150   51.8  0.1033   58.3  0.2804 -173.1
 2.100  0.7917  145.2   2.053   49.8  0.1079   57.6  0.2853 -174.1
 2.200  0.7941  143.4   1.958   47.6  0.1125   56.9  0.2902 -175.0
 2.300  0.7971  141.7   1.876   45.7  0.1173   56.1  0.2958 -175.8
 2.400  0.8008  140.0   1.797   43.7  0.1221   55.4  0.3014 -176.6
 2.500  0.8016  138.4   1.725   41.9  0.1263   54.5  0.3070 -177.5
 2.600  0.8030  136.9   1.654   40.0  0.1305   53.7  0.3126 -178.3
 2.700  0.8061  135.2   1.593   38.3  0.1348   52.9  0.3180 -179.2
 2.800  0.8100  133.5   1.534   36.4  0.1391   52.2  0.3235  180.0
 2.900  0.8113  131.9   1.481   34.6  0.1432   51.3  0.3294  179.0
 3.000  0.8132  130.4   1.429   32.7  0.1474   50.5  0.3353  178.1
 3.100  0.8152  128.9   1.386   31.2  0.1513   49.7  0.3406  177.1
 3.200  0.8177  127.4   1.344   29.7  0.1552   48.9  0.3460  176.1
 3.300  0.8209  125.9   1.303   28.0  0.1591   48.1  0.3514  175.1
 3.400  0.8246  124.4   1.263   26.3  0.1631   47.4  0.3570  174.2
 3.500  0.8288  122.9   1.225   24.4  0.1671   46.7  0.3627  173.3
 3.600  0.8301  121.5   1.192   23.0  0.1708   45.8  0.3687  172.1
 3.700  0.8319  120.1   1.160   21.5  0.1746   45.0  0.3748  171.0
 3.800  0.8341  118.7   1.129   19.9  0.1783   44.1  0.3811  170.0
 3.900  0.8369  117.3   1.098   18.3  0.1822   43.4  0.3875  168.9
 4.000  0.8402  115.9   1.069   16.5  0.1860   42.6  0.3940  167.9
 4.100  0.8410  114.7   1.042   15.2  0.1895   41.7  0.4008  166.7
 4.200  0.8421  113.4   1.015   13.8  0.1931   40.7  0.4079  165.5
 4.300  0.8437  112.2   0.989   12.4  0.1967   39.9  0.4151  164.4
 4.400  0.8457  110.9   0.964   10.9  0.2004   39.0  0.4224  163.3
 4.500  0.8480  109.7   0.939    9.3  0.2041   38.2  0.4299  162.2
 4.600  0.8495  108.7   0.917    8.2  0.2074   37.4  0.4373  161.2
 4.700  0.8513  107.7   0.895    7.1  0.2107   36.7  0.4449  160.2
 4.800  0.8533  106.7   0.874    6.0  0.2141   36.0  0.4525  159.3
 4.900  0.8556  105.7   0.853    4.8  0.2175   35.3  0.4603  158.4
 5.000  0.8582  104.7   0.832    3.5  0.2209   34.6  0.4682  157.5
 5.100  0.8592  103.8   0.817    2.5  0.2243   33.8  0.4758  156.8
 5.200  0.8605  102.9   0.802    1.5  0.2277   33.1  0.4834  156.2
 5.300  0.8619  101.9   0.788    0.5  0.2312   32.3  0.4911  155.5
 5.400  0.8636  101.0   0.774   -0.6  0.2347   31.6  0.4989  154.9
 5.500  0.8655  100.1   0.760   -1.7  0.2383   30.9  0.5067  154.3
 5.600  0.8645   99.2   0.746   -2.6  0.2415   30.1  0.5116  153.8
 5.700  0.8638   98.2   0.732   -3.4  0.2448   29.2  0.5166  153.2
 5.800  0.8633   97.3   0.719   -4.4  0.2481   28.4  0.5216  152.7
 5.900  0.8630   96.3   0.705   -5.3  0.2515   27.7  0.5266  152.2
 6.000  0.8630   95.4   0.692   -6.3  0.2549   26.9  0.5317  151.7
!
!  f       NFmin   Gammaopt  rn/50
! GHz       dB    MAG  ANG    -
 0.450      1.36  0.51 -177   0.05
 0.900      1.48  0.55 -171   0.07
 1.900      2.30  0.69 -149   0.16
 2.400      2.70  0.73 -144   0.26
!
! (c) 2017  Infineon Technologies AG, Munich