! Infineon Technologies  Discrete & RF Semiconductors
! BFP196W
! VCE =  4.0 V,  IC =  5.0 mA
! Common Emitter S-Parameters:                            Jan 2017
# GHz  S  MA  R  50
!  f         S11            S21            S12            S22
! GHz     MAG   ANG      MAG   ANG      MAG   ANG      MAG   ANG
 0.010  0.8563   -7.1  16.655  177.0  0.0056   82.4  0.9959   -3.7
 0.020  0.8399  -16.9  16.467  171.9  0.0117   84.6  0.9806   -7.1
 0.030  0.8233  -23.7  16.141  168.1  0.0170   77.9  0.9661  -10.6
 0.040  0.8187  -30.7  15.889  164.2  0.0224   74.3  0.9553  -14.2
 0.050  0.8262  -37.6  15.715  160.1  0.0278   72.2  0.9483  -17.8
 0.060  0.8074  -43.9  15.229  157.0  0.0317   67.3  0.9217  -20.3
 0.070  0.7987  -50.4  14.790  153.8  0.0357   63.4  0.8970  -23.0
 0.080  0.8004  -56.9  14.401  150.3  0.0399   60.4  0.8744  -25.8
 0.090  0.8124  -63.3  14.068  146.7  0.0442   57.9  0.8539  -28.7
 0.100  0.8343  -69.5  13.793  142.9  0.0485   55.9  0.8358  -31.8
 0.110  0.8209  -74.2  13.326  140.7  0.0509   53.1  0.8092  -33.7
 0.120  0.8133  -79.0  12.881  138.3  0.0534   50.6  0.7835  -35.6
 0.130  0.8115  -83.9  12.460  135.7  0.0560   48.3  0.7588  -37.8
 0.140  0.8156  -88.8  12.066  133.0  0.0587   46.2  0.7352  -40.0
 0.150  0.8255  -93.6  11.700  130.1  0.0615   44.3  0.7128  -42.4
 0.200  0.8215 -110.7   9.887  120.3  0.0682   36.1  0.6161  -49.0
 0.250  0.8180 -123.7   8.473  112.8  0.0734   30.5  0.5409  -53.6
 0.300  0.8132 -133.5   7.342  107.1  0.0759   26.3  0.4828  -56.9
 0.350  0.8076 -140.2   6.538  103.3  0.0772   23.6  0.4454  -58.9
 0.400  0.8131 -146.9   5.772   98.4  0.0786   21.0  0.4087  -61.3
 0.450  0.8090 -151.5   5.229   95.5  0.0790   19.2  0.3877  -62.7
 0.500  0.8101 -156.1   4.703   92.0  0.0795   17.5  0.3669  -64.3
 0.600  0.8117 -163.2   3.965   86.8  0.0800   15.7  0.3409  -66.9
 0.700  0.8097 -168.7   3.414   82.2  0.0787   14.4  0.3249  -69.3
 0.800  0.8111 -173.3   3.004   78.0  0.0787   14.3  0.3174  -71.7
 0.900  0.8100 -177.3   2.669   74.2  0.0777   13.6  0.3130  -74.4
 1.000  0.8142  179.1   2.415   70.8  0.0773   14.1  0.3118  -77.2
 1.100  0.8171  176.1   2.198   67.5  0.0761   14.7  0.3142  -79.8
 1.200  0.8170  173.0   2.014   64.2  0.0756   15.1  0.3169  -82.7
 1.300  0.8185  170.2   1.859   61.2  0.0748   16.2  0.3206  -85.4
 1.400  0.8216  167.7   1.731   58.2  0.0741   17.9  0.3254  -88.6
 1.500  0.8272  165.2   1.615   55.3  0.0739   19.6  0.3305  -91.6
 1.600  0.8305  162.8   1.516   52.5  0.0735   21.2  0.3377  -94.4
 1.700  0.8335  160.2   1.428   49.8  0.0728   23.5  0.3444  -97.7
 1.800  0.8379  157.8   1.355   47.0  0.0735   25.9  0.3514 -100.7
 1.900  0.8425  155.7   1.281   44.7  0.0735   28.1  0.3596 -103.8
 2.000  0.8438  153.4   1.215   41.9  0.0749   30.6  0.3672 -106.6
 2.100  0.8462  151.2   1.157   39.5  0.0763   33.0  0.3762 -109.7
 2.200  0.8498  149.0   1.101   36.9  0.0779   35.3  0.3863 -112.7
 2.300  0.8526  146.9   1.053   34.6  0.0803   37.5  0.3961 -115.7
 2.400  0.8565  144.9   1.006   32.1  0.0828   39.5  0.4070 -118.5
 2.500  0.8584  143.0   0.962   30.0  0.0860   41.4  0.4174 -121.5
 2.600  0.8613  141.1   0.920   27.8  0.0892   43.2  0.4289 -124.3
 2.700  0.8635  139.2   0.883   25.8  0.0929   44.8  0.4387 -127.0
 2.800  0.8667  137.4   0.847   23.7  0.0967   46.2  0.4495 -129.6
 2.900  0.8688  135.6   0.815   21.8  0.1010   47.1  0.4589 -132.4
 3.000  0.8717  133.8   0.783   19.7  0.1053   47.9  0.4694 -135.0
 3.100  0.8732  132.1   0.756   18.2  0.1104   48.4  0.4774 -137.7
 3.200  0.8755  130.4   0.730   16.7  0.1154   48.8  0.4864 -140.3
 3.300  0.8786  128.7   0.704   15.0  0.1205   49.2  0.4964 -142.9
 3.400  0.8824  127.0   0.679   13.2  0.1256   49.6  0.5073 -145.3
 3.500  0.8870  125.3   0.655   11.3  0.1307   49.9  0.5191 -147.6
 3.600  0.8873  123.7   0.635   10.1  0.1361   49.5  0.5266 -150.2
 3.700  0.8883  122.2   0.615    8.9  0.1416   49.1  0.5351 -152.6
 3.800  0.8899  120.6   0.596    7.6  0.1470   48.7  0.5446 -155.1
 3.900  0.8922  119.0   0.577    6.2  0.1524   48.4  0.5550 -157.4
 4.000  0.8952  117.5   0.558    4.7  0.1579   48.1  0.5663 -159.6
 4.100  0.8951  116.1   0.542    3.8  0.1632   47.3  0.5738 -162.1
 4.200  0.8955  114.7   0.527    2.9  0.1685   46.6  0.5824 -164.5
 4.300  0.8964  113.3   0.512    1.9  0.1738   45.9  0.5919 -166.9
 4.400  0.8979  111.9   0.497    0.8  0.1792   45.2  0.6025 -169.2
 4.500  0.8999  110.5   0.482   -0.3  0.1846   44.6  0.6140 -171.4
 4.600  0.9003  109.4   0.469   -0.7  0.1897   43.7  0.6217 -173.6
 4.700  0.9009  108.3   0.457   -1.2  0.1948   42.9  0.6302 -175.7
 4.800  0.9020  107.2   0.444   -1.7  0.2000   42.1  0.6395 -177.7
 4.900  0.9033  106.1   0.432   -2.2  0.2052   41.4  0.6496 -179.7
 5.000  0.9050  105.0   0.419   -2.8  0.2104   40.7  0.6605  178.4
 5.100  0.9050  104.0   0.412   -3.0  0.2151   39.7  0.6686  176.7
 5.200  0.9053  103.0   0.405   -3.3  0.2199   38.8  0.6773  175.0
 5.300  0.9059  102.0   0.397   -3.5  0.2247   37.9  0.6866  173.4
 5.400  0.9068  101.0   0.390   -3.7  0.2296   37.1  0.6964  171.8
 5.500  0.9079  100.0   0.383   -4.0  0.2345   36.3  0.7067  170.3
 5.600  0.9061   99.0   0.377   -4.1  0.2389   35.2  0.7116  168.9
 5.700  0.9047   98.0   0.372   -4.1  0.2433   34.2  0.7170  167.5
 5.800  0.9035   96.9   0.366   -4.2  0.2478   33.3  0.7228  166.2
 5.900  0.9026   95.9   0.361   -4.2  0.2524   32.3  0.7289  164.8
 6.000  0.9020   94.9   0.355   -4.3  0.2571   31.4  0.7355  163.5
!
!  f       NFmin   Gammaopt  rn/50
! GHz       dB    MAG  ANG    -
 0.450      0.90  0.44  123   0.09
 0.900      1.32  0.60  159   0.06
 1.900      2.72  0.75 -161   0.11
 2.400      3.29  0.80 -151   0.28
!
! (c) 2017  Infineon Technologies AG, Munich