! Infineon Technologies  Discrete & RF Semiconductors
! BFP196W
! VCE =  9.0 V,  IC =  60 mA
! Common Emitter S-Parameters:                            Jan 2017
# GHz  S  MA  R  50
!  f         S11            S21            S12            S22
! GHz     MAG   ANG      MAG   ANG      MAG   ANG      MAG   ANG
 0.010  0.2902  -42.2  84.407  168.7  0.0030   80.5  0.9313  -14.2
 0.020  0.3737  -74.1  79.584  157.5  0.0061   69.8  0.8830  -27.6
 0.030  0.4101  -93.1  71.857  151.1  0.0081   61.0  0.7936  -36.6
 0.040  0.4824 -107.7  65.245  143.2  0.0102   55.7  0.7284  -47.6
 0.050  0.5773 -118.0  60.115  133.8  0.0123   52.2  0.6942  -60.1
 0.060  0.5891 -124.5  55.295  131.2  0.0131   50.1  0.6398  -64.6
 0.070  0.6081 -130.7  50.611  128.1  0.0138   48.3  0.5900  -69.9
 0.080  0.6337 -136.4  46.105  124.4  0.0146   46.6  0.5461  -76.1
 0.090  0.6652 -141.7  41.835  119.9  0.0154   45.1  0.5097  -83.3
 0.100  0.7017 -146.4  37.879  114.4  0.0162   43.8  0.4824  -91.4
 0.110  0.7071 -148.9  35.595  113.1  0.0167   43.3  0.4591  -94.5
 0.120  0.7138 -151.3  33.333  111.5  0.0172   42.8  0.4373  -97.9
 0.130  0.7217 -153.7  31.098  109.8  0.0176   42.3  0.4172 -101.7
 0.140  0.7309 -156.0  28.897  107.8  0.0181   41.9  0.3991 -105.8
 0.150  0.7412 -158.3  26.738  105.4  0.0186   41.5  0.3832 -110.3
 0.200  0.7520 -165.1  20.435   99.9  0.0195   44.5  0.3376 -122.3
 0.250  0.7588 -169.7  16.510   96.0  0.0220   46.3  0.3104 -131.3
 0.300  0.7631 -173.1  13.818   93.2  0.0233   48.6  0.2949 -137.7
 0.350  0.7639 -175.6  12.133   91.3  0.0254   51.1  0.2860 -142.0
 0.400  0.7661 -178.0  10.465   88.9  0.0275   53.3  0.2788 -146.6
 0.450  0.7661 -179.7   9.418   87.4  0.0297   55.1  0.2744 -149.5
 0.500  0.7667  178.6   8.379   85.6  0.0320   56.6  0.2707 -152.4
 0.600  0.7690  175.5   7.008   82.7  0.0366   58.2  0.2680 -156.6
 0.700  0.7702  173.1   6.003   80.3  0.0412   60.6  0.2649 -159.6
 0.800  0.7688  170.4   5.259   77.5  0.0469   61.9  0.2647 -161.8
 0.900  0.7681  168.2   4.665   75.2  0.0510   62.0  0.2648 -163.6
 1.000  0.7723  166.1   4.218   73.0  0.0562   62.8  0.2649 -165.5
 1.100  0.7736  163.9   3.840   70.9  0.0608   62.8  0.2656 -166.5
 1.200  0.7748  161.9   3.519   68.5  0.0658   62.6  0.2666 -167.9
 1.300  0.7740  159.9   3.251   66.5  0.0709   62.6  0.2684 -168.8
 1.400  0.7773  158.0   3.035   64.4  0.0760   62.5  0.2707 -170.1
 1.500  0.7808  156.2   2.830   62.3  0.0805   61.8  0.2729 -171.1
 1.600  0.7840  154.1   2.663   60.1  0.0856   61.4  0.2758 -172.1
 1.700  0.7856  152.3   2.513   58.1  0.0906   61.1  0.2789 -173.0
 1.800  0.7881  150.2   2.385   55.9  0.0954   60.4  0.2832 -174.1
 1.900  0.7905  148.7   2.259   54.0  0.1001   59.4  0.2878 -174.9
 2.000  0.7906  146.8   2.145   51.9  0.1051   58.8  0.2913 -175.7
 2.100  0.7924  144.9   2.048   49.9  0.1096   58.0  0.2962 -176.7
 2.200  0.7950  143.0   1.954   47.7  0.1142   57.3  0.3012 -177.7
 2.300  0.7983  141.3   1.872   45.8  0.1190   56.5  0.3065 -178.5
 2.400  0.8022  139.7   1.793   43.8  0.1239   55.8  0.3119 -179.3
 2.500  0.8029  138.1   1.722   42.0  0.1281   55.0  0.3172  179.9
 2.600  0.8042  136.5   1.652   40.1  0.1323   54.2  0.3226  179.2
 2.700  0.8077  134.8   1.591   38.4  0.1365   53.3  0.3280  178.3
 2.800  0.8118  133.2   1.531   36.5  0.1407   52.5  0.3334  177.5
 2.900  0.8134  131.7   1.478   34.8  0.1450   51.6  0.3389  176.5
 3.000  0.8156  130.2   1.427   32.9  0.1494   50.7  0.3445  175.6
 3.100  0.8173  128.7   1.384   31.4  0.1534   49.8  0.3495  174.6
 3.200  0.8196  127.2   1.343   29.9  0.1573   48.9  0.3547  173.6
 3.300  0.8224  125.7   1.302   28.2  0.1614   48.1  0.3599  172.7
 3.400  0.8258  124.2   1.262   26.5  0.1654   47.3  0.3653  171.8
 3.500  0.8298  122.7   1.224   24.6  0.1695   46.6  0.3707  170.9
 3.600  0.8310  121.3   1.191   23.2  0.1732   45.7  0.3764  169.8
 3.700  0.8327  119.9   1.159   21.7  0.1769   44.8  0.3822  168.7
 3.800  0.8349  118.5   1.127   20.2  0.1807   44.0  0.3881  167.7
 3.900  0.8376  117.2   1.097   18.5  0.1845   43.2  0.3942  166.7
 4.000  0.8408  115.8   1.067   16.8  0.1883   42.4  0.4004  165.7
 4.100  0.8416  114.5   1.040   15.5  0.1917   41.5  0.4071  164.5
 4.200  0.8429  113.3   1.014   14.1  0.1951   40.6  0.4139  163.4
 4.300  0.8445  112.0   0.988   12.7  0.1985   39.8  0.4209  162.3
 4.400  0.8465  110.7   0.963   11.2  0.2020   39.0  0.4280  161.2
 4.500  0.8490  109.5   0.939    9.6  0.2055   38.2  0.4353  160.2
 4.600  0.8505  108.5   0.917    8.5  0.2088   37.4  0.4425  159.2
 4.700  0.8522  107.5   0.896    7.4  0.2122   36.6  0.4498  158.3
 4.800  0.8541  106.5   0.874    6.3  0.2156   35.8  0.4573  157.4
 4.900  0.8563  105.6   0.853    5.1  0.2191   35.0  0.4648  156.5
 5.000  0.8588  104.6   0.833    3.8  0.2226   34.3  0.4725  155.7
 5.100  0.8597  103.7   0.818    2.8  0.2260   33.5  0.4798  155.1
 5.200  0.8608  102.8   0.803    1.8  0.2294   32.8  0.4871  154.4
 5.300  0.8621  101.8   0.789    0.8  0.2329   32.0  0.4945  153.8
 5.400  0.8636  100.9   0.775   -0.3  0.2364   31.3  0.5019  153.3
 5.500  0.8654  100.0   0.761   -1.4  0.2399   30.6  0.5094  152.7
 5.600  0.8644   99.1   0.747   -2.3  0.2431   29.8  0.5139  152.2
 5.700  0.8635   98.1   0.734   -3.2  0.2463   28.9  0.5184  151.7
 5.800  0.8630   97.2   0.721   -4.1  0.2496   28.1  0.5229  151.2
 5.900  0.8626   96.2   0.708   -5.1  0.2529   27.4  0.5275  150.7
 6.000  0.8625   95.3   0.695   -6.1  0.2563   26.6  0.5321  150.2
!
!  f       NFmin   Gammaopt  rn/50
! GHz       dB    MAG  ANG    -
 0.450      1.47  0.52 -176   0.06
 0.900      1.59  0.56 -170   0.07
 1.900      2.42  0.69 -149   0.17
 2.400      2.81  0.73 -144   0.27
!
! (c) 2017  Infineon Technologies AG, Munich