! Infineon Technologies  Discrete & RF Semiconductors
! BFP196W
! VCE =  8.0 V,  IC =  45 mA
! Common Emitter S-Parameters:                            Jan 2017
# GHz  S  MA  R  50
!  f         S11            S21            S12            S22
! GHz     MAG   ANG      MAG   ANG      MAG   ANG      MAG   ANG
 0.010  0.3392  -34.2  76.132  169.8  0.0034   80.9  0.9498  -13.1
 0.020  0.3983  -64.4  72.557  159.2  0.0063   72.7  0.9035  -25.3
 0.030  0.4214  -83.2  66.103  152.8  0.0089   62.6  0.8211  -34.0
 0.040  0.4834  -98.7  60.630  145.2  0.0116   57.1  0.7612  -44.3
 0.050  0.5716 -110.0  56.423  136.3  0.0144   53.7  0.7296  -55.9
 0.060  0.5809 -117.2  52.057  133.6  0.0151   51.2  0.6738  -60.3
 0.070  0.5990 -124.0  47.831  130.3  0.0157   48.9  0.6228  -65.5
 0.080  0.6250 -130.3  43.786  126.5  0.0164   46.9  0.5778  -71.6
 0.090  0.6580 -136.1  39.976  121.9  0.0172   45.0  0.5403  -78.6
 0.100  0.6970 -141.3  36.475  116.4  0.0179   43.2  0.5119  -86.5
 0.110  0.7024 -144.1  34.320  115.0  0.0185   42.7  0.4863  -89.6
 0.120  0.7095 -146.8  32.189  113.3  0.0191   42.3  0.4623  -92.9
 0.130  0.7182 -149.5  30.088  111.5  0.0197   41.9  0.4400  -96.7
 0.140  0.7285 -152.2  28.023  109.4  0.0203   41.5  0.4198 -100.8
 0.150  0.7402 -154.7  26.003  106.9  0.0209   41.1  0.4020 -105.3
 0.200  0.7508 -162.2  19.970  101.0  0.0216   41.5  0.3501 -117.4
 0.250  0.7608 -167.5  16.158   96.9  0.0239   42.4  0.3179 -126.8
 0.300  0.7643 -171.2  13.538   94.0  0.0249   44.9  0.2986 -133.4
 0.350  0.7655 -173.9  11.890   92.0  0.0270   47.3  0.2880 -138.0
 0.400  0.7684 -176.6  10.260   89.4  0.0291   49.4  0.2793 -142.9
 0.450  0.7679 -178.5   9.236   87.9  0.0313   51.5  0.2739 -146.0
 0.500  0.7682  179.6   8.221   86.0  0.0336   53.3  0.2694 -149.2
 0.600  0.7704  176.5   6.879   83.0  0.0376   55.0  0.2662 -153.6
 0.700  0.7714  173.9   5.892   80.5  0.0420   57.4  0.2619 -156.9
 0.800  0.7726  171.1   5.163   77.7  0.0472   59.4  0.2614 -159.2
 0.900  0.7717  168.9   4.579   75.4  0.0509   59.3  0.2610 -161.2
 1.000  0.7736  166.7   4.140   73.1  0.0560   60.6  0.2611 -163.1
 1.100  0.7766  164.5   3.769   70.9  0.0611   61.3  0.2622 -164.2
 1.200  0.7768  162.4   3.455   68.5  0.0658   60.6  0.2632 -165.7
 1.300  0.7767  160.4   3.193   66.5  0.0700   60.7  0.2647 -166.8
 1.400  0.7790  158.5   2.979   64.3  0.0752   60.7  0.2674 -167.9
 1.500  0.7822  156.6   2.779   62.2  0.0803   60.4  0.2703 -169.1
 1.600  0.7847  154.7   2.614   60.0  0.0852   60.0  0.2729 -170.0
 1.700  0.7859  152.6   2.469   57.9  0.0899   60.0  0.2765 -171.1
 1.800  0.7910  150.6   2.341   55.7  0.0944   59.0  0.2803 -172.0
 1.900  0.7925  149.0   2.217   53.9  0.0989   58.6  0.2850 -172.9
 2.000  0.7937  147.0   2.107   51.6  0.1040   58.0  0.2896 -173.8
 2.100  0.7959  145.2   2.012   49.6  0.1085   57.2  0.2945 -174.8
 2.200  0.7989  143.4   1.920   47.5  0.1131   56.5  0.2994 -175.8
 2.300  0.8019  141.7   1.839   45.6  0.1177   55.8  0.3050 -176.6
 2.400  0.8057  140.0   1.760   43.5  0.1223   55.1  0.3106 -177.4
 2.500  0.8061  138.3   1.690   41.7  0.1266   54.3  0.3162 -178.3
 2.600  0.8072  136.7   1.621   39.8  0.1310   53.6  0.3218 -179.1
 2.700  0.8106  135.0   1.562   38.1  0.1351   52.8  0.3273  180.0
 2.800  0.8146  133.4   1.504   36.2  0.1393   52.1  0.3328  179.1
 2.900  0.8155  131.8   1.451   34.5  0.1436   51.2  0.3387  178.2
 3.000  0.8169  130.3   1.400   32.6  0.1479   50.3  0.3446  177.3
 3.100  0.8188  128.8   1.358   31.1  0.1518   49.5  0.3498  176.3
 3.200  0.8213  127.3   1.317   29.6  0.1557   48.7  0.3551  175.3
 3.300  0.8243  125.8   1.277   27.9  0.1597   47.9  0.3605  174.3
 3.400  0.8279  124.3   1.239   26.2  0.1637   47.2  0.3661  173.3
 3.500  0.8321  122.8   1.201   24.3  0.1677   46.5  0.3717  172.4
 3.600  0.8333  121.4   1.169   22.9  0.1715   45.6  0.3777  171.2
 3.700  0.8350  120.0   1.137   21.4  0.1753   44.7  0.3839  170.1
 3.800  0.8372  118.6   1.106   19.8  0.1792   43.9  0.3902  169.1
 3.900  0.8399  117.3   1.076   18.2  0.1831   43.1  0.3966  168.0
 4.000  0.8430  115.9   1.047   16.4  0.1870   42.3  0.4032  167.0
 4.100  0.8439  114.6   1.021   15.1  0.1905   41.4  0.4100  165.8
 4.200  0.8452  113.4   0.995   13.8  0.1940   40.5  0.4170  164.6
 4.300  0.8469  112.1   0.970   12.4  0.1975   39.7  0.4241  163.5
 4.400  0.8491  110.8   0.945   10.9  0.2011   38.9  0.4314  162.4
 4.500  0.8516  109.6   0.921    9.3  0.2047   38.1  0.4388  161.4
 4.600  0.8528  108.6   0.900    8.2  0.2081   37.3  0.4462  160.4
 4.700  0.8542  107.6   0.878    7.1  0.2116   36.5  0.4537  159.4
 4.800  0.8559  106.6   0.858    6.0  0.2151   35.7  0.4614  158.5
 4.900  0.8578  105.6   0.837    4.8  0.2186   35.0  0.4691  157.6
 5.000  0.8600  104.6   0.817    3.5  0.2222   34.3  0.4770  156.7
 5.100  0.8611  103.7   0.802    2.6  0.2255   33.5  0.4845  156.0
 5.200  0.8623  102.8   0.787    1.6  0.2289   32.8  0.4921  155.4
 5.300  0.8638  101.8   0.773    0.6  0.2324   32.1  0.4997  154.7
 5.400  0.8656  100.9   0.759   -0.5  0.2358   31.4  0.5074  154.1
 5.500  0.8675  100.0   0.745   -1.6  0.2393   30.7  0.5151  153.5
 5.600  0.8665   99.1   0.732   -2.5  0.2426   29.9  0.5198  153.0
 5.700  0.8658   98.1   0.718   -3.3  0.2459   29.0  0.5246  152.4
 5.800  0.8652   97.2   0.705   -4.3  0.2492   28.2  0.5294  151.9
 5.900  0.8650   96.2   0.693   -5.2  0.2526   27.5  0.5343  151.4
 6.000  0.8649   95.3   0.680   -6.2  0.2561   26.7  0.5392  150.9
!
!  f       NFmin   Gammaopt  rn/50
! GHz       dB    MAG  ANG    -
 0.450      1.31  0.50 -177   0.05
 0.900      1.44  0.54 -172   0.07
 1.900      2.26  0.69 -150   0.15
 2.400      2.66  0.73 -145   0.25
!
! (c) 2017  Infineon Technologies AG, Munich