! Infineon Technologies  Discrete & RF Semiconductors
! BFP196W
! VCE =  7.0 V,  IC =  35 mA
! Common Emitter S-Parameters:                            Jan 2017
# GHz  S  MA  R  50
!  f         S11            S21            S12            S22
! GHz     MAG   ANG      MAG   ANG      MAG   ANG      MAG   ANG
 0.010  0.3892  -28.8  68.190  170.7  0.0036   80.0  0.9615  -12.1
 0.020  0.4312  -55.4  65.040  160.8  0.0071   73.0  0.9234  -23.3
 0.030  0.4420  -73.9  59.870  154.5  0.0096   63.5  0.8462  -31.6
 0.040  0.4943  -90.0  55.557  147.1  0.0123   58.0  0.7900  -41.3
 0.050  0.5770 -102.2  52.316  138.6  0.0151   54.5  0.7593  -52.1
 0.060  0.5825 -109.9  48.437  135.8  0.0161   51.4  0.7027  -56.4
 0.070  0.5981 -117.3  44.699  132.4  0.0171   48.6  0.6509  -61.5
 0.080  0.6231 -124.2  41.137  128.5  0.0182   46.1  0.6050  -67.4
 0.090  0.6564 -130.5  37.804  123.9  0.0193   43.9  0.5664  -74.2
 0.100  0.6968 -136.1  34.764  118.4  0.0204   42.0  0.5369  -81.8
 0.110  0.7015 -139.2  32.749  116.9  0.0210   41.2  0.5098  -84.8
 0.120  0.7081 -142.3  30.760  115.2  0.0215   40.5  0.4842  -88.1
 0.130  0.7168 -145.3  28.803  113.2  0.0221   39.8  0.4604  -91.8
 0.140  0.7274 -148.2  26.884  111.0  0.0226   39.1  0.4387  -95.8
 0.150  0.7398 -151.0  25.012  108.4  0.0232   38.5  0.4194 -100.3
 0.200  0.7537 -159.4  19.274  102.2  0.0237   38.7  0.3599 -112.5
 0.250  0.7626 -165.3  15.627   97.8  0.0267   40.4  0.3231 -121.9
 0.300  0.7654 -169.2  13.102   94.8  0.0273   41.2  0.3012 -128.8
 0.350  0.7665 -172.1  11.514   92.7  0.0289   43.6  0.2884 -133.6
 0.400  0.7695 -175.0   9.947   89.9  0.0306   45.8  0.2777 -138.8
 0.450  0.7706 -177.1   8.956   88.3  0.0326   47.0  0.2711 -142.0
 0.500  0.7727 -179.2   7.974   86.3  0.0347   48.1  0.2654 -145.3
 0.600  0.7728  177.5   6.671   83.2  0.0392   51.2  0.2607 -150.0
 0.700  0.7750  174.6   5.715   80.6  0.0426   54.3  0.2562 -153.5
 0.800  0.7779  171.9   5.010   77.8  0.0474   56.2  0.2551 -156.1
 0.900  0.7746  169.5   4.444   75.3  0.0512   56.7  0.2554 -158.2
 1.000  0.7774  167.3   4.017   73.0  0.0561   57.4  0.2553 -160.1
 1.100  0.7794  165.0   3.658   70.8  0.0607   58.0  0.2560 -161.4
 1.200  0.7801  162.9   3.352   68.4  0.0654   58.2  0.2572 -162.8
 1.300  0.7806  160.8   3.099   66.3  0.0697   58.5  0.2588 -163.9
 1.400  0.7827  158.9   2.892   64.0  0.0749   59.1  0.2615 -165.2
 1.500  0.7861  157.0   2.697   61.9  0.0791   58.5  0.2643 -166.3
 1.600  0.7892  155.0   2.537   59.7  0.0840   58.4  0.2674 -167.2
 1.700  0.7897  153.0   2.394   57.6  0.0883   58.4  0.2719 -168.3
 1.800  0.7933  151.0   2.273   55.3  0.0932   57.6  0.2758 -169.4
 1.900  0.7970  149.3   2.153   53.5  0.0978   57.4  0.2806 -170.3
 2.000  0.7975  147.4   2.044   51.2  0.1028   56.8  0.2850 -171.2
 2.100  0.7998  145.5   1.952   49.2  0.1072   56.2  0.2903 -172.3
 2.200  0.8029  143.6   1.863   47.0  0.1116   55.6  0.2957 -173.3
 2.300  0.8052  141.9   1.784   45.1  0.1162   55.0  0.3013 -174.2
 2.400  0.8083  140.2   1.708   43.0  0.1208   54.4  0.3070 -175.0
 2.500  0.8096  138.6   1.639   41.2  0.1250   53.6  0.3131 -175.9
 2.600  0.8115  137.0   1.572   39.3  0.1293   52.9  0.3193 -176.7
 2.700  0.8150  135.3   1.514   37.5  0.1336   52.2  0.3253 -177.7
 2.800  0.8191  133.7   1.458   35.6  0.1379   51.5  0.3313 -178.6
 2.900  0.8195  132.1   1.408   33.9  0.1419   50.6  0.3373 -179.5
 3.000  0.8206  130.5   1.359   32.0  0.1460   49.8  0.3433  179.6
 3.100  0.8226  129.0   1.318   30.5  0.1500   49.0  0.3489  178.5
 3.200  0.8252  127.5   1.277   29.0  0.1540   48.3  0.3546  177.5
 3.300  0.8283  126.0   1.238   27.3  0.1580   47.7  0.3604  176.4
 3.400  0.8320  124.5   1.200   25.5  0.1620   47.0  0.3664  175.5
 3.500  0.8363  123.0   1.163   23.6  0.1661   46.4  0.3724  174.5
 3.600  0.8374  121.6   1.132   22.2  0.1699   45.5  0.3787  173.3
 3.700  0.8390  120.2   1.101   20.7  0.1737   44.7  0.3851  172.2
 3.800  0.8411  118.8   1.072   19.1  0.1776   43.8  0.3917  171.1
 3.900  0.8437  117.4   1.043   17.4  0.1815   43.0  0.3984  170.0
 4.000  0.8468  116.0   1.015   15.6  0.1854   42.3  0.4053  169.0
 4.100  0.8476  114.7   0.989   14.3  0.1890   41.4  0.4124  167.7
 4.200  0.8488  113.4   0.964   13.0  0.1926   40.6  0.4197  166.5
 4.300  0.8505  112.1   0.940   11.6  0.1962   39.7  0.4272  165.3
 4.400  0.8526  110.9   0.916   10.1  0.1999   39.0  0.4349  164.2
 4.500  0.8551  109.6   0.893    8.5  0.2036   38.2  0.4427  163.1
 4.600  0.8564  108.6   0.872    7.5  0.2071   37.4  0.4504  162.0
 4.700  0.8579  107.7   0.850    6.4  0.2106   36.7  0.4582  161.0
 4.800  0.8596  106.7   0.830    5.3  0.2141   36.0  0.4662  160.0
 4.900  0.8616  105.8   0.809    4.1  0.2177   35.3  0.4743  159.0
 5.000  0.8638  104.8   0.789    2.9  0.2213   34.6  0.4826  158.1
 5.100  0.8647  103.9   0.775    1.9  0.2247   33.8  0.4903  157.4
 5.200  0.8659  102.9   0.760    0.9  0.2281   33.0  0.4981  156.7
 5.300  0.8673  102.0   0.746   -0.1  0.2315   32.3  0.5060  156.0
 5.400  0.8689  101.0   0.732   -1.2  0.2350   31.5  0.5140  155.3
 5.500  0.8708  100.1   0.719   -2.3  0.2385   30.8  0.5220  154.7
 5.600  0.8699   99.1   0.706   -3.1  0.2418   30.0  0.5270  154.1
 5.700  0.8691   98.2   0.693   -3.9  0.2452   29.1  0.5321  153.5
 5.800  0.8687   97.2   0.681   -4.8  0.2486   28.3  0.5373  152.9
 5.900  0.8685   96.3   0.668   -5.7  0.2520   27.6  0.5425  152.4
 6.000  0.8685   95.3   0.656   -6.6  0.2555   26.8  0.5477  151.8
!
!  f       NFmin   Gammaopt  rn/50
! GHz       dB    MAG  ANG    -
 0.450      1.19  0.46  180   0.06
 0.900      1.33  0.53 -174   0.06
 1.900      2.17  0.68 -151   0.13
 2.400      2.57  0.73 -145   0.23
!
! (c) 2017  Infineon Technologies AG, Munich