! Infineon Technologies  Discrete & RF Semiconductors
! BFP196W
! VCE =  2.0 V,  IC =  80 mA
! Common Emitter S-Parameters:                            Jan 2017
# GHz  S  MA  R  50
!  f         S11            S21            S12            S22
! GHz     MAG   ANG      MAG   ANG      MAG   ANG      MAG   ANG
 0.010  0.2443 -120.6  93.200  164.2  0.0035   75.7  0.8860  -23.1
 0.020  0.4276 -128.9  83.770  149.5  0.0061   71.6  0.8152  -43.9
 0.030  0.5046 -138.1  72.615  143.2  0.0076   59.4  0.7047  -55.4
 0.040  0.5910 -144.7  62.653  134.7  0.0093   51.4  0.6320  -70.4
 0.050  0.6833 -149.6  54.541  123.4  0.0111   46.0  0.6109  -87.7
 0.060  0.6984 -153.0  49.638  121.4  0.0115   45.7  0.5696  -93.2
 0.070  0.7158 -156.2  44.813  118.9  0.0119   45.5  0.5342  -99.4
 0.080  0.7353 -159.3  40.092  115.8  0.0124   45.3  0.5061 -106.5
 0.090  0.7568 -162.2  35.517  111.9  0.0128   45.1  0.4865 -114.3
 0.100  0.7802 -164.9  31.153  106.9  0.0132   44.9  0.4764 -122.5
 0.110  0.7850 -166.2  29.173  105.9  0.0136   45.4  0.4645 -125.6
 0.120  0.7901 -167.4  27.204  104.7  0.0140   45.8  0.4540 -128.9
 0.130  0.7956 -168.6  25.249  103.3  0.0144   46.2  0.4451 -132.3
 0.140  0.8015 -169.8  23.309  101.8  0.0148   46.6  0.4378 -135.9
 0.150  0.8077 -171.0  21.391   99.9  0.0152   47.0  0.4323 -139.5
 0.200  0.8114 -174.9  16.163   95.5  0.0167   51.0  0.4153 -148.8
 0.250  0.8157 -177.6  12.981   92.4  0.0199   54.8  0.4066 -155.1
 0.300  0.8170 -179.7  10.840   90.2  0.0218   57.9  0.4011 -159.3
 0.350  0.8180  178.6   9.501   88.6  0.0245   60.3  0.3986 -162.1
 0.400  0.8197  177.0   8.173   86.4  0.0273   62.2  0.3970 -164.9
 0.450  0.8185  175.7   7.353   85.1  0.0301   63.5  0.3958 -166.7
 0.500  0.8178  174.4   6.538   83.5  0.0329   64.5  0.3951 -168.6
 0.600  0.8190  172.0   5.464   80.9  0.0388   65.3  0.3952 -171.3
 0.700  0.8177  169.9   4.682   78.7  0.0434   66.5  0.3941 -173.4
 0.800  0.8197  167.7   4.103   76.1  0.0497   67.9  0.3946 -175.0
 0.900  0.8171  165.7   3.640   73.8  0.0554   67.0  0.3955 -176.4
 1.000  0.8188  163.8   3.293   71.7  0.0612   66.7  0.3956 -177.9
 1.100  0.8210  161.7   3.002   69.5  0.0669   66.4  0.3969 -178.9
 1.200  0.8215  159.7   2.755   67.3  0.0720   65.9  0.3970  179.8
 1.300  0.8207  158.0   2.548   65.3  0.0776   65.0  0.3986  178.9
 1.400  0.8239  156.0   2.382   63.1  0.0837   64.6  0.4003  177.7
 1.500  0.8261  154.4   2.222   61.1  0.0889   63.7  0.4028  176.7
 1.600  0.8296  152.5   2.093   58.9  0.0948   63.0  0.4044  175.7
 1.700  0.8296  150.5   1.979   56.9  0.1002   62.3  0.4073  174.7
 1.800  0.8339  148.6   1.880   54.6  0.1055   61.2  0.4111  173.7
 1.900  0.8338  147.0   1.782   52.8  0.1109   60.3  0.4140  172.8
 2.000  0.8351  145.2   1.695   50.6  0.1164   59.3  0.4173  171.9
 2.100  0.8362  143.3   1.619   48.6  0.1212   58.3  0.4214  170.9
 2.200  0.8383  141.4   1.546   46.4  0.1260   57.3  0.4257  169.9
 2.300  0.8401  139.7   1.483   44.6  0.1311   56.3  0.4294  169.0
 2.400  0.8426  138.1   1.422   42.6  0.1363   55.3  0.4332  168.2
 2.500  0.8431  136.5   1.367   40.9  0.1409   54.3  0.4374  167.4
 2.600  0.8442  134.9   1.313   39.0  0.1456   53.3  0.4417  166.6
 2.700  0.8464  133.3   1.266   37.3  0.1501   52.2  0.4458  165.7
 2.800  0.8493  131.7   1.221   35.4  0.1546   51.2  0.4500  164.8
 2.900  0.8495  130.1   1.180   33.8  0.1589   50.1  0.4542  163.9
 3.000  0.8504  128.6   1.140   32.0  0.1632   49.1  0.4586  163.0
 3.100  0.8516  127.1   1.108   30.6  0.1672   48.1  0.4621  162.0
 3.200  0.8533  125.6   1.076   29.1  0.1712   47.1  0.4658  161.1
 3.300  0.8556  124.1   1.045   27.5  0.1752   46.2  0.4696  160.1
 3.400  0.8585  122.7   1.015   25.8  0.1794   45.3  0.4736  159.2
 3.500  0.8620  121.2   0.986   24.0  0.1835   44.5  0.4776  158.3
 3.600  0.8625  119.8   0.961   22.7  0.1872   43.5  0.4821  157.3
 3.700  0.8636  118.4   0.937   21.2  0.1909   42.6  0.4867  156.3
 3.800  0.8651  117.0   0.913   19.7  0.1948   41.6  0.4914  155.4
 3.900  0.8672  115.7   0.889   18.2  0.1986   40.7  0.4963  154.4
 4.000  0.8697  114.3   0.867   16.5  0.2025   39.9  0.5013  153.5
 4.100  0.8695  113.1   0.847   15.3  0.2059   38.9  0.5066  152.5
 4.200  0.8697  111.9   0.826   14.0  0.2093   38.0  0.5120  151.5
 4.300  0.8703  110.6   0.807   12.7  0.2128   37.0  0.5175  150.5
 4.400  0.8712  109.4   0.788   11.3  0.2163   36.2  0.5232  149.5
 4.500  0.8726  108.2   0.769    9.8  0.2199   35.3  0.5291  148.6
 4.600  0.8733  107.2   0.753    8.9  0.2230   34.5  0.5348  147.8
 4.700  0.8742  106.2   0.737    7.9  0.2261   33.6  0.5407  146.9
 4.800  0.8754  105.3   0.721    6.9  0.2293   32.8  0.5466  146.1
 4.900  0.8768  104.3   0.705    5.9  0.2325   32.1  0.5527  145.4
 5.000  0.8785  103.3   0.690    4.8  0.2358   31.3  0.5588  144.6
 5.100  0.8789  102.4   0.679    3.9  0.2389   30.5  0.5642  144.0
 5.200  0.8796  101.5   0.669    2.9  0.2421   29.6  0.5698  143.4
 5.300  0.8805  100.6   0.658    2.0  0.2453   28.8  0.5753  142.9
 5.400  0.8816   99.7   0.648    0.9  0.2486   28.1  0.5809  142.3
 5.500  0.8829   98.8   0.638   -0.1  0.2519   27.3  0.5866  141.8
 5.600  0.8815   97.9   0.628   -0.9  0.2550   26.5  0.5892  141.4
 5.700  0.8803   96.9   0.618   -1.6  0.2581   25.6  0.5918  140.9
 5.800  0.8793   96.0   0.609   -2.4  0.2612   24.8  0.5945  140.5
 5.900  0.8786   95.0   0.599   -3.2  0.2644   24.1  0.5972  140.0
 6.000  0.8781   94.1   0.590   -4.1  0.2677   23.3  0.5999  139.6
!
!  f       NFmin   Gammaopt  rn/50
! GHz       dB    MAG  ANG    -
 0.450      1.68  0.56 -175   0.06
 0.900      1.80  0.59 -169   0.08
 1.900      2.67  0.70 -148   0.20
 2.400      3.09  0.74 -143   0.32
!
! (c) 2017  Infineon Technologies AG, Munich