! Infineon Technologies  Discrete & RF Semiconductors
! BFP196W
! VCE =  12. V,  IC =  30 mA
! Common Emitter S-Parameters:                            Jan 2017
# GHz  S  MA  R  50
!  f         S11            S21            S12            S22
! GHz     MAG   ANG      MAG   ANG      MAG   ANG      MAG   ANG
 0.010  0.4897  -20.8  60.454  171.8  0.0037   69.9  0.9206  -10.0
 0.020  0.5037  -42.7  58.102  163.1  0.0073   70.2  0.8876  -19.4
 0.030  0.4971  -58.7  54.289  157.1  0.0101   62.2  0.8285  -26.8
 0.040  0.5284  -73.9  51.150  150.3  0.0130   57.7  0.7852  -35.2
 0.050  0.5917  -86.6  48.813  142.8  0.0159   54.8  0.7606  -44.4
 0.060  0.5878  -94.9  45.499  139.8  0.0172   51.7  0.7085  -48.5
 0.070  0.5963 -103.1  42.329  136.3  0.0185   49.0  0.6606  -53.2
 0.080  0.6166 -111.0  39.339  132.3  0.0198   46.7  0.6178  -58.6
 0.090  0.6477 -118.2  36.573  127.7  0.0212   44.7  0.5813  -64.7
 0.100  0.6880 -124.7  34.086  122.3  0.0226   42.9  0.5523  -71.6
 0.110  0.6906 -128.4  32.204  120.6  0.0232   41.6  0.5235  -74.4
 0.120  0.6962 -132.1  30.352  118.8  0.0239   40.3  0.4961  -77.5
 0.130  0.7045 -135.7  28.537  116.6  0.0245   39.2  0.4703  -80.9
 0.140  0.7156 -139.2  26.766  114.2  0.0252   38.1  0.4464  -84.8
 0.150  0.7292 -142.6  25.049  111.5  0.0259   37.0  0.4247  -89.0
 0.200  0.7422 -152.8  19.488  104.6  0.0264   36.5  0.3550 -100.4
 0.250  0.7521 -159.9  15.882   99.8  0.0288   35.9  0.3099 -109.5
 0.300  0.7575 -164.9  13.359   96.5  0.0303   37.7  0.2816 -116.5
 0.350  0.7577 -168.3  11.748   94.2  0.0316   39.3  0.2644 -121.4
 0.400  0.7605 -171.6  10.162   91.2  0.0329   40.7  0.2493 -126.9
 0.450  0.7599 -174.1   9.153   89.5  0.0346   42.4  0.2409 -130.3
 0.500  0.7607 -176.5   8.155   87.3  0.0363   44.0  0.2335 -134.0
 0.600  0.7652  179.8   6.827   84.0  0.0399   46.5  0.2253 -139.2
 0.700  0.7652  176.7   5.850   81.2  0.0431   49.4  0.2193 -143.1
 0.800  0.7675  173.8   5.132   78.3  0.0474   52.2  0.2170 -145.7
 0.900  0.7651  171.1   4.551   75.8  0.0511   52.1  0.2167 -148.1
 1.000  0.7682  168.8   4.114   73.3  0.0554   53.6  0.2162 -150.2
 1.100  0.7717  166.5   3.745   71.1  0.0596   54.7  0.2171 -151.5
 1.200  0.7718  164.1   3.433   68.6  0.0632   55.1  0.2178 -153.0
 1.300  0.7711  161.9   3.173   66.4  0.0675   55.9  0.2205 -154.3
 1.400  0.7745  160.0   2.960   64.2  0.0723   56.1  0.2235 -155.6
 1.500  0.7779  158.0   2.759   62.0  0.0768   56.3  0.2266 -156.9
 1.600  0.7805  156.1   2.595   59.7  0.0809   56.4  0.2296 -157.9
 1.700  0.7832  153.9   2.449   57.6  0.0851   56.3  0.2344 -159.0
 1.800  0.7856  151.9   2.324   55.3  0.0900   55.8  0.2393 -160.1
 1.900  0.7882  150.2   2.200   53.4  0.0941   56.0  0.2441 -161.3
 2.000  0.7897  148.2   2.090   51.1  0.0985   55.6  0.2495 -162.2
 2.100  0.7918  146.3   1.995   49.1  0.1028   55.1  0.2552 -163.4
 2.200  0.7947  144.4   1.902   46.9  0.1072   54.7  0.2611 -164.5
 2.300  0.7978  142.7   1.822   44.9  0.1115   54.3  0.2676 -165.5
 2.400  0.8017  141.0   1.745   42.8  0.1159   53.9  0.2741 -166.5
 2.500  0.8031  139.3   1.674   41.0  0.1199   53.2  0.2808 -167.5
 2.600  0.8053  137.6   1.605   39.0  0.1240   52.6  0.2876 -168.4
 2.700  0.8087  136.0   1.546   37.2  0.1283   52.0  0.2940 -169.4
 2.800  0.8127  134.4   1.488   35.3  0.1326   51.4  0.3005 -170.4
 2.900  0.8137  132.7   1.436   33.5  0.1367   50.7  0.3073 -171.5
 3.000  0.8153  131.1   1.386   31.6  0.1409   50.0  0.3142 -172.6
 3.100  0.8173  129.6   1.344   30.1  0.1448   49.3  0.3204 -173.8
 3.200  0.8199  128.1   1.302   28.5  0.1488   48.7  0.3268 -174.9
 3.300  0.8230  126.6   1.262   26.8  0.1527   48.0  0.3333 -176.0
 3.400  0.8267  125.1   1.223   24.9  0.1567   47.5  0.3400 -177.1
 3.500  0.8310  123.6   1.185   23.0  0.1607   46.9  0.3467 -178.1
 3.600  0.8324  122.2   1.153   21.6  0.1645   46.1  0.3535 -179.4
 3.700  0.8343  120.7   1.121   20.1  0.1684   45.3  0.3604  179.3
 3.800  0.8368  119.3   1.090   18.5  0.1723   44.5  0.3676  178.0
 3.900  0.8397  117.9   1.060   16.8  0.1762   43.8  0.3748  176.8
 4.000  0.8432  116.5   1.031   15.0  0.1801   43.1  0.3823  175.7
 4.100  0.8440  115.2   1.004   13.7  0.1837   42.3  0.3900  174.3
 4.200  0.8452  113.9   0.978   12.3  0.1874   41.4  0.3980  172.9
 4.300  0.8469  112.6   0.953   10.9  0.1910   40.7  0.4061  171.6
 4.400  0.8489  111.4   0.928    9.4  0.1948   39.9  0.4145  170.4
 4.500  0.8514  110.1   0.904    7.8  0.1985   39.2  0.4230  169.2
 4.600  0.8528  109.1   0.882    6.7  0.2020   38.4  0.4313  168.0
 4.700  0.8545  108.0   0.860    5.6  0.2055   37.7  0.4397  166.8
 4.800  0.8565  107.0   0.839    4.4  0.2090   37.0  0.4483  165.7
 4.900  0.8587  106.0   0.818    3.2  0.2126   36.3  0.4571  164.6
 5.000  0.8612  105.0   0.797    1.9  0.2162   35.6  0.4660  163.6
 5.100  0.8625  104.1   0.782    1.0  0.2197   34.8  0.4746  162.8
 5.200  0.8640  103.1   0.767   -0.0  0.2233   34.0  0.4832  162.0
 5.300  0.8657  102.2   0.753   -1.0  0.2269   33.3  0.4920  161.2
 5.400  0.8676  101.3   0.739   -2.1  0.2306   32.6  0.5009  160.4
 5.500  0.8698  100.4   0.725   -3.2  0.2343   31.9  0.5098  159.7
 5.600  0.8685   99.4   0.711   -4.0  0.2378   31.1  0.5156  159.0
 5.700  0.8673   98.5   0.698   -4.9  0.2413   30.3  0.5215  158.4
 5.800  0.8665   97.5   0.684   -5.7  0.2448   29.5  0.5274  157.7
 5.900  0.8659   96.6   0.671   -6.7  0.2485   28.7  0.5334  157.1
 6.000  0.8655   95.6   0.658   -7.6  0.2521   28.0  0.5395  156.5
!
!  f       NFmin   Gammaopt  rn/50
! GHz       dB    MAG  ANG    -
 0.450      1.13  0.45  178   0.05
 0.900      1.29  0.52 -176   0.06
 1.900      2.14  0.68 -151   0.13
 2.400      2.54  0.73 -146   0.22
!
! (c) 2017  Infineon Technologies AG, Munich