! Infineon Technologies  Discrete & RF Semiconductors
! BFP196W
! VCE =  6.0 V,  IC =  35 mA
! Common Emitter S-Parameters:                            Jan 2017
# GHz  S  MA  R  50
!  f         S11            S21            S12            S22
! GHz     MAG   ANG      MAG   ANG      MAG   ANG      MAG   ANG
 0.010  0.3744  -30.6  68.624  170.5  0.0037   78.3  0.9614  -12.5
 0.020  0.4182  -58.8  65.844  160.3  0.0075   76.6  0.9227  -24.1
 0.030  0.4350  -77.3  60.336  154.0  0.0100   65.5  0.8429  -32.6
 0.040  0.4916  -93.0  55.697  146.5  0.0127   58.9  0.7850  -42.5
 0.050  0.5765 -104.7  52.161  137.9  0.0155   54.7  0.7541  -53.7
 0.060  0.5836 -112.2  48.247  135.1  0.0163   51.6  0.6975  -58.1
 0.070  0.6004 -119.5  44.470  131.8  0.0172   48.8  0.6457  -63.3
 0.080  0.6262 -126.2  40.866  127.9  0.0180   46.2  0.6000  -69.3
 0.090  0.6599 -132.3  37.486  123.3  0.0190   43.9  0.5619  -76.1
 0.100  0.7004 -137.8  34.397  117.8  0.0199   41.8  0.5330  -83.9
 0.110  0.7054 -140.8  32.387  116.3  0.0205   40.9  0.5066  -87.0
 0.120  0.7123 -143.8  30.403  114.6  0.0212   40.1  0.4818  -90.3
 0.130  0.7211 -146.7  28.449  112.7  0.0218   39.3  0.4588  -94.1
 0.140  0.7317 -149.6  26.532  110.5  0.0225   38.6  0.4380  -98.2
 0.150  0.7441 -152.3  24.661  107.9  0.0231   37.9  0.4197 -102.7
 0.200  0.7578 -160.4  18.979  101.8  0.0238   39.2  0.3627 -115.0
 0.250  0.7678 -166.0  15.369   97.5  0.0262   40.3  0.3280 -124.4
 0.300  0.7708 -170.0  12.889   94.5  0.0272   41.8  0.3077 -131.2
 0.350  0.7722 -172.8  11.327   92.4  0.0291   43.8  0.2954 -135.9
 0.400  0.7753 -175.5   9.784   89.7  0.0310   45.6  0.2852 -141.0
 0.450  0.7747 -177.5   8.809   88.1  0.0327   47.2  0.2796 -144.1
 0.500  0.7750 -179.5   7.842   86.2  0.0345   48.7  0.2749 -147.4
 0.600  0.7773  177.2   6.560   83.1  0.0394   50.9  0.2705 -152.1
 0.700  0.7780  174.4   5.620   80.5  0.0428   54.5  0.2660 -155.5
 0.800  0.7804  171.7   4.927   77.6  0.0479   56.4  0.2656 -157.8
 0.900  0.7787  169.2   4.370   75.2  0.0521   57.1  0.2652 -159.9
 1.000  0.7814  167.1   3.949   72.9  0.0565   57.5  0.2654 -161.9
 1.100  0.7832  164.9   3.599   70.7  0.0611   58.3  0.2664 -163.1
 1.200  0.7836  162.8   3.297   68.3  0.0658   58.7  0.2671 -164.5
 1.300  0.7841  160.6   3.048   66.2  0.0699   58.9  0.2696 -165.6
 1.400  0.7870  158.7   2.844   64.0  0.0752   59.1  0.2717 -166.8
 1.500  0.7912  156.9   2.652   61.8  0.0799   58.6  0.2753 -168.0
 1.600  0.7924  154.9   2.496   59.6  0.0848   58.5  0.2773 -169.0
 1.700  0.7945  152.8   2.356   57.5  0.0895   58.6  0.2818 -170.0
 1.800  0.7974  150.8   2.236   55.2  0.0944   57.8  0.2858 -171.1
 1.900  0.7997  149.2   2.118   53.4  0.0992   57.2  0.2902 -172.0
 2.000  0.8017  147.3   2.011   51.1  0.1038   56.7  0.2947 -172.9
 2.100  0.8035  145.4   1.920   49.1  0.1083   56.1  0.3000 -173.9
 2.200  0.8062  143.5   1.832   46.9  0.1128   55.6  0.3053 -174.9
 2.300  0.8086  141.7   1.755   45.0  0.1174   54.9  0.3111 -175.8
 2.400  0.8118  140.0   1.681   42.9  0.1221   54.2  0.3169 -176.6
 2.500  0.8124  138.4   1.614   41.1  0.1262   53.5  0.3227 -177.5
 2.600  0.8137  136.8   1.548   39.1  0.1303   52.8  0.3286 -178.3
 2.700  0.8170  135.2   1.491   37.4  0.1347   52.1  0.3344 -179.2
 2.800  0.8210  133.6   1.436   35.5  0.1392   51.4  0.3403  179.9
 2.900  0.8220  132.0   1.386   33.8  0.1433   50.6  0.3462  178.9
 3.000  0.8236  130.4   1.338   31.9  0.1474   49.8  0.3521  178.0
 3.100  0.8253  128.9   1.298   30.4  0.1513   49.0  0.3576  176.9
 3.200  0.8276  127.4   1.258   28.8  0.1553   48.2  0.3632  175.9
 3.300  0.8304  125.9   1.220   27.2  0.1593   47.5  0.3689  174.9
 3.400  0.8338  124.4   1.182   25.4  0.1633   46.8  0.3747  173.9
 3.500  0.8378  122.9   1.146   23.5  0.1673   46.1  0.3806  173.0
 3.600  0.8391  121.5   1.115   22.1  0.1711   45.2  0.3868  171.8
 3.700  0.8409  120.1   1.085   20.6  0.1750   44.4  0.3931  170.7
 3.800  0.8432  118.7   1.056   19.1  0.1788   43.5  0.3996  169.7
 3.900  0.8460  117.3   1.028   17.4  0.1828   42.8  0.4062  168.6
 4.000  0.8493  115.9   1.000   15.7  0.1867   42.0  0.4130  167.6
 4.100  0.8501  114.6   0.975   14.4  0.1903   41.1  0.4200  166.4
 4.200  0.8513  113.4   0.950   13.0  0.1940   40.3  0.4273  165.2
 4.300  0.8529  112.1   0.926   11.6  0.1977   39.4  0.4347  164.0
 4.400  0.8549  110.8   0.903   10.1  0.2014   38.7  0.4423  162.9
 4.500  0.8573  109.6   0.880    8.5  0.2052   37.9  0.4500  161.8
 4.600  0.8584  108.6   0.859    7.5  0.2085   37.1  0.4576  160.8
 4.700  0.8598  107.6   0.839    6.4  0.2119   36.3  0.4652  159.8
 4.800  0.8615  106.6   0.819    5.3  0.2154   35.6  0.4731  158.8
 4.900  0.8634  105.6   0.799    4.1  0.2188   34.9  0.4810  157.9
 5.000  0.8656  104.6   0.780    2.9  0.2223   34.2  0.4891  157.0
 5.100  0.8665  103.7   0.766    2.0  0.2257   33.4  0.4969  156.3
 5.200  0.8677  102.8   0.752    1.0  0.2291   32.7  0.5047  155.6
 5.300  0.8691  101.8   0.739    0.0  0.2326   31.9  0.5126  154.9
 5.400  0.8707  100.9   0.725   -1.0  0.2361   31.2  0.5206  154.2
 5.500  0.8725  100.0   0.712   -2.1  0.2396   30.5  0.5286  153.6
 5.600  0.8717   99.0   0.699   -2.9  0.2429   29.7  0.5333  153.0
 5.700  0.8710   98.1   0.687   -3.8  0.2463   28.8  0.5381  152.4
 5.800  0.8707   97.1   0.674   -4.6  0.2498   28.0  0.5429  151.9
 5.900  0.8706   96.2   0.662   -5.6  0.2533   27.3  0.5478  151.3
 6.000  0.8707   95.2   0.650   -6.5  0.2568   26.5  0.5527  150.8
!
!  f       NFmin   Gammaopt  rn/50
! GHz       dB    MAG  ANG    -
 0.450      1.19  0.46  180   0.06
 0.900      1.33  0.53 -174   0.06
 1.900      2.17  0.68 -151   0.13
 2.400      2.57  0.73 -145   0.23
!
! (c) 2017  Infineon Technologies AG, Munich