! Infineon Technologies  Discrete & RF Semiconductors
! BFP196W
! VCE =  5.0 V,  IC =  65 mA
! Common Emitter S-Parameters:                            Jan 2017
# GHz  S  MA  R  50
!  f         S11            S21            S12            S22
! GHz     MAG   ANG      MAG   ANG      MAG   ANG      MAG   ANG
 0.010  0.2160  -67.7  89.255  167.5  0.0029   76.9  0.9297  -16.8
 0.020  0.3521  -97.0  83.473  155.1  0.0059   69.5  0.8724  -32.5
 0.030  0.4157 -113.0  74.249  148.6  0.0077   60.5  0.7724  -42.4
 0.040  0.5024 -124.1  66.241  140.4  0.0097   55.1  0.7014  -54.7
 0.050  0.6023 -131.8  59.939  130.2  0.0117   51.5  0.6687  -68.9
 0.060  0.6183 -137.0  54.896  127.8  0.0123   50.0  0.6166  -73.8
 0.070  0.6391 -141.9  49.969  124.9  0.0129   48.7  0.5698  -79.5
 0.080  0.6642 -146.5  45.196  121.4  0.0135   47.4  0.5298  -86.2
 0.090  0.6932 -150.7  40.633  117.1  0.0142   46.3  0.4980  -93.9
 0.100  0.7257 -154.5  36.358  111.7  0.0148   45.3  0.4762 -102.4
 0.110  0.7314 -156.5  34.121  110.5  0.0153   45.2  0.4565 -105.7
 0.120  0.7380 -158.4  31.902  109.1  0.0157   45.1  0.4384 -109.2
 0.130  0.7455 -160.3  29.705  107.5  0.0162   45.0  0.4220 -113.0
 0.140  0.7537 -162.2  27.535  105.6  0.0166   45.0  0.4077 -117.1
 0.150  0.7627 -164.0  25.400  103.4  0.0171   44.9  0.3957 -121.5
 0.200  0.7693 -169.4  19.329   98.2  0.0178   47.4  0.3615 -133.0
 0.250  0.7767 -173.2  15.564   94.7  0.0206   49.2  0.3426 -141.3
 0.300  0.7806 -176.0  13.014   92.1  0.0226   52.6  0.3313 -146.9
 0.350  0.7815 -178.1  11.419   90.3  0.0249   55.1  0.3252 -150.8
 0.400  0.7834  179.9   9.838   88.0  0.0273   57.1  0.3206 -154.8
 0.450  0.7826  178.3   8.854   86.6  0.0298   58.6  0.3177 -157.2
 0.500  0.7825  176.7   7.876   84.9  0.0324   59.8  0.3153 -159.7
 0.600  0.7839  173.9   6.585   82.1  0.0371   60.9  0.3150 -163.3
 0.700  0.7840  171.7   5.640   79.8  0.0420   63.7  0.3122 -165.9
 0.800  0.7869  169.1   4.941   77.1  0.0479   64.8  0.3121 -167.9
 0.900  0.7852  167.0   4.383   74.9  0.0524   63.8  0.3123 -169.6
 1.000  0.7857  165.0   3.963   72.7  0.0577   64.6  0.3129 -171.2
 1.100  0.7890  163.0   3.610   70.6  0.0632   64.7  0.3136 -172.3
 1.200  0.7911  161.1   3.310   68.3  0.0680   64.0  0.3143 -173.6
 1.300  0.7909  159.0   3.059   66.3  0.0733   64.1  0.3161 -174.6
 1.400  0.7915  157.2   2.855   64.2  0.0789   63.4  0.3182 -175.8
 1.500  0.7955  155.5   2.662   62.1  0.0837   63.0  0.3208 -176.9
 1.600  0.7987  153.5   2.506   59.9  0.0888   62.1  0.3228 -177.9
 1.700  0.7991  151.6   2.367   57.9  0.0942   61.9  0.3264 -178.8
 1.800  0.8026  149.6   2.247   55.7  0.0992   60.8  0.3299 -179.8
 1.900  0.8033  148.0   2.129   53.9  0.1038   60.1  0.3336  179.3
 2.000  0.8053  146.1   2.021   51.7  0.1091   59.2  0.3373  178.5
 2.100  0.8067  144.2   1.931   49.7  0.1140   58.4  0.3417  177.5
 2.200  0.8089  142.4   1.843   47.6  0.1189   57.6  0.3461  176.6
 2.300  0.8116  140.7   1.766   45.7  0.1237   56.6  0.3509  175.8
 2.400  0.8150  139.1   1.691   43.7  0.1285   55.7  0.3558  175.0
 2.500  0.8156  137.5   1.624   42.0  0.1327   54.7  0.3608  174.2
 2.600  0.8168  136.0   1.559   40.1  0.1370   53.8  0.3658  173.4
 2.700  0.8197  134.3   1.502   38.4  0.1416   52.9  0.3707  172.5
 2.800  0.8232  132.7   1.447   36.6  0.1462   52.1  0.3756  171.6
 2.900  0.8243  131.1   1.397   34.9  0.1503   51.1  0.3804  170.7
 3.000  0.8260  129.6   1.348   33.0  0.1544   50.2  0.3853  169.9
 3.100  0.8276  128.1   1.308   31.6  0.1583   49.3  0.3897  168.9
 3.200  0.8299  126.6   1.269   30.0  0.1623   48.4  0.3943  168.0
 3.300  0.8326  125.1   1.231   28.4  0.1664   47.5  0.3989  167.1
 3.400  0.8359  123.7   1.195   26.6  0.1704   46.7  0.4037  166.2
 3.500  0.8398  122.2   1.159   24.8  0.1745   45.9  0.4085  165.3
 3.600  0.8408  120.8   1.128   23.4  0.1782   44.9  0.4137  164.2
 3.700  0.8422  119.4   1.099   22.0  0.1820   44.0  0.4191  163.2
 3.800  0.8442  118.0   1.070   20.4  0.1858   43.2  0.4246  162.2
 3.900  0.8466  116.7   1.041   18.8  0.1896   42.3  0.4302  161.2
 4.000  0.8495  115.3   1.014   17.1  0.1935   41.5  0.4360  160.3
 4.100  0.8500  114.1   0.989   15.8  0.1969   40.5  0.4421  159.2
 4.200  0.8508  112.8   0.965   14.5  0.2004   39.6  0.4484  158.1
 4.300  0.8521  111.6   0.941   13.1  0.2039   38.6  0.4548  157.1
 4.400  0.8537  110.3   0.918   11.6  0.2075   37.8  0.4614  156.1
 4.500  0.8558  109.1   0.895   10.1  0.2111   36.9  0.4681  155.1
 4.600  0.8569  108.1   0.875    9.1  0.2143   36.1  0.4746  154.2
 4.700  0.8583  107.1   0.854    8.0  0.2175   35.3  0.4813  153.3
 4.800  0.8600  106.1   0.835    6.9  0.2208   34.6  0.4881  152.5
 4.900  0.8619  105.2   0.815    5.7  0.2241   33.8  0.4949  151.7
 5.000  0.8640  104.2   0.796    4.5  0.2274   33.1  0.5019  150.9
 5.100  0.8648  103.3   0.782    3.6  0.2306   32.3  0.5085  150.3
 5.200  0.8657  102.4   0.769    2.6  0.2339   31.5  0.5151  149.7
 5.300  0.8669  101.4   0.756    1.6  0.2372   30.8  0.5218  149.1
 5.400  0.8684  100.5   0.743    0.6  0.2406   30.0  0.5285  148.6
 5.500  0.8700   99.6   0.730   -0.5  0.2440   29.3  0.5353  148.0
 5.600  0.8691   98.7   0.718   -1.4  0.2471   28.5  0.5388  147.5
 5.700  0.8685   97.8   0.706   -2.2  0.2502   27.6  0.5424  147.1
 5.800  0.8680   96.9   0.694   -3.2  0.2534   26.8  0.5461  146.6
 5.900  0.8678   96.0   0.682   -4.1  0.2566   26.1  0.5497  146.1
 6.000  0.8678   95.1   0.671   -5.1  0.2599   25.3  0.5534  145.7
!
!  f       NFmin   Gammaopt  rn/50
! GHz       dB    MAG  ANG    -
 0.450      1.51  0.53 -175   0.06
 0.900      1.64  0.57 -170   0.07
 1.900      2.49  0.70 -148   0.18
 2.400      2.88  0.74 -144   0.28
!
! (c) 2017  Infineon Technologies AG, Munich