! Infineon Technologies  Discrete & RF Semiconductors
! BFP196W
! VCE =  9.0 V,  IC =  5.0 mA
! Common Emitter S-Parameters:                            Jan 2017
# GHz  S  MA  R  50
!  f         S11            S21            S12            S22
! GHz     MAG   ANG      MAG   ANG      MAG   ANG      MAG   ANG
 0.010  0.8690   -6.4  16.361  177.2  0.0050   82.5  0.9958   -3.2
 0.020  0.8550  -15.4  16.163  172.5  0.0097   85.6  0.9831   -6.2
 0.030  0.8392  -21.7  15.894  169.0  0.0145   77.7  0.9713   -9.2
 0.040  0.8339  -28.1  15.688  165.3  0.0195   73.8  0.9622  -12.3
 0.050  0.8392  -34.6  15.547  161.6  0.0245   71.5  0.9560  -15.4
 0.060  0.8221  -40.5  15.119  158.6  0.0282   67.4  0.9335  -17.6
 0.070  0.8139  -46.5  14.734  155.5  0.0319   64.3  0.9125  -20.0
 0.080  0.8150  -52.7  14.395  152.2  0.0358   61.8  0.8931  -22.4
 0.090  0.8253  -58.7  14.106  148.8  0.0397   59.8  0.8754  -25.0
 0.100  0.8444  -64.5  13.870  145.2  0.0436   58.2  0.8595  -27.6
 0.110  0.8304  -69.1  13.441  143.0  0.0458   55.3  0.8351  -29.3
 0.120  0.8219  -73.8  13.034  140.6  0.0482   52.6  0.8114  -31.0
 0.130  0.8191  -78.6  12.650  138.1  0.0506   50.2  0.7886  -32.9
 0.140  0.8220  -83.4  12.292  135.5  0.0531   48.1  0.7667  -34.9
 0.150  0.8306  -88.1  11.961  132.7  0.0557   46.1  0.7457  -37.0
 0.200  0.8257 -105.5  10.243  122.8  0.0620   38.6  0.6545  -42.9
 0.250  0.8185 -118.9   8.847  115.1  0.0678   32.7  0.5805  -46.9
 0.300  0.8143 -129.1   7.713  109.3  0.0698   28.0  0.5232  -49.7
 0.350  0.8065 -136.2   6.888  105.4  0.0717   25.1  0.4857  -51.3
 0.400  0.8111 -143.3   6.104  100.4  0.0738   22.3  0.4487  -53.1
 0.450  0.8065 -148.2   5.538   97.4  0.0743   20.5  0.4271  -54.2
 0.500  0.8080 -153.2   4.990   93.8  0.0749   18.7  0.4057  -55.4
 0.600  0.8080 -160.6   4.214   88.4  0.0753   16.6  0.3792  -57.4
 0.700  0.8061 -166.3   3.633   83.8  0.0745   15.5  0.3619  -59.4
 0.800  0.8072 -171.3   3.201   79.5  0.0738   15.2  0.3531  -61.5
 0.900  0.8073 -175.6   2.846   75.7  0.0729   14.3  0.3479  -64.0
 1.000  0.8098 -179.2   2.574   72.2  0.0726   14.8  0.3446  -66.6
 1.100  0.8124  177.4   2.344   69.0  0.0717   16.0  0.3457  -69.0
 1.200  0.8130  174.2   2.148   65.6  0.0705   16.3  0.3463  -71.7
 1.300  0.8129  171.5   1.982   62.7  0.0697   17.1  0.3488  -74.4
 1.400  0.8177  168.8   1.846   59.6  0.0694   18.9  0.3518  -77.4
 1.500  0.8223  166.1   1.721   56.9  0.0687   20.6  0.3554  -80.4
 1.600  0.8259  163.6   1.614   54.1  0.0685   22.6  0.3606  -83.3
 1.700  0.8289  161.0   1.522   51.4  0.0679   25.0  0.3657  -86.5
 1.800  0.8335  158.6   1.443   48.6  0.0685   27.4  0.3709  -89.6
 1.900  0.8375  156.5   1.363   46.3  0.0686   29.8  0.3770  -92.7
 2.000  0.8386  154.2   1.294   43.5  0.0701   32.4  0.3831  -95.6
 2.100  0.8413  151.9   1.233   41.1  0.0716   34.9  0.3902  -98.8
 2.200  0.8453  149.6   1.174   38.5  0.0733   37.3  0.3984 -101.9
 2.300  0.8482  147.6   1.122   36.2  0.0756   39.7  0.4065 -105.1
 2.400  0.8522  145.6   1.072   33.7  0.0781   41.9  0.4158 -108.1
 2.500  0.8541  143.6   1.025   31.6  0.0808   43.9  0.4247 -111.2
 2.600  0.8570  141.6   0.980   29.4  0.0836   45.7  0.4348 -114.1
 2.700  0.8598  139.7   0.941   27.4  0.0875   47.4  0.4431 -117.0
 2.800  0.8635  137.9   0.903   25.3  0.0915   49.0  0.4525 -119.7
 2.900  0.8645  136.1   0.868   23.3  0.0959   49.9  0.4609 -122.6
 3.000  0.8663  134.3   0.835   21.2  0.1004   50.8  0.4705 -125.4
 3.100  0.8680  132.6   0.806   19.7  0.1054   51.3  0.4773 -128.3
 3.200  0.8704  130.8   0.778   18.2  0.1105   51.8  0.4852 -131.1
 3.300  0.8737  129.1   0.751   16.5  0.1156   52.3  0.4943 -133.7
 3.400  0.8777  127.4   0.724   14.7  0.1206   52.7  0.5044 -136.3
 3.500  0.8825  125.7   0.698   12.7  0.1257   53.1  0.5155 -138.8
 3.600  0.8831  124.1   0.676   11.5  0.1312   52.6  0.5220 -141.5
 3.700  0.8844  122.5   0.655   10.2  0.1368   52.2  0.5297 -144.2
 3.800  0.8864  120.9   0.634    8.8  0.1424   51.8  0.5384 -146.7
 3.900  0.8890  119.4   0.613    7.3  0.1479   51.4  0.5482 -149.2
 4.000  0.8923  117.8   0.593    5.7  0.1535   51.1  0.5590 -151.6
 4.100  0.8920  116.4   0.576    4.8  0.1589   50.3  0.5656 -154.2
 4.200  0.8923  115.0   0.559    3.8  0.1643   49.5  0.5734 -156.8
 4.300  0.8931  113.6   0.543    2.7  0.1697   48.8  0.5824 -159.3
 4.400  0.8944  112.2   0.526    1.6  0.1752   48.1  0.5924 -161.8
 4.500  0.8963  110.8   0.510    0.4  0.1807   47.5  0.6034 -164.1
 4.600  0.8967  109.7   0.496   -0.2  0.1858   46.6  0.6107 -166.4
 4.700  0.8975  108.6   0.483   -0.8  0.1910   45.7  0.6189 -168.7
 4.800  0.8986  107.5   0.469   -1.4  0.1962   44.9  0.6281 -170.9
 4.900  0.9000  106.4   0.455   -2.1  0.2014   44.1  0.6382 -173.0
 5.000  0.9018  105.3   0.442   -2.8  0.2067   43.4  0.6492 -175.1
 5.100  0.9021  104.3   0.434   -3.1  0.2116   42.4  0.6572 -177.0
 5.200  0.9027  103.3   0.426   -3.3  0.2165   41.5  0.6660 -178.8
 5.300  0.9036  102.3   0.418   -3.6  0.2215   40.6  0.6753  179.5
 5.400  0.9048  101.3   0.410   -3.9  0.2266   39.7  0.6853  177.8
 5.500  0.9062  100.3   0.402   -4.2  0.2317   38.9  0.6959  176.1
 5.600  0.9044   99.3   0.395   -4.3  0.2363   37.8  0.7010  174.6
 5.700  0.9029   98.2   0.389   -4.5  0.2410   36.7  0.7067  173.1
 5.800  0.9016   97.2   0.382   -4.6  0.2458   35.7  0.7128  171.6
 5.900  0.9007   96.1   0.376   -4.8  0.2507   34.7  0.7193  170.2
 6.000  0.9001   95.1   0.369   -4.9  0.2556   33.8  0.7263  168.8
!
!  f       NFmin   Gammaopt  rn/50
! GHz       dB    MAG  ANG    -
 0.450      0.90  0.44  123   0.09
 0.900      1.32  0.60  159   0.06
 1.900      2.72  0.75 -161   0.11
 2.400      3.29  0.80 -151   0.28
!
! (c) 2017  Infineon Technologies AG, Munich