! Infineon Technologies  Discrete & RF Semiconductors
! BFP196W
! VCE =  5.0 V,  IC =  60 mA
! Common Emitter S-Parameters:                            Jan 2017
# GHz  S  MA  R  50
!  f         S11            S21            S12            S22
! GHz     MAG   ANG      MAG   ANG      MAG   ANG      MAG   ANG
 0.010  0.2264  -61.6  86.940  167.8  0.0033   77.1  0.9339  -16.4
 0.020  0.3524  -92.5  81.622  155.7  0.0062   71.0  0.8811  -31.6
 0.030  0.4119 -109.3  72.816  149.2  0.0081   61.2  0.7823  -41.3
 0.040  0.4968 -121.1  65.195  141.0  0.0102   55.3  0.7118  -53.4
 0.050  0.5965 -129.2  59.217  131.0  0.0124   51.4  0.6785  -67.3
 0.060  0.6119 -134.7  54.283  128.5  0.0129   49.7  0.6256  -72.2
 0.070  0.6325 -139.8  49.468  125.6  0.0135   48.1  0.5779  -77.8
 0.080  0.6578 -144.6  44.811  122.1  0.0141   46.7  0.5369  -84.5
 0.090  0.6874 -149.0  40.365  117.7  0.0146   45.3  0.5043  -92.1
 0.100  0.7207 -153.0  36.210  112.3  0.0152   44.1  0.4817 -100.6
 0.110  0.7267 -155.1  33.990  111.0  0.0157   44.1  0.4613 -103.9
 0.120  0.7336 -157.1  31.788  109.6  0.0161   44.0  0.4426 -107.4
 0.130  0.7414 -159.1  29.609  107.9  0.0166   44.0  0.4256 -111.2
 0.140  0.7501 -161.0  27.459  106.0  0.0170   43.9  0.4108 -115.4
 0.150  0.7596 -162.9  25.345  103.8  0.0175   43.9  0.3982 -119.8
 0.200  0.7696 -168.5  19.304   98.6  0.0192   47.4  0.3628 -131.4
 0.250  0.7768 -172.6  15.563   94.9  0.0217   48.8  0.3419 -139.9
 0.300  0.7787 -175.4  13.004   92.4  0.0228   50.9  0.3298 -145.7
 0.350  0.7800 -177.6  11.413   90.6  0.0252   53.5  0.3234 -149.6
 0.400  0.7824 -179.7   9.837   88.2  0.0277   55.7  0.3186 -153.7
 0.450  0.7813  178.7   8.853   86.8  0.0301   57.2  0.3154 -156.3
 0.500  0.7808  177.0   7.876   85.0  0.0326   58.5  0.3128 -158.9
 0.600  0.7839  174.3   6.586   82.2  0.0376   60.3  0.3122 -162.5
 0.700  0.7830  172.0   5.639   79.9  0.0417   62.4  0.3092 -165.2
 0.800  0.7864  169.4   4.941   77.2  0.0474   63.7  0.3094 -167.2
 0.900  0.7836  167.3   4.384   74.9  0.0523   63.5  0.3101 -168.9
 1.000  0.7859  165.2   3.963   72.7  0.0571   63.9  0.3100 -170.6
 1.100  0.7893  163.1   3.611   70.6  0.0631   63.9  0.3111 -171.7
 1.200  0.7899  161.2   3.310   68.3  0.0677   63.6  0.3116 -173.0
 1.300  0.7887  159.1   3.059   66.3  0.0730   63.3  0.3133 -174.0
 1.400  0.7921  157.3   2.856   64.2  0.0783   63.1  0.3157 -175.2
 1.500  0.7953  155.6   2.664   62.1  0.0836   62.4  0.3182 -176.3
 1.600  0.7974  153.6   2.506   60.0  0.0890   62.1  0.3203 -177.3
 1.700  0.7981  151.6   2.367   57.9  0.0936   61.4  0.3236 -178.2
 1.800  0.8018  149.7   2.249   55.7  0.0988   60.6  0.3271 -179.3
 1.900  0.8034  148.2   2.128   53.9  0.1034   59.9  0.3310  179.9
 2.000  0.8046  146.2   2.022   51.7  0.1085   58.9  0.3350  179.0
 2.100  0.8066  144.3   1.931   49.7  0.1134   58.1  0.3393  178.0
 2.200  0.8094  142.5   1.843   47.6  0.1183   57.3  0.3437  177.1
 2.300  0.8116  140.8   1.766   45.7  0.1231   56.4  0.3487  176.3
 2.400  0.8145  139.2   1.691   43.7  0.1279   55.6  0.3537  175.5
 2.500  0.8152  137.6   1.624   41.9  0.1322   54.6  0.3586  174.7
 2.600  0.8166  136.0   1.559   40.0  0.1366   53.7  0.3635  173.9
 2.700  0.8196  134.4   1.502   38.3  0.1410   52.8  0.3683  173.0
 2.800  0.8232  132.8   1.446   36.5  0.1455   51.9  0.3732  172.2
 2.900  0.8244  131.2   1.396   34.8  0.1497   51.0  0.3783  171.3
 3.000  0.8263  129.7   1.348   32.9  0.1540   50.1  0.3834  170.4
 3.100  0.8279  128.2   1.308   31.5  0.1579   49.2  0.3879  169.4
 3.200  0.8300  126.7   1.269   29.9  0.1619   48.3  0.3925  168.5
 3.300  0.8327  125.2   1.231   28.3  0.1660   47.4  0.3972  167.5
 3.400  0.8360  123.7   1.194   26.5  0.1700   46.6  0.4020  166.6
 3.500  0.8398  122.2   1.158   24.7  0.1741   45.8  0.4069  165.7
 3.600  0.8408  120.8   1.128   23.3  0.1778   44.9  0.4122  164.6
 3.700  0.8423  119.4   1.098   21.9  0.1815   44.0  0.4176  163.6
 3.800  0.8443  118.0   1.069   20.3  0.1853   43.1  0.4232  162.6
 3.900  0.8469  116.6   1.040   18.7  0.1891   42.3  0.4289  161.6
 4.000  0.8499  115.2   1.013   17.0  0.1930   41.5  0.4347  160.7
 4.100  0.8504  114.0   0.988   15.7  0.1964   40.5  0.4408  159.6
 4.200  0.8513  112.7   0.964   14.4  0.1999   39.6  0.4471  158.5
 4.300  0.8525  111.5   0.940   13.0  0.2035   38.6  0.4535  157.5
 4.400  0.8542  110.3   0.917   11.5  0.2071   37.8  0.4601  156.5
 4.500  0.8562  109.1   0.894   10.0  0.2107   36.9  0.4668  155.5
 4.600  0.8573  108.1   0.873    9.0  0.2139   36.1  0.4735  154.6
 4.700  0.8586  107.1   0.853    7.9  0.2171   35.4  0.4803  153.7
 4.800  0.8601  106.1   0.833    6.8  0.2204   34.6  0.4872  152.8
 4.900  0.8619  105.2   0.813    5.6  0.2237   33.9  0.4942  152.0
 5.000  0.8640  104.2   0.794    4.4  0.2271   33.2  0.5013  151.2
 5.100  0.8648  103.3   0.781    3.5  0.2303   32.4  0.5079  150.6
 5.200  0.8657  102.4   0.767    2.5  0.2336   31.6  0.5146  150.0
 5.300  0.8669  101.4   0.754    1.5  0.2369   30.9  0.5213  149.4
 5.400  0.8684  100.5   0.742    0.5  0.2403   30.1  0.5281  148.9
 5.500  0.8700   99.6   0.729   -0.6  0.2437   29.4  0.5349  148.3
 5.600  0.8692   98.7   0.717   -1.5  0.2468   28.6  0.5386  147.8
 5.700  0.8687   97.7   0.705   -2.3  0.2500   27.7  0.5423  147.4
 5.800  0.8684   96.8   0.693   -3.3  0.2533   26.9  0.5461  146.9
 5.900  0.8683   95.8   0.681   -4.2  0.2566   26.2  0.5499  146.4
 6.000  0.8685   94.9   0.670   -5.2  0.2599   25.4  0.5537  146.0
!
!  f       NFmin   Gammaopt  rn/50
! GHz       dB    MAG  ANG    -
 0.450      1.47  0.52 -176   0.06
 0.900      1.59  0.56 -170   0.07
 1.900      2.42  0.69 -149   0.17
 2.400      2.81  0.73 -144   0.27
!
! (c) 2017  Infineon Technologies AG, Munich