! Infineon Technologies  Discrete & RF Semiconductors
! BFP196W
! VCE =  8.0 V,  IC =  80 mA
! Common Emitter S-Parameters:                            Jan 2017
# GHz  S  MA  R  50
!  f         S11            S21            S12            S22
! GHz     MAG   ANG      MAG   ANG      MAG   ANG      MAG   ANG
 0.010  0.2297  -60.9  92.925  167.5  0.0030   80.7  0.9172  -15.9
 0.020  0.3539  -92.1  86.838  155.2  0.0058   73.0  0.8629  -31.2
 0.030  0.4108 -109.0  77.334  148.7  0.0075   62.4  0.7643  -40.7
 0.040  0.4938 -121.1  69.080  140.6  0.0094   56.0  0.6921  -52.5
 0.050  0.5922 -129.4  62.572  130.5  0.0114   51.7  0.6551  -66.3
 0.060  0.6074 -134.9  57.320  128.1  0.0119   49.7  0.6028  -70.9
 0.070  0.6278 -140.0  52.192  125.2  0.0124   47.9  0.5552  -76.4
 0.080  0.6530 -144.8  47.228  121.6  0.0130   46.2  0.5135  -82.8
 0.090  0.6823 -149.2  42.484  117.3  0.0135   44.6  0.4794  -90.3
 0.100  0.7153 -153.2  38.044  111.9  0.0141   43.2  0.4545  -98.7
 0.110  0.7211 -155.2  35.706  110.7  0.0144   43.7  0.4343 -101.8
 0.120  0.7277 -157.2  33.387  109.2  0.0147   44.2  0.4156 -105.3
 0.130  0.7352 -159.1  31.092  107.6  0.0151   44.6  0.3986 -109.0
 0.140  0.7436 -161.0  28.825  105.7  0.0154   45.1  0.3833 -113.1
 0.150  0.7527 -162.9  26.596  103.5  0.0157   45.5  0.3702 -117.5
 0.200  0.7584 -168.7  20.236   98.4  0.0176   48.2  0.3325 -129.1
 0.250  0.7663 -172.7  16.306   94.8  0.0203   50.0  0.3111 -137.6
 0.300  0.7702 -175.5  13.633   92.3  0.0216   53.3  0.2987 -143.5
 0.350  0.7706 -177.6  11.964   90.5  0.0240   56.1  0.2917 -147.5
 0.400  0.7721 -179.7  10.310   88.1  0.0265   58.3  0.2862 -151.7
 0.450  0.7713  178.7   9.277   86.7  0.0289   59.7  0.2832 -154.3
 0.500  0.7712  177.0   8.252   84.9  0.0313   60.9  0.2808 -156.9
 0.600  0.7725  174.3   6.900   82.2  0.0366   61.4  0.2793 -160.5
 0.700  0.7746  171.9   5.912   79.8  0.0411   63.7  0.2762 -163.1
 0.800  0.7760  169.5   5.179   77.2  0.0470   65.4  0.2762 -165.1
 0.900  0.7753  167.3   4.593   74.9  0.0511   65.2  0.2772 -166.8
 1.000  0.7753  165.2   4.150   72.7  0.0565   65.0  0.2770 -168.5
 1.100  0.7790  163.3   3.781   70.6  0.0620   65.3  0.2782 -169.5
 1.200  0.7791  161.3   3.465   68.3  0.0663   64.8  0.2793 -170.8
 1.300  0.7795  159.1   3.202   66.3  0.0715   64.6  0.2807 -171.7
 1.400  0.7821  157.4   2.990   64.2  0.0772   64.1  0.2828 -172.9
 1.500  0.7842  155.6   2.787   62.1  0.0817   63.4  0.2861 -173.9
 1.600  0.7876  153.7   2.623   60.0  0.0869   62.9  0.2880 -174.8
 1.700  0.7897  151.8   2.477   57.9  0.0922   62.2  0.2916 -175.8
 1.800  0.7925  149.8   2.350   55.7  0.0969   61.5  0.2953 -176.6
 1.900  0.7943  148.2   2.226   53.9  0.1016   60.8  0.2995 -177.5
 2.000  0.7962  146.4   2.113   51.7  0.1067   59.8  0.3036 -178.4
 2.100  0.7975  144.5   2.018   49.7  0.1114   58.9  0.3081 -179.3
 2.200  0.7996  142.6   1.925   47.6  0.1162   58.1  0.3126  179.8
 2.300  0.8024  141.0   1.845   45.7  0.1209   57.3  0.3177  179.0
 2.400  0.8058  139.4   1.767   43.7  0.1257   56.5  0.3228  178.3
 2.500  0.8067  137.8   1.697   41.9  0.1300   55.6  0.3279  177.5
 2.600  0.8082  136.2   1.628   40.0  0.1344   54.7  0.3331  176.8
 2.700  0.8113  134.5   1.568   38.3  0.1387   53.8  0.3384  175.9
 2.800  0.8150  132.9   1.510   36.5  0.1431   52.9  0.3437  175.1
 2.900  0.8162  131.3   1.458   34.8  0.1473   51.9  0.3490  174.2
 3.000  0.8179  129.8   1.408   32.9  0.1515   50.9  0.3544  173.4
 3.100  0.8197  128.3   1.366   31.4  0.1554   50.0  0.3592  172.4
 3.200  0.8221  126.8   1.324   29.9  0.1594   49.1  0.3640  171.5
 3.300  0.8250  125.3   1.284   28.2  0.1634   48.3  0.3690  170.6
 3.400  0.8285  123.9   1.245   26.5  0.1674   47.5  0.3741  169.7
 3.500  0.8325  122.4   1.207   24.6  0.1715   46.7  0.3792  168.8
 3.600  0.8336  121.0   1.175   23.2  0.1752   45.8  0.3846  167.7
 3.700  0.8352  119.6   1.144   21.7  0.1790   44.9  0.3902  166.7
 3.800  0.8373  118.2   1.113   20.2  0.1828   44.0  0.3959  165.7
 3.900  0.8399  116.8   1.084   18.5  0.1867   43.2  0.4018  164.7
 4.000  0.8430  115.4   1.055   16.8  0.1906   42.4  0.4077  163.7
 4.100  0.8436  114.2   1.029   15.5  0.1941   41.5  0.4141  162.6
 4.200  0.8446  112.9   1.003   14.1  0.1976   40.5  0.4207  161.5
 4.300  0.8460  111.7   0.978   12.7  0.2011   39.7  0.4274  160.4
 4.400  0.8478  110.5   0.953   11.2  0.2047   38.8  0.4342  159.4
 4.500  0.8500  109.3   0.929    9.6  0.2084   38.0  0.4412  158.4
 4.600  0.8515  108.3   0.907    8.6  0.2115   37.2  0.4482  157.5
 4.700  0.8533  107.3   0.886    7.5  0.2146   36.4  0.4553  156.6
 4.800  0.8553  106.3   0.865    6.4  0.2178   35.7  0.4625  155.7
 4.900  0.8576  105.4   0.844    5.2  0.2210   34.9  0.4699  154.8
 5.000  0.8601  104.4   0.824    4.0  0.2243   34.2  0.4773  154.0
 5.100  0.8610  103.5   0.809    3.0  0.2276   33.4  0.4843  153.4
 5.200  0.8622  102.6   0.795    2.0  0.2310   32.6  0.4914  152.8
 5.300  0.8636  101.6   0.781    0.9  0.2344   31.8  0.4986  152.2
 5.400  0.8652  100.7   0.767   -0.2  0.2378   31.0  0.5058  151.6
 5.500  0.8670   99.8   0.754   -1.3  0.2413   30.3  0.5130  151.1
 5.600  0.8658   98.9   0.741   -2.2  0.2445   29.5  0.5172  150.6
 5.700  0.8649   98.0   0.728   -3.0  0.2478   28.7  0.5213  150.2
 5.800  0.8642   97.0   0.715   -4.0  0.2511   27.9  0.5256  149.7
 5.900  0.8637   96.1   0.702   -4.9  0.2544   27.1  0.5298  149.2
 6.000  0.8634   95.2   0.690   -5.9  0.2578   26.4  0.5341  148.8
!
!  f       NFmin   Gammaopt  rn/50
! GHz       dB    MAG  ANG    -
 0.450      1.68  0.56 -175   0.06
 0.900      1.80  0.59 -169   0.08
 1.900      2.67  0.70 -148   0.20
 2.400      3.09  0.74 -143   0.32
!
! (c) 2017  Infineon Technologies AG, Munich