! Infineon Technologies  Discrete & RF Semiconductors
! BFP196W
! VCE =  11. V,  IC =  45 mA
! Common Emitter S-Parameters:                            Jan 2017
# GHz  S  MA  R  50
!  f         S11            S21            S12            S22
! GHz     MAG   ANG      MAG   ANG      MAG   ANG      MAG   ANG
 0.010  0.3755  -29.6  73.590  170.1  0.0032   74.7  0.9191  -12.1
 0.020  0.4195  -57.6  70.376  160.1  0.0064   72.2  0.8787  -23.6
 0.030  0.4334  -76.0  64.522  153.9  0.0089   62.2  0.8039  -32.0
 0.040  0.4870  -91.8  59.574  146.5  0.0115   56.7  0.7496  -41.8
 0.050  0.5692 -103.7  55.772  138.0  0.0142   53.2  0.7202  -52.8
 0.060  0.5752 -111.3  51.591  135.2  0.0151   50.5  0.6662  -57.1
 0.070  0.5910 -118.6  47.558  131.9  0.0160   48.2  0.6167  -62.2
 0.080  0.6159 -125.5  43.712  127.9  0.0169   46.1  0.5729  -68.1
 0.090  0.6488 -131.7  40.109  123.3  0.0178   44.2  0.5361  -74.9
 0.100  0.6887 -137.3  36.819  117.8  0.0188   42.5  0.5079  -82.6
 0.110  0.6935 -140.3  34.667  116.3  0.0193   41.9  0.4820  -85.6
 0.120  0.7002 -143.3  32.542  114.6  0.0198   41.2  0.4575  -88.9
 0.130  0.7087 -146.2  30.449  112.7  0.0204   40.7  0.4348  -92.5
 0.140  0.7191 -149.1  28.394  110.5  0.0209   40.1  0.4140  -96.6
 0.150  0.7311 -151.8  26.388  108.0  0.0214   39.6  0.3954 -101.0
 0.200  0.7450 -160.0  20.315  101.9  0.0223   41.0  0.3403 -113.0
 0.250  0.7531 -165.8  16.465   97.6  0.0242   40.6  0.3058 -122.4
 0.300  0.7566 -169.7  13.801   94.6  0.0259   43.8  0.2846 -129.3
 0.350  0.7582 -172.6  12.127   92.6  0.0276   45.8  0.2729 -134.0
 0.400  0.7617 -175.4  10.473   89.9  0.0294   47.5  0.2631 -139.1
 0.450  0.7609 -177.4   9.430   88.3  0.0314   49.4  0.2570 -142.3
 0.500  0.7610 -179.4   8.397   86.3  0.0335   51.0  0.2517 -145.6
 0.600  0.7648  177.2   7.022   83.3  0.0380   53.4  0.2473 -150.3
 0.700  0.7649  174.6   6.015   80.7  0.0416   56.2  0.2432 -153.6
 0.800  0.7662  171.8   5.273   77.9  0.0466   58.5  0.2427 -156.0
 0.900  0.7636  169.4   4.678   75.5  0.0513   58.4  0.2419 -158.1
 1.000  0.7685  167.2   4.228   73.2  0.0555   59.1  0.2423 -160.1
 1.100  0.7714  165.0   3.851   71.0  0.0602   59.9  0.2432 -161.2
 1.200  0.7709  162.8   3.530   68.7  0.0646   59.9  0.2443 -162.6
 1.300  0.7715  160.7   3.259   66.6  0.0691   59.6  0.2458 -163.7
 1.400  0.7737  158.8   3.043   64.4  0.0743   60.0  0.2483 -165.0
 1.500  0.7772  157.0   2.837   62.2  0.0786   59.8  0.2515 -166.2
 1.600  0.7800  155.0   2.669   60.1  0.0836   59.6  0.2544 -167.0
 1.700  0.7823  152.9   2.519   58.0  0.0883   59.2  0.2578 -168.1
 1.800  0.7844  151.1   2.389   55.8  0.0930   58.6  0.2621 -169.1
 1.900  0.7869  149.3   2.264   53.9  0.0976   58.4  0.2668 -170.0
 2.000  0.7888  147.4   2.149   51.7  0.1023   57.6  0.2716 -170.9
 2.100  0.7912  145.5   2.052   49.7  0.1069   57.0  0.2765 -171.9
 2.200  0.7945  143.7   1.958   47.5  0.1116   56.4  0.2815 -172.9
 2.300  0.7964  142.0   1.876   45.6  0.1162   55.7  0.2872 -173.8
 2.400  0.7991  140.3   1.796   43.6  0.1209   55.1  0.2930 -174.6
 2.500  0.8004  138.6   1.724   41.8  0.1248   54.3  0.2988 -175.4
 2.600  0.8023  137.0   1.653   39.8  0.1288   53.5  0.3047 -176.2
 2.700  0.8055  135.4   1.592   38.1  0.1331   52.8  0.3104 -177.1
 2.800  0.8094  133.8   1.533   36.2  0.1374   52.1  0.3162 -178.0
 2.900  0.8109  132.2   1.480   34.5  0.1416   51.2  0.3223 -179.0
 3.000  0.8130  130.6   1.428   32.6  0.1458   50.4  0.3284 -179.9
 3.100  0.8148  129.1   1.385   31.1  0.1497   49.6  0.3339  179.1
 3.200  0.8172  127.6   1.343   29.5  0.1536   48.8  0.3394  178.0
 3.300  0.8201  126.1   1.301   27.8  0.1576   48.1  0.3451  177.1
 3.400  0.8236  124.6   1.262   26.0  0.1616   47.4  0.3508  176.1
 3.500  0.8277  123.1   1.223   24.1  0.1656   46.7  0.3567  175.2
 3.600  0.8291  121.7   1.190   22.7  0.1694   45.8  0.3628  174.0
 3.700  0.8309  120.3   1.158   21.2  0.1732   45.0  0.3691  172.8
 3.800  0.8333  118.9   1.127   19.7  0.1771   44.1  0.3756  171.7
 3.900  0.8361  117.5   1.096   18.0  0.1810   43.3  0.3822  170.6
 4.000  0.8395  116.1   1.067   16.3  0.1849   42.6  0.3889  169.6
 4.100  0.8403  114.8   1.040   15.0  0.1884   41.7  0.3959  168.4
 4.200  0.8416  113.6   1.013   13.6  0.1920   40.9  0.4032  167.2
 4.300  0.8432  112.3   0.986   12.2  0.1956   40.0  0.4105  166.0
 4.400  0.8452  111.0   0.961   10.6  0.1992   39.3  0.4181  164.9
 4.500  0.8477  109.8   0.936    9.0  0.2029   38.5  0.4258  163.8
 4.600  0.8491  108.8   0.914    7.9  0.2062   37.7  0.4334  162.8
 4.700  0.8508  107.8   0.892    6.8  0.2096   36.9  0.4411  161.8
 4.800  0.8527  106.8   0.871    5.7  0.2129   36.2  0.4490  160.8
 4.900  0.8549  105.8   0.850    4.5  0.2164   35.5  0.4570  159.9
 5.000  0.8573  104.8   0.829    3.2  0.2198   34.8  0.4651  159.0
 5.100  0.8584  103.9   0.814    2.2  0.2232   34.0  0.4729  158.3
 5.200  0.8598  103.0   0.799    1.2  0.2266   33.3  0.4807  157.6
 5.300  0.8614  102.0   0.785    0.2  0.2301   32.5  0.4886  156.9
 5.400  0.8632  101.1   0.771   -0.9  0.2336   31.8  0.4966  156.2
 5.500  0.8652  100.2   0.757   -2.0  0.2371   31.1  0.5046  155.6
 5.600  0.8644   99.2   0.743   -2.9  0.2404   30.3  0.5097  155.0
 5.700  0.8638   98.3   0.729   -3.8  0.2438   29.4  0.5149  154.5
 5.800  0.8634   97.3   0.716   -4.7  0.2472   28.6  0.5201  153.9
 5.900  0.8633   96.4   0.702   -5.7  0.2507   27.9  0.5253  153.4
 6.000  0.8634   95.4   0.689   -6.7  0.2542   27.1  0.5306  152.9
!
!  f       NFmin   Gammaopt  rn/50
! GHz       dB    MAG  ANG    -
 0.450      1.31  0.50 -177   0.05
 0.900      1.44  0.54 -172   0.07
 1.900      2.26  0.69 -150   0.15
 2.400      2.66  0.73 -145   0.25
!
! (c) 2017  Infineon Technologies AG, Munich