! Infineon Technologies  Discrete & RF Semiconductors
! BFP196W
! VCE =  7.0 V,  IC =  40 mA
! Common Emitter S-Parameters:                            Jan 2017
# GHz  S  MA  R  50
!  f         S11            S21            S12            S22
! GHz     MAG   ANG      MAG   ANG      MAG   ANG      MAG   ANG
 0.010  0.3524  -32.7  72.753  170.1  0.0035   83.7  0.9566  -12.8
 0.020  0.4041  -61.4  69.153  159.8  0.0068   70.5  0.9105  -24.7
 0.030  0.4243  -80.4  63.254  153.4  0.0092   62.5  0.8298  -33.3
 0.040  0.4845  -96.1  58.296  145.8  0.0118   57.9  0.7717  -43.6
 0.050  0.5724 -107.7  54.536  137.0  0.0144   55.0  0.7414  -55.0
 0.060  0.5811 -115.1  50.379  134.2  0.0153   51.6  0.6850  -59.4
 0.070  0.5990 -122.1  46.360  131.0  0.0162   48.6  0.6334  -64.6
 0.080  0.6253 -128.6  42.520  127.1  0.0172   46.0  0.5880  -70.7
 0.090  0.6591 -134.6  38.910  122.5  0.0182   43.6  0.5501  -77.6
 0.100  0.6993 -139.9  35.602  117.0  0.0192   41.5  0.5214  -85.5
 0.110  0.7043 -142.8  33.506  115.5  0.0196   40.7  0.4957  -88.5
 0.120  0.7111 -145.6  31.434  113.9  0.0200   40.0  0.4716  -91.9
 0.130  0.7196 -148.4  29.392  112.0  0.0205   39.3  0.4492  -95.6
 0.140  0.7298 -151.1  27.386  109.9  0.0209   38.6  0.4290  -99.7
 0.150  0.7415 -153.7  25.424  107.4  0.0213   37.9  0.4111 -104.2
 0.200  0.7543 -161.5  19.545  101.4  0.0227   40.1  0.3561 -116.4
 0.250  0.7625 -166.9  15.811   97.1  0.0246   41.9  0.3237 -125.8
 0.300  0.7676 -170.8  13.255   94.2  0.0263   43.0  0.3037 -132.5
 0.350  0.7683 -173.5  11.644   92.2  0.0281   45.5  0.2922 -137.1
 0.400  0.7706 -176.1  10.053   89.5  0.0300   47.7  0.2827 -142.1
 0.450  0.7710 -178.1   9.052   88.0  0.0319   49.3  0.2774 -145.2
 0.500  0.7722 -180.0   8.058   86.1  0.0339   50.8  0.2729 -148.5
 0.600  0.7735  176.8   6.739   83.1  0.0382   53.9  0.2684 -153.0
 0.700  0.7747  174.1   5.774   80.5  0.0418   55.4  0.2648 -156.3
 0.800  0.7764  171.4   5.061   77.7  0.0471   58.5  0.2636 -158.7
 0.900  0.7760  169.0   4.491   75.3  0.0514   58.3  0.2641 -160.8
 1.000  0.7765  166.8   4.058   73.0  0.0560   59.1  0.2637 -162.6
 1.100  0.7795  164.7   3.695   70.8  0.0613   60.3  0.2651 -163.8
 1.200  0.7805  162.6   3.387   68.5  0.0657   59.8  0.2656 -165.1
 1.300  0.7799  160.5   3.130   66.4  0.0705   59.9  0.2676 -166.3
 1.400  0.7832  158.6   2.921   64.2  0.0752   59.6  0.2697 -167.6
 1.500  0.7870  156.7   2.724   62.0  0.0800   59.5  0.2729 -168.7
 1.600  0.7886  154.7   2.563   59.9  0.0847   59.3  0.2754 -169.6
 1.700  0.7915  152.8   2.419   57.8  0.0896   59.3  0.2794 -170.7
 1.800  0.7941  150.8   2.297   55.5  0.0944   58.5  0.2837 -171.6
 1.900  0.7967  149.1   2.174   53.7  0.0991   58.1  0.2880 -172.6
 2.000  0.7969  147.2   2.065   51.5  0.1041   57.6  0.2924 -173.5
 2.100  0.7991  145.3   1.971   49.5  0.1085   56.9  0.2974 -174.5
 2.200  0.8021  143.5   1.880   47.3  0.1130   56.2  0.3025 -175.5
 2.300  0.8046  141.7   1.801   45.4  0.1176   55.5  0.3081 -176.4
 2.400  0.8079  140.0   1.725   43.3  0.1222   54.8  0.3138 -177.2
 2.500  0.8088  138.4   1.656   41.5  0.1264   53.9  0.3196 -178.1
 2.600  0.8103  136.8   1.589   39.6  0.1306   53.1  0.3254 -178.9
 2.700  0.8133  135.1   1.531   37.8  0.1350   52.4  0.3309 -179.8
 2.800  0.8170  133.5   1.474   35.9  0.1395   51.7  0.3364  179.3
 2.900  0.8181  131.9   1.423   34.2  0.1437   50.8  0.3422  178.4
 3.000  0.8199  130.3   1.374   32.3  0.1480   50.0  0.3481  177.5
 3.100  0.8218  128.8   1.333   30.8  0.1519   49.2  0.3535  176.5
 3.200  0.8242  127.3   1.292   29.2  0.1558   48.5  0.3590  175.4
 3.300  0.8272  125.8   1.252   27.6  0.1598   47.7  0.3646  174.5
 3.400  0.8308  124.4   1.214   25.8  0.1638   47.1  0.3704  173.5
 3.500  0.8349  122.9   1.177   23.9  0.1678   46.4  0.3762  172.6
 3.600  0.8362  121.5   1.145   22.5  0.1716   45.5  0.3822  171.4
 3.700  0.8380  120.1   1.115   21.0  0.1754   44.6  0.3884  170.3
 3.800  0.8403  118.7   1.085   19.5  0.1793   43.8  0.3947  169.3
 3.900  0.8431  117.3   1.055   17.8  0.1832   43.0  0.4011  168.2
 4.000  0.8464  115.9   1.027   16.1  0.1871   42.2  0.4077  167.2
 4.100  0.8469  114.6   1.001   14.8  0.1905   41.3  0.4146  166.0
 4.200  0.8478  113.4   0.975   13.4  0.1940   40.4  0.4217  164.8
 4.300  0.8491  112.1   0.950   12.0  0.1976   39.5  0.4289  163.7
 4.400  0.8509  110.9   0.926   10.5  0.2012   38.7  0.4363  162.6
 4.500  0.8530  109.6   0.902    8.9  0.2048   37.9  0.4439  161.5
 4.600  0.8544  108.6   0.881    7.9  0.2082   37.1  0.4514  160.5
 4.700  0.8561  107.6   0.860    6.9  0.2116   36.4  0.4590  159.5
 4.800  0.8580  106.6   0.840    5.8  0.2151   35.7  0.4667  158.6
 4.900  0.8602  105.6   0.820    4.6  0.2186   35.0  0.4746  157.7
 5.000  0.8627  104.6   0.800    3.4  0.2221   34.3  0.4826  156.8
 5.100  0.8636  103.7   0.786    2.4  0.2255   33.5  0.4902  156.1
 5.200  0.8648  102.8   0.772    1.4  0.2289   32.7  0.4978  155.4
 5.300  0.8662  101.8   0.758    0.4  0.2324   32.0  0.5055  154.7
 5.400  0.8678  100.9   0.744   -0.7  0.2359   31.2  0.5133  154.0
 5.500  0.8696  100.0   0.731   -1.8  0.2395   30.5  0.5211  153.4
 5.600  0.8689   99.1   0.718   -2.7  0.2427   29.7  0.5259  152.9
 5.700  0.8685   98.1   0.705   -3.5  0.2460   28.9  0.5306  152.3
 5.800  0.8682   97.2   0.693   -4.5  0.2493   28.1  0.5355  151.8
 5.900  0.8683   96.2   0.680   -5.4  0.2526   27.3  0.5404  151.3
 6.000  0.8685   95.3   0.668   -6.4  0.2560   26.6  0.5453  150.8
!
!  f       NFmin   Gammaopt  rn/50
! GHz       dB    MAG  ANG    -
 0.450      1.24  0.48 -179   0.06
 0.900      1.39  0.54 -173   0.06
 1.900      2.21  0.69 -150   0.14
 2.400      2.61  0.73 -145   0.23
!
! (c) 2017  Infineon Technologies AG, Munich