! Infineon Technologies  Discrete & RF Semiconductors
! BFP196W
! VCE =  7.0 V,  IC =  80 mA
! Common Emitter S-Parameters:                            Jan 2017
# GHz  S  MA  R  50
!  f         S11            S21            S12            S22
! GHz     MAG   ANG      MAG   ANG      MAG   ANG      MAG   ANG
 0.010  0.2161  -67.7  93.753  167.2  0.0032   75.9  0.9167  -16.6
 0.020  0.3534  -97.0  87.544  154.7  0.0053   73.3  0.8577  -32.1
 0.030  0.4154 -113.1  77.733  148.2  0.0070   62.1  0.7585  -41.8
 0.040  0.5011 -124.4  69.188  140.0  0.0088   55.4  0.6868  -53.9
 0.050  0.6003 -132.2  62.429  129.8  0.0107   51.0  0.6520  -68.1
 0.060  0.6158 -137.4  57.152  127.4  0.0113   49.6  0.6002  -72.8
 0.070  0.6361 -142.2  51.994  124.5  0.0119   48.4  0.5532  -78.4
 0.080  0.6607 -146.8  46.995  121.1  0.0125   47.3  0.5124  -85.0
 0.090  0.6891 -151.0  42.211  116.8  0.0132   46.3  0.4794  -92.5
 0.100  0.7209 -154.8  37.724  111.4  0.0138   45.4  0.4558 -101.0
 0.110  0.7265 -156.7  35.395  110.2  0.0143   45.4  0.4363 -104.2
 0.120  0.7328 -158.6  33.083  108.8  0.0148   45.3  0.4182 -107.6
 0.130  0.7400 -160.5  30.794  107.2  0.0152   45.3  0.4018 -111.4
 0.140  0.7479 -162.3  28.533  105.4  0.0157   45.2  0.3873 -115.4
 0.150  0.7566 -164.1  26.306  103.2  0.0162   45.2  0.3748 -119.8
 0.200  0.7633 -169.4  20.007   98.1  0.0174   49.2  0.3398 -131.3
 0.250  0.7715 -173.2  16.121   94.6  0.0198   50.4  0.3197 -139.6
 0.300  0.7734 -176.1  13.465   92.1  0.0218   53.4  0.3082 -145.5
 0.350  0.7742 -178.2  11.818   90.3  0.0240   55.7  0.3018 -149.3
 0.400  0.7760  179.8  10.186   87.9  0.0263   57.6  0.2968 -153.2
 0.450  0.7753  178.3   9.165   86.6  0.0286   59.7  0.2941 -155.7
 0.500  0.7751  176.7   8.151   84.9  0.0309   61.5  0.2919 -158.2
 0.600  0.7765  174.0   6.815   82.1  0.0368   62.9  0.2905 -161.9
 0.700  0.7777  171.7   5.837   79.7  0.0417   64.4  0.2883 -164.5
 0.800  0.7784  169.4   5.115   77.1  0.0470   65.9  0.2883 -166.5
 0.900  0.7787  167.0   4.535   74.9  0.0518   65.5  0.2884 -168.2
 1.000  0.7806  165.1   4.100   72.7  0.0568   65.3  0.2889 -169.8
 1.100  0.7832  163.1   3.734   70.6  0.0622   65.6  0.2899 -170.8
 1.200  0.7822  161.1   3.423   68.3  0.0671   64.9  0.2908 -172.0
 1.300  0.7825  159.1   3.163   66.3  0.0720   64.4  0.2922 -173.1
 1.400  0.7848  157.3   2.953   64.2  0.0774   64.5  0.2946 -174.2
 1.500  0.7879  155.5   2.755   62.1  0.0826   63.4  0.2975 -175.2
 1.600  0.7915  153.4   2.591   60.0  0.0874   63.1  0.2996 -176.1
 1.700  0.7927  151.5   2.446   57.9  0.0923   62.1  0.3027 -177.1
 1.800  0.7954  149.7   2.322   55.7  0.0973   61.5  0.3066 -178.0
 1.900  0.7975  148.1   2.201   53.9  0.1024   61.0  0.3105 -178.9
 2.000  0.7989  146.3   2.089   51.7  0.1078   59.8  0.3149 -179.7
 2.100  0.8010  144.4   1.995   49.7  0.1125   59.0  0.3191  179.4
 2.200  0.8039  142.5   1.903   47.6  0.1172   58.2  0.3234  178.5
 2.300  0.8064  140.8   1.824   45.7  0.1219   57.2  0.3285  177.7
 2.400  0.8096  139.2   1.747   43.7  0.1267   56.3  0.3336  176.9
 2.500  0.8103  137.6   1.678   42.0  0.1311   55.4  0.3385  176.1
 2.600  0.8117  136.0   1.610   40.1  0.1356   54.6  0.3435  175.4
 2.700  0.8144  134.4   1.551   38.4  0.1399   53.7  0.3486  174.5
 2.800  0.8178  132.8   1.493   36.5  0.1442   52.9  0.3537  173.7
 2.900  0.8192  131.2   1.441   34.8  0.1484   51.8  0.3589  172.8
 3.000  0.8211  129.7   1.391   33.0  0.1526   50.8  0.3641  172.0
 3.100  0.8227  128.2   1.350   31.5  0.1565   49.9  0.3688  171.0
 3.200  0.8248  126.7   1.309   30.0  0.1605   49.0  0.3735  170.1
 3.300  0.8275  125.2   1.270   28.3  0.1645   48.2  0.3784  169.2
 3.400  0.8307  123.8   1.231   26.6  0.1685   47.4  0.3833  168.3
 3.500  0.8345  122.3   1.194   24.7  0.1726   46.6  0.3884  167.4
 3.600  0.8357  120.9   1.162   23.3  0.1763   45.6  0.3938  166.3
 3.700  0.8374  119.5   1.132   21.9  0.1800   44.7  0.3993  165.3
 3.800  0.8395  118.1   1.102   20.3  0.1838   43.8  0.4049  164.3
 3.900  0.8422  116.8   1.072   18.7  0.1876   42.9  0.4106  163.3
 4.000  0.8453  115.4   1.044   17.0  0.1915   42.1  0.4165  162.4
 4.100  0.8458  114.2   1.018   15.7  0.1950   41.2  0.4228  161.3
 4.200  0.8467  112.9   0.993   14.4  0.1985   40.2  0.4293  160.2
 4.300  0.8480  111.7   0.968   13.0  0.2021   39.4  0.4359  159.1
 4.400  0.8497  110.4   0.944   11.5  0.2057   38.5  0.4426  158.1
 4.500  0.8518  109.2   0.921    9.9  0.2094   37.7  0.4495  157.1
 4.600  0.8531  108.2   0.900    8.9  0.2126   36.9  0.4562  156.2
 4.700  0.8546  107.2   0.878    7.8  0.2158   36.1  0.4631  155.3
 4.800  0.8564  106.2   0.858    6.6  0.2191   35.4  0.4701  154.4
 4.900  0.8584  105.3   0.837    5.5  0.2224   34.6  0.4771  153.6
 5.000  0.8607  104.3   0.817    4.2  0.2257   33.9  0.4843  152.8
 5.100  0.8618  103.4   0.803    3.2  0.2290   33.1  0.4911  152.2
 5.200  0.8631  102.5   0.789    2.2  0.2322   32.3  0.4980  151.6
 5.300  0.8646  101.6   0.775    1.2  0.2356   31.5  0.5049  151.1
 5.400  0.8664  100.7   0.762    0.1  0.2390   30.7  0.5119  150.5
 5.500  0.8683   99.8   0.749   -1.0  0.2424   30.0  0.5189  150.0
 5.600  0.8672   98.8   0.736   -1.8  0.2455   29.2  0.5229  149.5
 5.700  0.8663   97.9   0.723   -2.7  0.2486   28.3  0.5269  149.1
 5.800  0.8656   96.9   0.710   -3.6  0.2518   27.5  0.5310  148.6
 5.900  0.8653   96.0   0.697   -4.5  0.2550   26.8  0.5351  148.1
 6.000  0.8651   95.0   0.685   -5.5  0.2583   26.0  0.5392  147.7
!
!  f       NFmin   Gammaopt  rn/50
! GHz       dB    MAG  ANG    -
 0.450      1.68  0.56 -175   0.06
 0.900      1.80  0.59 -169   0.08
 1.900      2.67  0.70 -148   0.20
 2.400      3.09  0.74 -143   0.32
!
! (c) 2017  Infineon Technologies AG, Munich