! Infineon Technologies  Discrete & RF Semiconductors
! BFP196W
! VCE =  2.0 V,  IC =  20 mA
! Common Emitter S-Parameters:                            Jan 2017
# GHz  S  MA  R  50
!  f         S11            S21            S12            S22
! GHz     MAG   ANG      MAG   ANG      MAG   ANG      MAG   ANG
 0.010  0.4951  -23.9  50.664  171.6  0.0050   82.0  0.9727  -11.8
 0.020  0.5161  -47.8  48.912  162.0  0.0101   75.4  0.9357  -22.9
 0.030  0.5122  -64.6  45.252  155.8  0.0138   64.4  0.8635  -31.4
 0.040  0.5511  -80.4  42.219  148.5  0.0178   58.1  0.8132  -41.1
 0.050  0.6248  -93.2  39.957  140.3  0.0219   54.2  0.7890  -51.8
 0.060  0.6230 -101.3  37.090  137.4  0.0233   50.4  0.7326  -56.4
 0.070  0.6334 -109.2  34.337  133.9  0.0248   47.1  0.6817  -61.8
 0.080  0.6556 -116.8  31.729  129.9  0.0263   44.1  0.6378  -68.0
 0.090  0.6884 -123.8  29.304  125.2  0.0279   41.5  0.6023  -75.0
 0.100  0.7303 -130.0  27.110  119.7  0.0296   39.2  0.5768  -82.7
 0.110  0.7334 -133.5  25.564  118.1  0.0302   38.0  0.5490  -85.9
 0.120  0.7392 -136.9  24.041  116.3  0.0308   36.9  0.5231  -89.4
 0.130  0.7476 -140.3  22.545  114.3  0.0314   35.8  0.4993  -93.2
 0.140  0.7586 -143.6  21.080  112.0  0.0320   34.8  0.4780  -97.4
 0.150  0.7720 -146.8  19.656  109.3  0.0326   33.8  0.4595 -102.0
 0.200  0.7840 -156.1  15.195  102.7  0.0342   32.1  0.4011 -114.8
 0.250  0.7940 -162.6  12.348   98.1  0.0359   31.7  0.3651 -124.4
 0.300  0.7973 -167.1  10.374   94.9  0.0369   32.4  0.3430 -131.4
 0.350  0.7981 -170.3   9.114   92.7  0.0381   33.5  0.3300 -136.2
 0.400  0.8013 -173.4   7.873   89.7  0.0393   34.5  0.3195 -141.3
 0.450  0.8000 -175.6   7.089   88.0  0.0408   36.3  0.3139 -144.4
 0.500  0.8000 -177.9   6.313   85.9  0.0423   38.0  0.3093 -147.7
 0.600  0.8041  178.6   5.283   82.5  0.0463   40.4  0.3048 -152.3
 0.700  0.8017  175.6   4.528   79.7  0.0491   42.8  0.3001 -155.7
 0.800  0.8042  172.7   3.972   76.7  0.0533   46.7  0.2994 -158.1
 0.900  0.8029  170.1   3.523   74.1  0.0572   47.1  0.3000 -160.2
 1.000  0.8065  167.9   3.186   71.6  0.0609   48.3  0.3005 -162.2
 1.100  0.8083  165.6   2.904   69.2  0.0653   49.7  0.3021 -163.4
 1.200  0.8077  163.3   2.662   66.7  0.0693   50.1  0.3032 -164.8
 1.300  0.8081  161.2   2.459   64.4  0.0736   51.1  0.3058 -165.8
 1.400  0.8108  159.3   2.298   62.0  0.0781   51.8  0.3094 -167.1
 1.500  0.8152  157.3   2.146   59.7  0.0826   51.8  0.3127 -168.2
 1.600  0.8171  155.3   2.018   57.4  0.0871   52.0  0.3163 -169.2
 1.700  0.8183  153.2   1.906   55.1  0.0915   52.2  0.3210 -170.3
 1.800  0.8216  151.2   1.810   52.8  0.0962   52.1  0.3259 -171.4
 1.900  0.8251  149.5   1.715   50.8  0.1004   52.1  0.3312 -172.3
 2.000  0.8260  147.5   1.630   48.5  0.1052   51.8  0.3360 -173.3
 2.100  0.8280  145.5   1.557   46.4  0.1095   51.4  0.3420 -174.3
 2.200  0.8310  143.6   1.486   44.1  0.1139   51.0  0.3482 -175.3
 2.300  0.8333  141.9   1.424   42.1  0.1185   50.6  0.3545 -176.2
 2.400  0.8364  140.2   1.364   39.9  0.1232   50.3  0.3608 -177.1
 2.500  0.8372  138.5   1.310   38.0  0.1274   49.7  0.3674 -178.1
 2.600  0.8386  136.9   1.257   36.0  0.1317   49.2  0.3741 -179.0
 2.700  0.8407  135.2   1.211   34.2  0.1357   48.6  0.3804 -179.9
 2.800  0.8436  133.5   1.167   32.3  0.1398   48.1  0.3867  179.2
 2.900  0.8450  131.9   1.126   30.5  0.1441   47.4  0.3935  178.1
 3.000  0.8470  130.3   1.087   28.6  0.1485   46.8  0.4004  177.1
 3.100  0.8485  128.8   1.055   27.1  0.1525   46.1  0.4063  176.0
 3.200  0.8506  127.2   1.023   25.5  0.1565   45.5  0.4124  175.0
 3.300  0.8533  125.7   0.992   23.9  0.1605   44.8  0.4185  173.9
 3.400  0.8566  124.2   0.962   22.1  0.1645   44.3  0.4249  173.0
 3.500  0.8605  122.7   0.933   20.2  0.1686   43.7  0.4313  172.0
 3.600  0.8612  121.3   0.908   18.8  0.1726   42.9  0.4380  170.8
 3.700  0.8625  119.8   0.884   17.4  0.1766   42.1  0.4450  169.6
 3.800  0.8643  118.4   0.860   15.9  0.1806   41.4  0.4521  168.5
 3.900  0.8666  117.0   0.837   14.3  0.1847   40.7  0.4594  167.4
 4.000  0.8695  115.6   0.815   12.6  0.1888   40.0  0.4668  166.3
 4.100  0.8695  114.3   0.795   11.3  0.1925   39.1  0.4743  165.0
 4.200  0.8700  113.0   0.775   10.0  0.1962   38.3  0.4821  163.8
 4.300  0.8710  111.7   0.755    8.6  0.2000   37.5  0.4901  162.6
 4.400  0.8724  110.4   0.736    7.1  0.2038   36.7  0.4983  161.4
 4.500  0.8742  109.1   0.718    5.6  0.2077   36.0  0.5067  160.3
 4.600  0.8750  108.1   0.701    4.7  0.2112   35.3  0.5144  159.2
 4.700  0.8761  107.1   0.685    3.8  0.2148   34.5  0.5222  158.2
 4.800  0.8775  106.1   0.668    2.8  0.2183   33.8  0.5303  157.1
 4.900  0.8791  105.1   0.652    1.8  0.2220   33.2  0.5385  156.2
 5.000  0.8810  104.1   0.636    0.7  0.2256   32.5  0.5468  155.2
 5.100  0.8819  103.2   0.625   -0.1  0.2291   31.7  0.5546  154.4
 5.200  0.8831  102.3   0.614   -0.9  0.2326   31.0  0.5625  153.6
 5.300  0.8845  101.3   0.604   -1.8  0.2362   30.2  0.5705  152.9
 5.400  0.8861  100.4   0.593   -2.7  0.2398   29.5  0.5786  152.1
 5.500  0.8880   99.5   0.583   -3.6  0.2435   28.8  0.5868  151.4
 5.600  0.8863   98.6   0.573   -4.3  0.2468   28.0  0.5914  150.8
 5.700  0.8848   97.6   0.564   -5.0  0.2502   27.2  0.5961  150.1
 5.800  0.8836   96.7   0.554   -5.7  0.2536   26.4  0.6009  149.5
 5.900  0.8826   95.7   0.544   -6.4  0.2571   25.6  0.6057  148.9
 6.000  0.8818   94.8   0.535   -7.2  0.2606   24.9  0.6106  148.3
!
!  f       NFmin   Gammaopt  rn/50
! GHz       dB    MAG  ANG    -
 0.450      1.02  0.40  170   0.05
 0.900      1.20  0.51  178   0.05
 1.900      2.11  0.69 -155   0.11
 2.400      2.55  0.74 -147   0.20
!
! (c) 2017  Infineon Technologies AG, Munich