! Infineon Technologies  Discrete & RF Semiconductors
! BFP196W
! VCE =  9.0 V,  IC =  45 mA
! Common Emitter S-Parameters:                            Jan 2017
# GHz  S  MA  R  50
!  f         S11            S21            S12            S22
! GHz     MAG   ANG      MAG   ANG      MAG   ANG      MAG   ANG
 0.010  0.3548  -32.6  75.430  169.9  0.0034   78.1  0.9451  -12.7
 0.020  0.4075  -60.8  71.544  159.6  0.0065   73.8  0.9044  -24.8
 0.030  0.4251  -79.9  65.419  153.2  0.0087   64.1  0.8231  -33.3
 0.040  0.4839  -95.9  60.257  145.7  0.0110   58.3  0.7635  -43.3
 0.050  0.5712 -107.7  56.324  136.9  0.0134   54.6  0.7309  -54.7
 0.060  0.5793 -115.0  52.011  134.1  0.0144   51.3  0.6751  -59.1
 0.070  0.5966 -122.1  47.840  130.9  0.0153   48.4  0.6238  -64.2
 0.080  0.6222 -128.6  43.853  127.0  0.0164   45.9  0.5785  -70.2
 0.090  0.6553 -134.6  40.105  122.4  0.0174   43.7  0.5404  -77.1
 0.100  0.6948 -139.9  36.667  116.9  0.0185   41.7  0.5113  -84.9
 0.110  0.6996 -142.8  34.514  115.4  0.0191   41.2  0.4857  -87.9
 0.120  0.7062 -145.6  32.386  113.8  0.0196   40.7  0.4616  -91.3
 0.130  0.7144 -148.4  30.288  111.9  0.0202   40.3  0.4392  -95.0
 0.140  0.7243 -151.1  28.228  109.8  0.0207   39.9  0.4189  -99.0
 0.150  0.7357 -153.7  26.213  107.3  0.0213   39.5  0.4009 -103.5
 0.200  0.7477 -161.4  20.137  101.3  0.0219   40.9  0.3467 -115.6
 0.250  0.7591 -166.9  16.306   97.1  0.0237   42.8  0.3141 -124.9
 0.300  0.7603 -170.6  13.668   94.2  0.0257   43.7  0.2942 -131.7
 0.350  0.7621 -173.4  12.008   92.2  0.0272   46.0  0.2828 -136.3
 0.400  0.7656 -176.1  10.366   89.6  0.0287   48.0  0.2734 -141.3
 0.450  0.7652 -178.1   9.331   88.0  0.0309   50.1  0.2677 -144.4
 0.500  0.7658  179.9   8.304   86.1  0.0332   51.9  0.2628 -147.7
 0.600  0.7689  176.9   6.945   83.1  0.0378   55.0  0.2587 -152.3
 0.700  0.7683  174.1   5.951   80.6  0.0413   57.5  0.2549 -155.5
 0.800  0.7703  171.4   5.214   77.8  0.0470   58.5  0.2536 -157.9
 0.900  0.7693  169.1   4.626   75.4  0.0510   59.2  0.2537 -159.9
 1.000  0.7712  166.9   4.180   73.1  0.0551   60.1  0.2536 -161.9
 1.100  0.7741  164.7   3.808   71.0  0.0604   60.5  0.2546 -163.0
 1.200  0.7760  162.6   3.489   68.6  0.0649   60.7  0.2553 -164.4
 1.300  0.7744  160.4   3.225   66.5  0.0696   60.6  0.2572 -165.6
 1.400  0.7764  158.6   3.007   64.3  0.0750   60.6  0.2599 -166.8
 1.500  0.7802  156.9   2.805   62.2  0.0794   60.0  0.2629 -167.9
 1.600  0.7826  154.7   2.639   60.1  0.0847   60.0  0.2655 -168.9
 1.700  0.7845  152.8   2.491   58.0  0.0894   59.6  0.2689 -169.9
 1.800  0.7896  150.8   2.365   55.7  0.0940   58.9  0.2735 -170.9
 1.900  0.7898  149.2   2.239   53.9  0.0985   58.5  0.2776 -171.9
 2.000  0.7919  147.2   2.126   51.7  0.1031   57.7  0.2819 -172.6
 2.100  0.7938  145.3   2.030   49.7  0.1077   57.1  0.2870 -173.7
 2.200  0.7965  143.4   1.937   47.5  0.1124   56.6  0.2921 -174.7
 2.300  0.7994  141.7   1.856   45.6  0.1170   55.8  0.2977 -175.5
 2.400  0.8031  140.0   1.777   43.5  0.1216   55.1  0.3034 -176.3
 2.500  0.8038  138.4   1.705   41.7  0.1257   54.3  0.3091 -177.2
 2.600  0.8052  136.8   1.635   39.8  0.1298   53.6  0.3149 -178.0
 2.700  0.8086  135.1   1.575   38.1  0.1342   52.8  0.3205 -178.9
 2.800  0.8126  133.5   1.517   36.2  0.1387   52.0  0.3261 -179.8
 2.900  0.8137  131.9   1.464   34.5  0.1429   51.1  0.3320  179.3
 3.000  0.8153  130.4   1.413   32.6  0.1471   50.3  0.3380  178.4
 3.100  0.8170  128.9   1.370   31.1  0.1510   49.5  0.3434  177.4
 3.200  0.8194  127.4   1.329   29.5  0.1550   48.7  0.3488  176.3
 3.300  0.8223  125.9   1.288   27.9  0.1590   48.0  0.3544  175.4
 3.400  0.8257  124.4   1.249   26.1  0.1630   47.3  0.3601  174.4
 3.500  0.8297  122.9   1.211   24.2  0.1671   46.6  0.3659  173.5
 3.600  0.8314  121.5   1.178   22.8  0.1708   45.7  0.3719  172.3
 3.700  0.8335  120.1   1.146   21.3  0.1746   44.9  0.3781  171.2
 3.800  0.8362  118.7   1.115   19.7  0.1784   44.0  0.3845  170.2
 3.900  0.8393  117.4   1.084   18.1  0.1822   43.3  0.3909  169.1
 4.000  0.8429  116.0   1.055   16.3  0.1861   42.5  0.3975  168.1
 4.100  0.8435  114.7   1.029   15.0  0.1897   41.6  0.4044  166.9
 4.200  0.8445  113.5   1.003   13.6  0.1933   40.7  0.4115  165.7
 4.300  0.8459  112.2   0.978   12.2  0.1969   39.8  0.4188  164.5
 4.400  0.8477  111.0   0.954   10.7  0.2007   39.0  0.4263  163.4
 4.500  0.8499  109.7   0.930    9.1  0.2044   38.2  0.4339  162.3
 4.600  0.8512  108.7   0.908    8.1  0.2076   37.4  0.4413  161.3
 4.700  0.8528  107.7   0.886    7.0  0.2109   36.7  0.4488  160.3
 4.800  0.8547  106.7   0.864    5.9  0.2142   36.0  0.4565  159.4
 4.900  0.8568  105.7   0.843    4.7  0.2175   35.3  0.4642  158.5
 5.000  0.8592  104.7   0.822    3.4  0.2209   34.6  0.4721  157.6
 5.100  0.8602  103.8   0.807    2.4  0.2243   33.8  0.4797  156.9
 5.200  0.8614  102.9   0.793    1.4  0.2278   33.1  0.4875  156.2
 5.300  0.8629  102.0   0.779    0.4  0.2313   32.3  0.4952  155.6
 5.400  0.8645  101.1   0.765   -0.7  0.2348   31.6  0.5031  154.9
 5.500  0.8664  100.2   0.751   -1.8  0.2384   30.9  0.5110  154.3
 5.600  0.8655   99.2   0.737   -2.7  0.2416   30.0  0.5159  153.8
 5.700  0.8648   98.2   0.724   -3.5  0.2448   29.2  0.5208  153.2
 5.800  0.8644   97.3   0.711   -4.5  0.2480   28.4  0.5258  152.7
 5.900  0.8642   96.3   0.698   -5.4  0.2513   27.6  0.5308  152.2
 6.000  0.8643   95.3   0.685   -6.4  0.2547   26.8  0.5358  151.7
!
!  f       NFmin   Gammaopt  rn/50
! GHz       dB    MAG  ANG    -
 0.450      1.31  0.50 -177   0.05
 0.900      1.44  0.54 -172   0.07
 1.900      2.26  0.69 -150   0.15
 2.400      2.66  0.73 -145   0.25
!
! (c) 2017  Infineon Technologies AG, Munich