! Infineon Technologies  Discrete & RF Semiconductors
! BFP196W
! VCE =  3.0 V,  IC =  65 mA
! Common Emitter S-Parameters:                            Jan 2017
# GHz  S  MA  R  50
!  f         S11            S21            S12            S22
! GHz     MAG   ANG      MAG   ANG      MAG   ANG      MAG   ANG
 0.010  0.2050  -88.9  89.589  166.5  0.0033   75.4  0.9216  -19.0
 0.020  0.3678 -110.5  82.796  153.2  0.0068   69.3  0.8616  -36.6
 0.030  0.4409 -123.8  72.979  146.7  0.0083   59.7  0.7554  -47.1
 0.040  0.5306 -132.9  64.368  138.4  0.0100   53.2  0.6823  -60.5
 0.050  0.6298 -139.3  57.509  127.8  0.0118   48.6  0.6533  -76.0
 0.060  0.6465 -143.7  52.539  125.5  0.0123   47.4  0.6041  -81.2
 0.070  0.6668 -147.9  47.672  122.7  0.0128   46.4  0.5608  -87.3
 0.080  0.6904 -151.8  42.942  119.3  0.0133   45.4  0.5247  -94.2
 0.090  0.7170 -155.4  38.399  115.1  0.0138   44.5  0.4975 -102.1
 0.100  0.7463 -158.8  34.119  109.8  0.0143   43.6  0.4806 -110.7
 0.110  0.7523 -160.5  31.987  108.7  0.0148   44.0  0.4641 -114.0
 0.120  0.7589 -162.1  29.869  107.4  0.0153   44.4  0.4492 -117.5
 0.130  0.7662 -163.8  27.769  105.9  0.0157   44.7  0.4362 -121.3
 0.140  0.7741 -165.3  25.691  104.1  0.0162   45.1  0.4251 -125.2
 0.150  0.7825 -166.9  23.641  102.1  0.0167   45.4  0.4162 -129.4
 0.200  0.7876 -171.7  17.942   97.3  0.0185   48.0  0.3903 -140.1
 0.250  0.7940 -175.1  14.432   93.8  0.0210   50.0  0.3753 -147.6
 0.300  0.7961 -177.5  12.071   91.4  0.0225   54.0  0.3672 -152.7
 0.350  0.7970 -179.4  10.585   89.7  0.0251   56.4  0.3625 -156.1
 0.400  0.7988  178.7   9.112   87.5  0.0277   58.4  0.3592 -159.6
 0.450  0.7980  177.3   8.198   86.1  0.0301   59.6  0.3573 -161.8
 0.500  0.7978  175.8   7.290   84.4  0.0325   60.7  0.3559 -164.0
 0.600  0.7992  173.2   6.096   81.7  0.0382   62.4  0.3562 -167.3
 0.700  0.8007  171.0   5.221   79.4  0.0430   64.2  0.3538 -169.6
 0.800  0.8021  168.5   4.574   76.7  0.0490   65.4  0.3542 -171.4
 0.900  0.7984  166.6   4.057   74.5  0.0541   64.8  0.3549 -173.0
 1.000  0.8002  164.5   3.668   72.3  0.0592   65.2  0.3544 -174.6
 1.100  0.8041  162.5   3.344   70.2  0.0649   64.8  0.3557 -175.8
 1.200  0.8040  160.6   3.066   68.0  0.0695   64.4  0.3561 -177.0
 1.300  0.8020  158.6   2.835   66.0  0.0754   64.0  0.3580 -178.0
 1.400  0.8054  156.7   2.649   63.8  0.0810   63.9  0.3600 -179.2
 1.500  0.8091  154.9   2.470   61.7  0.0865   62.7  0.3624  179.7
 1.600  0.8125  153.1   2.326   59.6  0.0916   62.3  0.3644  178.7
 1.700  0.8122  151.2   2.197   57.5  0.0966   61.7  0.3677  177.7
 1.800  0.8159  149.1   2.087   55.4  0.1022   60.7  0.3709  176.7
 1.900  0.8185  147.6   1.976   53.6  0.1072   60.1  0.3744  175.9
 2.000  0.8181  145.6   1.879   51.3  0.1123   59.2  0.3777  174.9
 2.100  0.8198  143.8   1.795   49.3  0.1173   58.1  0.3821  174.0
 2.200  0.8223  142.0   1.714   47.2  0.1224   57.1  0.3865  173.1
 2.300  0.8248  140.3   1.643   45.3  0.1273   56.1  0.3908  172.2
 2.400  0.8280  138.7   1.574   43.3  0.1322   55.2  0.3952  171.3
 2.500  0.8286  137.1   1.512   41.6  0.1367   54.2  0.3997  170.5
 2.600  0.8299  135.5   1.451   39.7  0.1412   53.3  0.4043  169.7
 2.700  0.8319  133.9   1.399   38.0  0.1458   52.3  0.4087  168.8
 2.800  0.8346  132.3   1.349   36.2  0.1504   51.4  0.4131  168.0
 2.900  0.8360  130.7   1.302   34.5  0.1545   50.4  0.4176  167.1
 3.000  0.8380  129.2   1.257   32.7  0.1587   49.4  0.4223  166.2
 3.100  0.8391  127.7   1.220   31.2  0.1626   48.5  0.4263  165.2
 3.200  0.8408  126.2   1.185   29.7  0.1666   47.6  0.4305  164.3
 3.300  0.8431  124.7   1.150   28.1  0.1706   46.7  0.4347  163.3
 3.400  0.8459  123.3   1.116   26.3  0.1747   45.9  0.4391  162.4
 3.500  0.8493  121.8   1.083   24.5  0.1788   45.1  0.4436  161.5
 3.600  0.8502  120.4   1.055   23.2  0.1825   44.1  0.4484  160.5
 3.700  0.8516  119.0   1.027   21.7  0.1862   43.1  0.4534  159.5
 3.800  0.8535  117.6   1.000   20.2  0.1900   42.2  0.4585  158.6
 3.900  0.8560  116.2   0.974   18.7  0.1938   41.3  0.4637  157.6
 4.000  0.8589  114.8   0.949   17.0  0.1977   40.5  0.4690  156.7
 4.100  0.8591  113.6   0.926   15.8  0.2012   39.5  0.4747  155.6
 4.200  0.8597  112.3   0.904   14.4  0.2047   38.6  0.4806  154.6
 4.300  0.8607  111.1   0.883   13.1  0.2082   37.7  0.4867  153.6
 4.400  0.8621  109.8   0.862   11.6  0.2118   36.8  0.4929  152.6
 4.500  0.8639  108.6   0.841   10.1  0.2155   36.0  0.4992  151.6
 4.600  0.8648  107.6   0.822    9.1  0.2186   35.2  0.5053  150.7
 4.700  0.8659  106.7   0.803    8.1  0.2218   34.4  0.5115  149.9
 4.800  0.8673  105.7   0.785    7.1  0.2250   33.6  0.5178  149.1
 4.900  0.8689  104.8   0.767    6.0  0.2282   32.8  0.5242  148.3
 5.000  0.8708  103.8   0.749    4.8  0.2315   32.1  0.5307  147.5
 5.100  0.8716  102.9   0.737    3.9  0.2346   31.3  0.5367  146.9
 5.200  0.8726  102.0   0.726    2.9  0.2378   30.5  0.5427  146.3
 5.300  0.8739  101.1   0.714    2.0  0.2411   29.7  0.5488  145.8
 5.400  0.8753  100.2   0.703    0.9  0.2444   28.9  0.5550  145.2
 5.500  0.8770   99.3   0.692   -0.1  0.2477   28.2  0.5612  144.7
 5.600  0.8755   98.4   0.681   -0.9  0.2509   27.4  0.5642  144.2
 5.700  0.8743   97.4   0.670   -1.8  0.2541   26.5  0.5673  143.8
 5.800  0.8733   96.5   0.659   -2.7  0.2573   25.7  0.5704  143.3
 5.900  0.8725   95.5   0.648   -3.6  0.2606   25.0  0.5735  142.8
 6.000  0.8720   94.6   0.637   -4.6  0.2640   24.2  0.5767  142.4
!
!  f       NFmin   Gammaopt  rn/50
! GHz       dB    MAG  ANG    -
 0.450      1.51  0.53 -175   0.06
 0.900      1.64  0.57 -170   0.07
 1.900      2.49  0.70 -148   0.18
 2.400      2.88  0.74 -144   0.28
!
! (c) 2017  Infineon Technologies AG, Munich