! Infineon Technologies  Discrete & RF Semiconductors
! BFP196W
! VCE =  1.0 V,  IC =  50 mA
! Common Emitter S-Parameters:                            Jan 2017
# GHz  S  MA  R  50
!  f         S11            S21            S12            S22
! GHz     MAG   ANG      MAG   ANG      MAG   ANG      MAG   ANG
 0.010  0.2538  -87.0  79.097  164.3  0.0046   72.5  0.8994  -24.2
 0.020  0.4374 -111.9  71.267  149.4  0.0086   66.6  0.8303  -45.7
 0.030  0.5058 -125.6  61.782  143.1  0.0106   56.1  0.7199  -57.9
 0.040  0.5956 -135.6  53.305  134.7  0.0128   49.0  0.6526  -73.6
 0.050  0.6986 -142.8  46.389  123.4  0.0151   44.1  0.6420  -91.2
 0.060  0.7116 -146.9  42.223  121.4  0.0156   42.9  0.6023  -96.9
 0.070  0.7280 -150.8  38.122  118.9  0.0162   41.7  0.5693 -103.2
 0.080  0.7477 -154.6  34.111  115.8  0.0168   40.6  0.5442 -110.3
 0.090  0.7704 -158.1  30.224  111.9  0.0173   39.6  0.5281 -117.9
 0.100  0.7959 -161.4  26.516  106.9  0.0179   38.7  0.5218 -125.9
 0.110  0.8005 -162.9  24.834  105.9  0.0183   38.7  0.5106 -129.0
 0.120  0.8057 -164.4  23.160  104.7  0.0188   38.8  0.5010 -132.2
 0.130  0.8114 -165.8  21.499  103.3  0.0192   38.8  0.4931 -135.6
 0.140  0.8177 -167.3  19.852  101.7  0.0197   38.9  0.4868 -139.0
 0.150  0.8244 -168.7  18.223   99.8  0.0201   38.9  0.4824 -142.5
 0.200  0.8267 -173.2  13.780   95.5  0.0212   43.1  0.4713 -151.4
 0.250  0.8333 -176.2  11.086   92.3  0.0239   46.3  0.4633 -157.3
 0.300  0.8332 -178.6   9.242   90.1  0.0254   49.4  0.4566 -161.4
 0.350  0.8334  179.5   8.102   88.4  0.0280   52.1  0.4545 -164.0
 0.400  0.8345  177.7   6.972   86.2  0.0307   54.4  0.4534 -166.7
 0.450  0.8339  176.3   6.275   84.9  0.0334   55.8  0.4531 -168.5
 0.500  0.8338  174.9   5.582   83.2  0.0361   56.9  0.4532 -170.3
 0.600  0.8348  172.5   4.668   80.5  0.0418   58.9  0.4542 -173.1
 0.700  0.8346  170.2   4.000   78.2  0.0465   60.8  0.4515 -175.1
 0.800  0.8350  167.9   3.505   75.6  0.0527   62.0  0.4517 -176.6
 0.900  0.8330  165.8   3.112   73.3  0.0581   61.8  0.4529 -178.1
 1.000  0.8348  163.9   2.817   71.1  0.0639   62.7  0.4536 -179.7
 1.100  0.8379  161.9   2.570   68.9  0.0700   62.2  0.4542  179.2
 1.200  0.8378  159.9   2.361   66.6  0.0751   62.1  0.4535  178.0
 1.300  0.8362  158.0   2.185   64.6  0.0808   61.5  0.4557  177.1
 1.400  0.8399  156.1   2.043   62.4  0.0869   61.3  0.4588  175.7
 1.500  0.8423  154.4   1.907   60.3  0.0926   60.5  0.4595  174.6
 1.600  0.8435  152.4   1.799   58.1  0.0979   59.8  0.4608  173.6
 1.700  0.8442  150.4   1.702   56.0  0.1033   59.2  0.4645  172.6
 1.800  0.8478  148.5   1.619   53.7  0.1091   58.2  0.4682  171.4
 1.900  0.8501  146.9   1.535   51.9  0.1144   57.6  0.4705  170.5
 2.000  0.8495  145.0   1.462   49.6  0.1200   56.5  0.4729  169.5
 2.100  0.8505  143.1   1.398   47.6  0.1251   55.5  0.4772  168.5
 2.200  0.8524  141.2   1.336   45.5  0.1303   54.5  0.4817  167.5
 2.300  0.8543  139.5   1.283   43.6  0.1354   53.6  0.4843  166.6
 2.400  0.8570  137.9   1.231   41.5  0.1406   52.7  0.4871  165.7
 2.500  0.8566  136.3   1.184   39.8  0.1452   51.7  0.4920  164.7
 2.600  0.8569  134.7   1.139   37.9  0.1499   50.7  0.4970  163.8
 2.700  0.8588  133.1   1.099   36.2  0.1545   49.7  0.4994  162.9
 2.800  0.8614  131.5   1.061   34.4  0.1591   48.8  0.5020  162.1
 2.900  0.8620  129.9   1.027   32.8  0.1634   47.8  0.5069  161.1
 3.000  0.8632  128.4   0.993   31.0  0.1677   46.8  0.5119  160.1
 3.100  0.8641  126.9   0.965   29.6  0.1716   45.8  0.5145  159.1
 3.200  0.8656  125.4   0.939   28.1  0.1755   44.9  0.5172  158.1
 3.300  0.8677  123.9   0.912   26.5  0.1795   44.0  0.5200  157.2
 3.400  0.8703  122.4   0.887   24.9  0.1835   43.1  0.5231  156.2
 3.500  0.8736  120.9   0.862   23.1  0.1876   42.3  0.5262  155.3
 3.600  0.8736  119.5   0.841   21.8  0.1914   41.3  0.5305  154.3
 3.700  0.8742  118.1   0.821   20.4  0.1952   40.3  0.5349  153.4
 3.800  0.8753  116.7   0.801   19.0  0.1990   39.4  0.5394  152.5
 3.900  0.8769  115.3   0.782   17.5  0.2029   38.5  0.5441  151.6
 4.000  0.8790  113.9   0.763   15.9  0.2069   37.6  0.5489  150.7
 4.100  0.8786  112.7   0.746   14.7  0.2102   36.7  0.5542  149.6
 4.200  0.8787  111.5   0.730   13.5  0.2136   35.8  0.5597  148.6
 4.300  0.8791  110.2   0.713   12.2  0.2171   34.9  0.5654  147.6
 4.400  0.8800  109.0   0.697   10.9  0.2206   34.1  0.5713  146.6
 4.500  0.8812  107.8   0.682    9.5  0.2241   33.3  0.5773  145.6
 4.600  0.8816  106.8   0.668    8.6  0.2272   32.5  0.5821  144.7
 4.700  0.8822  105.9   0.654    7.7  0.2303   31.6  0.5871  143.9
 4.800  0.8830  104.9   0.641    6.7  0.2335   30.8  0.5922  143.0
 4.900  0.8841  104.0   0.627    5.7  0.2367   30.1  0.5974  142.2
 5.000  0.8855  103.0   0.614    4.6  0.2400   29.3  0.6027  141.4
 5.100  0.8856  102.1   0.606    3.7  0.2431   28.5  0.6076  140.9
 5.200  0.8859  101.2   0.597    2.9  0.2463   27.6  0.6126  140.4
 5.300  0.8865  100.3   0.589    2.0  0.2496   26.8  0.6177  139.9
 5.400  0.8872   99.4   0.581    1.1  0.2529   26.1  0.6228  139.4
 5.500  0.8882   98.5   0.573    0.1  0.2562   25.3  0.6279  138.9
 5.600  0.8869   97.5   0.565   -0.6  0.2591   24.5  0.6297  138.4
 5.700  0.8858   96.6   0.557   -1.3  0.2621   23.7  0.6316  137.9
 5.800  0.8849   95.6   0.549   -2.0  0.2652   22.9  0.6335  137.4
 5.900  0.8843   94.7   0.542   -2.7  0.2683   22.1  0.6355  136.9
 6.000  0.8840   93.7   0.534   -3.5  0.2714   21.4  0.6375  136.4
!
!  f       NFmin   Gammaopt  rn/50
! GHz       dB    MAG  ANG    -
 0.450      1.36  0.51 -177   0.05
 0.900      1.48  0.55 -171   0.07
 1.900      2.30  0.69 -149   0.16
 2.400      2.70  0.73 -144   0.26
!
! (c) 2017  Infineon Technologies AG, Munich