! Infineon Technologies  Discrete & RF Semiconductors
! BFP196W
! VCE =  5.0 V,  IC =  5.0 mA
! Common Emitter S-Parameters:                            Jan 2017
# GHz  S  MA  R  50
!  f         S11            S21            S12            S22
! GHz     MAG   ANG      MAG   ANG      MAG   ANG      MAG   ANG
 0.010  0.8624   -6.9  16.480  177.1  0.0051   85.7  0.9964   -3.6
 0.020  0.8491  -16.3  16.334  172.1  0.0107   83.6  0.9828   -6.9
 0.030  0.8318  -22.9  16.018  168.4  0.0162   76.8  0.9687  -10.2
 0.040  0.8261  -29.8  15.772  164.5  0.0218   73.5  0.9579  -13.6
 0.050  0.8322  -36.6  15.599  160.6  0.0275   71.5  0.9505  -17.0
 0.060  0.8137  -42.7  15.135  157.6  0.0311   67.0  0.9250  -19.4
 0.070  0.8048  -49.1  14.716  154.4  0.0348   63.5  0.9012  -22.0
 0.080  0.8058  -55.4  14.346  151.0  0.0387   60.6  0.8794  -24.6
 0.090  0.8168  -61.7  14.029  147.4  0.0426   58.3  0.8595  -27.5
 0.100  0.8374  -67.8  13.768  143.7  0.0466   56.4  0.8418  -30.4
 0.110  0.8237  -72.5  13.312  141.5  0.0490   53.7  0.8162  -32.2
 0.120  0.8156  -77.2  12.878  139.1  0.0515   51.2  0.7914  -34.1
 0.130  0.8133  -82.1  12.467  136.6  0.0542   49.0  0.7676  -36.2
 0.140  0.8168  -86.9  12.082  133.9  0.0568   46.9  0.7449  -38.4
 0.150  0.8261  -91.7  11.726  131.0  0.0596   45.1  0.7233  -40.7
 0.200  0.8215 -109.0   9.970  121.1  0.0668   37.1  0.6281  -47.0
 0.250  0.8187 -122.1   8.565  113.5  0.0715   31.0  0.5530  -51.5
 0.300  0.8141 -132.0   7.440  107.8  0.0735   27.1  0.4945  -54.6
 0.350  0.8074 -138.9   6.633  103.9  0.0751   24.3  0.4572  -56.5
 0.400  0.8124 -145.8   5.865   99.0  0.0769   21.6  0.4205  -58.7
 0.450  0.8073 -150.5   5.315   96.1  0.0774   19.7  0.3992  -60.0
 0.500  0.8077 -155.2   4.782   92.6  0.0779   17.8  0.3782  -61.4
 0.600  0.8101 -162.3   4.033   87.3  0.0785   16.0  0.3522  -63.8
 0.700  0.8089 -167.8   3.474   82.7  0.0777   14.7  0.3353  -66.1
 0.800  0.8105 -172.6   3.059   78.4  0.0773   14.7  0.3277  -68.4
 0.900  0.8087 -176.8   2.718   74.6  0.0770   14.1  0.3227  -71.1
 1.000  0.8113  179.8   2.461   71.2  0.0760   14.3  0.3209  -73.8
 1.100  0.8172  176.4   2.240   67.9  0.0749   14.9  0.3233  -76.3
 1.200  0.8159  173.4   2.052   64.6  0.0740   15.2  0.3248  -79.1
 1.300  0.8183  170.6   1.893   61.6  0.0731   17.0  0.3284  -81.9
 1.400  0.8217  168.0   1.764   58.6  0.0724   18.2  0.3327  -85.1
 1.500  0.8262  165.5   1.645   55.8  0.0721   19.7  0.3372  -88.0
 1.600  0.8304  163.0   1.544   52.9  0.0718   21.9  0.3437  -90.9
 1.700  0.8316  160.5   1.454   50.3  0.0711   24.1  0.3497  -94.1
 1.800  0.8383  158.1   1.380   47.5  0.0718   26.4  0.3564  -97.3
 1.900  0.8401  155.9   1.305   45.1  0.0720   28.8  0.3641 -100.4
 2.000  0.8424  153.6   1.238   42.4  0.0732   31.2  0.3714 -103.2
 2.100  0.8441  151.3   1.179   40.0  0.0749   33.6  0.3798 -106.4
 2.200  0.8472  149.1   1.122   37.3  0.0767   35.9  0.3894 -109.4
 2.300  0.8508  147.1   1.073   35.0  0.0790   38.1  0.3986 -112.5
 2.400  0.8555  145.1   1.025   32.5  0.0815   40.2  0.4088 -115.4
 2.500  0.8573  143.2   0.980   30.4  0.0844   42.2  0.4189 -118.4
 2.600  0.8599  141.4   0.937   28.2  0.0874   44.1  0.4300 -121.2
 2.700  0.8626  139.4   0.900   26.2  0.0912   45.5  0.4395 -124.0
 2.800  0.8662  137.5   0.864   24.1  0.0950   46.8  0.4500 -126.7
 2.900  0.8673  135.7   0.831   22.2  0.0994   47.7  0.4592 -129.5
 3.000  0.8693  133.9   0.798   20.2  0.1038   48.6  0.4694 -132.1
 3.100  0.8710  132.2   0.771   18.7  0.1088   49.1  0.4770 -134.9
 3.200  0.8735  130.5   0.744   17.2  0.1139   49.6  0.4858 -137.6
 3.300  0.8767  128.8   0.718   15.5  0.1190   50.1  0.4955 -140.1
 3.400  0.8807  127.2   0.693   13.7  0.1240   50.5  0.5063 -142.6
 3.500  0.8854  125.5   0.668   11.7  0.1291   50.9  0.5179 -145.0
 3.600  0.8859  123.9   0.647   10.5  0.1346   50.5  0.5251 -147.6
 3.700  0.8871  122.3   0.627    9.3  0.1402   50.0  0.5334 -150.1
 3.800  0.8890  120.7   0.607    8.0  0.1457   49.7  0.5427 -152.6
 3.900  0.8915  119.2   0.587    6.6  0.1512   49.3  0.5529 -154.9
 4.000  0.8947  117.6   0.568    5.1  0.1568   49.0  0.5640 -157.2
 4.100  0.8946  116.2   0.552    4.2  0.1621   48.2  0.5712 -159.8
 4.200  0.8951  114.8   0.536    3.2  0.1674   47.5  0.5796 -162.3
 4.300  0.8961  113.4   0.520    2.2  0.1727   46.8  0.5890 -164.7
 4.400  0.8976  112.0   0.504    1.1  0.1780   46.1  0.5994 -167.0
 4.500  0.8997  110.6   0.489   -0.1  0.1834   45.5  0.6108 -169.3
 4.600  0.9002  109.5   0.476   -0.6  0.1885   44.6  0.6184 -171.5
 4.700  0.9010  108.4   0.464   -1.1  0.1936   43.8  0.6269 -173.6
 4.800  0.9021  107.3   0.451   -1.6  0.1988   43.0  0.6362 -175.7
 4.900  0.9036  106.2   0.439   -2.2  0.2040   42.3  0.6463 -177.7
 5.000  0.9054  105.1   0.426   -2.8  0.2092   41.6  0.6572 -179.6
 5.100  0.9052  104.1   0.419   -3.0  0.2141   40.6  0.6654  178.6
 5.200  0.9054  103.1   0.411   -3.3  0.2190   39.7  0.6742  176.9
 5.300  0.9058  102.1   0.404   -3.5  0.2240   38.8  0.6836  175.2
 5.400  0.9064  101.1   0.396   -3.7  0.2290   37.9  0.6936  173.5
 5.500  0.9074  100.1   0.389   -4.0  0.2341   37.1  0.7042  171.9
 5.600  0.9060   99.1   0.383   -4.1  0.2385   36.0  0.7091  170.5
 5.700  0.9050   98.1   0.377   -4.2  0.2430   35.0  0.7145  169.1
 5.800  0.9042   97.0   0.371   -4.2  0.2476   34.0  0.7202  167.8
 5.900  0.9037   96.0   0.365   -4.3  0.2523   33.0  0.7264  166.4
 6.000  0.9035   95.0   0.359   -4.4  0.2570   32.1  0.7329  165.1
!
!  f       NFmin   Gammaopt  rn/50
! GHz       dB    MAG  ANG    -
 0.450      0.90  0.44  123   0.09
 0.900      1.32  0.60  159   0.06
 1.900      2.72  0.75 -161   0.11
 2.400      3.29  0.80 -151   0.28
!
! (c) 2017  Infineon Technologies AG, Munich