! Infineon Technologies  Discrete & RF Semiconductors
! BFP196W
! VCE =  9.0 V,  IC =  50 mA
! Common Emitter S-Parameters:                            Jan 2017
# GHz  S  MA  R  50
!  f         S11            S21            S12            S22
! GHz     MAG   ANG      MAG   ANG      MAG   ANG      MAG   ANG
 0.010  0.3301  -35.5  78.796  169.5  0.0032   78.0  0.9406  -13.3
 0.020  0.3928  -65.2  74.515  158.9  0.0056   75.0  0.8986  -25.8
 0.030  0.4166  -84.6  67.835  152.5  0.0080   62.7  0.8135  -34.5
 0.040  0.4807 -100.3  62.188  144.8  0.0105   56.1  0.7513  -45.0
 0.050  0.5716 -111.7  57.875  135.7  0.0132   52.2  0.7178  -56.8
 0.060  0.5814 -118.8  53.361  133.0  0.0140   49.8  0.6623  -61.2
 0.070  0.5997 -125.5  48.986  129.8  0.0149   47.7  0.6115  -66.4
 0.080  0.6257 -131.7  44.792  126.0  0.0158   45.9  0.5666  -72.5
 0.090  0.6585 -137.4  40.833  121.5  0.0167   44.2  0.5290  -79.5
 0.100  0.6971 -142.5  37.186  116.0  0.0176   42.7  0.5004  -87.4
 0.110  0.7022 -145.2  34.981  114.6  0.0180   42.2  0.4757  -90.4
 0.120  0.7089 -147.8  32.800  113.0  0.0185   41.6  0.4526  -93.8
 0.130  0.7171 -150.4  30.648  111.1  0.0189   41.1  0.4312  -97.5
 0.140  0.7266 -152.9  28.533  109.0  0.0194   40.7  0.4117 -101.6
 0.150  0.7376 -155.4  26.462  106.6  0.0198   40.2  0.3946 -106.1
 0.200  0.7504 -162.9  20.278  100.8  0.0213   42.5  0.3438 -118.3
 0.250  0.7581 -168.1  16.393   96.7  0.0232   43.2  0.3124 -127.5
 0.300  0.7619 -171.5  13.741   93.9  0.0246   44.6  0.2946 -134.1
 0.350  0.7628 -174.2  12.067   91.9  0.0266   48.3  0.2840 -138.6
 0.400  0.7654 -176.8  10.412   89.3  0.0286   51.4  0.2754 -143.5
 0.450  0.7655 -178.7   9.373   87.8  0.0307   52.8  0.2705 -146.5
 0.500  0.7663  179.5   8.343   85.9  0.0328   54.0  0.2663 -149.6
 0.600  0.7690  176.2   6.978   83.0  0.0377   55.7  0.2627 -154.1
 0.700  0.7679  173.7   5.976   80.4  0.0416   58.6  0.2589 -157.2
 0.800  0.7689  171.1   5.239   77.7  0.0466   59.9  0.2585 -159.5
 0.900  0.7705  168.7   4.646   75.4  0.0511   60.5  0.2582 -161.5
 1.000  0.7725  166.6   4.200   73.1  0.0556   60.9  0.2585 -163.4
 1.100  0.7744  164.4   3.824   70.9  0.0604   61.3  0.2594 -164.4
 1.200  0.7756  162.2   3.506   68.6  0.0649   61.7  0.2601 -165.9
 1.300  0.7741  160.4   3.239   66.5  0.0705   61.2  0.2621 -167.0
 1.400  0.7777  158.3   3.022   64.4  0.0755   61.3  0.2646 -168.2
 1.500  0.7812  156.5   2.819   62.3  0.0802   61.1  0.2676 -169.4
 1.600  0.7836  154.6   2.652   60.1  0.0848   60.3  0.2698 -170.3
 1.700  0.7856  152.5   2.503   58.0  0.0899   60.3  0.2734 -171.2
 1.800  0.7888  150.6   2.376   55.8  0.0946   59.6  0.2774 -172.3
 1.900  0.7904  149.0   2.248   54.0  0.0989   59.2  0.2819 -173.1
 2.000  0.7918  147.1   2.137   51.8  0.1041   58.2  0.2861 -174.0
 2.100  0.7937  145.2   2.040   49.8  0.1086   57.5  0.2911 -175.0
 2.200  0.7965  143.3   1.946   47.6  0.1131   56.8  0.2962 -176.0
 2.300  0.7990  141.6   1.864   45.7  0.1179   56.1  0.3016 -176.8
 2.400  0.8022  139.9   1.785   43.7  0.1227   55.5  0.3071 -177.6
 2.500  0.8031  138.3   1.714   41.9  0.1269   54.6  0.3129 -178.4
 2.600  0.8046  136.7   1.644   40.0  0.1312   53.8  0.3187 -179.2
 2.700  0.8080  135.0   1.584   38.2  0.1354   53.0  0.3239  179.9
 2.800  0.8120  133.4   1.525   36.3  0.1396   52.2  0.3291  179.1
 2.900  0.8129  131.8   1.472   34.6  0.1438   51.3  0.3351  178.1
 3.000  0.8144  130.3   1.421   32.8  0.1480   50.5  0.3411  177.2
 3.100  0.8163  128.8   1.378   31.3  0.1519   49.6  0.3462  176.2
 3.200  0.8187  127.3   1.336   29.7  0.1558   48.8  0.3514  175.2
 3.300  0.8218  125.8   1.295   28.1  0.1598   48.0  0.3568  174.2
 3.400  0.8254  124.3   1.255   26.3  0.1638   47.3  0.3622  173.3
 3.500  0.8295  122.8   1.217   24.4  0.1678   46.6  0.3677  172.4
 3.600  0.8312  121.4   1.185   23.0  0.1716   45.7  0.3736  171.3
 3.700  0.8333  120.0   1.153   21.5  0.1754   44.8  0.3797  170.2
 3.800  0.8360  118.6   1.122   20.0  0.1792   44.0  0.3859  169.1
 3.900  0.8391  117.3   1.092   18.3  0.1831   43.2  0.3922  168.1
 4.000  0.8427  115.9   1.063   16.6  0.1870   42.4  0.3986  167.1
 4.100  0.8432  114.6   1.036   15.3  0.1904   41.5  0.4055  165.9
 4.200  0.8440  113.4   1.010   13.9  0.1939   40.6  0.4125  164.7
 4.300  0.8453  112.1   0.984   12.5  0.1974   39.8  0.4197  163.6
 4.400  0.8470  110.9   0.959   11.0  0.2010   39.0  0.4270  162.5
 4.500  0.8491  109.6   0.935    9.4  0.2046   38.2  0.4345  161.5
 4.600  0.8504  108.6   0.913    8.4  0.2080   37.4  0.4419  160.5
 4.700  0.8520  107.6   0.891    7.2  0.2114   36.6  0.4493  159.5
 4.800  0.8538  106.6   0.869    6.1  0.2148   35.9  0.4569  158.6
 4.900  0.8559  105.7   0.848    4.9  0.2183   35.2  0.4647  157.7
 5.000  0.8582  104.7   0.827    3.6  0.2218   34.5  0.4725  156.8
 5.100  0.8593  103.8   0.812    2.7  0.2251   33.7  0.4799  156.1
 5.200  0.8606  102.9   0.798    1.7  0.2285   32.9  0.4874  155.5
 5.300  0.8621  101.9   0.784    0.7  0.2319   32.2  0.4949  154.8
 5.400  0.8638  101.0   0.770   -0.4  0.2353   31.4  0.5025  154.2
 5.500  0.8658  100.1   0.756   -1.5  0.2388   30.7  0.5102  153.6
 5.600  0.8650   99.2   0.743   -2.4  0.2421   29.9  0.5149  153.1
 5.700  0.8645   98.2   0.729   -3.3  0.2455   29.1  0.5197  152.5
 5.800  0.8642   97.3   0.716   -4.2  0.2489   28.3  0.5245  152.0
 5.900  0.8641   96.3   0.704   -5.2  0.2524   27.5  0.5293  151.5
 6.000  0.8643   95.4   0.691   -6.2  0.2559   26.8  0.5342  151.0
!
!  f       NFmin   Gammaopt  rn/50
! GHz       dB    MAG  ANG    -
 0.450      1.36  0.51 -177   0.05
 0.900      1.48  0.55 -171   0.07
 1.900      2.30  0.69 -149   0.16
 2.400      2.70  0.73 -144   0.26
!
! (c) 2017  Infineon Technologies AG, Munich