! Infineon Technologies  Discrete & RF Semiconductors
! BFP196W
! VCE =  1.0 V,  IC =  45 mA
! Common Emitter S-Parameters:                            Jan 2017
# GHz  S  MA  R  50
!  f         S11            S21            S12            S22
! GHz     MAG   ANG      MAG   ANG      MAG   ANG      MAG   ANG
 0.010  0.2610  -76.0  76.341  165.1  0.0052   77.1  0.9119  -23.0
 0.020  0.4233 -103.9  68.989  150.7  0.0085   64.0  0.8486  -43.6
 0.030  0.4873 -119.6  60.200  144.3  0.0106   54.7  0.7382  -55.5
 0.040  0.5786 -131.0  52.410  135.8  0.0130   48.6  0.6695  -70.7
 0.050  0.6863 -139.1  46.128  124.8  0.0154   44.4  0.6559  -87.9
 0.060  0.6992 -143.5  42.029  122.7  0.0161   42.6  0.6138  -93.6
 0.070  0.7162 -147.8  37.999  120.1  0.0168   41.0  0.5785 -100.0
 0.080  0.7369 -151.8  34.064  117.0  0.0175   39.5  0.5514 -107.1
 0.090  0.7611 -155.6  30.259  113.0  0.0182   38.1  0.5336 -114.9
 0.100  0.7884 -159.2  26.641  107.9  0.0189   36.8  0.5262 -123.0
 0.110  0.7935 -160.9  24.964  106.8  0.0193   36.9  0.5136 -126.2
 0.120  0.7994 -162.6  23.298  105.6  0.0197   37.1  0.5027 -129.5
 0.130  0.8059 -164.2  21.645  104.1  0.0202   37.2  0.4934 -132.9
 0.140  0.8130 -165.8  20.007  102.5  0.0206   37.3  0.4861 -136.4
 0.150  0.8208 -167.4  18.389  100.5  0.0210   37.4  0.4806 -140.1
 0.200  0.8226 -172.1  13.908   96.0  0.0222   41.3  0.4675 -149.5
 0.250  0.8292 -175.4  11.197   92.7  0.0249   43.7  0.4589 -155.6
 0.300  0.8315 -177.9   9.341   90.4  0.0269   46.2  0.4516 -160.0
 0.350  0.8313 -179.8   8.189   88.7  0.0292   49.5  0.4493 -162.8
 0.400  0.8320  178.3   7.046   86.4  0.0316   52.3  0.4481 -165.6
 0.450  0.8317  176.9   6.342   85.1  0.0338   54.1  0.4474 -167.4
 0.500  0.8318  175.5   5.643   83.4  0.0361   55.6  0.4472 -169.3
 0.600  0.8322  172.9   4.719   80.7  0.0424   57.6  0.4485 -172.2
 0.700  0.8327  170.7   4.044   78.4  0.0468   59.6  0.4453 -174.4
 0.800  0.8339  168.2   3.546   75.7  0.0527   60.5  0.4455 -175.9
 0.900  0.8315  166.0   3.145   73.4  0.0580   60.4  0.4473 -177.4
 1.000  0.8322  164.2   2.848   71.1  0.0633   61.1  0.4477 -179.1
 1.100  0.8344  162.1   2.598   69.0  0.0698   60.9  0.4481  179.8
 1.200  0.8355  160.1   2.384   66.6  0.0750   60.9  0.4480  178.6
 1.300  0.8338  158.1   2.206   64.6  0.0807   60.8  0.4499  177.6
 1.400  0.8380  156.4   2.064   62.4  0.0865   60.4  0.4524  176.3
 1.500  0.8391  154.6   1.928   60.3  0.0918   59.8  0.4536  175.1
 1.600  0.8426  152.5   1.817   58.1  0.0977   59.0  0.4553  174.2
 1.700  0.8424  150.6   1.720   56.0  0.1031   58.6  0.4588  173.2
 1.800  0.8461  148.7   1.635   53.7  0.1091   57.6  0.4623  172.0
 1.900  0.8474  147.1   1.552   51.9  0.1140   56.9  0.4647  170.9
 2.000  0.8481  145.2   1.477   49.6  0.1194   55.9  0.4670  170.1
 2.100  0.8485  143.3   1.412   47.6  0.1245   55.0  0.4715  169.0
 2.200  0.8498  141.4   1.349   45.4  0.1296   54.2  0.4762  168.0
 2.300  0.8520  139.7   1.296   43.5  0.1346   53.2  0.4791  167.1
 2.400  0.8549  138.1   1.244   41.5  0.1397   52.3  0.4821  166.2
 2.500  0.8549  136.5   1.196   39.8  0.1442   51.3  0.4870  165.3
 2.600  0.8555  134.9   1.150   37.9  0.1488   50.4  0.4920  164.4
 2.700  0.8577  133.2   1.110   36.2  0.1535   49.5  0.4945  163.5
 2.800  0.8607  131.6   1.071   34.3  0.1583   48.6  0.4971  162.7
 2.900  0.8613  130.0   1.036   32.7  0.1625   47.5  0.5023  161.6
 3.000  0.8626  128.5   1.002   31.0  0.1668   46.5  0.5077  160.6
 3.100  0.8633  127.0   0.974   29.6  0.1707   45.5  0.5103  159.6
 3.200  0.8647  125.5   0.947   28.1  0.1747   44.6  0.5131  158.6
 3.300  0.8666  124.0   0.920   26.5  0.1787   43.7  0.5160  157.7
 3.400  0.8692  122.5   0.894   24.8  0.1827   42.9  0.5191  156.7
 3.500  0.8723  121.0   0.869   23.0  0.1868   42.1  0.5223  155.8
 3.600  0.8724  119.6   0.848   21.7  0.1905   41.1  0.5266  154.9
 3.700  0.8731  118.2   0.827   20.3  0.1943   40.2  0.5311  154.0
 3.800  0.8743  116.8   0.807   18.9  0.1982   39.4  0.5357  153.1
 3.900  0.8759  115.5   0.788   17.4  0.2021   38.5  0.5404  152.2
 4.000  0.8781  114.1   0.769   15.8  0.2060   37.7  0.5453  151.3
 4.100  0.8776  112.9   0.752   14.6  0.2094   36.7  0.5508  150.2
 4.200  0.8776  111.6   0.735   13.4  0.2129   35.8  0.5565  149.2
 4.300  0.8779  110.4   0.718   12.1  0.2164   34.9  0.5624  148.1
 4.400  0.8787  109.1   0.702   10.7  0.2200   34.0  0.5685  147.1
 4.500  0.8799  107.9   0.686    9.3  0.2236   33.2  0.5747  146.1
 4.600  0.8801  106.9   0.672    8.4  0.2266   32.4  0.5795  145.2
 4.700  0.8805  105.9   0.659    7.5  0.2297   31.6  0.5845  144.4
 4.800  0.8812  105.0   0.645    6.5  0.2328   30.8  0.5896  143.5
 4.900  0.8821  104.0   0.632    5.5  0.2360   30.0  0.5949  142.7
 5.000  0.8833  103.0   0.619    4.4  0.2392   29.3  0.6002  141.9
 5.100  0.8839  102.1   0.610    3.6  0.2423   28.5  0.6052  141.4
 5.200  0.8848  101.2   0.601    2.7  0.2455   27.7  0.6103  140.8
 5.300  0.8859  100.3   0.592    1.8  0.2488   26.9  0.6154  140.3
 5.400  0.8872   99.4   0.583    0.9  0.2521   26.1  0.6206  139.8
 5.500  0.8887   98.5   0.575   -0.1  0.2554   25.4  0.6258  139.3
 5.600  0.8872   97.6   0.567   -0.8  0.2584   24.6  0.6278  138.8
 5.700  0.8860   96.6   0.559   -1.5  0.2614   23.7  0.6298  138.4
 5.800  0.8850   95.7   0.551   -2.2  0.2645   22.9  0.6319  137.9
 5.900  0.8842   94.7   0.544   -2.9  0.2676   22.2  0.6340  137.5
 6.000  0.8837   93.8   0.536   -3.7  0.2708   21.4  0.6362  137.0
!
!  f       NFmin   Gammaopt  rn/50
! GHz       dB    MAG  ANG    -
 0.450      1.31  0.50 -177   0.05
 0.900      1.44  0.54 -172   0.07
 1.900      2.26  0.69 -150   0.15
 2.400      2.66  0.73 -145   0.25
!
! (c) 2017  Infineon Technologies AG, Munich