! Infineon Technologies  Discrete & RF Semiconductors
! BFP196W
! VCE =  2.0 V,  IC =  75 mA
! Common Emitter S-Parameters:                            Jan 2017
# GHz  S  MA  R  50
!  f         S11            S21            S12            S22
! GHz     MAG   ANG      MAG   ANG      MAG   ANG      MAG   ANG
 0.010  0.2334 -115.2  92.068  164.7  0.0033   76.2  0.8947  -22.5
 0.020  0.4207 -125.9  83.549  150.1  0.0060   70.9  0.8243  -42.7
 0.030  0.4968 -135.6  72.529  143.8  0.0075   59.1  0.7142  -54.2
 0.040  0.5833 -142.7  62.699  135.3  0.0091   51.3  0.6420  -69.0
 0.050  0.6763 -147.8  54.701  124.1  0.0109   46.0  0.6209  -86.1
 0.060  0.6915 -151.4  49.808  122.0  0.0115   45.6  0.5781  -91.6
 0.070  0.7092 -154.8  44.996  119.5  0.0121   45.2  0.5413  -97.8
 0.080  0.7294 -158.1  40.293  116.3  0.0127   44.8  0.5119 -104.9
 0.090  0.7518 -161.1  35.743  112.4  0.0133   44.5  0.4912 -112.8
 0.100  0.7762 -164.0  31.412  107.3  0.0139   44.2  0.4804 -121.1
 0.110  0.7811 -165.3  29.423  106.3  0.0143   44.6  0.4680 -124.2
 0.120  0.7864 -166.6  27.444  105.1  0.0146   44.9  0.4570 -127.6
 0.130  0.7921 -167.8  25.479  103.7  0.0150   45.3  0.4476 -131.0
 0.140  0.7982 -169.1  23.532  102.1  0.0153   45.6  0.4400 -134.6
 0.150  0.8046 -170.3  21.606  100.2  0.0157   45.9  0.4341 -138.3
 0.200  0.8087 -174.4  16.332   95.8  0.0174   50.2  0.4162 -147.7
 0.250  0.8135 -177.2  13.115   92.6  0.0202   53.7  0.4066 -154.3
 0.300  0.8147 -179.4  10.962   90.4  0.0222   56.6  0.4006 -158.6
 0.350  0.8151  178.9   9.608   88.8  0.0249   58.6  0.3980 -161.4
 0.400  0.8163  177.2   8.264   86.6  0.0276   60.2  0.3963 -164.3
 0.450  0.8149  175.9   7.436   85.3  0.0303   62.0  0.3949 -166.2
 0.500  0.8139  174.5   6.614   83.6  0.0330   63.5  0.3940 -168.2
 0.600  0.8160  172.1   5.527   81.0  0.0384   64.7  0.3949 -170.9
 0.700  0.8166  170.1   4.734   78.8  0.0436   66.8  0.3926 -173.0
 0.800  0.8165  167.8   4.150   76.2  0.0500   67.6  0.3936 -174.6
 0.900  0.8147  165.8   3.682   74.0  0.0557   66.1  0.3941 -176.1
 1.000  0.8188  163.8   3.332   71.7  0.0608   66.2  0.3945 -177.7
 1.100  0.8197  161.8   3.036   69.6  0.0668   66.0  0.3954 -178.7
 1.200  0.8205  159.9   2.786   67.4  0.0720   65.8  0.3956 -179.9
 1.300  0.8204  158.0   2.576   65.4  0.0775   64.9  0.3975  179.2
 1.400  0.8212  156.2   2.407   63.3  0.0833   64.7  0.3993  178.0
 1.500  0.8248  154.5   2.247   61.2  0.0887   63.5  0.4016  176.9
 1.600  0.8269  152.6   2.117   59.0  0.0945   62.7  0.4034  175.9
 1.700  0.8271  150.6   2.001   57.0  0.0999   61.9  0.4062  174.9
 1.800  0.8306  148.7   1.900   54.8  0.1054   60.8  0.4096  173.9
 1.900  0.8319  147.1   1.802   52.9  0.1101   60.3  0.4130  173.0
 2.000  0.8334  145.2   1.713   50.7  0.1156   59.2  0.4160  172.0
 2.100  0.8348  143.4   1.637   48.7  0.1206   58.2  0.4200  171.0
 2.200  0.8371  141.6   1.564   46.6  0.1257   57.3  0.4241  170.1
 2.300  0.8391  139.9   1.500   44.7  0.1309   56.2  0.4281  169.2
 2.400  0.8418  138.2   1.438   42.7  0.1362   55.1  0.4321  168.4
 2.500  0.8417  136.6   1.382   41.0  0.1408   54.0  0.4364  167.5
 2.600  0.8422  135.0   1.327   39.1  0.1455   53.0  0.4407  166.7
 2.700  0.8445  133.4   1.279   37.4  0.1498   52.0  0.4448  165.8
 2.800  0.8475  131.8   1.233   35.6  0.1542   51.1  0.4491  164.9
 2.900  0.8474  130.2   1.192   33.9  0.1586   50.0  0.4532  164.0
 3.000  0.8480  128.7   1.152   32.1  0.1631   49.0  0.4574  163.1
 3.100  0.8493  127.2   1.119   30.7  0.1671   48.0  0.4610  162.2
 3.200  0.8512  125.7   1.087   29.2  0.1711   47.1  0.4646  161.2
 3.300  0.8537  124.2   1.056   27.6  0.1751   46.2  0.4684  160.3
 3.400  0.8568  122.8   1.025   25.9  0.1792   45.3  0.4724  159.4
 3.500  0.8604  121.3   0.996   24.1  0.1833   44.5  0.4764  158.5
 3.600  0.8611  119.9   0.971   22.8  0.1870   43.5  0.4809  157.5
 3.700  0.8622  118.5   0.946   21.3  0.1907   42.5  0.4855  156.5
 3.800  0.8639  117.1   0.921   19.8  0.1945   41.6  0.4903  155.5
 3.900  0.8660  115.8   0.898   18.3  0.1983   40.7  0.4952  154.5
 4.000  0.8687  114.4   0.875   16.6  0.2022   39.8  0.5003  153.6
 4.100  0.8685  113.2   0.855   15.4  0.2056   38.8  0.5057  152.6
 4.200  0.8687  111.9   0.834   14.1  0.2091   37.9  0.5112  151.6
 4.300  0.8693  110.7   0.815   12.8  0.2127   36.9  0.5169  150.6
 4.400  0.8703  109.4   0.796   11.4  0.2163   36.1  0.5227  149.6
 4.500  0.8717  108.2   0.777    9.9  0.2199   35.2  0.5287  148.7
 4.600  0.8726  107.2   0.760    9.0  0.2229   34.4  0.5343  147.9
 4.700  0.8737  106.2   0.744    8.0  0.2260   33.5  0.5401  147.0
 4.800  0.8751  105.3   0.728    7.0  0.2291   32.7  0.5459  146.2
 4.900  0.8767  104.3   0.712    5.9  0.2323   32.0  0.5519  145.5
 5.000  0.8786  103.3   0.696    4.8  0.2355   31.2  0.5579  144.7
 5.100  0.8789  102.4   0.685    3.9  0.2386   30.4  0.5634  144.1
 5.200  0.8793  101.5   0.675    3.0  0.2418   29.6  0.5690  143.5
 5.300  0.8800  100.7   0.664    2.0  0.2451   28.8  0.5746  143.0
 5.400  0.8809   99.8   0.654    1.0  0.2484   28.0  0.5803  142.4
 5.500  0.8820   98.9   0.644    0.0  0.2517   27.3  0.5860  141.9
 5.600  0.8807   98.0   0.634   -0.8  0.2547   26.5  0.5885  141.5
 5.700  0.8796   97.0   0.624   -1.5  0.2578   25.6  0.5910  141.0
 5.800  0.8788   96.1   0.615   -2.3  0.2609   24.8  0.5935  140.6
 5.900  0.8782   95.1   0.605   -3.1  0.2641   24.1  0.5961  140.1
 6.000  0.8778   94.2   0.596   -4.0  0.2673   23.3  0.5987  139.7
!
!  f       NFmin   Gammaopt  rn/50
! GHz       dB    MAG  ANG    -
 0.450      1.62  0.56 -175   0.06
 0.900      1.75  0.59 -169   0.07
 1.900      2.61  0.70 -148   0.19
 2.400      3.01  0.74 -143   0.31
!
! (c) 2017  Infineon Technologies AG, Munich