! Infineon Technologies  Discrete & RF Semiconductors
! BFP196W
! VCE =  9.0 V,  IC =  25 mA
! Common Emitter S-Parameters:                            Jan 2017
# GHz  S  MA  R  50
!  f         S11            S21            S12            S22
! GHz     MAG   ANG      MAG   ANG      MAG   ANG      MAG   ANG
 0.010  0.5084  -19.8  56.045  172.3  0.0039   82.8  0.9682   -9.6
 0.020  0.5192  -41.0  54.406  163.7  0.0075   76.9  0.9411  -18.6
 0.030  0.5113  -56.3  50.924  157.9  0.0105   66.4  0.8799  -25.8
 0.040  0.5394  -71.0  48.044  151.2  0.0136   60.6  0.8344  -33.9
 0.050  0.5985  -83.5  45.879  143.9  0.0169   57.0  0.8073  -42.7
 0.060  0.5936  -91.9  42.848  140.8  0.0182   53.5  0.7531  -46.7
 0.070  0.6015 -100.3  39.958  137.3  0.0196   50.4  0.7031  -51.2
 0.080  0.6217 -108.3  37.244  133.2  0.0211   47.8  0.6582  -56.4
 0.090  0.6532 -115.6  34.746  128.6  0.0226   45.5  0.6195  -62.4
 0.100  0.6943 -122.2  32.513  123.2  0.0241   43.5  0.5883  -69.0
 0.110  0.6963 -126.1  30.736  121.5  0.0248   42.3  0.5577  -71.7
 0.120  0.7014 -129.9  28.989  119.6  0.0255   41.1  0.5285  -74.7
 0.130  0.7096 -133.6  27.279  117.4  0.0262   40.0  0.5009  -78.1
 0.140  0.7207 -137.3  25.613  115.0  0.0270   39.0  0.4753  -81.8
 0.150  0.7347 -140.8  24.000  112.2  0.0277   38.0  0.4519  -86.0
 0.200  0.7483 -151.5  18.717  105.2  0.0286   35.7  0.3757  -97.3
 0.250  0.7581 -158.6  15.273  100.3  0.0305   35.0  0.3263 -106.2
 0.300  0.7632 -163.8  12.851   96.8  0.0321   35.8  0.2935 -113.1
 0.350  0.7633 -167.3  11.309   94.5  0.0332   37.4  0.2741 -117.9
 0.400  0.7662 -170.8   9.791   91.4  0.0344   38.8  0.2569 -123.4
 0.450  0.7666 -173.4   8.820   89.6  0.0359   40.5  0.2472 -126.9
 0.500  0.7686 -175.9   7.860   87.4  0.0374   42.0  0.2385 -130.6
 0.600  0.7707 -179.7   6.580   84.1  0.0409   44.0  0.2286 -136.0
 0.700  0.7720  177.2   5.640   81.2  0.0438   47.2  0.2213 -140.0
 0.800  0.7719  174.1   4.945   78.2  0.0483   49.4  0.2192 -142.7
 0.900  0.7718  171.4   4.386   75.6  0.0518   50.1  0.2178 -145.2
 1.000  0.7730  169.1   3.966   73.2  0.0553   51.9  0.2174 -147.4
 1.100  0.7770  166.7   3.613   70.8  0.0595   53.2  0.2186 -148.7
 1.200  0.7773  164.4   3.310   68.3  0.0635   53.9  0.2195 -150.3
 1.300  0.7772  162.2   3.057   66.1  0.0675   54.0  0.2222 -151.6
 1.400  0.7801  160.1   2.853   63.8  0.0719   54.9  0.2249 -153.1
 1.500  0.7830  158.3   2.661   61.6  0.0760   55.3  0.2286 -154.4
 1.600  0.7872  156.2   2.502   59.3  0.0803   55.1  0.2317 -155.5
 1.700  0.7885  154.1   2.362   57.2  0.0846   55.4  0.2369 -156.7
 1.800  0.7906  152.1   2.241   54.9  0.0892   55.1  0.2415 -157.9
 1.900  0.7950  150.4   2.121   53.0  0.0931   55.1  0.2468 -159.0
 2.000  0.7963  148.4   2.015   50.6  0.0977   54.9  0.2524 -160.0
 2.100  0.7981  146.5   1.923   48.6  0.1018   54.4  0.2585 -161.2
 2.200  0.8007  144.6   1.834   46.3  0.1060   54.0  0.2648 -162.4
 2.300  0.8044  142.8   1.757   44.3  0.1105   53.6  0.2713 -163.4
 2.400  0.8089  141.0   1.682   42.2  0.1150   53.3  0.2779 -164.4
 2.500  0.8098  139.3   1.614   40.3  0.1191   52.8  0.2852 -165.5
 2.600  0.8113  137.7   1.547   38.3  0.1232   52.3  0.2925 -166.5
 2.700  0.8141  136.0   1.490   36.5  0.1272   51.7  0.2993 -167.6
 2.800  0.8175  134.4   1.434   34.6  0.1313   51.2  0.3062 -168.7
 2.900  0.8195  132.8   1.384   32.8  0.1354   50.5  0.3131 -169.9
 3.000  0.8221  131.2   1.335   30.9  0.1396   49.9  0.3201 -171.0
 3.100  0.8237  129.7   1.294   29.4  0.1436   49.2  0.3267 -172.2
 3.200  0.8259  128.1   1.255   27.8  0.1476   48.6  0.3334 -173.4
 3.300  0.8286  126.6   1.216   26.1  0.1516   48.0  0.3402 -174.6
 3.400  0.8320  125.1   1.178   24.2  0.1556   47.4  0.3472 -175.7
 3.500  0.8359  123.6   1.142   22.3  0.1596   46.9  0.3543 -176.7
 3.600  0.8375  122.2   1.110   20.9  0.1636   46.1  0.3613 -178.1
 3.700  0.8395  120.7   1.080   19.4  0.1676   45.4  0.3685 -179.4
 3.800  0.8422  119.3   1.049   17.8  0.1716   44.6  0.3759  179.3
 3.900  0.8453  117.9   1.020   16.1  0.1756   44.0  0.3835  178.1
 4.000  0.8489  116.5   0.992   14.3  0.1797   43.3  0.3913  176.9
 4.100  0.8497  115.2   0.966   13.0  0.1834   42.5  0.3992  175.4
 4.200  0.8510  113.9   0.941   11.6  0.1871   41.6  0.4074  174.0
 4.300  0.8527  112.6   0.917   10.2  0.1908   40.9  0.4158  172.7
 4.400  0.8548  111.4   0.893    8.7  0.1946   40.1  0.4244  171.4
 4.500  0.8573  110.1   0.870    7.1  0.1984   39.4  0.4332  170.1
 4.600  0.8584  109.1   0.849    6.1  0.2020   38.6  0.4417  168.9
 4.700  0.8597  108.0   0.827    5.0  0.2055   37.9  0.4503  167.7
 4.800  0.8613  107.0   0.807    3.9  0.2092   37.2  0.4592  166.5
 4.900  0.8632  106.0   0.786    2.7  0.2128   36.5  0.4682  165.5
 5.000  0.8654  105.0   0.766    1.4  0.2165   35.8  0.4774  164.4
 5.100  0.8666  104.1   0.752    0.5  0.2201   35.0  0.4861  163.5
 5.200  0.8680  103.1   0.737   -0.4  0.2238   34.3  0.4950  162.6
 5.300  0.8697  102.2   0.723   -1.4  0.2276   33.6  0.5039  161.7
 5.400  0.8716  101.2   0.710   -2.4  0.2313   32.9  0.5130  160.9
 5.500  0.8737  100.3   0.696   -3.5  0.2351   32.2  0.5222  160.1
 5.600  0.8730   99.3   0.683   -4.3  0.2386   31.3  0.5281  159.4
 5.700  0.8725   98.4   0.670   -5.2  0.2421   30.5  0.5341  158.7
 5.800  0.8723   97.4   0.657   -6.1  0.2458   29.7  0.5402  158.0
 5.900  0.8723   96.5   0.644   -7.0  0.2494   28.9  0.5464  157.3
 6.000  0.8726   95.5   0.632   -8.0  0.2531   28.1  0.5526  156.7
!
!  f       NFmin   Gammaopt  rn/50
! GHz       dB    MAG  ANG    -
 0.450      1.07  0.43  175   0.05
 0.900      1.24  0.51 -179   0.06
 1.900      2.11  0.68 -152   0.12
 2.400      2.53  0.74 -146   0.21
!
! (c) 2017  Infineon Technologies AG, Munich