! Infineon Technologies  Discrete & RF Semiconductors
! BFP196W
! VCE =  3.0 V,  IC =  10 mA
! Common Emitter S-Parameters:                            Jan 2017
# GHz  S  MA  R  50
!  f         S11            S21            S12            S22
! GHz     MAG   ANG      MAG   ANG      MAG   ANG      MAG   ANG
 0.010  0.7089  -12.2  30.583  174.9  0.0054   84.3  0.9893   -6.7
 0.020  0.7019  -26.5  29.876  168.0  0.0111   82.2  0.9668  -13.0
 0.030  0.6808  -37.2  28.734  162.9  0.0158   72.4  0.9304  -18.6
 0.040  0.6846  -48.2  27.835  157.5  0.0207   67.1  0.9037  -24.7
 0.050  0.7127  -58.7  27.204  151.7  0.0258   63.9  0.8875  -31.0
 0.060  0.6934  -66.6  25.814  148.4  0.0284   59.2  0.8419  -34.6
 0.070  0.6878  -74.7  24.516  144.8  0.0311   55.3  0.8000  -38.5
 0.080  0.6961  -82.8  23.327  140.8  0.0339   52.0  0.7622  -42.9
 0.090  0.7179  -90.6  22.263  136.4  0.0369   49.2  0.7294  -47.7
 0.100  0.7521  -97.8  21.344  131.6  0.0399   46.9  0.7021  -52.9
 0.110  0.7461 -102.5  20.346  129.6  0.0412   44.7  0.6697  -55.3
 0.120  0.7452 -107.3  19.375  127.4  0.0425   42.6  0.6386  -58.0
 0.130  0.7495 -112.0  18.437  124.9  0.0439   40.6  0.6091  -61.0
 0.140  0.7588 -116.7  17.536  122.2  0.0454   38.7  0.5813  -64.2
 0.150  0.7730 -121.2  16.679  119.2  0.0469   37.0  0.5556  -67.8
 0.200  0.7825 -135.4  13.364  110.7  0.0501   31.1  0.4595  -77.6
 0.250  0.7901 -145.5  11.089  104.6  0.0528   28.1  0.3923  -85.0
 0.300  0.7923 -152.5   9.411  100.2  0.0535   25.8  0.3456  -90.9
 0.350  0.7909 -157.4   8.306   97.2  0.0545   25.3  0.3162  -94.9
 0.400  0.7953 -162.3   7.230   93.4  0.0556   24.8  0.2887  -99.6
 0.450  0.7937 -165.5   6.524   91.2  0.0564   24.9  0.2728 -102.6
 0.500  0.7946 -168.8   5.830   88.5  0.0573   25.0  0.2577 -106.0
 0.600  0.7965 -173.7   4.888   84.3  0.0581   25.6  0.2408 -111.0
 0.700  0.7989 -177.7   4.194   80.8  0.0593   26.6  0.2290 -114.8
 0.800  0.8003  178.7   3.681   77.3  0.0611   29.0  0.2250 -117.6
 0.900  0.7997  175.5   3.268   74.2  0.0628   29.5  0.2238 -120.3
 1.000  0.8024  172.7   2.954   71.3  0.0646   31.3  0.2233 -122.8
 1.100  0.8036  170.1   2.689   68.5  0.0662   33.4  0.2262 -124.6
 1.200  0.8053  167.5   2.467   65.7  0.0682   34.3  0.2286 -126.5
 1.300  0.8060  165.2   2.277   63.1  0.0702   35.9  0.2333 -128.1
 1.400  0.8097  162.9   2.125   60.5  0.0730   37.9  0.2388 -130.1
 1.500  0.8130  160.8   1.981   58.0  0.0755   38.6  0.2438 -132.0
 1.600  0.8154  158.5   1.862   55.4  0.0781   40.3  0.2503 -133.5
 1.700  0.8195  156.4   1.757   52.9  0.0806   41.3  0.2583 -135.5
 1.800  0.8216  154.1   1.667   50.5  0.0841   42.2  0.2652 -137.3
 1.900  0.8254  152.3   1.579   48.2  0.0869   43.3  0.2734 -139.1
 2.000  0.8276  150.1   1.499   45.7  0.0901   44.1  0.2813 -140.8
 2.100  0.8298  148.0   1.430   43.5  0.0937   44.7  0.2900 -142.7
 2.200  0.8331  146.0   1.364   41.0  0.0974   45.3  0.2991 -144.5
 2.300  0.8359  144.2   1.305   38.8  0.1011   45.8  0.3089 -146.2
 2.400  0.8394  142.5   1.249   36.5  0.1048   46.3  0.3190 -147.7
 2.500  0.8409  140.7   1.198   34.5  0.1086   46.6  0.3289 -149.5
 2.600  0.8432  138.9   1.148   32.4  0.1124   46.8  0.3390 -151.1
 2.700  0.8460  137.2   1.105   30.5  0.1162   47.0  0.3484 -152.8
 2.800  0.8495  135.5   1.063   28.4  0.1201   47.1  0.3580 -154.4
 2.900  0.8505  133.7   1.024   26.5  0.1243   46.9  0.3675 -156.2
 3.000  0.8522  132.0   0.987   24.5  0.1286   46.7  0.3773 -157.9
 3.100  0.8540  130.4   0.956   23.0  0.1329   46.5  0.3860 -159.7
 3.200  0.8566  128.8   0.925   21.4  0.1372   46.3  0.3950 -161.4
 3.300  0.8597  127.2   0.895   19.6  0.1414   46.1  0.4044 -163.0
 3.400  0.8635  125.7   0.866   17.8  0.1457   46.0  0.4141 -164.6
 3.500  0.8680  124.1   0.838   15.8  0.1500   45.8  0.4241 -166.1
 3.600  0.8688  122.6   0.814   14.5  0.1545   45.2  0.4328 -167.9
 3.700  0.8703  121.1   0.790   13.0  0.1589   44.7  0.4419 -169.7
 3.800  0.8723  119.6   0.767   11.5  0.1634   44.2  0.4514 -171.4
 3.900  0.8750  118.1   0.744    9.9  0.1679   43.7  0.4613 -173.0
 4.000  0.8782  116.6   0.722    8.2  0.1724   43.2  0.4715 -174.6
 4.100  0.8783  115.3   0.703    7.0  0.1768   42.4  0.4804 -176.5
 4.200  0.8789  114.0   0.683    5.8  0.1812   41.7  0.4898 -178.3
 4.300  0.8800  112.6   0.665    4.5  0.1856   41.0  0.4998  179.9
 4.400  0.8815  111.3   0.646    3.1  0.1900   40.3  0.5101  178.2
 4.500  0.8835  110.0   0.628    1.7  0.1945   39.7  0.5209  176.6
 4.600  0.8844  109.0   0.612    0.9  0.1986   39.0  0.5302  174.9
 4.700  0.8855  107.9   0.596    0.0  0.2027   38.3  0.5398  173.3
 4.800  0.8870  106.9   0.580   -0.9  0.2069   37.6  0.5499  171.8
 4.900  0.8888  105.8   0.564   -1.8  0.2111   36.9  0.5604  170.3
 5.000  0.8908  104.8   0.549   -2.8  0.2153   36.3  0.5712  168.9
 5.100  0.8914  103.8   0.539   -3.4  0.2194   35.5  0.5806  167.6
 5.200  0.8922  102.8   0.529   -4.0  0.2236   34.7  0.5903  166.4
 5.300  0.8933  101.9   0.519   -4.7  0.2278   33.9  0.6002  165.2
 5.400  0.8947  100.9   0.510   -5.4  0.2321   33.2  0.6104  164.0
 5.500  0.8963   99.9   0.500   -6.1  0.2364   32.5  0.6208  162.9
 5.600  0.8949   98.9   0.491   -6.6  0.2403   31.6  0.6267  161.9
 5.700  0.8938   97.9   0.481   -7.0  0.2443   30.7  0.6329  160.8
 5.800  0.8929   97.0   0.472   -7.5  0.2484   29.9  0.6392  159.8
 5.900  0.8923   96.0   0.463   -8.1  0.2525   29.1  0.6458  158.9
 6.000  0.8920   95.0   0.454   -8.6  0.2566   28.3  0.6525  157.9
!
!  f       NFmin   Gammaopt  rn/50
! GHz       dB    MAG  ANG    -
 0.450      0.91  0.36  146   0.06
 0.900      1.19  0.53  168   0.05
 1.900      2.27  0.71 -158   0.10
 2.400      2.77  0.76 -149   0.22
!
! (c) 2017  Infineon Technologies AG, Munich