! Infineon Technologies  Discrete & RF Semiconductors
! BFP196W
! VCE =  5.0 V,  IC =  85 mA
! Common Emitter S-Parameters:                            Jan 2017
# GHz  S  MA  R  50
!  f         S11            S21            S12            S22
! GHz     MAG   ANG      MAG   ANG      MAG   ANG      MAG   ANG
 0.010  0.1993  -91.4  96.208  166.4  0.0029   78.3  0.9090  -18.3
 0.020  0.3634 -111.7  89.025  153.1  0.0053   72.3  0.8458  -35.4
 0.030  0.4367 -124.6  78.385  146.7  0.0069   61.2  0.7412  -45.6
 0.040  0.5254 -133.5  69.035  138.3  0.0087   54.4  0.6670  -58.6
 0.050  0.6231 -139.7  61.568  127.7  0.0105   49.9  0.6339  -73.8
 0.060  0.6390 -144.1  56.235  125.4  0.0110   48.7  0.5845  -78.8
 0.070  0.6585 -148.2  51.010  122.7  0.0115   47.7  0.5403  -84.6
 0.080  0.6813 -152.1  45.930  119.3  0.0120   46.7  0.5027  -91.4
 0.090  0.7069 -155.7  41.048  115.1  0.0125   45.8  0.4732  -99.2
 0.100  0.7352 -159.1  36.445  109.8  0.0130   45.0  0.4534 -107.8
 0.110  0.7412 -160.8  34.173  108.6  0.0134   45.6  0.4365 -111.0
 0.120  0.7479 -162.4  31.917  107.3  0.0139   46.1  0.4211 -114.5
 0.130  0.7551 -164.0  29.681  105.8  0.0143   46.7  0.4073 -118.2
 0.140  0.7629 -165.6  27.468  104.1  0.0148   47.1  0.3954 -122.2
 0.150  0.7713 -167.1  25.286  102.0  0.0152   47.6  0.3855 -126.4
 0.200  0.7770 -171.8  19.189   97.2  0.0169   50.3  0.3567 -137.4
 0.250  0.7827 -175.1  15.435   93.9  0.0193   53.4  0.3412 -145.1
 0.300  0.7840 -177.6  12.896   91.5  0.0210   56.2  0.3316 -150.4
 0.350  0.7847 -179.5  11.311   89.8  0.0237   57.9  0.3269 -153.9
 0.400  0.7863  178.7   9.740   87.5  0.0265   59.2  0.3235 -157.5
 0.450  0.7859  177.2   8.765   86.2  0.0288   61.0  0.3210 -159.7
 0.500  0.7861  175.6   7.795   84.5  0.0312   62.5  0.3190 -162.0
 0.600  0.7893  173.1   6.515   81.8  0.0371   63.9  0.3189 -165.4
 0.700  0.7881  171.0   5.583   79.5  0.0415   65.6  0.3168 -167.8
 0.800  0.7903  168.6   4.891   76.9  0.0479   67.0  0.3173 -169.5
 0.900  0.7870  166.5   4.338   74.6  0.0521   66.5  0.3175 -171.2
 1.000  0.7910  164.6   3.922   72.4  0.0579   66.5  0.3180 -172.7
 1.100  0.7921  162.6   3.572   70.4  0.0637   66.1  0.3186 -173.8
 1.200  0.7922  160.6   3.274   68.1  0.0687   65.8  0.3191 -174.9
 1.300  0.7913  158.7   3.028   66.1  0.0738   65.6  0.3211 -176.0
 1.400  0.7952  156.8   2.826   64.0  0.0789   65.1  0.3237 -177.1
 1.500  0.7985  155.1   2.636   62.0  0.0841   64.1  0.3261 -178.1
 1.600  0.8009  153.1   2.481   59.8  0.0899   63.4  0.3278 -179.1
 1.700  0.8009  151.3   2.344   57.8  0.0949   62.7  0.3310  180.0
 1.800  0.8049  149.3   2.224   55.6  0.1000   61.8  0.3350  179.0
 1.900  0.8076  147.7   2.107   53.8  0.1047   61.2  0.3384  178.2
 2.000  0.8078  145.8   2.003   51.6  0.1102   60.0  0.3423  177.3
 2.100  0.8095  143.9   1.913   49.6  0.1150   59.1  0.3465  176.4
 2.200  0.8120  142.1   1.826   47.5  0.1198   58.2  0.3508  175.5
 2.300  0.8141  140.5   1.749   45.6  0.1245   57.2  0.3554  174.7
 2.400  0.8169  138.9   1.674   43.6  0.1293   56.3  0.3601  173.9
 2.500  0.8177  137.3   1.608   41.8  0.1338   55.3  0.3649  173.1
 2.600  0.8192  135.7   1.544   39.9  0.1384   54.3  0.3697  172.4
 2.700  0.8220  134.0   1.488   38.3  0.1429   53.4  0.3747  171.5
 2.800  0.8254  132.4   1.433   36.5  0.1474   52.6  0.3797  170.6
 2.900  0.8267  130.8   1.384   34.8  0.1514   51.5  0.3843  169.7
 3.000  0.8286  129.3   1.336   33.0  0.1555   50.5  0.3889  168.9
 3.100  0.8300  127.8   1.296   31.5  0.1594   49.5  0.3932  167.9
 3.200  0.8320  126.3   1.258   30.0  0.1634   48.6  0.3976  167.0
 3.300  0.8346  124.8   1.220   28.3  0.1674   47.7  0.4022  166.1
 3.400  0.8377  123.4   1.183   26.6  0.1715   46.9  0.4068  165.2
 3.500  0.8414  121.9   1.148   24.7  0.1756   46.1  0.4115  164.3
 3.600  0.8425  120.5   1.118   23.3  0.1794   45.1  0.4167  163.3
 3.700  0.8440  119.2   1.089   21.9  0.1832   44.2  0.4220  162.3
 3.800  0.8460  117.8   1.061   20.4  0.1870   43.3  0.4274  161.3
 3.900  0.8485  116.4   1.033   18.8  0.1910   42.4  0.4329  160.3
 4.000  0.8515  115.1   1.006   17.1  0.1949   41.6  0.4386  159.4
 4.100  0.8519  113.9   0.981   15.8  0.1982   40.6  0.4445  158.3
 4.200  0.8527  112.6   0.957   14.5  0.2016   39.7  0.4506  157.2
 4.300  0.8539  111.4   0.933   13.1  0.2051   38.8  0.4568  156.2
 4.400  0.8555  110.1   0.910   11.6  0.2086   37.9  0.4632  155.2
 4.500  0.8575  108.9   0.888   10.1  0.2121   37.1  0.4697  154.2
 4.600  0.8586  107.9   0.868    9.1  0.2153   36.3  0.4762  153.3
 4.700  0.8600  106.9   0.848    8.0  0.2185   35.5  0.4828  152.5
 4.800  0.8616  105.9   0.828    6.9  0.2218   34.7  0.4894  151.7
 4.900  0.8635  104.9   0.809    5.7  0.2251   33.9  0.4962  150.9
 5.000  0.8656  103.9   0.790    4.5  0.2284   33.2  0.5031  150.1
 5.100  0.8664  103.0   0.777    3.6  0.2316   32.4  0.5095  149.5
 5.200  0.8674  102.1   0.764    2.6  0.2349   31.6  0.5160  148.9
 5.300  0.8686  101.3   0.751    1.6  0.2382   30.8  0.5226  148.4
 5.400  0.8700  100.4   0.738    0.6  0.2416   30.0  0.5292  147.8
 5.500  0.8716   99.5   0.726   -0.5  0.2450   29.3  0.5358  147.3
 5.600  0.8705   98.6   0.713   -1.3  0.2481   28.5  0.5393  146.8
 5.700  0.8697   97.6   0.701   -2.2  0.2512   27.6  0.5428  146.4
 5.800  0.8690   96.7   0.688   -3.1  0.2544   26.8  0.5463  146.0
 5.900  0.8687   95.7   0.676   -4.0  0.2576   26.1  0.5499  145.5
 6.000  0.8685   94.8   0.664   -5.0  0.2609   25.3  0.5535  145.1
!
!  f       NFmin   Gammaopt  rn/50
! GHz       dB    MAG  ANG    -
 0.450      1.73  0.57 -175   0.06
 0.900      1.87  0.60 -168   0.08
 1.900      2.74  0.70 -148   0.21
 2.400      3.15  0.74 -143   0.34
!
! (c) 2017  Infineon Technologies AG, Munich