! Infineon Technologies  Discrete & RF Semiconductors
! BFP196W
! VCE =  6.0 V,  IC =  70 mA
! Common Emitter S-Parameters:                            Jan 2017
# GHz  S  MA  R  50
!  f         S11            S21            S12            S22
! GHz     MAG   ANG      MAG   ANG      MAG   ANG      MAG   ANG
 0.010  0.2193  -65.8  90.922  167.5  0.0034   79.9  0.9262  -16.6
 0.020  0.3510  -94.8  84.552  155.2  0.0058   74.2  0.8677  -31.9
 0.030  0.4118 -111.3  75.346  148.7  0.0075   64.1  0.7687  -41.6
 0.040  0.4973 -122.9  67.382  140.4  0.0093   57.9  0.6978  -53.8
 0.050  0.5970 -130.9  61.147  130.3  0.0112   53.7  0.6642  -67.9
 0.060  0.6125 -136.2  56.011  127.9  0.0118   51.3  0.6120  -72.7
 0.070  0.6329 -141.3  50.996  125.0  0.0125   49.1  0.5648  -78.3
 0.080  0.6580 -145.9  46.140  121.4  0.0132   47.2  0.5241  -84.9
 0.090  0.6870 -150.3  41.501  117.1  0.0139   45.5  0.4914  -92.5
 0.100  0.7197 -154.2  37.158  111.7  0.0146   43.9  0.4684 -101.0
 0.110  0.7258 -156.2  34.868  110.5  0.0150   44.2  0.4486 -104.2
 0.120  0.7327 -158.1  32.595  109.1  0.0154   44.5  0.4304 -107.7
 0.130  0.7404 -160.0  30.345  107.5  0.0158   44.7  0.4139 -111.5
 0.140  0.7489 -161.8  28.121  105.7  0.0162   45.0  0.3993 -115.6
 0.150  0.7581 -163.6  25.932  103.5  0.0166   45.2  0.3870 -120.0
 0.200  0.7662 -169.1  19.741   98.3  0.0181   47.1  0.3518 -131.6
 0.250  0.7734 -173.0  15.907   94.7  0.0205   49.6  0.3310 -140.0
 0.300  0.7759 -175.7  13.299   92.2  0.0226   52.0  0.3198 -145.8
 0.350  0.7763 -177.8  11.668   90.4  0.0247   54.8  0.3136 -149.7
 0.400  0.7778 -179.9  10.052   88.1  0.0268   57.1  0.3088 -153.7
 0.450  0.7772  178.5   9.046   86.7  0.0293   58.7  0.3056 -156.2
 0.500  0.7773  176.8   8.046   84.9  0.0318   60.0  0.3029 -158.7
 0.600  0.7796  174.1   6.729   82.2  0.0369   62.0  0.3020 -162.3
 0.700  0.7804  171.8   5.764   79.8  0.0415   63.1  0.2992 -165.0
 0.800  0.7826  169.4   5.048   77.2  0.0471   64.9  0.2992 -167.0
 0.900  0.7807  167.2   4.478   74.9  0.0528   64.6  0.2995 -168.6
 1.000  0.7833  165.1   4.051   72.7  0.0570   64.9  0.3001 -170.3
 1.100  0.7853  163.1   3.688   70.6  0.0626   64.9  0.3009 -171.4
 1.200  0.7855  161.2   3.381   68.4  0.0673   64.5  0.3014 -172.7
 1.300  0.7859  159.2   3.124   66.3  0.0724   64.0  0.3035 -173.7
 1.400  0.7875  157.2   2.917   64.2  0.0781   63.8  0.3055 -174.8
 1.500  0.7913  155.5   2.721   62.1  0.0832   63.2  0.3081 -175.9
 1.600  0.7936  153.6   2.559   60.0  0.0880   62.4  0.3100 -176.9
 1.700  0.7946  151.6   2.417   58.0  0.0929   61.9  0.3138 -177.8
 1.800  0.7986  149.7   2.294   55.8  0.0981   61.3  0.3172 -178.8
 1.900  0.8007  148.2   2.173   54.0  0.1032   60.2  0.3209 -179.6
 2.000  0.8012  146.2   2.064   51.8  0.1082   59.5  0.3253  179.5
 2.100  0.8028  144.3   1.971   49.8  0.1131   58.6  0.3297  178.5
 2.200  0.8052  142.5   1.881   47.6  0.1180   57.7  0.3341  177.6
 2.300  0.8080  140.8   1.803   45.8  0.1226   56.9  0.3390  176.8
 2.400  0.8115  139.2   1.726   43.8  0.1273   56.1  0.3439  176.1
 2.500  0.8118  137.6   1.658   42.0  0.1318   55.1  0.3488  175.3
 2.600  0.8128  136.0   1.591   40.1  0.1364   54.2  0.3537  174.5
 2.700  0.8166  134.4   1.533   38.4  0.1408   53.2  0.3588  173.6
 2.800  0.8210  132.8   1.476   36.6  0.1452   52.3  0.3639  172.8
 2.900  0.8215  131.2   1.425   34.9  0.1492   51.3  0.3687  171.9
 3.000  0.8226  129.7   1.375   33.1  0.1533   50.4  0.3736  171.1
 3.100  0.8243  128.2   1.334   31.7  0.1572   49.5  0.3782  170.1
 3.200  0.8266  126.7   1.295   30.1  0.1612   48.6  0.3830  169.1
 3.300  0.8295  125.2   1.256   28.5  0.1652   47.8  0.3878  168.2
 3.400  0.8329  123.8   1.218   26.7  0.1692   47.0  0.3928  167.3
 3.500  0.8368  122.3   1.182   24.9  0.1733   46.3  0.3978  166.4
 3.600  0.8378  120.9   1.151   23.5  0.1770   45.3  0.4031  165.3
 3.700  0.8393  119.5   1.120   22.0  0.1808   44.4  0.4086  164.3
 3.800  0.8414  118.1   1.090   20.5  0.1847   43.5  0.4142  163.3
 3.900  0.8439  116.7   1.061   18.8  0.1886   42.6  0.4199  162.3
 4.000  0.8469  115.3   1.033   17.1  0.1925   41.8  0.4257  161.4
 4.100  0.8475  114.1   1.007   15.8  0.1959   40.8  0.4318  160.3
 4.200  0.8485  112.8   0.982   14.5  0.1994   39.9  0.4381  159.2
 4.300  0.8499  111.6   0.958   13.1  0.2029   39.0  0.4446  158.1
 4.400  0.8517  110.4   0.934   11.6  0.2065   38.1  0.4512  157.1
 4.500  0.8538  109.2   0.911   10.0  0.2101   37.3  0.4579  156.1
 4.600  0.8552  108.2   0.890    9.0  0.2133   36.5  0.4646  155.2
 4.700  0.8568  107.2   0.870    8.0  0.2165   35.7  0.4714  154.3
 4.800  0.8586  106.2   0.849    6.9  0.2197   35.0  0.4784  153.5
 4.900  0.8607  105.3   0.830    5.7  0.2230   34.2  0.4854  152.7
 5.000  0.8631  104.3   0.810    4.5  0.2263   33.5  0.4925  151.9
 5.100  0.8639  103.4   0.796    3.5  0.2296   32.7  0.4992  151.3
 5.200  0.8649  102.5   0.782    2.5  0.2328   31.9  0.5059  150.7
 5.300  0.8662  101.5   0.769    1.5  0.2362   31.1  0.5127  150.1
 5.400  0.8676  100.6   0.756    0.4  0.2396   30.3  0.5195  149.5
 5.500  0.8693   99.7   0.743   -0.7  0.2430   29.6  0.5264  149.0
 5.600  0.8680   98.8   0.730   -1.5  0.2461   28.8  0.5303  148.5
 5.700  0.8669   97.8   0.717   -2.4  0.2493   28.0  0.5342  148.1
 5.800  0.8660   96.9   0.704   -3.3  0.2525   27.2  0.5381  147.6
 5.900  0.8654   95.9   0.691   -4.2  0.2557   26.4  0.5421  147.1
 6.000  0.8650   95.0   0.679   -5.2  0.2590   25.7  0.5461  146.7
!
!  f       NFmin   Gammaopt  rn/50
! GHz       dB    MAG  ANG    -
 0.450      1.58  0.55 -175   0.06
 0.900      1.70  0.58 -169   0.07
 1.900      2.54  0.70 -148   0.18
 2.400      2.95  0.74 -143   0.30
!
! (c) 2017  Infineon Technologies AG, Munich