! Infineon Technologies  Discrete & RF Semiconductors
! BFP196W
! VCE =  1.0 V,  IC =  80 mA
! Common Emitter S-Parameters:                            Jan 2017
# GHz  S  MA  R  50
!  f         S11            S21            S12            S22
! GHz     MAG   ANG      MAG   ANG      MAG   ANG      MAG   ANG
 0.010  0.3440 -129.4  83.210  158.8  0.0044   70.4  0.7767  -34.2
 0.020  0.5622 -139.0  70.456  141.5  0.0074   57.4  0.7025  -62.8
 0.030  0.6260 -146.8  59.394  135.9  0.0089   49.3  0.6069  -76.4
 0.040  0.6990 -153.0  49.143  127.9  0.0104   43.5  0.5565  -93.8
 0.050  0.7787 -158.0  40.327  116.1  0.0121   39.3  0.5634 -112.5
 0.060  0.7889 -160.5  36.545  114.5  0.0125   39.7  0.5409 -117.9
 0.070  0.8005 -163.0  32.800  112.4  0.0128   40.1  0.5235 -123.7
 0.080  0.8137 -165.4  29.107  109.9  0.0132   40.4  0.5118 -129.8
 0.090  0.8282 -167.8  25.487  106.6  0.0135   40.8  0.5062 -136.1
 0.100  0.8440 -170.0  21.977  102.3  0.0139   41.1  0.5068 -142.5
 0.110  0.8465 -170.9  20.547  101.5  0.0144   42.0  0.5012 -144.9
 0.120  0.8491 -171.9  19.122  100.5  0.0149   42.8  0.4965 -147.4
 0.130  0.8520 -172.8  17.703   99.4  0.0153   43.5  0.4927 -149.9
 0.140  0.8552 -173.7  16.292   98.1  0.0158   44.2  0.4899 -152.4
 0.150  0.8585 -174.6  14.891   96.6  0.0163   44.9  0.4881 -155.0
 0.200  0.8600 -177.8  11.224   92.9  0.0182   51.5  0.4853 -161.2
 0.250  0.8613 -179.9   8.993   90.1  0.0207   53.6  0.4826 -165.5
 0.300  0.8622  178.3   7.496   88.2  0.0233   57.2  0.4792 -168.3
 0.350  0.8620  176.9   6.567   86.7  0.0260   59.4  0.4785 -170.2
 0.400  0.8623  175.5   5.644   84.6  0.0288   61.2  0.4783 -172.1
 0.450  0.8613  174.3   5.079   83.4  0.0316   62.2  0.4781 -173.4
 0.500  0.8608  173.0   4.517   81.8  0.0345   63.1  0.4782 -174.8
 0.600  0.8608  170.8   3.779   79.2  0.0409   64.8  0.4807 -176.8
 0.700  0.8600  168.9   3.239   77.0  0.0455   66.3  0.4781 -178.5
 0.800  0.8607  166.6   2.841   74.3  0.0530   67.1  0.4787 -179.7
 0.900  0.8592  164.7   2.524   72.1  0.0581   65.8  0.4799  179.1
 1.000  0.8611  162.8   2.287   69.8  0.0644   66.0  0.4806  177.7
 1.100  0.8629  160.8   2.088   67.6  0.0705   66.2  0.4811  176.7
 1.200  0.8626  159.0   1.920   65.3  0.0762   65.2  0.4812  175.6
 1.300  0.8617  157.1   1.778   63.3  0.0821   64.5  0.4829  174.7
 1.400  0.8642  155.2   1.665   61.1  0.0885   64.1  0.4850  173.5
 1.500  0.8663  153.5   1.555   58.9  0.0940   63.0  0.4867  172.4
 1.600  0.8685  151.6   1.469   56.7  0.0999   62.1  0.4885  171.5
 1.700  0.8681  149.6   1.392   54.5  0.1062   61.4  0.4914  170.5
 1.800  0.8710  147.7   1.324   52.3  0.1118   60.1  0.4943  169.4
 1.900  0.8724  146.2   1.259   50.4  0.1166   59.4  0.4973  168.5
 2.000  0.8721  144.2   1.201   48.1  0.1228   58.2  0.4999  167.5
 2.100  0.8731  142.3   1.150   46.1  0.1280   57.1  0.5036  166.5
 2.200  0.8750  140.5   1.101   44.0  0.1333   56.0  0.5075  165.5
 2.300  0.8761  138.8   1.057   42.1  0.1385   55.0  0.5105  164.6
 2.400  0.8780  137.1   1.015   40.1  0.1437   54.0  0.5136  163.7
 2.500  0.8775  135.5   0.979   38.4  0.1486   52.8  0.5178  162.8
 2.600  0.8777  133.9   0.943   36.5  0.1536   51.7  0.5222  161.9
 2.700  0.8795  132.2   0.911   34.8  0.1582   50.7  0.5249  161.0
 2.800  0.8821  130.6   0.880   33.0  0.1629   49.7  0.5277  160.1
 2.900  0.8821  129.1   0.853   31.5  0.1671   48.6  0.5319  159.1
 3.000  0.8827  127.6   0.826   29.8  0.1714   47.5  0.5363  158.2
 3.100  0.8829  126.1   0.804   28.4  0.1754   46.5  0.5388  157.2
 3.200  0.8836  124.6   0.783   27.0  0.1794   45.4  0.5415  156.3
 3.300  0.8850  123.1   0.762   25.4  0.1834   44.5  0.5443  155.3
 3.400  0.8870  121.6   0.742   23.8  0.1875   43.6  0.5473  154.3
 3.500  0.8896  120.1   0.722   22.1  0.1917   42.7  0.5504  153.4
 3.600  0.8893  118.7   0.706   20.9  0.1954   41.7  0.5542  152.5
 3.700  0.8895  117.3   0.690   19.6  0.1993   40.7  0.5582  151.5
 3.800  0.8903  115.9   0.674   18.2  0.2031   39.8  0.5623  150.6
 3.900  0.8916  114.5   0.659   16.8  0.2070   38.9  0.5666  149.7
 4.000  0.8934  113.1   0.644   15.3  0.2110   38.0  0.5710  148.8
 4.100  0.8926  111.9   0.631   14.2  0.2144   37.0  0.5761  147.8
 4.200  0.8921  110.7   0.618   13.0  0.2178   36.0  0.5814  146.8
 4.300  0.8921  109.5   0.605   11.8  0.2213   35.0  0.5868  145.8
 4.400  0.8925  108.3   0.592   10.5  0.2248   34.1  0.5924  144.8
 4.500  0.8932  107.1   0.580    9.2  0.2284   33.2  0.5982  143.9
 4.600  0.8937  106.1   0.569    8.4  0.2314   32.3  0.6029  143.1
 4.700  0.8944  105.1   0.559    7.6  0.2345   31.5  0.6077  142.2
 4.800  0.8954  104.2   0.548    6.7  0.2377   30.7  0.6127  141.4
 4.900  0.8967  103.2   0.538    5.8  0.2409   29.9  0.6178  140.6
 5.000  0.8982  102.2   0.528    4.9  0.2441   29.1  0.6230  139.8
 5.100  0.8980  101.3   0.521    4.1  0.2472   28.3  0.6277  139.2
 5.200  0.8981  100.4   0.515    3.4  0.2504   27.5  0.6324  138.7
 5.300  0.8983   99.5   0.508    2.6  0.2536   26.7  0.6372  138.2
 5.400  0.8988   98.6   0.502    1.7  0.2569   25.9  0.6421  137.6
 5.500  0.8995   97.7   0.496    0.9  0.2602   25.2  0.6470  137.1
 5.600  0.8978   96.8   0.490    0.3  0.2631   24.4  0.6485  136.6
 5.700  0.8964   95.8   0.484   -0.3  0.2661   23.5  0.6501  136.2
 5.800  0.8952   94.9   0.478   -0.9  0.2691   22.7  0.6517  135.7
 5.900  0.8942   93.9   0.473   -1.5  0.2722   22.0  0.6534  135.3
 6.000  0.8935   93.0   0.467   -2.2  0.2753   21.2  0.6551  134.8
!
!  f       NFmin   Gammaopt  rn/50
! GHz       dB    MAG  ANG    -
 0.450      1.68  0.56 -175   0.06
 0.900      1.80  0.59 -169   0.08
 1.900      2.67  0.70 -148   0.20
 2.400      3.09  0.74 -143   0.32
!
! (c) 2017  Infineon Technologies AG, Munich