! Infineon Technologies  Discrete & RF Semiconductors
! BFP196W
! VCE =  5.0 V,  IC =  45 mA
! Common Emitter S-Parameters:                            Jan 2017
# GHz  S  MA  R  50
!  f         S11            S21            S12            S22
! GHz     MAG   ANG      MAG   ANG      MAG   ANG      MAG   ANG
 0.010  0.2879  -43.3  77.666  169.1  0.0035   80.4  0.9502  -14.6
 0.020  0.3714  -75.4  73.507  157.9  0.0068   75.9  0.9025  -28.1
 0.030  0.4114  -94.2  66.428  151.4  0.0087   64.2  0.8118  -37.4
 0.040  0.4863 -108.5  60.390  143.5  0.0109   56.9  0.7471  -48.6
 0.050  0.5828 -118.5  55.735  134.1  0.0132   52.1  0.7155  -61.3
 0.060  0.5958 -124.9  51.276  131.5  0.0141   49.7  0.6600  -66.0
 0.070  0.6160 -131.0  46.943  128.4  0.0151   47.5  0.6098  -71.5
 0.080  0.6427 -136.7  42.776  124.7  0.0160   45.6  0.5661  -77.9
 0.090  0.6751 -141.9  38.827  120.2  0.0170   44.0  0.5307  -85.3
 0.100  0.7125 -146.5  35.170  114.7  0.0180   42.5  0.5053  -93.6
 0.110  0.7182 -149.0  33.061  113.3  0.0184   42.0  0.4822  -96.8
 0.120  0.7251 -151.4  30.974  111.8  0.0188   41.6  0.4608 -100.3
 0.130  0.7333 -153.7  28.912  110.0  0.0193   41.2  0.4412 -104.2
 0.140  0.7428 -156.1  26.883  108.0  0.0197   40.8  0.4239 -108.4
 0.150  0.7534 -158.3  24.893  105.6  0.0201   40.4  0.4090 -112.9
 0.200  0.7651 -165.2  19.034   99.9  0.0213   42.5  0.3648 -125.0
 0.250  0.7737 -169.7  15.368   96.0  0.0237   43.0  0.3386 -133.9
 0.300  0.7775 -173.1  12.866   93.3  0.0249   45.8  0.3237 -140.4
 0.350  0.7782 -175.6  11.297   91.4  0.0268   48.4  0.3150 -144.6
 0.400  0.7803 -178.0   9.745   88.8  0.0288   50.7  0.3081 -149.1
 0.450  0.7793 -179.8   8.771   87.3  0.0310   52.5  0.3042 -151.9
 0.500  0.7790  178.4   7.805   85.5  0.0333   54.0  0.3011 -154.8
 0.600  0.7822  175.5   6.529   82.6  0.0382   56.4  0.2983 -158.9
 0.700  0.7826  173.1   5.593   80.1  0.0426   58.6  0.2954 -161.8
 0.800  0.7844  170.4   4.901   77.4  0.0478   59.9  0.2952 -164.0
 0.900  0.7836  168.1   4.349   75.0  0.0524   60.3  0.2950 -165.8
 1.000  0.7857  166.0   3.931   72.8  0.0575   60.9  0.2952 -167.5
 1.100  0.7879  164.0   3.581   70.6  0.0624   61.6  0.2966 -168.8
 1.200  0.7872  161.8   3.281   68.3  0.0671   61.4  0.2971 -170.1
 1.300  0.7878  159.6   3.033   66.2  0.0717   61.1  0.2990 -171.3
 1.400  0.7904  157.9   2.832   64.0  0.0774   61.5  0.3015 -172.5
 1.500  0.7946  156.1   2.640   61.9  0.0822   60.7  0.3041 -173.6
 1.600  0.7972  154.1   2.485   59.8  0.0876   60.1  0.3061 -174.5
 1.700  0.7980  152.2   2.347   57.7  0.0925   59.9  0.3101 -175.5
 1.800  0.8023  150.2   2.228   55.5  0.0971   59.1  0.3134 -176.5
 1.900  0.8040  148.6   2.111   53.6  0.1018   58.7  0.3180 -177.4
 2.000  0.8046  146.6   2.005   51.4  0.1069   57.8  0.3222 -178.3
 2.100  0.8063  144.7   1.914   49.4  0.1116   57.1  0.3268 -179.3
 2.200  0.8088  142.9   1.826   47.2  0.1164   56.5  0.3315  179.8
 2.300  0.8114  141.2   1.750   45.3  0.1212   55.7  0.3366  178.9
 2.400  0.8146  139.6   1.676   43.3  0.1260   54.9  0.3418  178.1
 2.500  0.8150  137.9   1.609   41.5  0.1302   54.1  0.3470  177.3
 2.600  0.8160  136.3   1.544   39.6  0.1344   53.3  0.3522  176.5
 2.700  0.8192  134.7   1.488   37.9  0.1387   52.4  0.3576  175.6
 2.800  0.8231  133.1   1.433   36.0  0.1431   51.6  0.3630  174.8
 2.900  0.8243  131.5   1.383   34.3  0.1472   50.7  0.3684  173.9
 3.000  0.8262  130.0   1.335   32.5  0.1514   49.8  0.3739  173.0
 3.100  0.8279  128.5   1.295   31.0  0.1554   48.9  0.3787  172.0
 3.200  0.8301  127.0   1.256   29.4  0.1593   48.1  0.3836  171.0
 3.300  0.8330  125.5   1.218   27.8  0.1634   47.3  0.3886  170.0
 3.400  0.8363  124.0   1.181   26.0  0.1674   46.5  0.3937  169.1
 3.500  0.8403  122.5   1.145   24.1  0.1715   45.8  0.3989  168.2
 3.600  0.8413  121.1   1.115   22.7  0.1752   44.9  0.4046  167.1
 3.700  0.8427  119.7   1.085   21.3  0.1790   44.0  0.4104  166.0
 3.800  0.8447  118.3   1.056   19.7  0.1828   43.2  0.4163  165.0
 3.900  0.8472  117.0   1.028   18.1  0.1866   42.4  0.4224  164.0
 4.000  0.8501  115.6   1.001   16.4  0.1905   41.6  0.4286  163.0
 4.100  0.8506  114.3   0.976   15.1  0.1941   40.7  0.4351  161.9
 4.200  0.8515  113.1   0.952   13.8  0.1977   39.8  0.4417  160.8
 4.300  0.8528  111.8   0.928   12.4  0.2013   38.9  0.4485  159.7
 4.400  0.8545  110.6   0.905   10.9  0.2051   38.1  0.4555  158.7
 4.500  0.8566  109.3   0.882    9.4  0.2088   37.3  0.4626  157.7
 4.600  0.8580  108.3   0.862    8.4  0.2120   36.5  0.4696  156.7
 4.700  0.8597  107.3   0.842    7.3  0.2152   35.7  0.4768  155.8
 4.800  0.8616  106.3   0.823    6.2  0.2185   34.9  0.4840  154.9
 4.900  0.8638  105.3   0.804    5.0  0.2218   34.1  0.4914  154.0
 5.000  0.8662  104.3   0.785    3.8  0.2252   33.4  0.4989  153.2
 5.100  0.8669  103.4   0.771    2.9  0.2286   32.6  0.5059  152.5
 5.200  0.8678  102.5   0.757    1.9  0.2320   31.9  0.5130  151.9
 5.300  0.8690  101.6   0.744    0.9  0.2354   31.1  0.5201  151.3
 5.400  0.8703  100.7   0.730   -0.1  0.2389   30.4  0.5273  150.7
 5.500  0.8719   99.8   0.717   -1.2  0.2424   29.7  0.5345  150.1
 5.600  0.8710   98.8   0.705   -2.0  0.2456   28.9  0.5386  149.6
 5.700  0.8703   97.9   0.693   -2.9  0.2488   28.0  0.5427  149.1
 5.800  0.8699   96.9   0.681   -3.8  0.2520   27.2  0.5469  148.6
 5.900  0.8697   96.0   0.669   -4.7  0.2553   26.5  0.5511  148.1
 6.000  0.8698   95.0   0.658   -5.7  0.2587   25.7  0.5553  147.6
!
!  f       NFmin   Gammaopt  rn/50
! GHz       dB    MAG  ANG    -
 0.450      1.31  0.50 -177   0.05
 0.900      1.44  0.54 -172   0.07
 1.900      2.26  0.69 -150   0.15
 2.400      2.66  0.73 -145   0.25
!
! (c) 2017  Infineon Technologies AG, Munich