! Infineon Technologies  Discrete & RF Semiconductors
! BFP196W
! VCE =  4.0 V,  IC =  35 mA
! Common Emitter S-Parameters:                            Jan 2017
# GHz  S  MA  R  50
!  f         S11            S21            S12            S22
! GHz     MAG   ANG      MAG   ANG      MAG   ANG      MAG   ANG
 0.010  0.3386  -35.8  69.416  169.9  0.0038   81.4  0.9593  -13.7
 0.020  0.4001  -65.3  65.843  159.3  0.0075   74.1  0.9167  -26.4
 0.030  0.4255  -84.4  60.028  152.8  0.0100   63.3  0.8310  -35.4
 0.040  0.4910 -100.0  55.130  145.1  0.0128   57.0  0.7699  -46.1
 0.050  0.5831 -111.2  51.413  136.1  0.0156   53.0  0.7395  -58.1
 0.060  0.5933 -118.3  47.422  133.4  0.0164   50.1  0.6832  -62.8
 0.070  0.6122 -125.1  43.558  130.1  0.0173   47.5  0.6322  -68.2
 0.080  0.6391 -131.4  39.858  126.3  0.0182   45.2  0.5879  -74.6
 0.090  0.6730 -137.1  36.373  121.7  0.0191   43.0  0.5519  -81.9
 0.100  0.7129 -142.2  33.169  116.2  0.0201   41.1  0.5260  -90.0
 0.110  0.7187 -144.9  31.207  114.8  0.0206   40.5  0.5015  -93.2
 0.120  0.7262 -147.6  29.267  113.1  0.0210   39.9  0.4787  -96.7
 0.130  0.7352 -150.3  27.354  111.3  0.0215   39.3  0.4579 -100.6
 0.140  0.7457 -152.8  25.474  109.2  0.0219   38.8  0.4393 -104.8
 0.150  0.7577 -155.3  23.635  106.7  0.0224   38.3  0.4233 -109.3
 0.200  0.7683 -162.8  18.123  100.8  0.0239   38.2  0.3737 -121.7
 0.250  0.7778 -167.9  14.659   96.7  0.0260   40.2  0.3448 -130.9
 0.300  0.7799 -171.5  12.279   93.8  0.0275   42.7  0.3273 -137.5
 0.350  0.7817 -174.2  10.786   91.8  0.0292   44.8  0.3178 -142.0
 0.400  0.7852 -176.9   9.311   89.1  0.0309   46.6  0.3103 -146.7
 0.450  0.7845 -178.7   8.381   87.6  0.0330   48.5  0.3055 -149.6
 0.500  0.7847  179.4   7.459   85.7  0.0352   50.1  0.3016 -152.6
 0.600  0.7883  176.3   6.240   82.6  0.0395   52.6  0.2989 -156.9
 0.700  0.7866  173.6   5.346   80.1  0.0435   55.1  0.2951 -160.1
 0.800  0.7887  171.0   4.686   77.3  0.0489   56.7  0.2951 -162.3
 0.900  0.7890  168.7   4.156   74.9  0.0532   57.3  0.2950 -164.2
 1.000  0.7904  166.5   3.758   72.6  0.0576   58.2  0.2947 -166.1
 1.100  0.7927  164.3   3.423   70.4  0.0627   58.9  0.2959 -167.2
 1.200  0.7931  162.1   3.139   68.0  0.0677   59.1  0.2969 -168.6
 1.300  0.7932  160.2   2.902   65.9  0.0720   58.8  0.2991 -169.7
 1.400  0.7959  158.2   2.709   63.6  0.0771   59.3  0.3012 -170.9
 1.500  0.7995  156.5   2.526   61.5  0.0821   58.8  0.3043 -172.1
 1.600  0.8015  154.4   2.378   59.3  0.0871   58.7  0.3068 -173.0
 1.700  0.8030  152.5   2.245   57.2  0.0918   58.3  0.3108 -174.1
 1.800  0.8070  150.5   2.131   54.9  0.0966   57.8  0.3148 -175.1
 1.900  0.8082  148.8   2.019   53.1  0.1012   57.4  0.3191 -176.0
 2.000  0.8103  146.9   1.917   50.8  0.1060   56.6  0.3231 -176.9
 2.100  0.8119  145.0   1.831   48.8  0.1109   56.0  0.3282 -177.9
 2.200  0.8143  143.2   1.747   46.6  0.1158   55.4  0.3334 -178.9
 2.300  0.8169  141.4   1.675   44.7  0.1205   54.7  0.3387 -179.7
 2.400  0.8202  139.7   1.604   42.7  0.1252   54.0  0.3441  179.5
 2.500  0.8208  138.1   1.540   40.9  0.1293   53.2  0.3496  178.6
 2.600  0.8221  136.5   1.478   38.9  0.1335   52.4  0.3552  177.8
 2.700  0.8249  134.8   1.424   37.1  0.1380   51.6  0.3608  176.9
 2.800  0.8284  133.2   1.372   35.2  0.1426   50.8  0.3665  176.0
 2.900  0.8294  131.6   1.324   33.5  0.1467   49.9  0.3720  175.1
 3.000  0.8310  130.1   1.278   31.7  0.1509   49.1  0.3775  174.2
 3.100  0.8325  128.6   1.240   30.2  0.1548   48.3  0.3826  173.2
 3.200  0.8346  127.1   1.203   28.6  0.1588   47.5  0.3879  172.2
 3.300  0.8373  125.6   1.167   27.0  0.1628   46.8  0.3932  171.2
 3.400  0.8405  124.1   1.132   25.2  0.1668   46.1  0.3987  170.2
 3.500  0.8443  122.6   1.098   23.3  0.1708   45.4  0.4043  169.3
 3.600  0.8454  121.2   1.069   21.9  0.1746   44.5  0.4102  168.2
 3.700  0.8471  119.8   1.040   20.4  0.1784   43.7  0.4163  167.1
 3.800  0.8493  118.4   1.012   18.9  0.1823   42.8  0.4225  166.1
 3.900  0.8519  117.0   0.985   17.2  0.1862   42.1  0.4289  165.1
 4.000  0.8551  115.6   0.959   15.5  0.1902   41.3  0.4354  164.1
 4.100  0.8555  114.3   0.935   14.2  0.1937   40.4  0.4422  162.9
 4.200  0.8563  113.0   0.912   12.9  0.1973   39.5  0.4491  161.8
 4.300  0.8575  111.7   0.889   11.5  0.2010   38.6  0.4562  160.6
 4.400  0.8591  110.5   0.867   10.0  0.2047   37.8  0.4635  159.6
 4.500  0.8612  109.2   0.845    8.5  0.2084   37.0  0.4710  158.5
 4.600  0.8624  108.2   0.825    7.5  0.2117   36.2  0.4782  157.5
 4.700  0.8638  107.2   0.806    6.5  0.2151   35.5  0.4856  156.6
 4.800  0.8655  106.2   0.787    5.4  0.2184   34.7  0.4931  155.7
 4.900  0.8674  105.3   0.768    4.3  0.2218   34.0  0.5007  154.8
 5.000  0.8696  104.3   0.750    3.1  0.2253   33.3  0.5084  153.9
 5.100  0.8704  103.4   0.737    2.2  0.2287   32.5  0.5156  153.2
 5.200  0.8715  102.5   0.725    1.2  0.2321   31.7  0.5228  152.6
 5.300  0.8728  101.6   0.712    0.3  0.2356   31.0  0.5301  151.9
 5.400  0.8743  100.7   0.700   -0.8  0.2391   30.2  0.5375  151.3
 5.500  0.8760   99.8   0.688   -1.8  0.2427   29.5  0.5449  150.7
 5.600  0.8747   98.8   0.676   -2.6  0.2458   28.7  0.5493  150.1
 5.700  0.8736   97.8   0.664   -3.5  0.2490   27.9  0.5537  149.6
 5.800  0.8728   96.9   0.652   -4.3  0.2522   27.1  0.5582  149.1
 5.900  0.8722   95.9   0.640   -5.3  0.2554   26.3  0.5627  148.5
 6.000  0.8719   94.9   0.629   -6.2  0.2587   25.6  0.5673  148.0
!
!  f       NFmin   Gammaopt  rn/50
! GHz       dB    MAG  ANG    -
 0.450      1.19  0.46  180   0.06
 0.900      1.33  0.53 -174   0.06
 1.900      2.17  0.68 -151   0.13
 2.400      2.57  0.73 -145   0.23
!
! (c) 2017  Infineon Technologies AG, Munich