! Infineon Technologies  Discrete & RF Semiconductors
! BFP196W
! VCE =  4.0 V,  IC =  90 mA
! Common Emitter S-Parameters:                            Jan 2017
# GHz  S  MA  R  50
!  f         S11            S21            S12            S22
! GHz     MAG   ANG      MAG   ANG      MAG   ANG      MAG   ANG
 0.010  0.2085 -109.0  97.555  165.7  0.0028   74.9  0.8988  -19.7
 0.020  0.3819 -121.4  89.122  151.9  0.0052   70.5  0.8323  -38.0
 0.030  0.4592 -132.0  78.059  145.4  0.0068   59.7  0.7250  -48.6
 0.040  0.5475 -139.3  68.300  137.0  0.0086   53.2  0.6502  -62.2
 0.050  0.6423 -144.6  60.479  126.1  0.0104   48.9  0.6198  -78.2
 0.060  0.6585 -148.5  55.173  123.9  0.0107   48.3  0.5730  -83.3
 0.070  0.6775 -152.2  49.964  121.2  0.0110   47.8  0.5316  -89.3
 0.080  0.6993 -155.7  44.889  118.0  0.0114   47.3  0.4968  -96.2
 0.090  0.7234 -159.0  39.996  113.9  0.0117   46.8  0.4703 -104.0
 0.100  0.7498 -162.0  35.362  108.7  0.0120   46.3  0.4533 -112.5
 0.110  0.7550 -163.4  33.133  107.6  0.0126   46.8  0.4380 -115.7
 0.120  0.7606 -164.9  30.917  106.4  0.0131   47.3  0.4242 -119.2
 0.130  0.7667 -166.3  28.718  104.9  0.0137   47.7  0.4121 -122.9
 0.140  0.7733 -167.6  26.540  103.3  0.0142   48.1  0.4017 -126.7
 0.150  0.7803 -169.0  24.389  101.3  0.0148   48.5  0.3933 -130.8
 0.200  0.7848 -173.2  18.480   96.6  0.0163   54.2  0.3693 -141.3
 0.250  0.7925 -176.4  14.853   93.3  0.0186   55.1  0.3564 -148.6
 0.300  0.7926 -178.6  12.404   91.0  0.0209   57.4  0.3483 -153.5
 0.350  0.7929  179.6  10.881   89.3  0.0237   59.6  0.3443 -156.8
 0.400  0.7940  177.9   9.370   87.1  0.0265   61.3  0.3414 -160.1
 0.450  0.7941  176.4   8.431   85.8  0.0291   63.0  0.3395 -162.2
 0.500  0.7948  175.0   7.497   84.2  0.0317   64.5  0.3381 -164.4
 0.600  0.7971  172.7   6.264   81.5  0.0371   65.3  0.3381 -167.4
 0.700  0.7961  170.5   5.366   79.2  0.0417   67.4  0.3359 -169.7
 0.800  0.7966  168.3   4.702   76.6  0.0484   68.3  0.3364 -171.5
 0.900  0.7971  166.1   4.169   74.5  0.0532   66.8  0.3368 -172.9
 1.000  0.7989  164.1   3.771   72.3  0.0584   67.2  0.3372 -174.5
 1.100  0.8000  162.2   3.436   70.2  0.0640   66.9  0.3382 -175.5
 1.200  0.7994  160.3   3.150   67.9  0.0693   66.1  0.3390 -176.7
 1.300  0.8006  158.4   2.913   65.9  0.0746   65.9  0.3403 -177.7
 1.400  0.8030  156.5   2.722   63.8  0.0801   65.2  0.3428 -178.8
 1.500  0.8060  154.8   2.538   61.7  0.0858   64.6  0.3455 -179.9
 1.600  0.8084  152.9   2.390   59.6  0.0909   63.6  0.3473  179.2
 1.700  0.8099  150.9   2.256   57.6  0.0959   63.0  0.3506  178.2
 1.800  0.8116  149.1   2.142   55.4  0.1015   62.1  0.3535  177.3
 1.900  0.8138  147.5   2.029   53.6  0.1067   61.3  0.3576  176.4
 2.000  0.8147  145.6   1.929   51.4  0.1113   60.1  0.3610  175.6
 2.100  0.8169  143.7   1.843   49.4  0.1164   59.2  0.3652  174.6
 2.200  0.8199  141.9   1.759   47.3  0.1216   58.3  0.3696  173.7
 2.300  0.8219  140.2   1.686   45.4  0.1264   57.3  0.3742  172.9
 2.400  0.8246  138.6   1.615   43.4  0.1312   56.3  0.3789  172.2
 2.500  0.8246  137.0   1.551   41.7  0.1358   55.3  0.3833  171.3
 2.600  0.8252  135.5   1.489   39.8  0.1404   54.4  0.3878  170.5
 2.700  0.8281  133.8   1.435   38.1  0.1449   53.4  0.3924  169.7
 2.800  0.8316  132.2   1.383   36.2  0.1494   52.4  0.3971  168.9
 2.900  0.8327  130.6   1.336   34.6  0.1534   51.3  0.4019  168.0
 3.000  0.8345  129.1   1.291   32.8  0.1574   50.3  0.4067  167.1
 3.100  0.8360  127.6   1.253   31.4  0.1614   49.3  0.4108  166.1
 3.200  0.8380  126.1   1.215   29.8  0.1655   48.4  0.4149  165.2
 3.300  0.8406  124.6   1.179   28.2  0.1696   47.5  0.4192  164.3
 3.400  0.8437  123.2   1.143   26.4  0.1737   46.7  0.4236  163.4
 3.500  0.8474  121.7   1.109   24.6  0.1779   45.9  0.4281  162.5
 3.600  0.8482  120.3   1.080   23.2  0.1816   44.9  0.4329  161.5
 3.700  0.8496  119.0   1.052   21.8  0.1853   43.9  0.4379  160.5
 3.800  0.8514  117.6   1.025   20.3  0.1891   43.0  0.4430  159.5
 3.900  0.8536  116.2   0.999   18.7  0.1929   42.1  0.4482  158.5
 4.000  0.8564  114.9   0.973   17.0  0.1968   41.3  0.4536  157.6
 4.100  0.8566  113.7   0.949   15.8  0.2002   40.3  0.4594  156.5
 4.200  0.8572  112.4   0.926   14.4  0.2036   39.4  0.4654  155.5
 4.300  0.8581  111.2   0.904   13.1  0.2071   38.5  0.4715  154.5
 4.400  0.8595  109.9   0.882   11.6  0.2106   37.6  0.4778  153.5
 4.500  0.8613  108.7   0.860   10.1  0.2142   36.8  0.4842  152.5
 4.600  0.8624  107.7   0.841    9.1  0.2174   36.0  0.4905  151.7
 4.700  0.8637  106.7   0.822    8.0  0.2205   35.1  0.4969  150.8
 4.800  0.8653  105.7   0.803    7.0  0.2238   34.3  0.5035  150.0
 4.900  0.8672  104.8   0.785    5.8  0.2271   33.6  0.5101  149.3
 5.000  0.8693  103.8   0.767    4.6  0.2304   32.8  0.5168  148.5
 5.100  0.8702  102.9   0.754    3.7  0.2336   32.0  0.5229  147.9
 5.200  0.8714  102.0   0.742    2.7  0.2369   31.1  0.5290  147.3
 5.300  0.8728  101.1   0.729    1.8  0.2402   30.3  0.5351  146.8
 5.400  0.8744  100.2   0.717    0.7  0.2435   29.6  0.5413  146.2
 5.500  0.8762   99.3   0.705   -0.3  0.2469   28.8  0.5476  145.7
 5.600  0.8748   98.4   0.693   -1.1  0.2500   28.0  0.5508  145.2
 5.700  0.8736   97.4   0.682   -2.0  0.2532   27.1  0.5541  144.8
 5.800  0.8727   96.5   0.671   -2.9  0.2564   26.3  0.5573  144.4
 5.900  0.8720   95.5   0.660   -3.8  0.2597   25.6  0.5607  143.9
 6.000  0.8715   94.6   0.649   -4.7  0.2630   24.8  0.5640  143.5
!
!  f       NFmin   Gammaopt  rn/50
! GHz       dB    MAG  ANG    -
 0.450      1.78  0.58 -175   0.06
 0.900      1.93  0.60 -168   0.08
 1.900      2.83  0.71 -147   0.22
 2.400      3.27  0.75 -142   0.36
!
! (c) 2017  Infineon Technologies AG, Munich