! Infineon Technologies  Discrete & RF Semiconductors
! BFP196W
! VCE =  4.0 V,  IC =  85 mA
! Common Emitter S-Parameters:                            Jan 2017
# GHz  S  MA  R  50
!  f         S11            S21            S12            S22
! GHz     MAG   ANG      MAG   ANG      MAG   ANG      MAG   ANG
 0.010  0.2038 -103.9  96.392  165.9  0.0029   77.9  0.9051  -19.4
 0.020  0.3731 -117.8  88.221  152.3  0.0054   71.6  0.8394  -37.3
 0.030  0.4496 -129.6  77.458  145.8  0.0070   61.2  0.7327  -47.8
 0.040  0.5394 -137.7  67.989  137.4  0.0087   54.7  0.6582  -61.3
 0.050  0.6368 -143.4  60.426  126.6  0.0105   50.4  0.6276  -77.1
 0.060  0.6532 -147.4  55.148  124.4  0.0109   49.6  0.5800  -82.2
 0.070  0.6726 -151.1  49.970  121.7  0.0114   48.9  0.5378  -88.2
 0.080  0.6946 -154.6  44.926  118.4  0.0118   48.2  0.5024  -95.1
 0.090  0.7192 -157.9  40.068  114.3  0.0123   47.6  0.4753 -102.9
 0.100  0.7459 -161.0  35.471  109.1  0.0127   47.0  0.4580 -111.5
 0.110  0.7516 -162.5  33.243  108.0  0.0132   47.2  0.4422 -114.7
 0.120  0.7579 -164.0  31.029  106.7  0.0136   47.4  0.4280 -118.2
 0.130  0.7647 -165.5  28.833  105.2  0.0141   47.6  0.4154 -121.9
 0.140  0.7719 -167.0  26.659  103.5  0.0145   47.7  0.4047 -125.8
 0.150  0.7797 -168.4  24.513  101.5  0.0150   47.9  0.3959 -129.9
 0.200  0.7821 -172.8  18.591   96.8  0.0162   52.3  0.3704 -140.4
 0.250  0.7914 -176.0  14.937   93.5  0.0191   54.0  0.3567 -147.8
 0.300  0.7923 -178.3  12.492   91.2  0.0211   56.9  0.3486 -152.9
 0.350  0.7926  179.9  10.953   89.5  0.0239   59.7  0.3443 -156.3
 0.400  0.7936  178.1   9.426   87.3  0.0267   62.0  0.3413 -159.7
 0.450  0.7935  176.7   8.483   86.0  0.0293   63.1  0.3395 -161.8
 0.500  0.7938  175.3   7.545   84.3  0.0320   64.0  0.3381 -164.0
 0.600  0.7957  172.8   6.304   81.6  0.0370   66.2  0.3379 -167.1
 0.700  0.7944  170.6   5.399   79.3  0.0419   66.6  0.3362 -169.4
 0.800  0.7961  168.3   4.730   76.7  0.0480   67.4  0.3365 -171.2
 0.900  0.7941  166.3   4.195   74.5  0.0534   66.8  0.3367 -172.7
 1.000  0.7969  164.3   3.793   72.3  0.0587   66.8  0.3373 -174.3
 1.100  0.7993  162.4   3.457   70.3  0.0636   66.3  0.3384 -175.3
 1.200  0.7989  160.4   3.169   68.0  0.0697   65.9  0.3386 -176.5
 1.300  0.8008  158.4   2.930   66.0  0.0745   65.4  0.3401 -177.6
 1.400  0.8008  156.6   2.736   63.9  0.0803   65.0  0.3424 -178.7
 1.500  0.8043  154.8   2.552   61.8  0.0852   64.2  0.3453 -179.7
 1.600  0.8083  153.0   2.403   59.7  0.0907   63.5  0.3472  179.3
 1.700  0.8080  151.1   2.270   57.7  0.0964   62.7  0.3499  178.4
 1.800  0.8100  149.1   2.154   55.5  0.1009   62.0  0.3534  177.4
 1.900  0.8135  147.5   2.041   53.7  0.1060   61.0  0.3568  176.6
 2.000  0.8140  145.6   1.942   51.5  0.1113   60.0  0.3611  175.7
 2.100  0.8157  143.8   1.854   49.5  0.1164   59.0  0.3651  174.8
 2.200  0.8182  142.0   1.769   47.4  0.1216   58.1  0.3692  173.9
 2.300  0.8204  140.3   1.696   45.5  0.1263   57.2  0.3737  173.1
 2.400  0.8233  138.7   1.624   43.5  0.1311   56.3  0.3782  172.3
 2.500  0.8239  137.1   1.560   41.8  0.1355   55.2  0.3829  171.4
 2.600  0.8251  135.5   1.497   39.9  0.1400   54.2  0.3876  170.6
 2.700  0.8277  133.9   1.443   38.2  0.1445   53.2  0.3922  169.7
 2.800  0.8309  132.3   1.390   36.3  0.1491   52.3  0.3968  168.9
 2.900  0.8314  130.7   1.343   34.6  0.1532   51.2  0.4013  168.0
 3.000  0.8325  129.2   1.297   32.8  0.1574   50.2  0.4058  167.2
 3.100  0.8342  127.7   1.259   31.4  0.1614   49.2  0.4100  166.2
 3.200  0.8365  126.2   1.222   29.8  0.1654   48.3  0.4143  165.3
 3.300  0.8393  124.7   1.185   28.2  0.1695   47.4  0.4187  164.4
 3.400  0.8427  123.3   1.150   26.5  0.1736   46.5  0.4232  163.5
 3.500  0.8467  121.8   1.116   24.7  0.1778   45.7  0.4278  162.6
 3.600  0.8473  120.4   1.087   23.3  0.1815   44.7  0.4327  161.6
 3.700  0.8484  119.0   1.059   21.9  0.1852   43.8  0.4377  160.6
 3.800  0.8500  117.6   1.031   20.4  0.1890   42.9  0.4428  159.6
 3.900  0.8521  116.3   1.004   18.8  0.1928   42.0  0.4481  158.6
 4.000  0.8547  114.9   0.978   17.1  0.1967   41.2  0.4535  157.7
 4.100  0.8551  113.7   0.954   15.9  0.2000   40.3  0.4593  156.6
 4.200  0.8560  112.4   0.931   14.5  0.2034   39.4  0.4653  155.6
 4.300  0.8572  111.2   0.909   13.2  0.2069   38.5  0.4714  154.6
 4.400  0.8589  109.9   0.886   11.7  0.2104   37.6  0.4777  153.6
 4.500  0.8609  108.7   0.865   10.2  0.2139   36.8  0.4841  152.6
 4.600  0.8620  107.7   0.846    9.2  0.2171   35.9  0.4903  151.7
 4.700  0.8633  106.7   0.827    8.1  0.2203   35.1  0.4965  150.9
 4.800  0.8649  105.7   0.808    7.1  0.2235   34.3  0.5029  150.1
 4.900  0.8668  104.8   0.790    5.9  0.2269   33.5  0.5093  149.3
 5.000  0.8689  103.8   0.772    4.7  0.2302   32.7  0.5159  148.5
 5.100  0.8694  102.9   0.759    3.8  0.2335   31.9  0.5221  147.9
 5.200  0.8701  102.0   0.746    2.8  0.2368   31.1  0.5284  147.4
 5.300  0.8710  101.1   0.734    1.8  0.2402   30.4  0.5347  146.8
 5.400  0.8721  100.2   0.721    0.8  0.2436   29.6  0.5411  146.3
 5.500  0.8734   99.3   0.709   -0.3  0.2470   28.9  0.5475  145.8
 5.600  0.8726   98.4   0.698   -1.1  0.2500   28.0  0.5507  145.3
 5.700  0.8720   97.4   0.686   -1.9  0.2530   27.2  0.5540  144.9
 5.800  0.8716   96.5   0.675   -2.8  0.2561   26.4  0.5573  144.5
 5.900  0.8715   95.5   0.664   -3.7  0.2592   25.6  0.5606  144.0
 6.000  0.8716   94.6   0.653   -4.6  0.2624   24.8  0.5640  143.6
!
!  f       NFmin   Gammaopt  rn/50
! GHz       dB    MAG  ANG    -
 0.450      1.73  0.57 -175   0.06
 0.900      1.87  0.60 -168   0.08
 1.900      2.74  0.70 -148   0.21
 2.400      3.15  0.74 -143   0.34
!
! (c) 2017  Infineon Technologies AG, Munich