! Infineon Technologies  Discrete & RF Semiconductors
! BFP196W
! VCE =  5.0 V,  IC =  90 mA
! Common Emitter S-Parameters:                            Jan 2017
# GHz  S  MA  R  50
!  f         S11            S21            S12            S22
! GHz     MAG   ANG      MAG   ANG      MAG   ANG      MAG   ANG
 0.010  0.2003  -96.7  97.442  166.1  0.0025   77.1  0.9041  -18.5
 0.020  0.3668 -114.7  89.473  152.8  0.0049   67.6  0.8375  -36.0
 0.030  0.4419 -127.0  78.692  146.3  0.0066   59.0  0.7326  -46.3
 0.040  0.5310 -135.4  69.235  137.9  0.0083   53.9  0.6585  -59.5
 0.050  0.6283 -141.3  61.714  127.1  0.0101   50.6  0.6262  -74.9
 0.060  0.6447 -145.5  56.354  124.8  0.0106   49.8  0.5778  -79.9
 0.070  0.6645 -149.5  51.099  122.1  0.0112   49.1  0.5345  -85.7
 0.080  0.6872 -153.2  45.985  118.8  0.0117   48.4  0.4977  -92.5
 0.090  0.7126 -156.7  41.066  114.6  0.0123   47.8  0.4689 -100.2
 0.100  0.7405 -159.9  36.419  109.4  0.0128   47.3  0.4497 -108.8
 0.110  0.7454 -161.5  34.134  108.3  0.0134   47.7  0.4328 -112.0
 0.120  0.7509 -163.1  31.865  107.0  0.0140   48.0  0.4174 -115.5
 0.130  0.7569 -164.7  29.613  105.5  0.0145   48.3  0.4036 -119.2
 0.140  0.7636 -166.2  27.385  103.8  0.0151   48.5  0.3916 -123.1
 0.150  0.7707 -167.7  25.185  101.8  0.0157   48.8  0.3816 -127.3
 0.200  0.7759 -172.3  19.097   97.0  0.0161   51.1  0.3547 -138.1
 0.250  0.7840 -175.5  15.356   93.7  0.0193   53.9  0.3391 -145.8
 0.300  0.7860 -177.9  12.826   91.3  0.0214   56.8  0.3307 -151.0
 0.350  0.7873 -179.8  11.253   89.6  0.0239   59.0  0.3261 -154.5
 0.400  0.7894  178.3   9.692   87.4  0.0264   60.8  0.3228 -158.0
 0.450  0.7883  177.0   8.722   86.1  0.0289   62.3  0.3206 -160.2
 0.500  0.7877  175.6   7.758   84.4  0.0315   63.5  0.3189 -162.5
 0.600  0.7879  173.0   6.483   81.7  0.0367   64.7  0.3188 -165.7
 0.700  0.7903  170.8   5.555   79.4  0.0415   66.5  0.3170 -168.1
 0.800  0.7903  168.5   4.867   76.8  0.0472   67.2  0.3174 -169.8
 0.900  0.7904  166.4   4.316   74.6  0.0525   66.6  0.3173 -171.4
 1.000  0.7917  164.5   3.902   72.4  0.0578   66.6  0.3182 -172.9
 1.100  0.7930  162.5   3.554   70.3  0.0634   66.6  0.3190 -174.0
 1.200  0.7949  160.5   3.258   68.0  0.0685   65.8  0.3197 -175.1
 1.300  0.7941  158.6   3.013   66.1  0.0735   65.7  0.3211 -176.2
 1.400  0.7964  156.7   2.813   63.9  0.0795   65.2  0.3232 -177.3
 1.500  0.7995  154.9   2.624   61.9  0.0839   64.3  0.3259 -178.3
 1.600  0.8010  153.2   2.469   59.8  0.0897   63.6  0.3278 -179.2
 1.700  0.8037  151.1   2.331   57.7  0.0948   62.9  0.3315  179.9
 1.800  0.8061  149.2   2.214   55.5  0.0999   61.8  0.3350  178.9
 1.900  0.8086  147.6   2.096   53.7  0.1049   61.2  0.3387  178.0
 2.000  0.8081  145.8   1.993   51.5  0.1098   60.1  0.3423  177.2
 2.100  0.8101  143.9   1.903   49.5  0.1148   59.2  0.3467  176.3
 2.200  0.8130  142.1   1.816   47.4  0.1199   58.3  0.3511  175.4
 2.300  0.8151  140.4   1.740   45.6  0.1246   57.3  0.3556  174.6
 2.400  0.8179  138.8   1.666   43.6  0.1294   56.4  0.3601  173.9
 2.500  0.8191  137.2   1.601   41.8  0.1340   55.4  0.3651  173.1
 2.600  0.8210  135.6   1.537   39.9  0.1386   54.5  0.3701  172.3
 2.700  0.8231  134.0   1.480   38.2  0.1429   53.5  0.3747  171.4
 2.800  0.8259  132.4   1.425   36.4  0.1473   52.6  0.3793  170.5
 2.900  0.8274  130.9   1.377   34.7  0.1515   51.5  0.3843  169.6
 3.000  0.8294  129.4   1.330   32.9  0.1557   50.5  0.3893  168.8
 3.100  0.8308  127.9   1.291   31.5  0.1596   49.6  0.3936  167.8
 3.200  0.8328  126.4   1.252   29.9  0.1636   48.7  0.3980  166.9
 3.300  0.8353  124.9   1.215   28.3  0.1676   47.8  0.4025  166.0
 3.400  0.8384  123.5   1.178   26.5  0.1716   47.0  0.4071  165.1
 3.500  0.8420  122.0   1.143   24.7  0.1757   46.2  0.4118  164.2
 3.600  0.8430  120.6   1.113   23.3  0.1794   45.2  0.4170  163.2
 3.700  0.8446  119.2   1.084   21.9  0.1831   44.3  0.4223  162.2
 3.800  0.8466  117.8   1.055   20.3  0.1869   43.4  0.4277  161.2
 3.900  0.8492  116.4   1.028   18.7  0.1907   42.5  0.4332  160.2
 4.000  0.8522  115.0   1.001   17.0  0.1946   41.7  0.4389  159.3
 4.100  0.8524  113.8   0.977   15.7  0.1981   40.7  0.4448  158.2
 4.200  0.8530  112.5   0.953   14.4  0.2016   39.8  0.4509  157.2
 4.300  0.8539  111.3   0.929   13.0  0.2052   38.8  0.4572  156.2
 4.400  0.8553  110.0   0.906   11.5  0.2089   38.0  0.4636  155.2
 4.500  0.8571  108.8   0.884   10.0  0.2126   37.1  0.4701  154.2
 4.600  0.8584  107.8   0.864    9.0  0.2158   36.3  0.4765  153.3
 4.700  0.8600  106.9   0.844    8.0  0.2190   35.5  0.4831  152.5
 4.800  0.8618  105.9   0.825    6.9  0.2222   34.7  0.4897  151.7
 4.900  0.8639  105.0   0.806    5.7  0.2255   33.9  0.4965  150.9
 5.000  0.8662  104.0   0.787    4.5  0.2288   33.2  0.5033  150.1
 5.100  0.8669  103.1   0.774    3.5  0.2320   32.4  0.5097  149.5
 5.200  0.8678  102.2   0.760    2.6  0.2352   31.6  0.5162  148.9
 5.300  0.8690  101.2   0.747    1.5  0.2385   30.8  0.5227  148.4
 5.400  0.8704  100.3   0.735    0.5  0.2418   30.0  0.5293  147.8
 5.500  0.8720   99.4   0.722   -0.6  0.2452   29.3  0.5359  147.3
 5.600  0.8709   98.5   0.710   -1.4  0.2483   28.5  0.5394  146.8
 5.700  0.8701   97.6   0.698   -2.3  0.2514   27.6  0.5429  146.4
 5.800  0.8695   96.6   0.686   -3.2  0.2545   26.8  0.5465  145.9
 5.900  0.8691   95.7   0.674   -4.1  0.2577   26.1  0.5501  145.4
 6.000  0.8689   94.8   0.663   -5.1  0.2610   25.3  0.5537  145.0
!
!  f       NFmin   Gammaopt  rn/50
! GHz       dB    MAG  ANG    -
 0.450      1.78  0.58 -175   0.06
 0.900      1.93  0.60 -168   0.08
 1.900      2.83  0.71 -147   0.22
 2.400      3.27  0.75 -142   0.36
!
! (c) 2017  Infineon Technologies AG, Munich