! Infineon Technologies  Discrete & RF Semiconductors
! BFP196W
! VCE =  10. V,  IC =  45 mA
! Common Emitter S-Parameters:                            Jan 2017
# GHz  S  MA  R  50
!  f         S11            S21            S12            S22
! GHz     MAG   ANG      MAG   ANG      MAG   ANG      MAG   ANG
 0.010  0.3658  -30.9  74.627  170.0  0.0032   76.0  0.9362  -12.5
 0.020  0.4144  -58.8  70.807  159.9  0.0067   69.3  0.8979  -24.2
 0.030  0.4295  -77.6  64.893  153.6  0.0091   61.0  0.8187  -32.6
 0.040  0.4856  -93.6  59.923  146.1  0.0116   56.2  0.7604  -42.5
 0.050  0.5708 -105.6  56.149  137.4  0.0142   53.1  0.7283  -53.7
 0.060  0.5774 -113.1  51.891  134.6  0.0151   50.6  0.6733  -58.0
 0.070  0.5936 -120.3  47.777  131.4  0.0160   48.5  0.6228  -63.1
 0.080  0.6185 -127.0  43.846  127.5  0.0169   46.5  0.5780  -69.0
 0.090  0.6513 -133.1  40.154  122.9  0.0178   44.8  0.5404  -75.9
 0.100  0.6907 -138.6  36.772  117.4  0.0188   43.2  0.5115  -83.6
 0.110  0.6961 -141.5  34.621  115.9  0.0192   42.5  0.4856  -86.6
 0.120  0.7032 -144.4  32.497  114.3  0.0197   41.9  0.4612  -89.9
 0.130  0.7121 -147.3  30.403  112.4  0.0201   41.3  0.4385  -93.6
 0.140  0.7228 -150.0  28.348  110.2  0.0206   40.7  0.4178  -97.6
 0.150  0.7350 -152.7  26.339  107.7  0.0210   40.1  0.3994 -102.1
 0.200  0.7454 -160.7  20.255  101.6  0.0222   39.4  0.3437 -114.2
 0.250  0.7560 -166.3  16.404   97.4  0.0245   42.0  0.3095 -123.5
 0.300  0.7581 -170.1  13.742   94.4  0.0256   43.6  0.2894 -130.4
 0.350  0.7597 -172.9  12.074   92.4  0.0275   46.1  0.2775 -135.1
 0.400  0.7632 -175.7  10.426   89.7  0.0295   48.2  0.2676 -140.1
 0.450  0.7618 -177.7   9.388   88.1  0.0315   49.9  0.2618 -143.2
 0.500  0.7613 -179.8   8.358   86.2  0.0336   51.3  0.2568 -146.4
 0.600  0.7664  177.0   6.992   83.2  0.0371   54.0  0.2529 -151.1
 0.700  0.7658  174.2   5.988   80.6  0.0416   56.7  0.2482 -154.4
 0.800  0.7690  171.6   5.251   77.9  0.0468   58.7  0.2478 -156.8
 0.900  0.7675  169.2   4.657   75.5  0.0513   58.7  0.2476 -159.0
 1.000  0.7701  167.0   4.209   73.2  0.0555   59.9  0.2474 -160.8
 1.100  0.7717  164.7   3.833   71.0  0.0610   60.2  0.2485 -162.0
 1.200  0.7729  162.7   3.513   68.6  0.0650   60.1  0.2490 -163.5
 1.300  0.7717  160.6   3.245   66.6  0.0700   59.9  0.2510 -164.5
 1.400  0.7749  158.7   3.029   64.4  0.0743   60.3  0.2536 -165.8
 1.500  0.7790  156.9   2.825   62.3  0.0791   60.2  0.2567 -166.9
 1.600  0.7819  154.8   2.657   60.1  0.0836   59.6  0.2590 -167.9
 1.700  0.7833  152.9   2.508   58.0  0.0886   59.3  0.2631 -168.9
 1.800  0.7864  150.9   2.380   55.8  0.0936   58.9  0.2672 -169.9
 1.900  0.7885  149.2   2.254   53.9  0.0982   58.7  0.2720 -170.8
 2.000  0.7900  147.2   2.140   51.7  0.1027   57.9  0.2761 -171.8
 2.100  0.7917  145.3   2.044   49.7  0.1073   57.2  0.2813 -172.8
 2.200  0.7943  143.5   1.950   47.5  0.1120   56.5  0.2866 -173.7
 2.300  0.7976  141.8   1.868   45.6  0.1165   55.7  0.2921 -174.6
 2.400  0.8016  140.2   1.788   43.6  0.1211   55.0  0.2977 -175.4
 2.500  0.8021  138.6   1.716   41.8  0.1253   54.2  0.3036 -176.2
 2.600  0.8033  137.0   1.646   39.8  0.1296   53.5  0.3096 -177.0
 2.700  0.8068  135.3   1.585   38.1  0.1339   52.8  0.3151 -178.0
 2.800  0.8109  133.7   1.526   36.2  0.1382   52.1  0.3206 -178.9
 2.900  0.8118  132.1   1.473   34.5  0.1422   51.2  0.3267 -179.8
 3.000  0.8132  130.6   1.422   32.6  0.1463   50.4  0.3328  179.3
 3.100  0.8153  129.1   1.379   31.1  0.1503   49.6  0.3382  178.3
 3.200  0.8179  127.5   1.337   29.5  0.1543   48.8  0.3437  177.2
 3.300  0.8211  126.0   1.297   27.9  0.1583   48.1  0.3494  176.3
 3.400  0.8249  124.5   1.257   26.1  0.1623   47.4  0.3551  175.3
 3.500  0.8293  123.0   1.219   24.2  0.1664   46.7  0.3609  174.4
 3.600  0.8306  121.6   1.186   22.8  0.1702   45.8  0.3670  173.2
 3.700  0.8324  120.2   1.154   21.3  0.1740   44.9  0.3732  172.1
 3.800  0.8347  118.8   1.122   19.7  0.1778   44.1  0.3796  171.0
 3.900  0.8375  117.4   1.092   18.1  0.1817   43.3  0.3861  169.9
 4.000  0.8408  116.0   1.062   16.3  0.1856   42.5  0.3927  168.9
 4.100  0.8415  114.8   1.035   15.0  0.1891   41.6  0.3996  167.7
 4.200  0.8425  113.5   1.009   13.6  0.1926   40.8  0.4068  166.5
 4.300  0.8440  112.3   0.984   12.2  0.1962   40.0  0.4140  165.3
 4.400  0.8459  111.0   0.959   10.7  0.1998   39.2  0.4215  164.2
 4.500  0.8481  109.8   0.935    9.1  0.2034   38.4  0.4291  163.1
 4.600  0.8497  108.8   0.913    8.1  0.2068   37.6  0.4367  162.1
 4.700  0.8515  107.8   0.890    7.0  0.2101   36.9  0.4445  161.1
 4.800  0.8536  106.8   0.869    5.9  0.2136   36.2  0.4524  160.1
 4.900  0.8560  105.8   0.847    4.7  0.2170   35.5  0.4604  159.2
 5.000  0.8586  104.8   0.826    3.4  0.2205   34.8  0.4685  158.3
 5.100  0.8593  103.9   0.811    2.4  0.2238   34.0  0.4762  157.6
 5.200  0.8603  102.9   0.796    1.4  0.2272   33.2  0.4840  156.9
 5.300  0.8614  102.0   0.782    0.3  0.2306   32.5  0.4918  156.3
 5.400  0.8629  101.0   0.768   -0.8  0.2341   31.7  0.4997  155.6
 5.500  0.8645  100.1   0.754   -1.9  0.2376   31.0  0.5077  155.0
 5.600  0.8637   99.2   0.740   -2.8  0.2409   30.2  0.5126  154.4
 5.700  0.8632   98.2   0.727   -3.6  0.2442   29.4  0.5176  153.9
 5.800  0.8629   97.3   0.714   -4.6  0.2476   28.6  0.5227  153.3
 5.900  0.8628   96.3   0.701   -5.5  0.2510   27.8  0.5278  152.8
 6.000  0.8630   95.4   0.688   -6.5  0.2545   27.1  0.5329  152.3
!
!  f       NFmin   Gammaopt  rn/50
! GHz       dB    MAG  ANG    -
 0.450      1.31  0.50 -177   0.05
 0.900      1.44  0.54 -172   0.07
 1.900      2.26  0.69 -150   0.15
 2.400      2.66  0.73 -145   0.25
!
! (c) 2017  Infineon Technologies AG, Munich