! Infineon Technologies  Discrete & RF Semiconductors
! BFP196W
! VCE =  2.0 V,  IC =  40 mA
! Common Emitter S-Parameters:                            Jan 2017
# GHz  S  MA  R  50
!  f         S11            S21            S12            S22
! GHz     MAG   ANG      MAG   ANG      MAG   ANG      MAG   ANG
 0.010  0.2716  -53.1  74.203  168.0  0.0038   76.5  0.9454  -17.2
 0.020  0.3820  -84.8  69.233  155.8  0.0082   68.5  0.8890  -33.1
 0.030  0.4319 -103.2  61.889  149.2  0.0104   58.6  0.7901  -43.4
 0.040  0.5156 -116.7  55.568  141.0  0.0129   52.3  0.7234  -56.2
 0.050  0.6196 -126.1  50.654  131.0  0.0154   48.0  0.6982  -70.6
 0.060  0.6335 -131.9  46.433  128.5  0.0161   46.1  0.6457  -75.8
 0.070  0.6535 -137.3  42.316  125.6  0.0168   44.3  0.5994  -81.8
 0.080  0.6790 -142.4  38.334  122.0  0.0176   42.7  0.5608  -88.8
 0.090  0.7095 -147.1  34.536  117.6  0.0183   41.2  0.5316  -96.6
 0.100  0.7444 -151.4  30.989  112.2  0.0191   39.8  0.5134 -105.2
 0.110  0.7502 -153.6  29.084  110.9  0.0195   39.5  0.4944 -108.6
 0.120  0.7571 -155.7  27.196  109.5  0.0199   39.2  0.4774 -112.3
 0.130  0.7651 -157.8  25.327  107.8  0.0204   39.0  0.4624 -116.2
 0.140  0.7741 -159.9  23.483  105.9  0.0208   38.7  0.4497 -120.3
 0.150  0.7840 -161.9  21.669  103.7  0.0212   38.5  0.4395 -124.7
 0.200  0.7925 -167.8  16.509   98.4  0.0226   41.3  0.4083 -136.1
 0.250  0.8010 -172.0  13.298   94.7  0.0251   42.9  0.3909 -144.3
 0.300  0.8011 -175.0  11.130   92.1  0.0266   44.7  0.3802 -149.8
 0.350  0.8031 -177.2   9.762   90.2  0.0284   47.2  0.3744 -153.5
 0.400  0.8063 -179.3   8.408   87.8  0.0302   49.4  0.3701 -157.2
 0.450  0.8051  178.9   7.568   86.4  0.0329   50.9  0.3678 -159.6
 0.500  0.8046  177.1   6.734   84.6  0.0356   52.1  0.3662 -162.0
 0.600  0.8053  174.5   5.632   81.7  0.0409   55.6  0.3656 -165.4
 0.700  0.8067  171.9   4.825   79.3  0.0451   57.6  0.3626 -168.1
 0.800  0.8071  169.5   4.228   76.6  0.0508   59.1  0.3629 -170.0
 0.900  0.8060  167.3   3.750   74.3  0.0552   59.2  0.3635 -171.7
 1.000  0.8082  165.3   3.392   72.0  0.0602   60.2  0.3638 -173.4
 1.100  0.8111  163.3   3.094   69.8  0.0657   60.3  0.3648 -174.6
 1.200  0.8114  161.2   2.836   67.5  0.0708   60.2  0.3649 -175.9
 1.300  0.8109  159.1   2.623   65.4  0.0761   60.3  0.3671 -176.9
 1.400  0.8142  157.3   2.450   63.2  0.0816   60.3  0.3696 -178.2
 1.500  0.8168  155.4   2.287   61.1  0.0865   59.9  0.3721 -179.3
 1.600  0.8193  153.5   2.152   58.9  0.0918   59.2  0.3740  179.7
 1.700  0.8187  151.5   2.034   56.8  0.0970   58.6  0.3776  178.7
 1.800  0.8227  149.5   1.932   54.5  0.1021   58.0  0.3812  177.7
 1.900  0.8250  147.9   1.833   52.7  0.1074   57.4  0.3843  176.8
 2.000  0.8253  146.1   1.742   50.5  0.1124   56.6  0.3882  175.9
 2.100  0.8271  144.2   1.664   48.4  0.1173   55.8  0.3926  174.9
 2.200  0.8299  142.3   1.589   46.2  0.1223   55.1  0.3972  173.9
 2.300  0.8318  140.6   1.523   44.3  0.1272   54.2  0.4017  173.0
 2.400  0.8344  138.9   1.459   42.3  0.1322   53.4  0.4062  172.2
 2.500  0.8352  137.3   1.402   40.5  0.1366   52.4  0.4111  171.3
 2.600  0.8367  135.7   1.347   38.6  0.1411   51.5  0.4160  170.5
 2.700  0.8391  134.0   1.298   36.9  0.1455   50.7  0.4207  169.6
 2.800  0.8422  132.4   1.251   35.0  0.1500   49.9  0.4255  168.8
 2.900  0.8427  130.9   1.209   33.3  0.1542   48.9  0.4303  167.8
 3.000  0.8438  129.4   1.168   31.5  0.1585   48.0  0.4353  166.9
 3.100  0.8452  127.9   1.134   30.0  0.1624   47.1  0.4395  165.9
 3.200  0.8472  126.3   1.101   28.5  0.1664   46.2  0.4438  165.0
 3.300  0.8499  124.8   1.068   26.9  0.1703   45.4  0.4482  164.0
 3.400  0.8531  123.3   1.037   25.1  0.1744   44.6  0.4527  163.1
 3.500  0.8569  121.8   1.006   23.3  0.1784   43.9  0.4574  162.2
 3.600  0.8574  120.4   0.980   22.0  0.1822   43.0  0.4624  161.2
 3.700  0.8585  119.0   0.955   20.5  0.1860   42.1  0.4676  160.1
 3.800  0.8600  117.6   0.930   19.0  0.1899   41.2  0.4730  159.1
 3.900  0.8621  116.3   0.906   17.5  0.1938   40.4  0.4785  158.2
 4.000  0.8646  114.9   0.883   15.8  0.1977   39.6  0.4841  157.2
 4.100  0.8646  113.6   0.862   14.6  0.2012   38.7  0.4901  156.1
 4.200  0.8651  112.4   0.841   13.3  0.2047   37.7  0.4963  155.1
 4.300  0.8660  111.1   0.821   11.9  0.2083   36.9  0.5026  154.1
 4.400  0.8673  109.9   0.801   10.5  0.2119   36.0  0.5091  153.1
 4.500  0.8690  108.6   0.782    9.0  0.2156   35.2  0.5158  152.1
 4.600  0.8698  107.6   0.765    8.0  0.2188   34.4  0.5220  151.2
 4.700  0.8708  106.7   0.748    7.0  0.2220   33.6  0.5284  150.3
 4.800  0.8720  105.7   0.731    6.0  0.2253   32.9  0.5349  149.5
 4.900  0.8736  104.8   0.714    4.9  0.2286   32.1  0.5415  148.6
 5.000  0.8753  103.8   0.698    3.7  0.2319   31.4  0.5482  147.8
 5.100  0.8760  102.9   0.687    2.8  0.2351   30.6  0.5544  147.2
 5.200  0.8769  102.0   0.676    1.9  0.2384   29.8  0.5607  146.6
 5.300  0.8780  101.0   0.665    1.0  0.2417   29.1  0.5670  146.0
 5.400  0.8793  100.1   0.654    0.0  0.2451   28.3  0.5734  145.5
 5.500  0.8809   99.2   0.644   -1.0  0.2485   27.6  0.5799  144.9
 5.600  0.8800   98.3   0.634   -1.7  0.2515   26.8  0.5830  144.4
 5.700  0.8793   97.3   0.623   -2.5  0.2546   25.9  0.5862  143.9
 5.800  0.8789   96.4   0.613   -3.3  0.2577   25.1  0.5894  143.4
 5.900  0.8787   95.4   0.603   -4.1  0.2609   24.4  0.5927  143.0
 6.000  0.8788   94.5   0.593   -5.0  0.2641   23.6  0.5960  142.5
!
!  f       NFmin   Gammaopt  rn/50
! GHz       dB    MAG  ANG    -
 0.450      1.24  0.48 -179   0.06
 0.900      1.39  0.54 -173   0.06
 1.900      2.21  0.69 -150   0.14
 2.400      2.61  0.73 -145   0.23
!
! (c) 2017  Infineon Technologies AG, Munich