! Infineon Technologies  Discrete & RF Semiconductors
! BFP196W
! VCE =  9.0 V,  IC =  35 mA
! Common Emitter S-Parameters:                            Jan 2017
# GHz  S  MA  R  50
!  f         S11            S21            S12            S22
! GHz     MAG   ANG      MAG   ANG      MAG   ANG      MAG   ANG
 0.010  0.4177  -26.0  67.134  170.9  0.0033   79.9  0.9561  -11.4
 0.020  0.4492  -51.2  64.193  161.4  0.0068   75.9  0.9195  -22.1
 0.030  0.4539  -69.1  59.337  155.2  0.0093   65.8  0.8470  -30.1
 0.040  0.4996  -85.1  55.293  148.0  0.0120   60.1  0.7938  -39.4
 0.050  0.5767  -97.6  52.251  139.8  0.0148   56.5  0.7641  -49.7
 0.060  0.5795 -105.5  48.455  136.9  0.0159   53.3  0.7083  -53.9
 0.070  0.5933 -113.3  44.803  133.5  0.0171   50.5  0.6569  -58.8
 0.080  0.6172 -120.5  41.335  129.6  0.0182   48.1  0.6112  -64.5
 0.090  0.6502 -127.1  38.101  124.9  0.0195   46.0  0.5724  -71.0
 0.100  0.6909 -133.0  35.164  119.4  0.0207   44.1  0.5420  -78.4
 0.110  0.6954 -136.3  33.155  117.8  0.0212   42.9  0.5141  -81.3
 0.120  0.7021 -139.5  31.173  116.1  0.0216   41.7  0.4877  -84.5
 0.130  0.7111 -142.7  29.224  114.1  0.0221   40.6  0.4630  -88.1
 0.140  0.7222 -145.8  27.316  111.8  0.0226   39.5  0.4403  -92.1
 0.150  0.7353 -148.8  25.458  109.2  0.0231   38.5  0.4200  -96.5
 0.200  0.7476 -157.7  19.655  102.8  0.0244   38.0  0.3561 -108.5
 0.250  0.7561 -164.0  15.964   98.3  0.0266   38.7  0.3163 -117.7
 0.300  0.7606 -168.0  13.390   95.2  0.0277   41.0  0.2924 -124.8
 0.350  0.7625 -171.1  11.773   93.1  0.0294   42.6  0.2778 -129.6
 0.400  0.7667 -174.2  10.178   90.3  0.0311   44.1  0.2653 -134.9
 0.450  0.7658 -176.3   9.162   88.7  0.0329   46.4  0.2585 -138.3
 0.500  0.7659 -178.5   8.156   86.6  0.0348   48.4  0.2526 -141.8
 0.600  0.7684  178.2   6.824   83.5  0.0389   50.2  0.2466 -146.8
 0.700  0.7688  175.3   5.849   80.8  0.0419   53.3  0.2411 -150.3
 0.800  0.7714  172.4   5.129   78.0  0.0472   55.5  0.2401 -152.8
 0.900  0.7699  169.9   4.547   75.5  0.0510   55.7  0.2396 -155.0
 1.000  0.7726  167.6   4.108   73.2  0.0559   56.8  0.2393 -157.1
 1.100  0.7756  165.4   3.745   70.9  0.0603   57.9  0.2407 -158.4
 1.200  0.7757  163.3   3.431   68.5  0.0648   58.0  0.2414 -159.8
 1.300  0.7767  161.2   3.170   66.4  0.0689   58.4  0.2436 -161.1
 1.400  0.7784  159.2   2.958   64.2  0.0741   58.5  0.2458 -162.2
 1.500  0.7820  157.3   2.759   62.0  0.0781   58.4  0.2491 -163.5
 1.600  0.7846  155.2   2.595   59.8  0.0825   58.1  0.2518 -164.4
 1.700  0.7861  153.3   2.448   57.8  0.0870   58.2  0.2566 -165.5
 1.800  0.7903  151.4   2.322   55.5  0.0922   57.5  0.2606 -166.6
 1.900  0.7920  149.7   2.201   53.6  0.0964   57.4  0.2650 -167.5
 2.000  0.7931  147.7   2.090   51.4  0.1009   56.7  0.2702 -168.5
 2.100  0.7951  145.7   1.995   49.4  0.1055   56.2  0.2755 -169.6
 2.200  0.7981  143.8   1.903   47.1  0.1101   55.7  0.2809 -170.6
 2.300  0.8011  142.1   1.823   45.2  0.1146   55.0  0.2869 -171.5
 2.400  0.8048  140.4   1.745   43.1  0.1192   54.3  0.2929 -172.4
 2.500  0.8057  138.7   1.675   41.3  0.1234   53.7  0.2991 -173.3
 2.600  0.8072  137.1   1.607   39.3  0.1277   53.1  0.3054 -174.1
 2.700  0.8103  135.5   1.547   37.6  0.1318   52.4  0.3114 -175.0
 2.800  0.8141  133.9   1.489   35.7  0.1359   51.7  0.3175 -175.9
 2.900  0.8154  132.3   1.438   34.0  0.1401   50.9  0.3237 -177.0
 3.000  0.8172  130.8   1.388   32.1  0.1444   50.1  0.3300 -178.0
 3.100  0.8191  129.3   1.346   30.6  0.1483   49.4  0.3358 -179.1
 3.200  0.8215  127.7   1.304   29.0  0.1523   48.7  0.3417  179.9
 3.300  0.8245  126.2   1.264   27.3  0.1562   48.0  0.3477  178.8
 3.400  0.8281  124.7   1.225   25.4  0.1602   47.4  0.3539  177.8
 3.500  0.8323  123.2   1.187   23.5  0.1642   46.8  0.3601  176.9
 3.600  0.8338  121.8   1.155   22.1  0.1680   45.9  0.3666  175.7
 3.700  0.8357  120.4   1.124   20.6  0.1719   45.0  0.3732  174.5
 3.800  0.8382  119.0   1.093   19.0  0.1757   44.2  0.3800  173.4
 3.900  0.8411  117.6   1.064   17.4  0.1797   43.4  0.3869  172.3
 4.000  0.8446  116.2   1.035   15.6  0.1836   42.7  0.3940  171.2
 4.100  0.8452  114.9   1.009   14.3  0.1872   41.8  0.4012  169.9
 4.200  0.8462  113.7   0.983   12.9  0.1909   41.0  0.4086  168.6
 4.300  0.8476  112.4   0.958   11.5  0.1946   40.1  0.4162  167.4
 4.400  0.8494  111.2   0.933   10.0  0.1983   39.4  0.4240  166.2
 4.500  0.8516  109.9   0.909    8.4  0.2021   38.6  0.4320  165.1
 4.600  0.8531  108.9   0.887    7.4  0.2055   37.8  0.4399  164.0
 4.700  0.8549  107.8   0.866    6.3  0.2090   37.1  0.4479  163.0
 4.800  0.8569  106.8   0.845    5.1  0.2124   36.4  0.4561  162.0
 4.900  0.8592  105.8   0.824    4.0  0.2160   35.7  0.4644  161.0
 5.000  0.8618  104.8   0.804    2.7  0.2195   35.0  0.4728  160.1
 5.100  0.8629  103.9   0.789    1.8  0.2230   34.2  0.4809  159.3
 5.200  0.8642  103.0   0.774    0.8  0.2265   33.5  0.4891  158.6
 5.300  0.8658  102.0   0.760   -0.2  0.2300   32.8  0.4973  157.9
 5.400  0.8675  101.1   0.746   -1.3  0.2336   32.1  0.5057  157.2
 5.500  0.8695  100.2   0.732   -2.4  0.2372   31.4  0.5141  156.5
 5.600  0.8685   99.3   0.718   -3.3  0.2405   30.6  0.5194  155.9
 5.700  0.8677   98.3   0.705   -4.1  0.2438   29.7  0.5247  155.3
 5.800  0.8671   97.4   0.692   -5.1  0.2471   28.9  0.5301  154.7
 5.900  0.8668   96.4   0.679   -6.0  0.2505   28.2  0.5356  154.1
 6.000  0.8667   95.5   0.666   -7.0  0.2540   27.4  0.5411  153.5
!
!  f       NFmin   Gammaopt  rn/50
! GHz       dB    MAG  ANG    -
 0.450      1.19  0.46  180   0.06
 0.900      1.33  0.53 -174   0.06
 1.900      2.17  0.68 -151   0.13
 2.400      2.57  0.73 -145   0.23
!
! (c) 2017  Infineon Technologies AG, Munich