! Infineon Technologies  Discrete & RF Semiconductors
! BFP196W
! VCE =  9.0 V,  IC =  20 mA
! Common Emitter S-Parameters:                            Jan 2017
# GHz  S  MA  R  50
!  f         S11            S21            S12            S22
! GHz     MAG   ANG      MAG   ANG      MAG   ANG      MAG   ANG
 0.010  0.5681  -16.7  48.962  173.2  0.0041   81.1  0.9748   -8.5
 0.020  0.5729  -35.1  47.473  165.3  0.0080   82.4  0.9484  -16.3
 0.030  0.5578  -48.8  44.922  159.7  0.0111   71.3  0.8966  -22.9
 0.040  0.5753  -62.5  42.856  153.4  0.0145   65.1  0.8582  -30.2
 0.050  0.6227  -74.7  41.349  146.6  0.0179   61.3  0.8349  -38.1
 0.060  0.6122  -83.1  38.814  143.5  0.0196   56.7  0.7832  -41.9
 0.070  0.6149  -91.5  36.411  139.9  0.0214   52.9  0.7355  -46.2
 0.080  0.6308  -99.7  34.169  135.9  0.0233   49.7  0.6924  -51.1
 0.090  0.6588 -107.4  32.119  131.3  0.0252   46.9  0.6550  -56.5
 0.100  0.6976 -114.3  30.303  126.1  0.0272   44.6  0.6242  -62.6
 0.110  0.6980 -118.5  28.720  124.3  0.0279   43.1  0.5923  -65.1
 0.120  0.7022 -122.7  27.170  122.2  0.0286   41.7  0.5618  -68.0
 0.130  0.7100 -126.8  25.658  120.0  0.0293   40.4  0.5328  -71.1
 0.140  0.7215 -130.8  24.192  117.4  0.0300   39.1  0.5055  -74.6
 0.150  0.7363 -134.7  22.781  114.5  0.0308   37.9  0.4804  -78.5
 0.200  0.7506 -146.5  17.905  107.0  0.0322   34.4  0.3952  -89.1
 0.250  0.7596 -154.7  14.677  101.7  0.0344   33.6  0.3380  -97.3
 0.300  0.7630 -160.4  12.381   98.0  0.0350   32.8  0.3003 -103.8
 0.350  0.7643 -164.3  10.904   95.5  0.0360   34.0  0.2772 -108.4
 0.400  0.7690 -168.1   9.455   92.2  0.0371   35.2  0.2562 -113.7
 0.450  0.7681 -170.8   8.521   90.3  0.0387   36.3  0.2438 -117.0
 0.500  0.7689 -173.6   7.599   88.0  0.0404   37.3  0.2323 -120.7
 0.600  0.7711 -177.8   6.364   84.5  0.0432   39.9  0.2192 -126.2
 0.700  0.7730  178.7   5.455   81.5  0.0454   42.2  0.2100 -130.2
 0.800  0.7743  175.4   4.786   78.3  0.0492   45.2  0.2071 -133.0
 0.900  0.7745  172.7   4.246   75.7  0.0527   46.1  0.2053 -135.7
 1.000  0.7762  170.2   3.839   73.1  0.0556   47.8  0.2042 -138.1
 1.100  0.7791  167.7   3.495   70.7  0.0596   49.3  0.2054 -139.6
 1.200  0.7798  165.3   3.203   68.1  0.0629   50.1  0.2062 -141.2
 1.300  0.7802  163.1   2.960   65.8  0.0664   50.6  0.2092 -142.6
 1.400  0.7838  161.1   2.759   63.5  0.0706   52.1  0.2121 -144.2
 1.500  0.7871  159.1   2.573   61.2  0.0744   52.2  0.2164 -145.7
 1.600  0.7904  156.9   2.420   58.9  0.0782   52.7  0.2203 -146.9
 1.700  0.7914  154.8   2.285   56.7  0.0823   53.0  0.2257 -148.3
 1.800  0.7945  152.8   2.165   54.3  0.0863   53.0  0.2307 -149.6
 1.900  0.7975  150.9   2.051   52.3  0.0902   53.3  0.2369 -150.9
 2.000  0.8009  149.0   1.947   50.0  0.0949   53.2  0.2428 -152.1
 2.100  0.8027  147.0   1.859   47.9  0.0988   53.0  0.2495 -153.5
 2.200  0.8055  145.0   1.773   45.6  0.1028   52.8  0.2563 -154.9
 2.300  0.8080  143.3   1.698   43.6  0.1069   52.6  0.2634 -156.2
 2.400  0.8112  141.6   1.626   41.4  0.1110   52.4  0.2707 -157.4
 2.500  0.8126  139.9   1.560   39.5  0.1151   52.0  0.2786 -158.6
 2.600  0.8147  138.2   1.496   37.5  0.1193   51.6  0.2867 -159.8
 2.700  0.8175  136.5   1.440   35.7  0.1233   51.2  0.2940 -161.1
 2.800  0.8211  134.8   1.386   33.7  0.1273   50.9  0.3015 -162.3
 2.900  0.8229  133.1   1.337   31.9  0.1315   50.3  0.3091 -163.6
 3.000  0.8253  131.5   1.289   29.9  0.1357   49.7  0.3169 -164.9
 3.100  0.8271  129.9   1.249   28.4  0.1397   49.2  0.3240 -166.3
 3.200  0.8295  128.4   1.210   26.7  0.1437   48.7  0.3313 -167.7
 3.300  0.8325  126.8   1.172   25.0  0.1478   48.2  0.3387 -169.0
 3.400  0.8361  125.3   1.135   23.2  0.1518   47.7  0.3463 -170.2
 3.500  0.8403  123.8   1.099   21.2  0.1559   47.3  0.3541 -171.4
 3.600  0.8416  122.4   1.068   19.8  0.1599   46.5  0.3616 -172.9
 3.700  0.8433  120.9   1.038   18.3  0.1639   45.8  0.3694 -174.4
 3.800  0.8456  119.5   1.009   16.7  0.1680   45.1  0.3774 -175.8
 3.900  0.8485  118.1   0.981   15.0  0.1721   44.4  0.3856 -177.1
 4.000  0.8518  116.7   0.953   13.2  0.1762   43.8  0.3940 -178.4
 4.100  0.8526  115.4   0.928   11.9  0.1800   43.0  0.4022  180.0
 4.200  0.8539  114.1   0.904   10.5  0.1839   42.2  0.4107  178.5
 4.300  0.8556  112.8   0.880    9.1  0.1877   41.4  0.4195  177.0
 4.400  0.8578  111.5   0.857    7.6  0.1917   40.7  0.4285  175.6
 4.500  0.8604  110.2   0.835    6.0  0.1956   40.0  0.4378  174.2
 4.600  0.8617  109.2   0.814    5.0  0.1993   39.2  0.4468  172.8
 4.700  0.8633  108.1   0.793    3.9  0.2030   38.5  0.4560  171.4
 4.800  0.8652  107.1   0.773    2.8  0.2067   37.8  0.4654  170.1
 4.900  0.8674  106.1   0.753    1.6  0.2105   37.2  0.4751  168.9
 5.000  0.8698  105.1   0.733    0.3  0.2143   36.5  0.4850  167.7
 5.100  0.8708  104.2   0.719   -0.6  0.2181   35.7  0.4942  166.7
 5.200  0.8721  103.2   0.705   -1.5  0.2219   35.0  0.5036  165.7
 5.300  0.8736  102.3   0.692   -2.5  0.2258   34.3  0.5131  164.7
 5.400  0.8753  101.3   0.678   -3.5  0.2297   33.6  0.5228  163.8
 5.500  0.8773  100.4   0.665   -4.5  0.2336   32.9  0.5326  162.9
 5.600  0.8763   99.4   0.652   -5.2  0.2373   32.0  0.5389  162.1
 5.700  0.8755   98.5   0.639   -6.0  0.2411   31.2  0.5453  161.3
 5.800  0.8750   97.5   0.627   -6.8  0.2449   30.4  0.5518  160.5
 5.900  0.8747   96.6   0.614   -7.6  0.2487   29.7  0.5584  159.7
 6.000  0.8747   95.6   0.602   -8.5  0.2526   28.9  0.5651  159.0
!
!  f       NFmin   Gammaopt  rn/50
! GHz       dB    MAG  ANG    -
 0.450      1.02  0.40  170   0.05
 0.900      1.20  0.51  178   0.05
 1.900      2.11  0.69 -155   0.11
 2.400      2.55  0.74 -147   0.20
!
! (c) 2017  Infineon Technologies AG, Munich