! Infineon Technologies  Discrete & RF Semiconductors
! BFP196W
! VCE =  1.0 V,  IC =  25 mA
! Common Emitter S-Parameters:                            Jan 2017
# GHz  S  MA  R  50
!  f         S11            S21            S12            S22
! GHz     MAG   ANG      MAG   ANG      MAG   ANG      MAG   ANG
 0.010  0.4114  -35.8  57.703  168.9  0.0058   79.1  0.9515  -16.6
 0.020  0.4702  -66.5  54.206  157.1  0.0114   72.2  0.9018  -32.1
 0.030  0.4882  -85.6  48.848  150.6  0.0145   60.6  0.8075  -42.6
 0.040  0.5538 -101.7  44.277  142.5  0.0181   53.3  0.7465  -55.3
 0.050  0.6529 -113.7  40.758  132.9  0.0218   48.4  0.7272  -69.4
 0.060  0.6579 -120.5  37.432  130.3  0.0229   45.5  0.6746  -74.8
 0.070  0.6719 -127.0  34.197  127.3  0.0240   42.9  0.6289  -81.0
 0.080  0.6943 -133.3  31.078  123.6  0.0252   40.5  0.5918  -88.1
 0.090  0.7243 -139.0  28.117  119.1  0.0264   38.4  0.5649  -96.1
 0.100  0.7611 -144.3  25.368  113.6  0.0277   36.4  0.5497 -104.6
 0.110  0.7661 -147.0  23.838  112.2  0.0282   35.5  0.5299 -108.1
 0.120  0.7727 -149.6  22.323  110.7  0.0287   34.5  0.5121 -111.8
 0.130  0.7809 -152.1  20.827  108.9  0.0292   33.7  0.4967 -115.7
 0.140  0.7906 -154.7  19.354  106.9  0.0297   32.8  0.4837 -119.9
 0.150  0.8018 -157.1  17.910  104.5  0.0302   32.0  0.4735 -124.3
 0.200  0.8097 -164.2  13.660   99.0  0.0310   32.5  0.4438 -136.2
 0.250  0.8166 -169.1  11.044   95.0  0.0334   33.2  0.4267 -144.1
 0.300  0.8180 -172.6   9.231   92.3  0.0345   34.9  0.4140 -149.9
 0.350  0.8189 -175.2   8.101   90.3  0.0363   37.0  0.4088 -153.6
 0.400  0.8215 -177.8   6.984   87.7  0.0381   38.9  0.4054 -157.3
 0.450  0.8208 -179.5   6.288   86.2  0.0398   40.5  0.4031 -159.7
 0.500  0.8208  178.7   5.597   84.3  0.0416   42.0  0.4015 -162.2
 0.600  0.8233  175.6   4.680   81.3  0.0459   45.2  0.4014 -165.8
 0.700  0.8220  172.9   4.011   78.7  0.0498   47.8  0.3975 -168.4
 0.800  0.8236  170.4   3.516   75.8  0.0554   50.1  0.3977 -170.2
 0.900  0.8210  167.9   3.121   73.4  0.0592   50.9  0.3995 -172.0
 1.000  0.8238  166.0   2.824   70.9  0.0638   52.3  0.4005 -173.8
 1.100  0.8262  163.8   2.577   68.6  0.0692   53.0  0.4006 -175.0
 1.200  0.8254  161.6   2.364   66.2  0.0741   53.5  0.4004 -176.2
 1.300  0.8260  159.7   2.187   64.1  0.0791   53.8  0.4038 -177.2
 1.400  0.8291  157.7   2.044   61.7  0.0843   54.1  0.4071 -178.6
 1.500  0.8322  155.8   1.910   59.5  0.0893   53.8  0.4086 -179.8
 1.600  0.8350  154.0   1.800   57.2  0.0942   53.8  0.4109  179.3
 1.700  0.8346  151.8   1.701   55.0  0.0994   53.8  0.4157  178.3
 1.800  0.8381  149.9   1.617   52.7  0.1044   53.3  0.4195  177.1
 1.900  0.8406  148.1   1.533   50.8  0.1094   52.7  0.4227  176.1
 2.000  0.8417  146.2   1.459   48.5  0.1143   52.2  0.4258  175.3
 2.100  0.8430  144.3   1.395   46.4  0.1192   51.6  0.4312  174.2
 2.200  0.8452  142.5   1.333   44.2  0.1242   51.1  0.4368  173.2
 2.300  0.8470  140.7   1.279   42.2  0.1289   50.4  0.4406  172.3
 2.400  0.8496  139.0   1.227   40.1  0.1337   49.7  0.4444  171.5
 2.500  0.8503  137.3   1.180   38.3  0.1381   49.0  0.4506  170.5
 2.600  0.8517  135.7   1.135   36.4  0.1425   48.3  0.4569  169.6
 2.700  0.8536  134.1   1.094   34.6  0.1470   47.5  0.4604  168.8
 2.800  0.8562  132.5   1.054   32.7  0.1516   46.7  0.4640  168.0
 2.900  0.8566  130.8   1.019   31.1  0.1556   45.9  0.4704  166.9
 3.000  0.8578  129.2   0.985   29.3  0.1596   45.2  0.4770  165.8
 3.100  0.8589  127.7   0.957   27.8  0.1636   44.4  0.4807  164.8
 3.200  0.8605  126.2   0.930   26.3  0.1676   43.6  0.4845  163.8
 3.300  0.8627  124.7   0.903   24.6  0.1717   42.8  0.4885  162.9
 3.400  0.8656  123.2   0.877   22.9  0.1758   42.1  0.4926  161.9
 3.500  0.8690  121.7   0.852   21.0  0.1799   41.4  0.4968  161.0
 3.600  0.8695  120.3   0.831   19.7  0.1837   40.5  0.5023  160.0
 3.700  0.8705  118.9   0.810   18.3  0.1875   39.7  0.5080  159.1
 3.800  0.8720  117.5   0.789   16.8  0.1914   38.9  0.5138  158.1
 3.900  0.8740  116.1   0.769   15.3  0.1953   38.1  0.5197  157.2
 4.000  0.8766  114.7   0.750   13.7  0.1992   37.4  0.5258  156.3
 4.100  0.8764  113.4   0.732   12.5  0.2028   36.5  0.5323  155.1
 4.200  0.8765  112.2   0.715   11.3  0.2064   35.7  0.5389  154.0
 4.300  0.8771  110.9   0.698   10.0  0.2100   34.9  0.5458  152.9
 4.400  0.8782  109.7   0.682    8.6  0.2137   34.1  0.5528  151.8
 4.500  0.8796  108.4   0.666    7.2  0.2174   33.3  0.5601  150.8
 4.600  0.8801  107.4   0.652    6.3  0.2206   32.5  0.5659  149.8
 4.700  0.8809  106.4   0.639    5.4  0.2239   31.8  0.5718  148.9
 4.800  0.8819  105.5   0.625    4.5  0.2272   31.0  0.5779  148.0
 4.900  0.8832  104.5   0.612    3.5  0.2306   30.3  0.5841  147.1
 5.000  0.8847  103.5   0.599    2.5  0.2340   29.6  0.5905  146.2
 5.100  0.8855  102.6   0.590    1.7  0.2373   28.8  0.5967  145.6
 5.200  0.8865  101.7   0.581    0.9  0.2406   28.1  0.6029  145.0
 5.300  0.8877  100.7   0.572   -0.0  0.2440   27.3  0.6092  144.4
 5.400  0.8892   99.8   0.564   -0.9  0.2474   26.6  0.6156  143.9
 5.500  0.8909   98.9   0.555   -1.8  0.2509   25.9  0.6220  143.3
 5.600  0.8892   97.9   0.546   -2.4  0.2540   25.1  0.6250  142.7
 5.700  0.8877   97.0   0.538   -3.1  0.2572   24.3  0.6282  142.2
 5.800  0.8864   96.0   0.530   -3.8  0.2604   23.5  0.6313  141.7
 5.900  0.8854   95.1   0.521   -4.5  0.2636   22.7  0.6345  141.1
 6.000  0.8847   94.1   0.513   -5.2  0.2669   22.0  0.6378  140.6
!
!  f       NFmin   Gammaopt  rn/50
! GHz       dB    MAG  ANG    -
 0.450      1.07  0.43  175   0.05
 0.900      1.24  0.51 -179   0.06
 1.900      2.11  0.68 -152   0.12
 2.400      2.53  0.74 -146   0.21
!
! (c) 2017  Infineon Technologies AG, Munich