! Infineon Technologies  Discrete & RF Semiconductors
! BFP196W
! VCE =  1.0 V,  IC =  20 mA
! Common Emitter S-Parameters:                            Jan 2017
# GHz  S  MA  R  50
!  f         S11            S21            S12            S22
! GHz     MAG   ANG      MAG   ANG      MAG   ANG      MAG   ANG
 0.010  0.4868  -28.2  50.347  170.3  0.0061   78.8  0.9604  -14.5
 0.020  0.5183  -54.9  47.801  159.5  0.0120   73.8  0.9176  -28.0
 0.030  0.5182  -73.0  43.655  153.0  0.0159   61.9  0.8326  -37.8
 0.040  0.5670  -89.5  40.179  145.3  0.0203   54.9  0.7769  -49.4
 0.050  0.6540 -102.5  37.561  136.3  0.0248   50.4  0.7570  -62.2
 0.060  0.6534 -110.1  34.647  133.5  0.0261   47.1  0.7019  -67.4
 0.070  0.6641 -117.5  31.829  130.3  0.0275   44.1  0.6536  -73.4
 0.080  0.6855 -124.6  29.133  126.4  0.0290   41.3  0.6136  -80.4
 0.090  0.7166 -131.2  26.596  121.8  0.0305   38.9  0.5837  -88.1
 0.100  0.7564 -137.1  24.270  116.2  0.0321   36.7  0.5655  -96.5
 0.110  0.7605 -140.2  22.843  114.7  0.0327   35.6  0.5424  -99.9
 0.120  0.7668 -143.2  21.432  113.1  0.0332   34.5  0.5214 -103.6
 0.130  0.7752 -146.2  20.042  111.2  0.0338   33.5  0.5028 -107.6
 0.140  0.7856 -149.1  18.678  109.0  0.0344   32.5  0.4869 -111.9
 0.150  0.7980 -151.9  17.344  106.5  0.0350   31.5  0.4738 -116.5
 0.200  0.8046 -160.2  13.293  100.5  0.0362   29.7  0.4352 -129.2
 0.250  0.8148 -165.9  10.777   96.2  0.0386   29.8  0.4128 -137.7
 0.300  0.8152 -169.9   9.018   93.3  0.0393   30.4  0.3972 -144.1
 0.350  0.8164 -172.8   7.920   91.2  0.0406   32.6  0.3896 -148.2
 0.400  0.8196 -175.6   6.836   88.4  0.0420   34.6  0.3841 -152.5
 0.450  0.8183 -177.6   6.155   86.8  0.0435   35.7  0.3812 -155.2
 0.500  0.8180 -179.7   5.480   84.7  0.0451   36.8  0.3791 -158.0
 0.600  0.8194  177.0   4.584   81.5  0.0492   40.1  0.3775 -161.9
 0.700  0.8201  174.2   3.927   78.8  0.0523   42.3  0.3732 -164.8
 0.800  0.8211  171.4   3.442   75.8  0.0565   45.1  0.3731 -166.8
 0.900  0.8201  169.1   3.057   73.2  0.0608   46.2  0.3749 -168.5
 1.000  0.8219  166.9   2.766   70.7  0.0647   47.4  0.3762 -170.4
 1.100  0.8241  164.6   2.523   68.3  0.0694   48.7  0.3766 -171.7
 1.200  0.8236  162.4   2.315   65.8  0.0738   49.2  0.3773 -172.9
 1.300  0.8247  160.3   2.142   63.6  0.0782   49.8  0.3809 -173.9
 1.400  0.8263  158.3   2.001   61.2  0.0834   50.5  0.3840 -175.3
 1.500  0.8295  156.5   1.868   58.9  0.0875   50.7  0.3861 -176.6
 1.600  0.8325  154.5   1.760   56.6  0.0927   50.9  0.3891 -177.4
 1.700  0.8343  152.5   1.663   54.3  0.0972   51.0  0.3941 -178.4
 1.800  0.8383  150.5   1.583   52.0  0.1025   50.6  0.3990 -179.7
 1.900  0.8404  148.8   1.500   50.0  0.1067   50.4  0.4022  179.4
 2.000  0.8395  146.7   1.428   47.6  0.1115   50.2  0.4062  178.6
 2.100  0.8414  144.8   1.365   45.5  0.1162   49.7  0.4122  177.5
 2.200  0.8442  142.9   1.303   43.3  0.1209   49.3  0.4184  176.5
 2.300  0.8464  141.2   1.250   41.3  0.1255   48.8  0.4228  175.7
 2.400  0.8494  139.5   1.199   39.1  0.1301   48.3  0.4272  174.9
 2.500  0.8501  137.8   1.152   37.3  0.1344   47.7  0.4341  173.9
 2.600  0.8515  136.1   1.107   35.3  0.1388   47.1  0.4412  173.0
 2.700  0.8535  134.4   1.068   33.5  0.1432   46.5  0.4452  172.1
 2.800  0.8562  132.8   1.030   31.6  0.1476   46.0  0.4492  171.3
 2.900  0.8571  131.2   0.995   29.9  0.1517   45.2  0.4564  170.2
 3.000  0.8586  129.6   0.961   28.1  0.1559   44.5  0.4637  169.1
 3.100  0.8596  128.1   0.933   26.6  0.1599   43.8  0.4681  168.1
 3.200  0.8613  126.5   0.906   25.1  0.1640   43.1  0.4727  167.1
 3.300  0.8636  125.0   0.880   23.5  0.1681   42.4  0.4774  166.1
 3.400  0.8664  123.5   0.855   21.7  0.1722   41.8  0.4823  165.1
 3.500  0.8699  122.0   0.830   19.9  0.1763   41.2  0.4873  164.2
 3.600  0.8703  120.6   0.809   18.6  0.1802   40.4  0.4934  163.1
 3.700  0.8713  119.2   0.788   17.2  0.1840   39.6  0.4996  162.1
 3.800  0.8728  117.8   0.767   15.7  0.1880   38.8  0.5060  161.1
 3.900  0.8748  116.4   0.747   14.1  0.1919   38.1  0.5126  160.1
 4.000  0.8773  115.0   0.728   12.5  0.1959   37.4  0.5193  159.2
 4.100  0.8771  113.7   0.711   11.3  0.1995   36.6  0.5264  158.0
 4.200  0.8774  112.4   0.694   10.1  0.2031   35.8  0.5338  156.8
 4.300  0.8781  111.2   0.678    8.8  0.2068   35.0  0.5414  155.6
 4.400  0.8792  109.9   0.662    7.5  0.2105   34.2  0.5493  154.5
 4.500  0.8808  108.6   0.646    6.1  0.2142   33.5  0.5573  153.4
 4.600  0.8815  107.6   0.632    5.3  0.2176   32.7  0.5635  152.4
 4.700  0.8824  106.6   0.618    4.4  0.2210   32.0  0.5699  151.4
 4.800  0.8837  105.6   0.605    3.5  0.2244   31.3  0.5764  150.5
 4.900  0.8851  104.6   0.591    2.5  0.2279   30.6  0.5831  149.5
 5.000  0.8869  103.6   0.578    1.5  0.2314   29.9  0.5900  148.6
 5.100  0.8874  102.7   0.569    0.7  0.2348   29.1  0.5968  147.9
 5.200  0.8881  101.8   0.560   -0.1  0.2382   28.4  0.6037  147.3
 5.300  0.8891  100.8   0.551   -0.9  0.2417   27.7  0.6107  146.6
 5.400  0.8903   99.9   0.543   -1.7  0.2452   27.0  0.6177  146.0
 5.500  0.8917   99.0   0.534   -2.6  0.2488   26.3  0.6248  145.4
 5.600  0.8902   98.1   0.526   -3.2  0.2520   25.5  0.6282  144.8
 5.700  0.8889   97.2   0.518   -3.8  0.2552   24.7  0.6318  144.2
 5.800  0.8879   96.2   0.510   -4.5  0.2585   23.9  0.6353  143.6
 5.900  0.8871   95.3   0.502   -5.1  0.2618   23.1  0.6390  143.1
 6.000  0.8865   94.4   0.494   -5.8  0.2652   22.4  0.6427  142.5
!
!  f       NFmin   Gammaopt  rn/50
! GHz       dB    MAG  ANG    -
 0.450      1.02  0.40  170   0.05
 0.900      1.20  0.51  178   0.05
 1.900      2.11  0.69 -155   0.11
 2.400      2.55  0.74 -147   0.20
!
! (c) 2017  Infineon Technologies AG, Munich