! Infineon Technologies  Discrete & RF Semiconductors
! BFP196W
! VCE =  7.0 V,  IC =  20 mA
! Common Emitter S-Parameters:                            Jan 2017
# GHz  S  MA  R  50
!  f         S11            S21            S12            S22
! GHz     MAG   ANG      MAG   ANG      MAG   ANG      MAG   ANG
 0.010  0.5492  -17.7  49.493  173.0  0.0041   84.7  0.9785   -8.9
 0.020  0.5565  -36.9  47.898  164.9  0.0079   77.7  0.9483  -17.2
 0.030  0.5430  -51.3  45.202  159.1  0.0114   67.7  0.8940  -24.1
 0.040  0.5640  -65.4  43.018  152.7  0.0151   62.5  0.8541  -31.7
 0.050  0.6161  -77.9  41.427  145.7  0.0188   59.3  0.8306  -39.9
 0.060  0.6082  -86.3  38.825  142.6  0.0203   55.4  0.7776  -43.8
 0.070  0.6135  -94.8  36.356  139.0  0.0219   52.1  0.7286  -48.2
 0.080  0.6318 -102.9  34.049  134.9  0.0236   49.3  0.6847  -53.3
 0.090  0.6620 -110.4  31.939  130.3  0.0253   46.8  0.6468  -59.0
 0.100  0.7026 -117.2  30.067  125.0  0.0271   44.7  0.6160  -65.3
 0.110  0.7029 -121.3  28.466  123.2  0.0278   43.0  0.5845  -67.9
 0.120  0.7068 -125.3  26.895  121.3  0.0285   41.3  0.5544  -70.8
 0.130  0.7142 -129.3  25.361  119.0  0.0293   39.8  0.5258  -74.1
 0.140  0.7250 -133.2  23.869  116.5  0.0300   38.3  0.4992  -77.7
 0.150  0.7390 -137.0  22.429  113.7  0.0308   36.9  0.4747  -81.7
 0.200  0.7539 -148.4  17.582  106.3  0.0322   34.0  0.3925  -92.8
 0.250  0.7626 -156.2  14.390  101.1  0.0342   33.3  0.3377 -101.3
 0.300  0.7672 -161.7  12.126   97.5  0.0355   33.0  0.3023 -108.1
 0.350  0.7685 -165.5  10.677   95.0  0.0366   34.3  0.2804 -112.8
 0.400  0.7730 -169.2   9.253   91.8  0.0378   35.5  0.2608 -118.3
 0.450  0.7724 -171.9   8.339   90.0  0.0389   36.7  0.2498 -121.7
 0.500  0.7734 -174.5   7.435   87.7  0.0401   37.8  0.2398 -125.5
 0.600  0.7771 -178.6   6.227   84.2  0.0433   40.3  0.2281 -131.1
 0.700  0.7758  178.1   5.336   81.2  0.0459   42.4  0.2197 -135.0
 0.800  0.7795  175.1   4.681   78.1  0.0494   45.2  0.2173 -137.7
 0.900  0.7776  172.2   4.151   75.4  0.0532   46.8  0.2158 -140.3
 1.000  0.7807  169.7   3.755   72.9  0.0567   48.2  0.2151 -142.7
 1.100  0.7836  167.3   3.418   70.5  0.0601   49.4  0.2163 -144.1
 1.200  0.7841  165.0   3.133   67.9  0.0639   50.1  0.2174 -145.6
 1.300  0.7851  162.8   2.894   65.7  0.0675   51.1  0.2204 -147.0
 1.400  0.7870  160.8   2.701   63.3  0.0719   52.1  0.2237 -148.5
 1.500  0.7899  158.8   2.519   61.0  0.0756   52.4  0.2273 -150.0
 1.600  0.7949  156.7   2.368   58.7  0.0796   52.6  0.2313 -151.0
 1.700  0.7959  154.5   2.235   56.5  0.0835   53.2  0.2365 -152.3
 1.800  0.7981  152.5   2.121   54.1  0.0876   53.0  0.2420 -153.6
 1.900  0.8013  150.7   2.008   52.2  0.0918   53.6  0.2478 -154.8
 2.000  0.8033  148.8   1.907   49.8  0.0960   53.2  0.2539 -156.0
 2.100  0.8055  146.8   1.820   47.7  0.1003   53.0  0.2604 -157.3
 2.200  0.8086  144.8   1.736   45.4  0.1046   52.8  0.2670 -158.5
 2.300  0.8117  143.0   1.663   43.4  0.1087   52.5  0.2743 -159.7
 2.400  0.8156  141.3   1.592   41.2  0.1128   52.2  0.2818 -160.8
 2.500  0.8165  139.6   1.528   39.3  0.1168   51.9  0.2894 -162.0
 2.600  0.8182  137.9   1.465   37.3  0.1209   51.6  0.2971 -163.2
 2.700  0.8214  136.2   1.410   35.5  0.1250   51.1  0.3043 -164.4
 2.800  0.8253  134.6   1.357   33.5  0.1292   50.7  0.3116 -165.5
 2.900  0.8269  133.0   1.309   31.7  0.1333   50.1  0.3192 -166.8
 3.000  0.8292  131.4   1.262   29.8  0.1374   49.5  0.3269 -168.0
 3.100  0.8310  129.8   1.223   28.3  0.1415   48.9  0.3339 -169.3
 3.200  0.8334  128.3   1.186   26.6  0.1456   48.3  0.3411 -170.6
 3.300  0.8365  126.7   1.149   24.9  0.1497   47.8  0.3485 -171.8
 3.400  0.8401  125.2   1.113   23.1  0.1539   47.3  0.3560 -173.0
 3.500  0.8443  123.7   1.079   21.1  0.1580   46.8  0.3636 -174.1
 3.600  0.8455  122.2   1.049   19.7  0.1620   46.0  0.3710 -175.6
 3.700  0.8472  120.8   1.020   18.2  0.1660   45.3  0.3787 -177.0
 3.800  0.8495  119.4   0.991   16.6  0.1700   44.5  0.3866 -178.3
 3.900  0.8524  117.9   0.964   15.0  0.1740   43.9  0.3947 -179.7
 4.000  0.8557  116.5   0.937   13.2  0.1781   43.2  0.4030  179.1
 4.100  0.8563  115.2   0.912   11.9  0.1819   42.4  0.4112  177.6
 4.200  0.8573  113.9   0.888   10.5  0.1858   41.7  0.4197  176.1
 4.300  0.8588  112.6   0.864    9.1  0.1897   41.0  0.4285  174.7
 4.400  0.8607  111.3   0.841    7.5  0.1936   40.3  0.4375  173.3
 4.500  0.8630  110.0   0.819    5.9  0.1976   39.6  0.4468  172.0
 4.600  0.8642  109.0   0.799    4.9  0.2012   38.8  0.4555  170.7
 4.700  0.8657  107.9   0.779    3.8  0.2049   38.1  0.4645  169.4
 4.800  0.8675  106.9   0.759    2.7  0.2086   37.4  0.4737  168.1
 4.900  0.8696  105.9   0.740    1.5  0.2123   36.7  0.4831  166.9
 5.000  0.8719  104.9   0.721    0.3  0.2161   36.0  0.4927  165.8
 5.100  0.8729  104.0   0.707   -0.6  0.2199   35.2  0.5018  164.8
 5.200  0.8741  103.0   0.693   -1.5  0.2237   34.4  0.5110  163.9
 5.300  0.8756  102.1   0.680   -2.4  0.2276   33.7  0.5204  162.9
 5.400  0.8773  101.1   0.666   -3.4  0.2315   33.0  0.5299  162.1
 5.500  0.8792  100.2   0.653   -4.4  0.2354   32.3  0.5395  161.2
 5.600  0.8780   99.2   0.641   -5.1  0.2389   31.5  0.5456  160.4
 5.700  0.8770   98.3   0.629   -5.9  0.2425   30.6  0.5518  159.6
 5.800  0.8763   97.3   0.617   -6.7  0.2462   29.8  0.5582  158.8
 5.900  0.8758   96.4   0.605   -7.5  0.2499   29.1  0.5646  158.0
 6.000  0.8756   95.4   0.593   -8.4  0.2536   28.3  0.5711  157.3
!
!  f       NFmin   Gammaopt  rn/50
! GHz       dB    MAG  ANG    -
 0.450      1.02  0.40  170   0.05
 0.900      1.20  0.51  178   0.05
 1.900      2.11  0.69 -155   0.11
 2.400      2.55  0.74 -147   0.20
!
! (c) 2017  Infineon Technologies AG, Munich