! Infineon Technologies  Discrete & RF Semiconductors
! BFP196W
! VCE =  5.0 V,  IC =  25 mA
! Common Emitter S-Parameters:                            Jan 2017
# GHz  S  MA  R  50
!  f         S11            S21            S12            S22
! GHz     MAG   ANG      MAG   ANG      MAG   ANG      MAG   ANG
 0.010  0.4597  -23.5  57.467  171.8  0.0042   77.3  0.9712  -10.9
 0.020  0.4820  -47.0  55.259  162.6  0.0083   75.8  0.9363  -21.0
 0.030  0.4813  -63.9  51.366  156.4  0.0113   66.4  0.8681  -28.9
 0.040  0.5207  -79.6  48.161  149.3  0.0144   61.0  0.8188  -37.9
 0.050  0.5923  -92.2  45.787  141.4  0.0176   57.6  0.7921  -47.8
 0.060  0.5925 -100.4  42.579  138.4  0.0188   53.5  0.7358  -52.1
 0.070  0.6047 -108.4  39.504  135.0  0.0201   50.0  0.6843  -57.0
 0.080  0.6281 -115.9  36.598  130.9  0.0215   46.8  0.6386  -62.7
 0.090  0.6616 -122.8  33.901  126.3  0.0229   44.1  0.6002  -69.2
 0.100  0.7036 -129.0  31.470  120.8  0.0244   41.7  0.5705  -76.5
 0.110  0.7073 -132.5  29.697  119.2  0.0250   40.6  0.5415  -79.4
 0.120  0.7136 -136.0  27.950  117.4  0.0257   39.6  0.5140  -82.7
 0.130  0.7224 -139.4  26.236  115.3  0.0264   38.6  0.4884  -86.3
 0.140  0.7338 -142.7  24.559  113.0  0.0270   37.7  0.4649  -90.2
 0.150  0.7475 -145.9  22.930  110.3  0.0277   36.8  0.4439  -94.6
 0.200  0.7623 -155.6  17.772  103.6  0.0287   34.2  0.3762 -106.8
 0.250  0.7703 -162.1  14.459   98.9  0.0304   35.5  0.3346 -116.1
 0.300  0.7730 -166.6  12.139   95.6  0.0313   36.7  0.3083 -123.3
 0.350  0.7751 -169.9  10.674   93.4  0.0328   38.2  0.2927 -128.2
 0.400  0.7797 -173.1   9.231   90.4  0.0344   39.5  0.2795 -133.7
 0.450  0.7795 -175.4   8.314   88.7  0.0361   41.0  0.2717 -137.0
 0.500  0.7806 -177.6   7.407   86.6  0.0379   42.4  0.2649 -140.5
 0.600  0.7805  178.9   6.199   83.4  0.0417   45.5  0.2586 -145.6
 0.700  0.7819  176.0   5.310   80.6  0.0449   48.0  0.2532 -149.2
 0.800  0.7851  173.0   4.656   77.6  0.0493   50.8  0.2516 -151.8
 0.900  0.7837  170.4   4.132   75.1  0.0529   51.4  0.2514 -154.1
 1.000  0.7843  168.1   3.734   72.7  0.0575   52.8  0.2513 -156.0
 1.100  0.7887  165.8   3.403   70.3  0.0613   54.0  0.2522 -157.4
 1.200  0.7889  163.6   3.118   67.9  0.0653   54.3  0.2534 -158.9
 1.300  0.7898  161.5   2.881   65.6  0.0697   54.8  0.2560 -160.0
 1.400  0.7922  159.5   2.691   63.4  0.0743   55.2  0.2589 -161.3
 1.500  0.7953  157.6   2.509   61.2  0.0787   55.4  0.2623 -162.5
 1.600  0.7983  155.5   2.359   58.9  0.0833   55.7  0.2654 -163.5
 1.700  0.8000  153.5   2.228   56.7  0.0876   55.6  0.2702 -164.6
 1.800  0.8038  151.5   2.115   54.4  0.0920   55.2  0.2751 -165.9
 1.900  0.8062  149.8   2.002   52.5  0.0967   55.1  0.2800 -166.7
 2.000  0.8076  147.8   1.902   50.2  0.1012   54.6  0.2851 -167.7
 2.100  0.8095  145.8   1.816   48.1  0.1056   54.1  0.2909 -168.8
 2.200  0.8124  143.9   1.732   45.8  0.1101   53.7  0.2969 -169.9
 2.300  0.8146  142.2   1.659   43.9  0.1146   53.3  0.3034 -170.8
 2.400  0.8176  140.5   1.589   41.8  0.1191   52.9  0.3099 -171.6
 2.500  0.8184  138.8   1.525   39.9  0.1232   52.3  0.3166 -172.6
 2.600  0.8198  137.2   1.463   37.9  0.1273   51.8  0.3233 -173.5
 2.700  0.8230  135.5   1.409   36.1  0.1315   51.1  0.3296 -174.5
 2.800  0.8269  133.8   1.357   34.2  0.1358   50.5  0.3361 -175.5
 2.900  0.8281  132.2   1.310   32.4  0.1398   49.8  0.3426 -176.5
 3.000  0.8299  130.7   1.264   30.5  0.1439   49.2  0.3493 -177.5
 3.100  0.8317  129.2   1.226   29.0  0.1480   48.5  0.3555 -178.7
 3.200  0.8341  127.7   1.188   27.4  0.1520   47.8  0.3617 -179.8
 3.300  0.8370  126.2   1.152   25.7  0.1561   47.1  0.3682  179.1
 3.400  0.8405  124.7   1.116   23.9  0.1603   46.5  0.3747  178.1
 3.500  0.8446  123.2   1.082   22.0  0.1644   45.9  0.3814  177.1
 3.600  0.8457  121.7   1.053   20.6  0.1683   45.1  0.3882  175.9
 3.700  0.8473  120.3   1.024   19.1  0.1722   44.3  0.3951  174.7
 3.800  0.8495  118.9   0.996   17.5  0.1761   43.5  0.4023  173.5
 3.900  0.8522  117.4   0.968   15.9  0.1801   42.8  0.4096  172.4
 4.000  0.8554  116.0   0.942   14.1  0.1841   42.1  0.4170  171.3
 4.100  0.8561  114.7   0.918   12.8  0.1878   41.3  0.4246  170.0
 4.200  0.8573  113.5   0.894   11.5  0.1916   40.4  0.4324  168.7
 4.300  0.8588  112.2   0.871   10.1  0.1954   39.7  0.4405  167.4
 4.400  0.8608  110.9   0.849    8.6  0.1992   38.9  0.4487  166.3
 4.500  0.8632  109.7   0.827    7.0  0.2031   38.2  0.4571  165.1
 4.600  0.8643  108.7   0.807    6.0  0.2065   37.4  0.4651  164.0
 4.700  0.8657  107.7   0.788    5.0  0.2100   36.6  0.4734  162.9
 4.800  0.8674  106.7   0.769    3.9  0.2136   35.9  0.4818  161.8
 4.900  0.8693  105.7   0.750    2.7  0.2171   35.2  0.4903  160.8
 5.000  0.8715  104.7   0.732    1.5  0.2207   34.5  0.4990  159.8
 5.100  0.8722  103.8   0.718    0.6  0.2243   33.7  0.5073  159.0
 5.200  0.8731  102.8   0.705   -0.3  0.2279   33.0  0.5157  158.2
 5.300  0.8743  101.9   0.692   -1.3  0.2315   32.3  0.5242  157.4
 5.400  0.8757  100.9   0.679   -2.3  0.2352   31.6  0.5327  156.6
 5.500  0.8773  100.0   0.666   -3.4  0.2389   30.9  0.5414  155.9
 5.600  0.8763   99.0   0.654   -4.2  0.2422   30.0  0.5467  155.2
 5.700  0.8755   98.1   0.642   -5.0  0.2456   29.2  0.5522  154.6
 5.800  0.8749   97.1   0.630   -5.8  0.2490   28.4  0.5576  153.9
 5.900  0.8746   96.2   0.619   -6.7  0.2525   27.6  0.5632  153.3
 6.000  0.8746   95.2   0.607   -7.6  0.2560   26.8  0.5688  152.7
!
!  f       NFmin   Gammaopt  rn/50
! GHz       dB    MAG  ANG    -
 0.450      1.07  0.43  175   0.05
 0.900      1.24  0.51 -179   0.06
 1.900      2.11  0.68 -152   0.12
 2.400      2.53  0.74 -146   0.21
!
! (c) 2017  Infineon Technologies AG, Munich