! Infineon Technologies  Discrete & RF Semiconductors
! BFP196WN
! VCE =  5.0 V,  IC =  30 mA
! Common Emitter S-Parameters:                            Jan 2017
# GHz  S  MA  R  50
!  f         S11            S21            S12            S22
! GHz     MAG   ANG      MAG   ANG      MAG   ANG      MAG   ANG
 0.010  0.4036  -27.9  64.100  170.5  0.0040   79.6  0.9601  -12.1
 0.020  0.4294  -54.1  60.149  160.1  0.0073   74.4  0.9183  -24.0
 0.030  0.4370  -72.7  55.408  153.7  0.0101   64.4  0.8380  -32.3
 0.040  0.4866  -89.0  51.486  146.2  0.0131   58.9  0.7784  -42.0
 0.050  0.5673 -101.5  48.582  137.6  0.0161   55.4  0.7446  -53.0
 0.060  0.5671 -108.9  44.878  134.8  0.0173   53.2  0.6884  -57.2
 0.070  0.5762 -116.2  41.295  131.6  0.0184   51.2  0.6366  -62.2
 0.080  0.5943 -123.2  37.870  127.8  0.0197   49.5  0.5903  -68.0
 0.090  0.6207 -129.6  34.649  123.2  0.0209   48.0  0.5510  -74.6
 0.100  0.6542 -135.5  31.693  117.7  0.0221   46.7  0.5203  -82.2
 0.110  0.6589 -138.7  29.876  116.2  0.0227   45.8  0.4938  -85.1
 0.120  0.6657 -141.8  28.082  114.5  0.0233   44.9  0.4687  -88.3
 0.130  0.6744 -144.9  26.317  112.6  0.0239   44.1  0.4451  -91.8
 0.140  0.6850 -147.9  24.586  110.3  0.0246   43.3  0.4235  -95.7
 0.150  0.6974 -150.8  22.897  107.8  0.0252   42.6  0.4040 -100.0
 0.200  0.7077 -159.1  17.632  101.8  0.0269   45.0  0.3462 -112.5
 0.250  0.7175 -164.7  14.312   97.6  0.0301   46.4  0.3120 -121.2
 0.300  0.7200 -168.9  12.047   94.6  0.0325   48.2  0.2884 -128.6
 0.350  0.7224 -171.8  10.578   92.5  0.0354   51.3  0.2766 -133.2
 0.400  0.7265 -174.6   9.127   89.8  0.0384   53.9  0.2668 -138.2
 0.450  0.7264 -176.6   8.221   88.2  0.0410   55.4  0.2619 -141.7
 0.500  0.7272 -178.6   7.323   86.3  0.0436   56.8  0.2580 -145.3
 0.600  0.7278  178.1   6.125   83.2  0.0499   59.1  0.2521 -150.4
 0.700  0.7299  175.3   5.245   80.6  0.0557   61.2  0.2482 -153.8
 0.800  0.7335  172.7   4.598   77.9  0.0628   62.8  0.2480 -156.2
 0.900  0.7322  170.4   4.082   75.5  0.0693   63.5  0.2493 -158.4
 1.000  0.7344  168.5   3.684   73.3  0.0752   64.0  0.2504 -160.4
 1.100  0.7355  166.4   3.351   71.2  0.0822   64.3  0.2516 -161.8
 1.200  0.7378  164.5   3.077   69.0  0.0884   64.2  0.2529 -162.8
 1.300  0.7371  162.6   2.847   67.1  0.0946   64.6  0.2571 -163.6
 1.400  0.7380  160.9   2.658   65.0  0.1021   64.6  0.2615 -165.1
 1.500  0.7424  159.3   2.481   63.1  0.1086   64.5  0.2637 -166.0
 1.600  0.7438  157.6   2.336   61.1  0.1151   64.0  0.2673 -166.3
 1.700  0.7464  155.7   2.213   59.2  0.1217   63.8  0.2736 -167.1
 1.800  0.7475  154.2   2.101   57.2  0.1286   63.5  0.2787 -168.0
 1.900  0.7484  152.6   1.993   55.5  0.1347   63.2  0.2818 -168.6
 2.000  0.7514  150.9   1.902   53.5  0.1421   62.5  0.2869 -168.7
 2.100  0.7513  149.4   1.821   51.8  0.1486   62.0  0.2928 -169.3
 2.200  0.7518  147.9   1.742   49.9  0.1551   61.6  0.2988 -169.8
 2.300  0.7540  146.3   1.676   48.2  0.1617   61.0  0.3032 -170.1
 2.400  0.7567  144.8   1.612   46.3  0.1684   60.4  0.3076 -170.3
 2.500  0.7567  143.2   1.554   44.7  0.1750   59.7  0.3141 -170.9
 2.600  0.7572  141.6   1.497   42.9  0.1816   59.0  0.3206 -171.4
 2.700  0.7584  140.2   1.447   41.4  0.1877   58.4  0.3240 -171.6
 2.800  0.7601  138.8   1.398   39.8  0.1938   57.8  0.3275 -171.7
 2.900  0.7609  137.2   1.357   38.2  0.2001   57.0  0.3336 -172.6
 3.000  0.7623  135.7   1.317   36.6  0.2065   56.3  0.3398 -173.5
 3.100  0.7636  134.2   1.283   35.3  0.2128   55.5  0.3435 -174.3
 3.200  0.7654  132.7   1.251   33.9  0.2191   54.7  0.3473 -175.0
 3.300  0.7677  131.2   1.219   32.4  0.2254   54.0  0.3511 -175.8
 3.400  0.7705  129.8   1.187   30.8  0.2318   53.3  0.3550 -176.5
 3.500  0.7738  128.3   1.157   29.2  0.2382   52.6  0.3590 -177.2
 3.600  0.7750  126.8   1.130   27.9  0.2438   51.7  0.3640 -178.5
 3.700  0.7767  125.3   1.104   26.4  0.2494   50.8  0.3692 -179.7
 3.800  0.7790  123.8   1.078   25.0  0.2551   50.0  0.3745  179.1
 3.900  0.7817  122.4   1.053   23.4  0.2609   49.2  0.3800  177.9
 4.000  0.7850  120.9   1.029   21.8  0.2667   48.5  0.3857  176.8
 4.100  0.7864  119.6   1.006   20.7  0.2718   47.6  0.3921  175.2
 4.200  0.7881  118.4   0.984   19.5  0.2769   46.8  0.3987  173.7
 4.300  0.7902  117.1   0.962   18.2  0.2821   45.9  0.4056  172.3
 4.400  0.7927  115.8   0.941   17.0  0.2873   45.2  0.4128  170.9
 4.500  0.7956  114.6   0.920   15.6  0.2926   44.4  0.4202  169.5
 4.600  0.7965  113.6   0.901   14.7  0.2971   43.6  0.4276  168.3
 4.700  0.7977  112.5   0.882   13.8  0.3017   42.9  0.4351  167.2
 4.800  0.7992  111.5   0.863   12.8  0.3063   42.2  0.4428  166.1
 4.900  0.8009  110.5   0.845   11.8  0.3109   41.5  0.4507  165.0
 5.000  0.8028  109.5   0.827   10.8  0.3156   40.8  0.4587  164.0
 5.100  0.8042  108.7   0.815   10.0  0.3206   40.2  0.4673  163.4
 5.200  0.8058  107.8   0.804    9.2  0.3256   39.5  0.4759  162.7
 5.300  0.8075  107.0   0.793    8.4  0.3306   38.9  0.4846  162.1
 5.400  0.8094  106.2   0.782    7.5  0.3357   38.4  0.4933  161.6
 5.500  0.8115  105.4   0.771    6.6  0.3408   37.8  0.5021  161.0
 5.600  0.8128  104.4   0.759    6.1  0.3464   37.0  0.5082  160.7
 5.700  0.8144  103.5   0.747    5.6  0.3521   36.2  0.5143  160.5
 5.800  0.8162  102.5   0.735    5.1  0.3579   35.5  0.5205  160.2
 5.900  0.8182  101.6   0.724    4.6  0.3637   34.8  0.5266  159.9
 6.000  0.8204  100.6   0.712    4.1  0.3696   34.1  0.5328  159.7
!
!  f       NFmin   Gammaopt  rn/50
! GHz       dB    MAG  ANG    -
 0.450      1.06  0.46  178   0.04
 0.900      1.19  0.52  184   0.05
 1.900      2.13  0.68  211   0.13
 2.400      2.86  0.69  218   0.24
!
! (c) 2017  Infineon Technologies AG, Munich