! Infineon Technologies  Discrete & RF Semiconductors
! BFP196WN
! VCE =  5.0 V,  IC =  95 mA
! Common Emitter S-Parameters:                            Jan 2017
# GHz  S  MA  R  50
!  f         S11            S21            S12            S22
! GHz     MAG   ANG      MAG   ANG      MAG   ANG      MAG   ANG
 0.010  0.1984 -100.9  98.717  165.1  0.0027   77.6  0.8885  -19.1
 0.020  0.3583 -118.4  88.245  150.7  0.0051   71.0  0.8128  -37.6
 0.030  0.4284 -130.1  77.266  144.3  0.0067   62.4  0.7042  -47.5
 0.040  0.5110 -138.2  67.575  135.8  0.0084   57.2  0.6239  -60.5
 0.050  0.6010 -144.0  59.802  124.9  0.0101   53.8  0.5835  -76.3
 0.060  0.6133 -147.9  54.483  122.8  0.0107   54.1  0.5374  -81.0
 0.070  0.6284 -151.6  49.252  120.3  0.0113   54.4  0.4956  -86.5
 0.080  0.6459 -155.1  44.139  117.2  0.0120   54.7  0.4592  -93.0
 0.090  0.6658 -158.5  39.192  113.2  0.0126   54.9  0.4295 -100.4
 0.100  0.6878 -161.6  34.481  108.2  0.0132   55.1  0.4081 -108.8
 0.110  0.6932 -163.1  32.334  107.1  0.0139   55.3  0.3921 -111.9
 0.120  0.6990 -164.5  30.200  105.9  0.0146   55.6  0.3773 -115.2
 0.130  0.7052 -165.9  28.083  104.5  0.0153   55.8  0.3640 -118.8
 0.140  0.7119 -167.3  25.985  102.8  0.0160   55.9  0.3521 -122.6
 0.150  0.7190 -168.7  23.912  100.9  0.0167   56.1  0.3419 -126.7
 0.200  0.7255 -172.9  18.113   96.5  0.0192   62.8  0.3187 -137.8
 0.250  0.7316 -175.8  14.594   93.3  0.0234   64.2  0.3048 -144.8
 0.300  0.7321 -178.1  12.220   91.1  0.0265   67.1  0.2952 -150.6
 0.350  0.7341 -179.9  10.716   89.4  0.0301   68.6  0.2919 -153.8
 0.400  0.7368  178.4   9.224   87.2  0.0338   69.8  0.2895 -157.1
 0.450  0.7369  177.1   8.302   85.9  0.0374   70.5  0.2889 -159.4
 0.500  0.7373  175.8   7.386   84.3  0.0410   71.0  0.2887 -161.7
 0.600  0.7377  173.3   6.171   81.6  0.0488   71.1  0.2882 -165.2
 0.700  0.7392  171.3   5.281   79.4  0.0556   71.8  0.2863 -167.6
 0.800  0.7414  169.1   4.629   76.9  0.0632   72.3  0.2878 -169.1
 0.900  0.7423  167.1   4.107   74.8  0.0707   71.7  0.2907 -170.5
 1.000  0.7415  165.4   3.708   72.8  0.0783   71.9  0.2919 -172.2
 1.100  0.7452  163.6   3.374   70.8  0.0858   71.0  0.2928 -173.2
 1.200  0.7457  162.1   3.098   68.8  0.0923   70.7  0.2937 -174.1
 1.300  0.7442  160.3   2.864   67.0  0.0999   70.3  0.2977 -174.4
 1.400  0.7472  158.6   2.676   65.0  0.1077   69.5  0.3019 -175.8
 1.500  0.7507  157.2   2.497   63.2  0.1148   68.8  0.3031 -176.6
 1.600  0.7510  155.5   2.354   61.3  0.1215   68.2  0.3049 -176.8
 1.700  0.7533  153.8   2.232   59.5  0.1295   67.4  0.3115 -177.4
 1.800  0.7543  152.3   2.118   57.6  0.1361   66.7  0.3153 -178.2
 1.900  0.7542  150.9   2.010   56.0  0.1431   65.9  0.3176 -178.8
 2.000  0.7572  149.2   1.921   54.0  0.1503   65.1  0.3211 -178.9
 2.100  0.7568  147.7   1.839   52.3  0.1572   64.4  0.3261 -179.4
 2.200  0.7569  146.2   1.759   50.5  0.1641   63.8  0.3312 -179.8
 2.300  0.7585  144.7   1.693   48.9  0.1709   62.8  0.3337 -180.0
 2.400  0.7607  143.2   1.628   47.1  0.1777   61.9  0.3362  179.9
 2.500  0.7600  141.7   1.571   45.5  0.1846   60.9  0.3417  179.4
 2.600  0.7598  140.2   1.515   43.8  0.1915   60.0  0.3473  178.9
 2.700  0.7613  138.8   1.465   42.4  0.1977   59.2  0.3489  178.8
 2.800  0.7633  137.4   1.416   40.8  0.2040   58.4  0.3505  178.7
 2.900  0.7635  135.9   1.375   39.2  0.2107   57.4  0.3559  177.8
 3.000  0.7642  134.4   1.335   37.6  0.2174   56.5  0.3613  176.9
 3.100  0.7652  132.9   1.302   36.3  0.2235   55.5  0.3637  176.2
 3.200  0.7667  131.5   1.270   34.9  0.2296   54.6  0.3661  175.5
 3.300  0.7687  130.1   1.239   33.4  0.2357   53.8  0.3686  174.8
 3.400  0.7712  128.6   1.209   31.9  0.2419   53.0  0.3712  174.2
 3.500  0.7741  127.2   1.179   30.3  0.2482   52.2  0.3738  173.5
 3.600  0.7751  125.7   1.152   29.0  0.2536   51.2  0.3781  172.4
 3.700  0.7767  124.3   1.125   27.6  0.2591   50.2  0.3826  171.3
 3.800  0.7787  122.9   1.099   26.2  0.2646   49.3  0.3872  170.3
 3.900  0.7812  121.4   1.074   24.7  0.2702   48.4  0.3919  169.3
 4.000  0.7842  120.0   1.050   23.1  0.2759   47.6  0.3967  168.3
 4.100  0.7852  118.8   1.028   21.9  0.2807   46.7  0.4025  166.9
 4.200  0.7866  117.5   1.006   20.7  0.2855   45.8  0.4085  165.5
 4.300  0.7883  116.3   0.984   19.5  0.2904   44.9  0.4147  164.2
 4.400  0.7904  115.1   0.963   18.2  0.2954   44.1  0.4212  162.9
 4.500  0.7928  113.9   0.943   16.8  0.3004   43.3  0.4279  161.6
 4.600  0.7938  112.9   0.924   15.9  0.3046   42.5  0.4341  160.6
 4.700  0.7950  111.8   0.905   15.0  0.3088   41.8  0.4405  159.6
 4.800  0.7964  110.8   0.887   14.0  0.3131   41.0  0.4470  158.7
 4.900  0.7981  109.8   0.869   13.0  0.3175   40.3  0.4536  157.8
 5.000  0.8001  108.8   0.851   12.0  0.3219   39.6  0.4603  156.9
 5.100  0.8016  108.0   0.840   11.2  0.3265   38.9  0.4678  156.5
 5.200  0.8033  107.2   0.828   10.3  0.3311   38.3  0.4752  156.1
 5.300  0.8051  106.4   0.817    9.4  0.3358   37.7  0.4827  155.7
 5.400  0.8071  105.7   0.807    8.5  0.3405   37.1  0.4903  155.3
 5.500  0.8092  104.9   0.796    7.6  0.3453   36.5  0.4978  154.9
 5.600  0.8101  104.0   0.784    7.1  0.3507   35.7  0.5027  154.8
 5.700  0.8112  103.0   0.773    6.5  0.3562   35.0  0.5076  154.7
 5.800  0.8125  102.1   0.762    6.0  0.3617   34.2  0.5126  154.5
 5.900  0.8140  101.1   0.750    5.4  0.3673   33.5  0.5175  154.4
 6.000  0.8158  100.2   0.739    4.8  0.3729   32.8  0.5224  154.3
!
!  f       NFmin   Gammaopt  rn/50
! GHz       dB    MAG  ANG    -
!
! noise parameter not available yet for this operation point!
!
! (c) 2017  Infineon Technologies AG, Munich