! Infineon Technologies  Discrete & RF Semiconductors
! BFP196WN
! VCE =  12. V,  IC =  25 mA
! Common Emitter S-Parameters:                            Jan 2017
# GHz  S  MA  R  50
!  f         S11            S21            S12            S22
! GHz     MAG   ANG      MAG   ANG      MAG   ANG      MAG   ANG
 0.010  0.5334  -18.5  55.872  172.0  0.0040   71.1  0.9356   -9.2
 0.020  0.5337  -38.3  52.680  163.3  0.0077   71.8  0.9060  -18.6
 0.030  0.5207  -53.3  49.610  157.3  0.0107   64.9  0.8460  -25.7
 0.040  0.5438  -68.0  47.154  150.6  0.0138   61.1  0.8007  -33.6
 0.050  0.5988  -80.8  45.414  143.2  0.0169   58.7  0.7726  -42.4
 0.060  0.5860  -88.8  42.340  140.2  0.0183   55.6  0.7203  -46.2
 0.070  0.5850  -97.0  39.399  136.8  0.0198   53.0  0.6716  -50.6
 0.080  0.5959 -105.1  36.622  132.8  0.0214   50.8  0.6275  -55.6
 0.090  0.6180 -112.7  34.049  128.2  0.0229   48.9  0.5888  -61.3
 0.100  0.6503 -119.7  31.730  122.9  0.0245   47.2  0.5569  -67.8
 0.110  0.6504 -123.6  30.024  121.2  0.0253   45.9  0.5276  -70.3
 0.120  0.6536 -127.6  28.347  119.3  0.0261   44.6  0.4995  -73.1
 0.130  0.6598 -131.5  26.705  117.2  0.0270   43.4  0.4726  -76.2
 0.140  0.6689 -135.2  25.106  114.7  0.0278   42.3  0.4474  -79.6
 0.150  0.6809 -138.9  23.557  112.0  0.0287   41.3  0.4239  -83.5
 0.200  0.6921 -149.9  18.354  105.1  0.0300   41.7  0.3490  -94.8
 0.250  0.6998 -157.2  15.001  100.4  0.0326   42.6  0.3030 -102.7
 0.300  0.7027 -162.5  12.654   96.9  0.0346   43.4  0.2689 -109.6
 0.350  0.7027 -166.1  11.134   94.6  0.0369   46.1  0.2503 -114.2
 0.400  0.7055 -169.7   9.637   91.6  0.0393   48.4  0.2336 -119.6
 0.450  0.7059 -172.2   8.687   89.9  0.0418   49.6  0.2244 -123.3
 0.500  0.7077 -174.7   7.746   87.8  0.0444   50.7  0.2162 -127.4
 0.600  0.7087 -178.4   6.480   84.5  0.0500   53.8  0.2052 -133.1
 0.700  0.7116  178.4   5.553   81.7  0.0545   56.3  0.1978 -137.1
 0.800  0.7145  175.4   4.870   78.8  0.0608   58.7  0.1966 -140.0
 0.900  0.7140  172.9   4.323   76.3  0.0662   59.6  0.1967 -142.8
 1.000  0.7158  170.5   3.902   74.0  0.0719   60.4  0.1966 -145.3
 1.100  0.7193  168.4   3.551   71.8  0.0782   61.6  0.1975 -146.8
 1.200  0.7189  166.3   3.259   69.6  0.0838   61.7  0.1994 -148.0
 1.300  0.7185  164.4   3.010   67.6  0.0896   62.6  0.2044 -149.0
 1.400  0.7216  162.4   2.811   65.4  0.0960   62.9  0.2085 -150.9
 1.500  0.7254  160.8   2.623   63.5  0.1018   62.8  0.2113 -151.9
 1.600  0.7268  159.1   2.470   61.5  0.1083   62.8  0.2160 -152.3
 1.700  0.7285  157.1   2.337   59.5  0.1150   62.9  0.2230 -153.3
 1.800  0.7298  155.7   2.220   57.5  0.1205   62.7  0.2285 -154.5
 1.900  0.7320  154.0   2.103   55.8  0.1267   62.5  0.2329 -155.2
 2.000  0.7346  152.3   2.008   53.7  0.1333   62.0  0.2393 -155.4
 2.100  0.7355  150.7   1.921   51.9  0.1395   61.8  0.2462 -156.2
 2.200  0.7369  149.1   1.836   50.0  0.1457   61.7  0.2532 -156.9
 2.300  0.7387  147.5   1.765   48.3  0.1520   61.2  0.2591 -157.2
 2.400  0.7411  146.0   1.695   46.4  0.1584   60.8  0.2651 -157.5
 2.500  0.7411  144.4   1.633   44.7  0.1647   60.2  0.2726 -158.3
 2.600  0.7416  142.8   1.573   42.9  0.1710   59.7  0.2802 -159.0
 2.700  0.7431  141.3   1.519   41.4  0.1772   59.2  0.2853 -159.3
 2.800  0.7451  139.9   1.467   39.8  0.1835   58.7  0.2905 -159.5
 2.900  0.7469  138.3   1.423   38.2  0.1897   58.0  0.2973 -160.6
 3.000  0.7492  136.8   1.380   36.5  0.1959   57.3  0.3042 -161.6
 3.100  0.7507  135.3   1.344   35.1  0.2021   56.6  0.3089 -162.5
 3.200  0.7528  133.8   1.309   33.7  0.2084   55.9  0.3137 -163.4
 3.300  0.7553  132.3   1.275   32.2  0.2147   55.3  0.3186 -164.3
 3.400  0.7584  130.8   1.241   30.6  0.2210   54.7  0.3235 -165.2
 3.500  0.7620  129.3   1.209   28.9  0.2273   54.2  0.3285 -166.0
 3.600  0.7639  127.8   1.180   27.6  0.2330   53.3  0.3341 -167.5
 3.700  0.7663  126.3   1.152   26.2  0.2388   52.5  0.3398 -168.9
 3.800  0.7692  124.8   1.124   24.7  0.2447   51.7  0.3458 -170.2
 3.900  0.7726  123.3   1.097   23.1  0.2506   51.0  0.3520 -171.5
 4.000  0.7766  121.8   1.071   21.5  0.2565   50.3  0.3583 -172.8
 4.100  0.7780  120.5   1.046   20.3  0.2618   49.5  0.3649 -174.6
 4.200  0.7797  119.2   1.022   19.1  0.2672   48.7  0.3719 -176.4
 4.300  0.7819  117.9   0.999   17.8  0.2726   47.9  0.3792 -178.0
 4.400  0.7845  116.7   0.976   16.5  0.2780   47.2  0.3869 -179.6
 4.500  0.7874  115.4   0.953   15.1  0.2835   46.5  0.3948  178.8
 4.600  0.7888  114.4   0.932   14.2  0.2883   45.7  0.4026  177.4
 4.700  0.7904  113.3   0.912   13.2  0.2932   45.0  0.4107  176.0
 4.800  0.7923  112.3   0.892   12.2  0.2981   44.3  0.4190  174.6
 4.900  0.7944  111.2   0.872   11.2  0.3031   43.6  0.4276  173.3
 5.000  0.7968  110.2   0.852   10.1  0.3081   42.9  0.4363  172.1
 5.100  0.7988  109.4   0.839    9.3  0.3132   42.3  0.4458  171.3
 5.200  0.8010  108.5   0.826    8.5  0.3184   41.6  0.4554  170.4
 5.300  0.8034  107.7   0.814    7.6  0.3235   41.0  0.4651  169.7
 5.400  0.8060  106.8   0.801    6.7  0.3288   40.5  0.4749  168.9
 5.500  0.8087  106.0   0.789    5.8  0.3340   39.9  0.4847  168.2
 5.600  0.8101  105.0   0.776    5.3  0.3400   39.1  0.4920  167.8
 5.700  0.8117  104.1   0.763    4.8  0.3460   38.3  0.4994  167.4
 5.800  0.8136  103.1   0.750    4.3  0.3521   37.6  0.5068  167.0
 5.900  0.8157  102.2   0.738    3.8  0.3582   36.9  0.5142  166.6
 6.000  0.8180  101.2   0.725    3.2  0.3644   36.2  0.5216  166.2
!
!  f       NFmin   Gammaopt  rn/50
! GHz       dB    MAG  ANG    -
 0.450      1.00  0.43  174   0.05
 0.900      1.15  0.51  182   0.05
 1.900      2.08  0.68  210   0.13
 2.400      2.83  0.69  217   0.23
!
! (c) 2017  Infineon Technologies AG, Munich