! Infineon Technologies  Discrete & RF Semiconductors
! BFP196WN
! VCE =  11. V,  IC =  20 mA
! Common Emitter S-Parameters:                            Jan 2017
# GHz  S  MA  R  50
!  f         S11            S21            S12            S22
! GHz     MAG   ANG      MAG   ANG      MAG   ANG      MAG   ANG
 0.010  0.5835  -16.1  49.053  172.9  0.0042   81.0  0.9610   -8.3
 0.020  0.5781  -33.6  46.541  164.8  0.0078   75.5  0.9358  -16.6
 0.030  0.5625  -47.2  44.208  159.0  0.0112   67.9  0.8818  -23.1
 0.040  0.5793  -60.8  42.373  152.6  0.0147   63.8  0.8404  -30.3
 0.050  0.6260  -73.0  41.103  145.8  0.0182   61.3  0.8138  -38.2
 0.060  0.6085  -80.9  38.511  142.7  0.0198   57.8  0.7624  -41.9
 0.070  0.6033  -89.2  36.045  139.2  0.0215   54.9  0.7145  -46.1
 0.080  0.6105  -97.4  33.734  135.2  0.0232   52.4  0.6710  -50.8
 0.090  0.6299 -105.2  31.609  130.7  0.0250   50.3  0.6327  -56.2
 0.100  0.6603 -112.5  29.713  125.5  0.0268   48.4  0.6007  -62.2
 0.110  0.6590 -116.8  28.169  123.7  0.0276   46.9  0.5699  -64.6
 0.120  0.6614 -121.0  26.656  121.7  0.0284   45.4  0.5402  -67.2
 0.130  0.6673 -125.2  25.180  119.5  0.0292   44.1  0.5118  -70.1
 0.140  0.6768 -129.3  23.746  116.9  0.0300   42.8  0.4849  -73.4
 0.150  0.6897 -133.3  22.365  114.1  0.0309   41.6  0.4597  -77.0
 0.200  0.6962 -145.4  17.559  106.8  0.0328   40.4  0.3759  -87.5
 0.250  0.7035 -153.5  14.402  101.7  0.0354   40.7  0.3224  -95.0
 0.300  0.7072 -159.3  12.188   98.0  0.0378   40.6  0.2823 -101.3
 0.350  0.7074 -163.4  10.729   95.6  0.0397   42.6  0.2602 -105.6
 0.400  0.7111 -167.4   9.296   92.4  0.0417   44.5  0.2399 -110.7
 0.450  0.7104 -170.1   8.380   90.6  0.0437   46.0  0.2276 -114.3
 0.500  0.7112 -172.8   7.475   88.3  0.0457   47.4  0.2164 -118.3
 0.600  0.7130 -176.8   6.259   84.9  0.0509   49.8  0.2026 -124.1
 0.700  0.7149  179.7   5.369   81.8  0.0546   53.4  0.1937 -128.1
 0.800  0.7181  176.5   4.705   78.8  0.0607   55.2  0.1908 -131.2
 0.900  0.7166  173.8   4.179   76.3  0.0660   56.4  0.1903 -134.1
 1.000  0.7190  171.6   3.776   73.9  0.0717   58.0  0.1899 -136.7
 1.100  0.7205  169.2   3.433   71.7  0.0770   59.0  0.1903 -138.4
 1.200  0.7238  167.1   3.150   69.3  0.0822   59.6  0.1923 -139.8
 1.300  0.7235  165.1   2.911   67.3  0.0878   60.3  0.1976 -141.1
 1.400  0.7252  163.2   2.718   65.1  0.0941   60.8  0.2011 -143.1
 1.500  0.7285  161.5   2.537   63.1  0.0993   61.1  0.2045 -144.3
 1.600  0.7313  159.8   2.387   61.0  0.1053   61.6  0.2099 -144.9
 1.700  0.7333  157.8   2.262   59.0  0.1116   61.6  0.2171 -146.2
 1.800  0.7360  156.1   2.146   56.9  0.1177   61.7  0.2231 -147.5
 1.900  0.7371  154.5   2.032   55.2  0.1232   61.7  0.2287 -148.2
 2.000  0.7390  152.9   1.940   53.0  0.1298   61.4  0.2353 -148.8
 2.100  0.7391  151.2   1.856   51.3  0.1358   61.3  0.2429 -149.7
 2.200  0.7399  149.5   1.773   49.4  0.1418   61.3  0.2505 -150.6
 2.300  0.7429  147.9   1.704   47.6  0.1481   60.9  0.2572 -151.1
 2.400  0.7465  146.4   1.637   45.6  0.1545   60.5  0.2639 -151.6
 2.500  0.7466  144.8   1.577   44.0  0.1608   60.1  0.2723 -152.5
 2.600  0.7472  143.2   1.518   42.2  0.1672   59.7  0.2807 -153.4
 2.700  0.7493  141.7   1.467   40.6  0.1731   59.3  0.2867 -153.8
 2.800  0.7520  140.2   1.417   38.9  0.1791   58.9  0.2927 -154.1
 2.900  0.7535  138.6   1.374   37.3  0.1853   58.3  0.2999 -155.4
 3.000  0.7556  137.1   1.332   35.6  0.1916   57.7  0.3073 -156.6
 3.100  0.7570  135.6   1.297   34.2  0.1980   57.0  0.3125 -157.6
 3.200  0.7590  134.0   1.262   32.8  0.2043   56.4  0.3179 -158.6
 3.300  0.7615  132.5   1.229   31.3  0.2107   55.9  0.3233 -159.6
 3.400  0.7645  131.0   1.196   29.7  0.2172   55.3  0.3288 -160.5
 3.500  0.7681  129.5   1.164   28.0  0.2236   54.8  0.3344 -161.4
 3.600  0.7698  128.0   1.136   26.7  0.2296   54.0  0.3402 -163.0
 3.700  0.7720  126.4   1.108   25.3  0.2356   53.2  0.3463 -164.5
 3.800  0.7748  124.9   1.081   23.8  0.2417   52.4  0.3526 -166.0
 3.900  0.7781  123.4   1.055   22.2  0.2478   51.7  0.3591 -167.4
 4.000  0.7820  121.9   1.030   20.6  0.2539   51.0  0.3659 -168.8
 4.100  0.7835  120.6   1.006   19.5  0.2593   50.2  0.3727 -170.7
 4.200  0.7853  119.3   0.983   18.3  0.2648   49.4  0.3799 -172.6
 4.300  0.7876  118.0   0.960   17.0  0.2703   48.7  0.3875 -174.4
 4.400  0.7903  116.8   0.937   15.7  0.2758   48.0  0.3955 -176.1
 4.500  0.7933  115.5   0.915   14.3  0.2814   47.3  0.4038 -177.8
 4.600  0.7943  114.4   0.895   13.4  0.2864   46.5  0.4118 -179.3
 4.700  0.7956  113.3   0.875   12.5  0.2915   45.7  0.4202  179.2
 4.800  0.7973  112.2   0.855   11.5  0.2966   45.0  0.4288  177.8
 4.900  0.7991  111.2   0.836   10.5  0.3018   44.3  0.4376  176.4
 5.000  0.8013  110.1   0.817    9.4  0.3070   43.6  0.4467  175.1
 5.100  0.8035  109.2   0.805    8.6  0.3123   43.0  0.4565  174.1
 5.200  0.8059  108.4   0.792    7.9  0.3177   42.3  0.4665  173.1
 5.300  0.8085  107.6   0.780    7.1  0.3231   41.7  0.4765  172.2
 5.400  0.8112  106.7   0.768    6.3  0.3285   41.2  0.4867  171.3
 5.500  0.8141  105.9   0.756    5.4  0.3340   40.6  0.4970  170.5
 5.600  0.8153  105.0   0.743    5.0  0.3401   39.8  0.5047  170.0
 5.700  0.8167  104.0   0.731    4.5  0.3462   39.0  0.5125  169.5
 5.800  0.8183  103.1   0.718    4.0  0.3524   38.3  0.5204  169.0
 5.900  0.8201  102.1   0.705    3.5  0.3586   37.6  0.5282  168.6
 6.000  0.8222  101.2   0.693    3.0  0.3649   36.9  0.5361  168.1
!
!  f       NFmin   Gammaopt  rn/50
! GHz       dB    MAG  ANG    -
 0.450      0.96  0.40  169   0.05
 0.900      1.10  0.50  179   0.05
 1.900      2.10  0.69  210   0.12
 2.400      2.86  0.70  216   0.23
!
! (c) 2017  Infineon Technologies AG, Munich