! Infineon Technologies  Discrete & RF Semiconductors
! BFP196WN
! VCE =  3.0 V,  IC =  75 mA
! Common Emitter S-Parameters:                            Jan 2017
# GHz  S  MA  R  50
!  f         S11            S21            S12            S22
! GHz     MAG   ANG      MAG   ANG      MAG   ANG      MAG   ANG
 0.010  0.2045 -100.8  93.297  165.0  0.0034   78.8  0.9002  -20.3
 0.020  0.3658 -118.4  83.192  150.6  0.0059   65.8  0.8270  -39.4
 0.030  0.4380 -130.2  72.787  144.1  0.0076   59.6  0.7159  -49.8
 0.040  0.5233 -138.4  63.603  135.7  0.0093   55.7  0.6360  -63.4
 0.050  0.6162 -144.2  56.240  124.7  0.0110   53.0  0.6001  -79.6
 0.060  0.6286 -148.1  51.227  122.6  0.0118   52.6  0.5546  -84.6
 0.070  0.6438 -151.8  46.296  120.1  0.0125   52.2  0.5140  -90.4
 0.080  0.6615 -155.3  41.477  117.0  0.0133   51.9  0.4795  -97.1
 0.090  0.6816 -158.6  36.813  113.0  0.0140   51.7  0.4525 -104.7
 0.100  0.7038 -161.7  32.372  108.0  0.0148   51.4  0.4344 -113.1
 0.110  0.7089 -163.2  30.355  106.9  0.0154   52.4  0.4194 -116.2
 0.120  0.7145 -164.6  28.351  105.7  0.0160   53.4  0.4058 -119.6
 0.130  0.7205 -166.0  26.362  104.3  0.0166   54.2  0.3936 -123.2
 0.140  0.7270 -167.4  24.391  102.6  0.0173   55.0  0.3831 -127.0
 0.150  0.7339 -168.8  22.444  100.7  0.0179   55.8  0.3744 -131.0
 0.200  0.7407 -173.1  17.005   96.3  0.0203   59.5  0.3545 -141.7
 0.250  0.7463 -175.9  13.685   93.2  0.0241   62.3  0.3422 -148.3
 0.300  0.7485 -178.1  11.464   90.9  0.0272   64.6  0.3333 -153.8
 0.350  0.7496 -179.9  10.052   89.3  0.0312   66.5  0.3306 -156.9
 0.400  0.7515  178.3   8.651   87.1  0.0353   67.9  0.3289 -160.1
 0.450  0.7514  176.9   7.786   85.8  0.0389   68.8  0.3287 -162.3
 0.500  0.7517  175.5   6.926   84.1  0.0425   69.5  0.3290 -164.5
 0.600  0.7519  173.2   5.789   81.5  0.0506   70.1  0.3288 -167.8
 0.700  0.7537  171.2   4.957   79.2  0.0575   71.0  0.3265 -170.0
 0.800  0.7558  168.9   4.342   76.7  0.0651   71.7  0.3277 -171.6
 0.900  0.7562  167.1   3.854   74.6  0.0736   70.7  0.3299 -173.1
 1.000  0.7552  165.4   3.478   72.5  0.0805   70.7  0.3324 -174.7
 1.100  0.7597  163.6   3.168   70.6  0.0882   70.6  0.3323 -175.7
 1.200  0.7594  161.8   2.907   68.6  0.0953   69.8  0.3335 -176.7
 1.300  0.7593  160.1   2.690   66.8  0.1028   69.4  0.3370 -177.1
 1.400  0.7610  158.4   2.514   64.8  0.1106   68.8  0.3402 -178.5
 1.500  0.7635  156.9   2.348   62.9  0.1172   68.1  0.3418 -179.4
 1.600  0.7652  155.3   2.213   61.1  0.1250   67.5  0.3437 -179.6
 1.700  0.7654  153.5   2.098   59.2  0.1327   66.8  0.3493  179.7
 1.800  0.7665  152.1   1.994   57.3  0.1398   65.9  0.3533  178.9
 1.900  0.7675  150.7   1.893   55.7  0.1461   65.1  0.3552  178.2
 2.000  0.7695  149.0   1.810   53.7  0.1541   64.2  0.3581  178.0
 2.100  0.7693  147.4   1.733   52.1  0.1609   63.4  0.3625  177.5
 2.200  0.7696  145.9   1.657   50.3  0.1678   62.7  0.3670  177.0
 2.300  0.7707  144.4   1.596   48.6  0.1750   61.8  0.3692  176.7
 2.400  0.7723  142.9   1.537   46.8  0.1822   60.9  0.3715  176.5
 2.500  0.7720  141.4   1.484   45.3  0.1891   59.9  0.3763  176.0
 2.600  0.7722  139.9   1.432   43.6  0.1960   59.0  0.3812  175.5
 2.700  0.7732  138.5   1.385   42.2  0.2023   58.2  0.3824  175.2
 2.800  0.7746  137.1   1.339   40.6  0.2086   57.5  0.3837  175.0
 2.900  0.7753  135.6   1.302   39.1  0.2152   56.5  0.3887  174.2
 3.000  0.7765  134.1   1.265   37.5  0.2219   55.5  0.3937  173.4
 3.100  0.7772  132.6   1.234   36.2  0.2281   54.5  0.3957  172.7
 3.200  0.7784  131.2   1.204   34.8  0.2343   53.6  0.3978  171.9
 3.300  0.7801  129.7   1.175   33.3  0.2406   52.7  0.4000  171.2
 3.400  0.7824  128.2   1.147   31.8  0.2469   51.9  0.4022  170.5
 3.500  0.7851  126.8   1.119   30.2  0.2533   51.1  0.4045  169.8
 3.600  0.7859  125.3   1.094   28.9  0.2587   50.1  0.4083  168.7
 3.700  0.7872  123.9   1.069   27.5  0.2641   49.1  0.4122  167.7
 3.800  0.7890  122.5   1.046   26.1  0.2696   48.2  0.4162  166.6
 3.900  0.7913  121.0   1.022   24.6  0.2752   47.3  0.4204  165.6
 4.000  0.7941  119.6   1.000   23.0  0.2808   46.4  0.4247  164.6
 4.100  0.7949  118.4   0.979   21.9  0.2854   45.5  0.4303  163.3
 4.200  0.7961  117.1   0.959   20.8  0.2901   44.6  0.4362  162.0
 4.300  0.7976  115.9   0.939   19.6  0.2948   43.8  0.4422  160.7
 4.400  0.7995  114.6   0.919   18.3  0.2996   43.0  0.4485  159.5
 4.500  0.8018  113.4   0.900   17.0  0.3045   42.2  0.4550  158.3
 4.600  0.8024  112.4   0.882   16.1  0.3088   41.4  0.4610  157.4
 4.700  0.8033  111.4   0.865   15.2  0.3131   40.6  0.4670  156.4
 4.800  0.8044  110.4   0.848   14.3  0.3175   39.9  0.4733  155.5
 4.900  0.8058  109.4   0.831   13.3  0.3220   39.1  0.4796  154.7
 5.000  0.8074  108.4   0.814   12.3  0.3265   38.4  0.4860  153.8
 5.100  0.8085  107.6   0.804   11.5  0.3309   37.7  0.4928  153.4
 5.200  0.8097  106.8   0.795   10.6  0.3354   37.1  0.4997  153.0
 5.300  0.8111  106.0   0.785    9.8  0.3399   36.5  0.5065  152.6
 5.400  0.8126  105.2   0.776    8.9  0.3444   35.9  0.5134  152.3
 5.500  0.8143  104.4   0.767    8.0  0.3490   35.3  0.5203  151.9
 5.600  0.8156  103.5   0.757    7.5  0.3544   34.6  0.5247  151.8
 5.700  0.8170  102.5   0.746    7.0  0.3600   33.8  0.5290  151.7
 5.800  0.8187  101.6   0.736    6.5  0.3655   33.1  0.5334  151.6
 5.900  0.8206  100.7   0.726    5.9  0.3711   32.5  0.5377  151.5
 6.000  0.8227   99.8   0.716    5.4  0.3768   31.8  0.5421  151.4
!
!  f       NFmin   Gammaopt  rn/50
! GHz       dB    MAG  ANG    -
 0.450      1.53  0.57 -176   0.05
 0.900      1.66  0.59 -169   0.06
 1.900      2.60  0.70 -147   0.20
 2.400      3.41  0.71 -138   0.33
!
! (c) 2017  Infineon Technologies AG, Munich