! Infineon Technologies  Discrete & RF Semiconductors
! BFP196WN
! VCE =  3.0 V,  IC =  90 mA
! Common Emitter S-Parameters:                            Jan 2017
# GHz  S  MA  R  50
!  f         S11            S21            S12            S22
! GHz     MAG   ANG      MAG   ANG      MAG   ANG      MAG   ANG
 0.010  0.2251 -117.7  96.589  164.0  0.0028   79.7  0.8777  -21.6
 0.020  0.3871 -127.2  84.722  149.0  0.0054   70.3  0.7949  -41.9
 0.030  0.4616 -137.1  73.676  142.6  0.0070   61.8  0.6843  -52.6
 0.040  0.5460 -144.1  63.856  134.1  0.0086   56.5  0.6055  -66.6
 0.050  0.6363 -149.2  55.912  122.9  0.0103   52.9  0.5719  -83.5
 0.060  0.6479 -152.6  50.856  120.9  0.0109   53.0  0.5294  -88.5
 0.070  0.6617 -155.8  45.874  118.5  0.0115   53.2  0.4916  -94.3
 0.080  0.6775 -158.9  40.994  115.5  0.0122   53.3  0.4596 -100.9
 0.090  0.6951 -161.8  36.256  111.7  0.0128   53.4  0.4346 -108.5
 0.100  0.7145 -164.6  31.724  106.8  0.0134   53.5  0.4181 -116.8
 0.110  0.7198 -165.9  29.733  105.8  0.0141   54.5  0.4049 -119.9
 0.120  0.7254 -167.1  27.752  104.6  0.0148   55.3  0.3929 -123.2
 0.130  0.7313 -168.3  25.784  103.3  0.0154   56.1  0.3823 -126.7
 0.140  0.7376 -169.5  23.833  101.7  0.0161   56.8  0.3732 -130.4
 0.150  0.7442 -170.7  21.902   99.9  0.0168   57.5  0.3658 -134.3
 0.200  0.7479 -174.5  16.564   95.7  0.0197   63.0  0.3491 -144.5
 0.250  0.7530 -177.1  13.322   92.7  0.0232   65.2  0.3395 -150.6
 0.300  0.7564 -179.3  11.156   90.4  0.0271   66.2  0.3323 -155.9
 0.350  0.7570  179.1   9.780   88.8  0.0309   68.1  0.3297 -158.7
 0.400  0.7582  177.6   8.414   86.6  0.0347   69.6  0.3280 -161.6
 0.450  0.7583  176.2   7.573   85.4  0.0385   70.3  0.3280 -163.7
 0.500  0.7589  174.9   6.737   83.8  0.0423   70.8  0.3285 -165.7
 0.600  0.7586  172.8   5.629   81.1  0.0501   71.4  0.3292 -168.8
 0.700  0.7602  170.7   4.816   78.9  0.0574   72.5  0.3269 -171.0
 0.800  0.7638  168.5   4.219   76.4  0.0655   72.3  0.3281 -172.4
 0.900  0.7614  166.6   3.749   74.2  0.0731   71.8  0.3311 -173.8
 1.000  0.7627  165.0   3.385   72.2  0.0802   71.3  0.3320 -175.3
 1.100  0.7655  163.2   3.082   70.2  0.0883   71.0  0.3331 -176.3
 1.200  0.7649  161.5   2.829   68.2  0.0954   70.4  0.3338 -177.1
 1.300  0.7660  159.8   2.618   66.5  0.1031   70.0  0.3376 -177.6
 1.400  0.7673  158.1   2.445   64.4  0.1107   69.3  0.3416 -178.9
 1.500  0.7695  156.7   2.284   62.6  0.1181   68.5  0.3427 -179.8
 1.600  0.7729  155.0   2.154   60.7  0.1253   67.9  0.3447 -179.9
 1.700  0.7721  153.3   2.043   58.9  0.1328   67.1  0.3507  179.3
 1.800  0.7739  151.8   1.941   56.9  0.1402   66.2  0.3545  178.6
 1.900  0.7744  150.4   1.843   55.4  0.1470   65.5  0.3558  178.0
 2.000  0.7770  148.7   1.761   53.4  0.1549   64.6  0.3592  177.7
 2.100  0.7760  147.2   1.688   51.7  0.1618   63.8  0.3638  177.2
 2.200  0.7755  145.7   1.617   49.9  0.1687   63.0  0.3685  176.8
 2.300  0.7770  144.2   1.556   48.2  0.1757   62.1  0.3705  176.5
 2.400  0.7790  142.7   1.496   46.4  0.1828   61.2  0.3725  176.2
 2.500  0.7783  141.2   1.445   44.9  0.1898   60.2  0.3777  175.7
 2.600  0.7782  139.7   1.395   43.2  0.1969   59.3  0.3830  175.2
 2.700  0.7786  138.3   1.350   41.7  0.2031   58.5  0.3840  175.0
 2.800  0.7795  136.9   1.306   40.2  0.2094   57.7  0.3850  174.8
 2.900  0.7801  135.3   1.270   38.7  0.2159   56.7  0.3901  173.9
 3.000  0.7813  133.8   1.234   37.1  0.2225   55.7  0.3953  173.1
 3.100  0.7820  132.3   1.204   35.8  0.2287   54.7  0.3973  172.4
 3.200  0.7832  130.9   1.175   34.4  0.2350   53.8  0.3994  171.7
 3.300  0.7849  129.5   1.147   32.9  0.2413   52.9  0.4015  171.0
 3.400  0.7870  128.0   1.119   31.4  0.2477   52.0  0.4037  170.3
 3.500  0.7897  126.6   1.092   29.8  0.2542   51.2  0.4059  169.6
 3.600  0.7904  125.1   1.068   28.5  0.2595   50.2  0.4098  168.5
 3.700  0.7916  123.7   1.044   27.2  0.2649   49.2  0.4139  167.5
 3.800  0.7933  122.2   1.020   25.7  0.2704   48.3  0.4180  166.5
 3.900  0.7955  120.7   0.998   24.3  0.2759   47.4  0.4224  165.5
 4.000  0.7982  119.3   0.976   22.7  0.2815   46.6  0.4268  164.5
 4.100  0.7989  118.1   0.956   21.6  0.2862   45.7  0.4324  163.2
 4.200  0.7999  116.8   0.936   20.4  0.2909   44.8  0.4382  161.9
 4.300  0.8013  115.6   0.917   19.3  0.2958   43.9  0.4442  160.6
 4.400  0.8031  114.4   0.898   18.0  0.3007   43.1  0.4504  159.4
 4.500  0.8052  113.2   0.879   16.7  0.3056   42.3  0.4568  158.2
 4.600  0.8056  112.2   0.862   15.9  0.3098   41.5  0.4628  157.3
 4.700  0.8063  111.2   0.845   15.0  0.3140   40.7  0.4688  156.3
 4.800  0.8072  110.2   0.829   14.1  0.3183   40.0  0.4751  155.4
 4.900  0.8083  109.2   0.812   13.1  0.3227   39.2  0.4814  154.6
 5.000  0.8097  108.2   0.796   12.1  0.3271   38.5  0.4878  153.7
 5.100  0.8111  107.4   0.786   11.3  0.3317   37.8  0.4947  153.3
 5.200  0.8126  106.6   0.777   10.5  0.3363   37.2  0.5016  152.9
 5.300  0.8143  105.9   0.768    9.6  0.3410   36.6  0.5086  152.5
 5.400  0.8161  105.1   0.759    8.8  0.3457   36.0  0.5155  152.2
 5.500  0.8181  104.3   0.750    7.9  0.3505   35.4  0.5225  151.8
 5.600  0.8195  103.4   0.740    7.4  0.3557   34.6  0.5269  151.7
 5.700  0.8210  102.4   0.730    6.9  0.3610   33.9  0.5314  151.6
 5.800  0.8228  101.5   0.720    6.4  0.3663   33.1  0.5358  151.5
 5.900  0.8248  100.6   0.710    5.8  0.3717   32.4  0.5403  151.4
 6.000  0.8270   99.7   0.700    5.3  0.3772   31.7  0.5447  151.3
!
!  f       NFmin   Gammaopt  rn/50
! GHz       dB    MAG  ANG    -
 0.450      1.69  0.59 -175   0.05
 0.900      1.82  0.60 -168   0.07
 1.900      2.82  0.71 -146   0.23
 2.400      3.60  0.72 -138   0.39
!
! (c) 2017  Infineon Technologies AG, Munich