! Infineon Technologies  Discrete & RF Semiconductors
! BFP196WN
! VCE =  11. V,  IC =  30 mA
! Common Emitter S-Parameters:                            Jan 2017
# GHz  S  MA  R  50
!  f         S11            S21            S12            S22
! GHz     MAG   ANG      MAG   ANG      MAG   ANG      MAG   ANG
 0.010  0.4717  -21.8  62.099  171.2  0.0035   77.3  0.9422  -10.3
 0.020  0.4785  -44.4  58.395  161.8  0.0075   71.4  0.9082  -20.7
 0.030  0.4734  -61.1  54.449  155.6  0.0102   64.3  0.8393  -28.2
 0.040  0.5074  -76.8  51.238  148.5  0.0129   60.2  0.7872  -36.9
 0.050  0.5736  -89.7  48.907  140.6  0.0157   57.6  0.7553  -46.5
 0.060  0.5661  -97.6  45.400  137.7  0.0169   54.7  0.7012  -50.4
 0.070  0.5696 -105.5  42.025  134.4  0.0181   52.2  0.6509  -55.0
 0.080  0.5837 -113.2  38.819  130.5  0.0194   50.1  0.6053  -60.2
 0.090  0.6077 -120.4  35.825  125.9  0.0207   48.2  0.5657  -66.3
 0.100  0.6406 -127.0  33.101  120.5  0.0220   46.5  0.5333  -73.2
 0.110  0.6432 -130.6  31.264  118.9  0.0227   45.9  0.5051  -75.8
 0.120  0.6484 -134.2  29.454  117.1  0.0235   45.3  0.4780  -78.7
 0.130  0.6560 -137.7  27.677  115.1  0.0242   44.7  0.4523  -81.9
 0.140  0.6661 -141.1  25.940  112.7  0.0250   44.2  0.4283  -85.6
 0.150  0.6784 -144.4  24.251  110.1  0.0257   43.7  0.4061  -89.6
 0.200  0.6859 -154.1  18.795  103.6  0.0273   44.6  0.3380 -101.4
 0.250  0.6969 -160.6  15.310   99.1  0.0303   44.8  0.2966 -109.7
 0.300  0.6994 -165.6  12.884   95.9  0.0324   46.8  0.2663 -116.9
 0.350  0.7009 -168.8  11.328   93.7  0.0348   49.4  0.2510 -121.7
 0.400  0.7046 -172.0   9.793   90.9  0.0372   51.7  0.2376 -127.0
 0.450  0.7050 -174.3   8.823   89.3  0.0399   53.6  0.2301 -130.7
 0.500  0.7066 -176.6   7.863   87.2  0.0427   55.2  0.2236 -134.7
 0.600  0.7082  179.8   6.579   84.0  0.0488   57.5  0.2152 -140.3
 0.700  0.7093  176.9   5.638   81.4  0.0545   59.7  0.2090 -144.0
 0.800  0.7129  174.2   4.941   78.6  0.0605   61.5  0.2081 -146.7
 0.900  0.7131  171.5   4.387   76.2  0.0667   61.9  0.2089 -149.3
 1.000  0.7142  169.7   3.959   73.9  0.0729   63.1  0.2092 -151.6
 1.100  0.7168  167.5   3.601   71.8  0.0789   63.7  0.2104 -153.1
 1.200  0.7175  165.5   3.305   69.6  0.0850   63.7  0.2115 -154.2
 1.300  0.7179  163.6   3.056   67.7  0.0911   64.1  0.2165 -155.0
 1.400  0.7197  161.8   2.852   65.6  0.0980   64.3  0.2205 -156.8
 1.500  0.7233  160.2   2.661   63.6  0.1040   64.1  0.2229 -157.7
 1.600  0.7258  158.4   2.505   61.7  0.1103   64.2  0.2271 -157.9
 1.700  0.7269  156.7   2.372   59.8  0.1171   63.9  0.2333 -159.0
 1.800  0.7287  155.0   2.252   57.8  0.1236   63.5  0.2389 -160.0
 1.900  0.7298  153.6   2.135   56.1  0.1295   63.4  0.2431 -160.6
 2.000  0.7323  151.8   2.037   54.0  0.1360   62.8  0.2487 -160.7
 2.100  0.7323  150.2   1.949   52.3  0.1423   62.4  0.2550 -161.4
 2.200  0.7329  148.6   1.863   50.5  0.1486   62.1  0.2614 -162.0
 2.300  0.7358  147.0   1.791   48.8  0.1551   61.6  0.2664 -162.2
 2.400  0.7393  145.4   1.720   46.9  0.1616   61.1  0.2715 -162.4
 2.500  0.7388  143.9   1.658   45.3  0.1682   60.4  0.2787 -163.1
 2.600  0.7388  142.3   1.597   43.5  0.1748   59.8  0.2859 -163.7
 2.700  0.7404  140.9   1.543   42.0  0.1807   59.2  0.2902 -163.9
 2.800  0.7424  139.5   1.490   40.3  0.1866   58.7  0.2945 -164.0
 2.900  0.7437  137.9   1.446   38.7  0.1927   57.9  0.3009 -165.0
 3.000  0.7456  136.4   1.403   37.1  0.1988   57.2  0.3074 -165.9
 3.100  0.7473  134.9   1.367   35.8  0.2051   56.4  0.3116 -166.7
 3.200  0.7495  133.4   1.331   34.3  0.2114   55.7  0.3159 -167.6
 3.300  0.7521  131.9   1.296   32.8  0.2178   55.0  0.3203 -168.4
 3.400  0.7553  130.5   1.263   31.3  0.2242   54.4  0.3247 -169.1
 3.500  0.7590  129.0   1.230   29.6  0.2306   53.8  0.3292 -169.9
 3.600  0.7606  127.5   1.201   28.3  0.2363   52.9  0.3345 -171.3
 3.700  0.7627  126.0   1.172   26.9  0.2420   52.1  0.3400 -172.6
 3.800  0.7654  124.5   1.144   25.4  0.2477   51.4  0.3457 -173.9
 3.900  0.7685  123.1   1.117   23.8  0.2536   50.6  0.3515 -175.1
 4.000  0.7722  121.6   1.091   22.2  0.2594   49.9  0.3575 -176.3
 4.100  0.7739  120.3   1.066   21.0  0.2645   49.1  0.3640 -178.0
 4.200  0.7760  119.0   1.042   19.8  0.2697   48.2  0.3708 -179.7
 4.300  0.7785  117.7   1.018   18.5  0.2749   47.5  0.3779  178.7
 4.400  0.7814  116.5   0.995   17.2  0.2802   46.7  0.3853  177.2
 4.500  0.7847  115.2   0.972   15.8  0.2855   46.0  0.3929  175.7
 4.600  0.7856  114.2   0.951   14.9  0.2902   45.2  0.4006  174.4
 4.700  0.7868  113.1   0.930   13.9  0.2949   44.5  0.4084  173.1
 4.800  0.7882  112.1   0.910   12.9  0.2997   43.8  0.4165  171.8
 4.900  0.7898  111.1   0.890   11.8  0.3045   43.1  0.4248  170.6
 5.000  0.7917  110.1   0.870   10.7  0.3094   42.4  0.4332  169.5
 5.100  0.7939  109.2   0.857    9.9  0.3144   41.7  0.4424  168.8
 5.200  0.7962  108.4   0.844    9.0  0.3195   41.1  0.4516  168.1
 5.300  0.7987  107.6   0.832    8.1  0.3246   40.5  0.4609  167.4
 5.400  0.8014  106.7   0.819    7.2  0.3297   39.9  0.4703  166.7
 5.500  0.8043  105.9   0.807    6.3  0.3349   39.3  0.4797  166.1
 5.600  0.8056  105.0   0.794    5.8  0.3406   38.5  0.4867  165.8
 5.700  0.8071  104.0   0.781    5.3  0.3464   37.8  0.4937  165.4
 5.800  0.8089  103.1   0.768    4.7  0.3523   37.1  0.5007  165.1
 5.900  0.8108  102.1   0.755    4.2  0.3582   36.4  0.5077  164.8
 6.000  0.8130  101.2   0.742    3.6  0.3641   35.7  0.5147  164.5
!
!  f       NFmin   Gammaopt  rn/50
! GHz       dB    MAG  ANG    -
 0.450      1.06  0.46  178   0.04
 0.900      1.19  0.52  184   0.05
 1.900      2.13  0.68  211   0.13
 2.400      2.86  0.69  218   0.24
!
! (c) 2017  Infineon Technologies AG, Munich