! Infineon Technologies  Discrete & RF Semiconductors
! BFP196WN
! VCE =  9.0 V,  IC =  75 mA
! Common Emitter S-Parameters:                            Jan 2017
# GHz  S  MA  R  50
!  f         S11            S21            S12            S22
! GHz     MAG   ANG      MAG   ANG      MAG   ANG      MAG   ANG
 0.010  0.2493  -51.8  91.290  167.1  0.0030   83.7  0.9111  -15.5
 0.020  0.3430  -84.9  83.264  154.5  0.0056   70.0  0.8493  -30.7
 0.030  0.3887 -103.5  74.388  148.0  0.0075   62.2  0.7510  -39.8
 0.040  0.4655 -117.1  66.728  139.8  0.0095   57.6  0.6767  -51.2
 0.050  0.5606 -126.5  60.746  129.8  0.0115   54.6  0.6348  -64.7
 0.060  0.5694 -132.1  55.594  127.5  0.0123   53.6  0.5831  -69.0
 0.070  0.5835 -137.4  50.554  124.6  0.0131   52.7  0.5352  -74.1
 0.080  0.6024 -142.5  45.662  121.2  0.0139   51.9  0.4923  -80.1
 0.090  0.6257 -147.2  40.973  117.0  0.0147   51.2  0.4559  -87.2
 0.100  0.6529 -151.6  36.563  111.7  0.0155   50.6  0.4275  -95.3
 0.110  0.6585 -153.7  34.342  110.5  0.0160   50.8  0.4070  -98.2
 0.120  0.6649 -155.9  32.139  109.1  0.0165   51.0  0.3876 -101.4
 0.130  0.6723 -157.9  29.959  107.4  0.0170   51.2  0.3696 -105.0
 0.140  0.6805 -159.9  27.806  105.6  0.0175   51.4  0.3531 -108.9
 0.150  0.6895 -161.9  25.687  103.4  0.0180   51.6  0.3384 -113.1
 0.200  0.6957 -167.7  19.570   98.5  0.0207   56.1  0.3002 -125.3
 0.250  0.7040 -171.5  15.791   94.9  0.0239   57.9  0.2781 -132.9
 0.300  0.7084 -174.6  13.233   92.4  0.0269   60.6  0.2626 -139.9
 0.350  0.7091 -176.8  11.614   90.6  0.0305   63.3  0.2558 -143.8
 0.400  0.7108 -178.9  10.010   88.3  0.0341   65.4  0.2503 -147.9
 0.450  0.7114  179.5   9.012   87.0  0.0374   66.1  0.2485 -150.8
 0.500  0.7125  177.9   8.020   85.3  0.0407   66.6  0.2474 -153.8
 0.600  0.7115  175.3   6.704   82.5  0.0478   68.0  0.2454 -158.0
 0.700  0.7153  172.9   5.738   80.1  0.0543   69.8  0.2422 -160.7
 0.800  0.7192  170.7   5.029   77.6  0.0617   70.1  0.2432 -162.5
 0.900  0.7182  168.6   4.461   75.4  0.0686   70.1  0.2455 -164.4
 1.000  0.7196  166.6   4.028   73.4  0.0752   69.8  0.2463 -166.2
 1.100  0.7203  165.0   3.663   71.4  0.0825   69.6  0.2476 -167.3
 1.200  0.7224  163.0   3.362   69.3  0.0896   69.4  0.2491 -168.2
 1.300  0.7219  161.4   3.109   67.6  0.0964   69.0  0.2532 -168.5
 1.400  0.7240  159.7   2.902   65.5  0.1033   68.5  0.2572 -170.0
 1.500  0.7277  158.2   2.709   63.7  0.1102   67.9  0.2583 -170.9
 1.600  0.7287  156.5   2.554   61.9  0.1169   67.6  0.2615 -171.0
 1.700  0.7309  154.7   2.417   60.0  0.1243   67.0  0.2677 -171.7
 1.800  0.7321  153.3   2.294   58.1  0.1310   66.2  0.2718 -172.5
 1.900  0.7331  151.9   2.175   56.5  0.1373   65.7  0.2748 -173.0
 2.000  0.7347  150.2   2.078   54.5  0.1447   65.0  0.2786 -173.1
 2.100  0.7344  148.6   1.988   52.8  0.1514   64.3  0.2842 -173.5
 2.200  0.7347  147.0   1.899   51.0  0.1582   63.7  0.2898 -173.9
 2.300  0.7375  145.5   1.827   49.3  0.1650   62.8  0.2930 -174.0
 2.400  0.7407  144.1   1.757   47.5  0.1718   61.9  0.2963 -174.1
 2.500  0.7405  142.6   1.694   45.9  0.1782   61.1  0.3022 -174.6
 2.600  0.7409  141.1   1.632   44.2  0.1847   60.4  0.3082 -175.1
 2.700  0.7420  139.7   1.578   42.7  0.1907   59.6  0.3107 -175.2
 2.800  0.7435  138.3   1.525   41.1  0.1968   58.9  0.3133 -175.2
 2.900  0.7445  136.8   1.480   39.6  0.2032   58.0  0.3189 -176.1
 3.000  0.7461  135.3   1.436   38.0  0.2097   57.1  0.3246 -176.9
 3.100  0.7474  133.8   1.400   36.7  0.2158   56.2  0.3276 -177.6
 3.200  0.7492  132.4   1.364   35.3  0.2219   55.4  0.3306 -178.3
 3.300  0.7515  131.0   1.329   33.8  0.2281   54.6  0.3336 -178.9
 3.400  0.7543  129.5   1.296   32.2  0.2343   53.8  0.3368 -179.6
 3.500  0.7575  128.1   1.263   30.6  0.2406   53.1  0.3399  179.8
 3.600  0.7589  126.6   1.233   29.2  0.2460   52.1  0.3446  178.6
 3.700  0.7608  125.2   1.204   27.8  0.2515   51.2  0.3493  177.5
 3.800  0.7632  123.8   1.176   26.3  0.2570   50.3  0.3543  176.4
 3.900  0.7661  122.3   1.149   24.7  0.2626   49.4  0.3593  175.3
 4.000  0.7694  120.9   1.122   23.1  0.2683   48.6  0.3645  174.3
 4.100  0.7709  119.6   1.097   21.9  0.2732   47.7  0.3705  172.7
 4.200  0.7728  118.4   1.073   20.7  0.2782   46.9  0.3768  171.2
 4.300  0.7751  117.2   1.050   19.5  0.2832   46.1  0.3833  169.8
 4.400  0.7777  115.9   1.027   18.2  0.2883   45.3  0.3901  168.4
 4.500  0.7807  114.7   1.004   16.8  0.2934   44.6  0.3971  167.0
 4.600  0.7818  113.7   0.983   15.9  0.2978   43.8  0.4038  165.9
 4.700  0.7832  112.6   0.962   14.9  0.3022   43.0  0.4107  164.9
 4.800  0.7849  111.6   0.942   13.9  0.3066   42.3  0.4177  163.9
 4.900  0.7868  110.6   0.922   12.8  0.3111   41.5  0.4248  162.9
 5.000  0.7889  109.6   0.902   11.7  0.3157   40.8  0.4320  162.0
 5.100  0.7909  108.8   0.889   10.8  0.3203   40.1  0.4402  161.5
 5.200  0.7930  107.9   0.877    9.9  0.3249   39.5  0.4485  161.0
 5.300  0.7953  107.1   0.864    9.0  0.3296   38.9  0.4568  160.5
 5.400  0.7978  106.3   0.852    8.1  0.3343   38.3  0.4651  160.0
 5.500  0.8004  105.5   0.840    7.1  0.3391   37.7  0.4735  159.6
 5.600  0.8018  104.6   0.827    6.5  0.3447   36.9  0.4793  159.4
 5.700  0.8034  103.6   0.814    6.0  0.3503   36.2  0.4851  159.3
 5.800  0.8052  102.7   0.801    5.4  0.3560   35.5  0.4909  159.1
 5.900  0.8072  101.8   0.789    4.7  0.3617   34.8  0.4967  159.0
 6.000  0.8094  100.9   0.776    4.1  0.3675   34.1  0.5025  158.8
!
!  f       NFmin   Gammaopt  rn/50
! GHz       dB    MAG  ANG    -
 0.450      1.53  0.57 -176   0.05
 0.900      1.66  0.59 -169   0.06
 1.900      2.60  0.70 -147   0.20
 2.400      3.41  0.71 -138   0.33
!
! (c) 2017  Infineon Technologies AG, Munich