! Infineon Technologies  Discrete & RF Semiconductors
! BFP196WN
! VCE =  6.0 V,  IC =  80 mA
! Common Emitter S-Parameters:                            Jan 2017
# GHz  S  MA  R  50
!  f         S11            S21            S12            S22
! GHz     MAG   ANG      MAG   ANG      MAG   ANG      MAG   ANG
 0.010  0.2027  -75.3  95.059  166.2  0.0029   79.8  0.9080  -17.4
 0.020  0.3368 -102.9  85.685  152.7  0.0059   74.2  0.8386  -34.4
 0.030  0.3995 -118.3  75.806  146.2  0.0075   64.9  0.7339  -44.0
 0.040  0.4827 -129.0  67.198  137.8  0.0092   59.0  0.6560  -56.3
 0.050  0.5777 -136.4  60.407  127.3  0.0110   55.0  0.6151  -71.0
 0.060  0.5891 -141.0  55.144  125.1  0.0117   54.2  0.5655  -75.5
 0.070  0.6040 -145.4  49.980  122.4  0.0124   53.5  0.5201  -80.9
 0.080  0.6224 -149.6  44.949  119.2  0.0130   52.9  0.4801  -87.2
 0.090  0.6439 -153.5  40.102  115.1  0.0137   52.3  0.4470  -94.5
 0.100  0.6681 -157.1  35.513  109.9  0.0144   51.8  0.4222 -102.9
 0.110  0.6742 -158.9  33.334  108.7  0.0151   52.6  0.4040 -106.0
 0.120  0.6810 -160.7  31.171  107.4  0.0158   53.3  0.3871 -109.3
 0.130  0.6885 -162.4  29.027  105.9  0.0165   53.9  0.3717 -112.9
 0.140  0.6965 -164.1  26.907  104.2  0.0172   54.5  0.3578 -116.9
 0.150  0.7051 -165.7  24.816  102.1  0.0179   55.0  0.3458 -121.1
 0.200  0.7115 -170.6  18.845   97.4  0.0197   57.9  0.3161 -132.9
 0.250  0.7193 -173.9  15.189   94.1  0.0237   60.8  0.2992 -140.1
 0.300  0.7207 -176.6  12.716   91.7  0.0269   64.0  0.2865 -146.4
 0.350  0.7224 -178.5  11.159   90.0  0.0302   66.2  0.2821 -150.0
 0.400  0.7249  179.6   9.614   87.8  0.0335   67.9  0.2789 -153.7
 0.450  0.7251  178.1   8.654   86.5  0.0371   68.6  0.2775 -156.2
 0.500  0.7257  176.6   7.700   84.8  0.0408   69.1  0.2766 -158.8
 0.600  0.7259  174.2   6.432   82.1  0.0482   69.5  0.2758 -162.7
 0.700  0.7275  171.9   5.505   79.8  0.0551   71.2  0.2734 -165.2
 0.800  0.7304  169.8   4.822   77.3  0.0630   71.1  0.2749 -166.9
 0.900  0.7312  167.7   4.282   75.1  0.0699   70.9  0.2770 -168.6
 1.000  0.7316  165.9   3.866   73.1  0.0771   70.6  0.2788 -170.2
 1.100  0.7336  164.3   3.517   71.2  0.0844   70.4  0.2791 -171.4
 1.200  0.7344  162.5   3.229   69.1  0.0916   70.0  0.2802 -172.2
 1.300  0.7339  160.7   2.984   67.4  0.0989   69.6  0.2845 -172.7
 1.400  0.7362  159.0   2.788   65.4  0.1063   69.1  0.2884 -174.0
 1.500  0.7395  157.6   2.602   63.5  0.1128   68.3  0.2895 -174.9
 1.600  0.7407  156.0   2.450   61.7  0.1203   67.9  0.2920 -175.0
 1.700  0.7430  154.1   2.321   59.9  0.1272   67.0  0.2982 -175.8
 1.800  0.7447  152.8   2.206   58.0  0.1341   66.3  0.3022 -176.5
 1.900  0.7437  151.3   2.092   56.3  0.1409   65.8  0.3046 -177.1
 2.000  0.7458  149.6   1.997   54.4  0.1486   64.8  0.3083 -177.1
 2.100  0.7459  148.1   1.912   52.7  0.1553   64.1  0.3133 -177.6
 2.200  0.7464  146.7   1.829   50.9  0.1620   63.4  0.3184 -178.1
 2.300  0.7477  145.1   1.760   49.3  0.1686   62.6  0.3210 -178.3
 2.400  0.7495  143.6   1.692   47.5  0.1753   61.8  0.3237 -178.4
 2.500  0.7500  142.0   1.632   45.9  0.1822   60.9  0.3292 -178.9
 2.600  0.7510  140.5   1.574   44.2  0.1892   60.1  0.3347 -179.4
 2.700  0.7521  139.1   1.522   42.8  0.1955   59.3  0.3368 -179.5
 2.800  0.7536  137.7   1.471   41.2  0.2018   58.5  0.3389 -179.6
 2.900  0.7547  136.3   1.428   39.6  0.2081   57.5  0.3443  179.5
 3.000  0.7563  134.9   1.386   38.0  0.2145   56.5  0.3497  178.7
 3.100  0.7572  133.4   1.351   36.7  0.2206   55.6  0.3522  178.0
 3.200  0.7586  132.0   1.318   35.3  0.2268   54.7  0.3547  177.3
 3.300  0.7605  130.5   1.284   33.8  0.2330   53.9  0.3574  176.6
 3.400  0.7628  129.0   1.252   32.3  0.2392   53.1  0.3600  176.0
 3.500  0.7657  127.6   1.221   30.7  0.2455   52.4  0.3627  175.3
 3.600  0.7670  126.1   1.193   29.4  0.2509   51.4  0.3671  174.2
 3.700  0.7688  124.7   1.166   28.0  0.2564   50.5  0.3716  173.1
 3.800  0.7710  123.2   1.139   26.5  0.2619   49.6  0.3762  172.0
 3.900  0.7738  121.7   1.113   25.0  0.2675   48.7  0.3810  171.0
 4.000  0.7771  120.3   1.088   23.4  0.2732   47.9  0.3859  170.0
 4.100  0.7783  119.1   1.064   22.3  0.2780   47.0  0.3918  168.6
 4.200  0.7799  117.8   1.041   21.1  0.2828   46.1  0.3979  167.2
 4.300  0.7819  116.6   1.019   19.8  0.2877   45.3  0.4043  165.9
 4.400  0.7842  115.4   0.997   18.6  0.2927   44.5  0.4108  164.6
 4.500  0.7868  114.2   0.975   17.2  0.2977   43.7  0.4176  163.3
 4.600  0.7880  113.2   0.955   16.3  0.3019   42.9  0.4241  162.3
 4.700  0.7894  112.2   0.935   15.3  0.3063   42.1  0.4307  161.2
 4.800  0.7910  111.2   0.916   14.3  0.3106   41.4  0.4374  160.3
 4.900  0.7929  110.2   0.897   13.2  0.3150   40.6  0.4442  159.3
 5.000  0.7950  109.2   0.878   12.1  0.3195   39.9  0.4512  158.4
 5.100  0.7964  108.4   0.866   11.2  0.3240   39.3  0.4588  158.0
 5.200  0.7979  107.6   0.854   10.4  0.3286   38.6  0.4664  157.5
 5.300  0.7996  106.8   0.843    9.5  0.3333   38.1  0.4740  157.1
 5.400  0.8014  106.0   0.831    8.5  0.3379   37.5  0.4817  156.7
 5.500  0.8034  105.2   0.820    7.6  0.3426   36.9  0.4894  156.3
 5.600  0.8050  104.3   0.808    7.1  0.3482   36.1  0.4946  156.2
 5.700  0.8069  103.3   0.796    6.5  0.3538   35.3  0.4998  156.0
 5.800  0.8089  102.4   0.784    6.0  0.3595   34.5  0.5051  155.9
 5.900  0.8111  101.5   0.773    5.4  0.3653   33.8  0.5103  155.7
 6.000  0.8136  100.6   0.761    4.8  0.3711   33.1  0.5155  155.6
!
!  f       NFmin   Gammaopt  rn/50
! GHz       dB    MAG  ANG    -
 0.450      1.58  0.58 -175   0.05
 0.900      1.71  0.59 -168   0.07
 1.900      2.67  0.70 -146   0.21
 2.400      3.48  0.71 -138   0.35
!
! (c) 2017  Infineon Technologies AG, Munich