! Infineon Technologies  Discrete & RF Semiconductors
! BFP196WN
! VCE =  1.0 V,  IC =  40 mA
! Common Emitter S-Parameters:                            Jan 2017
# GHz  S  MA  R  50
!  f         S11            S21            S12            S22
! GHz     MAG   ANG      MAG   ANG      MAG   ANG      MAG   ANG
 0.010  0.2875  -62.6  72.669  165.2  0.0051   74.2  0.9142  -21.8
 0.020  0.4179  -96.0  64.975  150.8  0.0095   67.9  0.8451  -41.9
 0.030  0.4697 -113.0  56.919  144.3  0.0120   57.4  0.7347  -53.3
 0.040  0.5533 -125.7  49.814  135.9  0.0148   50.7  0.6621  -67.8
 0.050  0.6567 -134.8  44.122  125.0  0.0177   46.2  0.6403  -84.6
 0.060  0.6653 -139.6  40.206  122.9  0.0183   45.3  0.5961  -90.0
 0.070  0.6784 -144.3  36.357  120.3  0.0190   44.4  0.5580  -96.3
 0.080  0.6959 -148.7  32.598  117.2  0.0196   43.6  0.5276 -103.4
 0.090  0.7173 -152.9  28.964  113.2  0.0203   42.8  0.5060 -111.2
 0.100  0.7424 -156.9  25.509  108.1  0.0209   42.1  0.4946 -119.5
 0.110  0.7475 -158.7  23.920  107.0  0.0216   42.4  0.4813 -122.7
 0.120  0.7534 -160.4  22.341  105.8  0.0222   42.8  0.4696 -126.0
 0.130  0.7599 -162.2  20.775  104.3  0.0229   43.1  0.4596 -129.5
 0.140  0.7671 -163.8  19.223  102.7  0.0235   43.3  0.4514 -133.1
 0.150  0.7750 -165.5  17.691  100.7  0.0242   43.6  0.4450 -136.9
 0.200  0.7804 -170.8  13.416   96.1  0.0262   47.6  0.4301 -146.9
 0.250  0.7850 -174.2  10.808   92.9  0.0297   50.7  0.4203 -153.2
 0.300  0.7870 -176.8   9.045   90.5  0.0334   53.1  0.4134 -158.2
 0.350  0.7879 -178.8   7.931   88.8  0.0367   55.6  0.4109 -161.0
 0.400  0.7897  179.3   6.826   86.5  0.0401   57.6  0.4094 -163.9
 0.450  0.7896  177.8   6.144   85.1  0.0435   59.2  0.4094 -166.0
 0.500  0.7901  176.3   5.466   83.4  0.0470   60.6  0.4100 -168.0
 0.600  0.7902  173.6   4.570   80.7  0.0550   63.2  0.4102 -171.0
 0.700  0.7908  171.6   3.914   78.3  0.0620   64.7  0.4082 -173.3
 0.800  0.7926  169.2   3.431   75.7  0.0706   65.7  0.4092 -174.9
 0.900  0.7920  167.2   3.049   73.4  0.0781   65.2  0.4107 -176.4
 1.000  0.7950  165.5   2.756   71.3  0.0860   65.4  0.4124 -177.8
 1.100  0.7950  163.6   2.510   69.2  0.0939   65.7  0.4131 -179.1
 1.200  0.7959  161.8   2.308   67.1  0.1010   65.3  0.4136  180.0
 1.300  0.7934  160.0   2.139   65.3  0.1084   65.0  0.4168  179.4
 1.400  0.7965  158.3   2.001   63.2  0.1164   64.6  0.4207  178.1
 1.500  0.7976  156.8   1.872   61.2  0.1238   64.1  0.4216  177.1
 1.600  0.7996  155.2   1.767   59.4  0.1315   63.5  0.4235  176.6
 1.700  0.8011  153.2   1.678   57.5  0.1393   63.1  0.4282  175.9
 1.800  0.8014  151.8   1.598   55.5  0.1467   62.4  0.4319  175.0
 1.900  0.8020  150.2   1.519   53.9  0.1538   61.9  0.4333  174.3
 2.000  0.8039  148.6   1.454   51.8  0.1616   60.9  0.4367  173.9
 2.100  0.8031  147.1   1.395   50.1  0.1689   60.2  0.4405  173.3
 2.200  0.8029  145.5   1.338   48.3  0.1763   59.5  0.4444  172.7
 2.300  0.8040  143.9   1.290   46.7  0.1834   58.6  0.4461  172.2
 2.400  0.8057  142.4   1.244   44.9  0.1905   57.8  0.4478  171.8
 2.500  0.8048  140.9   1.204   43.3  0.1975   56.9  0.4522  171.2
 2.600  0.8044  139.4   1.164   41.6  0.2045   56.1  0.4567  170.6
 2.700  0.8047  137.9   1.129   40.1  0.2111   55.3  0.4574  170.2
 2.800  0.8055  136.5   1.094   38.6  0.2178   54.5  0.4582  169.8
 2.900  0.8054  134.9   1.065   37.1  0.2243   53.5  0.4627  168.9
 3.000  0.8059  133.4   1.036   35.5  0.2309   52.5  0.4673  168.1
 3.100  0.8062  131.9   1.013   34.2  0.2372   51.5  0.4688  167.3
 3.200  0.8070  130.4   0.990   32.9  0.2435   50.6  0.4704  166.5
 3.300  0.8084  128.9   0.968   31.5  0.2499   49.8  0.4721  165.7
 3.400  0.8103  127.5   0.946   30.0  0.2563   49.0  0.4739  164.9
 3.500  0.8127  126.0   0.925   28.5  0.2628   48.2  0.4758  164.1
 3.600  0.8131  124.5   0.906   27.2  0.2682   47.2  0.4790  163.0
 3.700  0.8139  123.1   0.887   25.9  0.2736   46.2  0.4824  162.0
 3.800  0.8154  121.6   0.869   24.5  0.2791   45.3  0.4859  160.9
 3.900  0.8173  120.1   0.852   23.1  0.2847   44.4  0.4896  159.9
 4.000  0.8198  118.7   0.835   21.6  0.2904   43.6  0.4934  158.9
 4.100  0.8194  117.5   0.819   20.6  0.2949   42.7  0.4985  157.6
 4.200  0.8194  116.2   0.803   19.5  0.2995   41.8  0.5039  156.4
 4.300  0.8198  115.0   0.787   18.4  0.3042   41.0  0.5095  155.2
 4.400  0.8206  113.7   0.772   17.2  0.3089   40.2  0.5153  154.0
 4.500  0.8218  112.5   0.757   16.0  0.3137   39.4  0.5213  152.9
 4.600  0.8219  111.5   0.744   15.2  0.3178   38.6  0.5267  152.0
 4.700  0.8223  110.5   0.731   14.4  0.3219   37.8  0.5322  151.1
 4.800  0.8230  109.5   0.718   13.6  0.3261   37.1  0.5378  150.2
 4.900  0.8239  108.5   0.705   12.7  0.3304   36.3  0.5435  149.3
 5.000  0.8250  107.5   0.692   11.8  0.3347   35.6  0.5494  148.5
 5.100  0.8260  106.7   0.685   11.1  0.3391   35.0  0.5554  148.1
 5.200  0.8271  105.9   0.678   10.4  0.3436   34.4  0.5615  147.7
 5.300  0.8284  105.1   0.672    9.6  0.3481   33.8  0.5676  147.3
 5.400  0.8299  104.3   0.665    8.9  0.3527   33.2  0.5738  147.0
 5.500  0.8315  103.5   0.659    8.1  0.3573   32.6  0.5799  146.6
 5.600  0.8324  102.6   0.651    7.7  0.3627   31.9  0.5832  146.5
 5.700  0.8335  101.7   0.644    7.3  0.3681   31.1  0.5865  146.3
 5.800  0.8348  100.7   0.636    6.9  0.3736   30.4  0.5898  146.2
 5.900  0.8364   99.8   0.629    6.4  0.3792   29.8  0.5932  146.0
 6.000  0.8381   98.9   0.621    6.0  0.3848   29.1  0.5965  145.9
!
!  f       NFmin   Gammaopt  rn/50
! GHz       dB    MAG  ANG    -
 0.450      1.16  0.50 -179   0.04
 0.900      1.29  0.54 -173   0.05
 1.900      2.21  0.68 -148   0.13
 2.400      2.95  0.69 -141   0.26
!
! (c) 2017  Infineon Technologies AG, Munich