! Infineon Technologies  Discrete & RF Semiconductors
! BFP196WN
! VCE =  9.0 V,  IC =  15 mA
! Common Emitter S-Parameters:                            Jan 2017
# GHz  S  MA  R  50
!  f         S11            S21            S12            S22
! GHz     MAG   ANG      MAG   ANG      MAG   ANG      MAG   ANG
 0.010  0.6443  -13.4  40.729  174.0  0.0043   84.0  0.9782   -7.0
 0.020  0.6316  -28.7  38.870  166.6  0.0080   82.0  0.9550  -14.2
 0.030  0.6160  -40.7  37.317  161.1  0.0118   71.9  0.9110  -20.1
 0.040  0.6281  -52.8  36.133  155.2  0.0158   66.7  0.8775  -26.5
 0.050  0.6664  -63.9  35.355  149.0  0.0198   63.7  0.8558  -33.3
 0.060  0.6441  -71.6  33.340  145.9  0.0218   59.5  0.8073  -36.8
 0.070  0.6341  -79.7  31.437  142.3  0.0239   56.0  0.7622  -40.7
 0.080  0.6371  -87.9  29.668  138.4  0.0260   53.1  0.7211  -45.1
 0.090  0.6528  -95.9  28.059  133.9  0.0282   50.6  0.6847  -50.0
 0.100  0.6804 -103.3  26.637  129.0  0.0305   48.5  0.6539  -55.4
 0.110  0.6765 -107.8  25.338  127.1  0.0315   46.9  0.6221  -57.6
 0.120  0.6769 -112.4  24.071  124.9  0.0326   45.4  0.5913  -60.1
 0.130  0.6816 -116.9  22.840  122.6  0.0337   44.0  0.5618  -62.8
 0.140  0.6905 -121.4  21.654  119.9  0.0348   42.7  0.5337  -65.8
 0.150  0.7034 -125.7  20.518  117.0  0.0359   41.5  0.5072  -69.2
 0.200  0.7066 -139.1  16.291  109.1  0.0382   38.4  0.4133  -78.9
 0.250  0.7140 -148.3  13.449  103.6  0.0406   37.6  0.3524  -85.5
 0.300  0.7182 -154.9  11.418   99.6  0.0424   37.6  0.3064  -91.1
 0.350  0.7172 -159.5  10.065   96.9  0.0441   38.5  0.2797  -95.0
 0.400  0.7207 -164.0   8.740   93.4  0.0458   39.4  0.2545  -99.6
 0.450  0.7204 -167.0   7.885   91.4  0.0475   40.7  0.2395 -102.8
 0.500  0.7220 -169.9   7.041   89.0  0.0493   41.9  0.2253 -106.5
 0.600  0.7222 -174.6   5.902   85.3  0.0536   44.5  0.2068 -111.6
 0.700  0.7249 -178.3   5.059   82.1  0.0566   47.5  0.1952 -115.5
 0.800  0.7277  178.3   4.439   78.9  0.0617   50.4  0.1910 -118.5
 0.900  0.7276  175.4   3.945   76.2  0.0665   51.5  0.1890 -121.7
 1.000  0.7286  172.9   3.560   73.7  0.0707   53.6  0.1870 -124.4
 1.100  0.7331  170.7   3.240   71.3  0.0759   54.9  0.1884 -126.3
 1.200  0.7322  168.3   2.973   68.9  0.0809   55.8  0.1908 -127.8
 1.300  0.7331  166.2   2.749   66.8  0.0852   56.8  0.1957 -129.5
 1.400  0.7349  164.2   2.564   64.4  0.0912   57.8  0.1996 -131.9
 1.500  0.7391  162.5   2.393   62.3  0.0965   58.6  0.2037 -133.3
 1.600  0.7412  160.6   2.252   60.2  0.1015   59.1  0.2098 -134.1
 1.700  0.7438  158.6   2.132   58.1  0.1079   59.6  0.2172 -135.9
 1.800  0.7457  156.9   2.024   56.0  0.1135   59.9  0.2242 -137.4
 1.900  0.7468  155.3   1.918   54.2  0.1185   60.3  0.2302 -138.6
 2.000  0.7505  153.5   1.831   52.0  0.1251   60.2  0.2381 -139.4
 2.100  0.7506  151.9   1.750   50.1  0.1310   60.3  0.2466 -140.7
 2.200  0.7513  150.3   1.671   48.1  0.1369   60.4  0.2553 -142.0
 2.300  0.7545  148.6   1.607   46.3  0.1432   60.3  0.2630 -142.8
 2.400  0.7584  147.0   1.544   44.4  0.1496   60.2  0.2708 -143.5
 2.500  0.7584  145.3   1.486   42.7  0.1557   59.9  0.2800 -144.7
 2.600  0.7591  143.7   1.430   40.8  0.1619   59.6  0.2894 -145.9
 2.700  0.7608  142.2   1.381   39.2  0.1680   59.4  0.2963 -146.6
 2.800  0.7631  140.7   1.333   37.5  0.1741   59.2  0.3033 -147.2
 2.900  0.7650  139.0   1.292   35.9  0.1804   58.6  0.3113 -148.7
 3.000  0.7676  137.4   1.253   34.1  0.1867   58.0  0.3195 -150.1
 3.100  0.7692  135.9   1.220   32.8  0.1933   57.4  0.3255 -151.3
 3.200  0.7714  134.3   1.187   31.3  0.1999   56.9  0.3316 -152.6
 3.300  0.7742  132.8   1.155   29.8  0.2065   56.4  0.3379 -153.7
 3.400  0.7775  131.3   1.124   28.3  0.2131   55.9  0.3443 -154.8
 3.500  0.7813  129.8   1.094   26.6  0.2197   55.5  0.3508 -155.9
 3.600  0.7829  128.2   1.067   25.3  0.2258   54.7  0.3570 -157.7
 3.700  0.7850  126.7   1.040   23.9  0.2320   54.0  0.3636 -159.4
 3.800  0.7878  125.1   1.015   22.4  0.2382   53.3  0.3704 -161.0
 3.900  0.7910  123.6   0.989   20.8  0.2444   52.6  0.3776 -162.6
 4.000  0.7949  122.1   0.965   19.2  0.2507   52.0  0.3850 -164.1
 4.100  0.7961  120.7   0.943   18.1  0.2565   51.2  0.3919 -166.2
 4.200  0.7977  119.4   0.921   16.9  0.2624   50.4  0.3992 -168.2
 4.300  0.7998  118.1   0.899   15.7  0.2683   49.6  0.4071 -170.2
 4.400  0.8023  116.7   0.878   14.4  0.2742   48.9  0.4154 -172.1
 4.500  0.8052  115.4   0.857   13.1  0.2802   48.2  0.4242 -173.9
 4.600  0.8060  114.3   0.838   12.3  0.2855   47.4  0.4324 -175.6
 4.700  0.8072  113.3   0.818   11.4  0.2909   46.6  0.4409 -177.2
 4.800  0.8086  112.2   0.799   10.5  0.2963   45.9  0.4498 -178.8
 4.900  0.8102  111.2   0.781    9.5  0.3018   45.2  0.4591  179.7
 5.000  0.8122  110.1   0.762    8.5  0.3073   44.5  0.4686  178.2
 5.100  0.8139  109.2   0.750    7.8  0.3128   43.8  0.4787  177.0
 5.200  0.8157  108.4   0.739    7.1  0.3183   43.2  0.4890  175.9
 5.300  0.8178  107.5   0.727    6.3  0.3239   42.5  0.4994  174.9
 5.400  0.8200  106.7   0.716    5.6  0.3295   41.9  0.5100  173.9
 5.500  0.8224  105.8   0.705    4.8  0.3351   41.3  0.5208  172.9
 5.600  0.8239  104.8   0.693    4.4  0.3414   40.5  0.5287  172.2
 5.700  0.8256  103.8   0.682    4.0  0.3478   39.7  0.5367  171.6
 5.800  0.8275  102.8   0.670    3.6  0.3543   38.9  0.5447  171.0
 5.900  0.8297  101.9   0.659    3.2  0.3608   38.1  0.5528  170.4
 6.000  0.8321  100.9   0.647    2.8  0.3674   37.4  0.5610  169.8
!
!  f       NFmin   Gammaopt  rn/50
! GHz       dB    MAG  ANG    -
!
! noise parameter not available yet for this operation point!
!
! (c) 2017  Infineon Technologies AG, Munich