! Infineon Technologies  Discrete & RF Semiconductors
! BFP196WN
! VCE =  8.0 V,  IC =  75 mA
! Common Emitter S-Parameters:                            Jan 2017
# GHz  S  MA  R  50
!  f         S11            S21            S12            S22
! GHz     MAG   ANG      MAG   ANG      MAG   ANG      MAG   ANG
 0.010  0.2329  -57.0  92.365  166.9  0.0028   77.2  0.9141  -15.9
 0.020  0.3383  -89.9  84.160  154.1  0.0053   72.6  0.8514  -31.6
 0.030  0.3895 -107.6  74.986  147.6  0.0073   63.8  0.7507  -40.8
 0.040  0.4681 -120.3  67.048  139.3  0.0094   58.8  0.6747  -52.4
 0.050  0.5627 -129.0  60.830  129.2  0.0116   55.7  0.6324  -66.2
 0.060  0.5726 -134.4  55.635  126.9  0.0123   54.6  0.5811  -70.6
 0.070  0.5873 -139.5  50.550  124.1  0.0130   53.7  0.5337  -75.7
 0.080  0.6064 -144.3  45.611  120.7  0.0137   52.8  0.4915  -81.8
 0.090  0.6296 -148.8  40.872  116.5  0.0144   52.0  0.4559  -89.0
 0.100  0.6564 -153.0  36.410  111.2  0.0151   51.3  0.4285  -97.2
 0.110  0.6624 -155.1  34.194  110.0  0.0157   51.4  0.4083 -100.1
 0.120  0.6692 -157.1  31.995  108.6  0.0163   51.6  0.3892 -103.4
 0.130  0.6769 -159.1  29.817  107.0  0.0168   51.7  0.3715 -106.9
 0.140  0.6854 -161.0  27.665  105.2  0.0174   51.8  0.3554 -110.8
 0.150  0.6946 -162.9  25.546  103.1  0.0180   51.9  0.3411 -115.1
 0.200  0.7000 -168.6  19.440   98.2  0.0203   56.7  0.3052 -127.2
 0.250  0.7075 -172.2  15.693   94.8  0.0242   59.5  0.2850 -135.0
 0.300  0.7109 -175.1  13.154   92.3  0.0267   61.5  0.2701 -141.6
 0.350  0.7120 -177.2  11.540   90.5  0.0302   63.8  0.2641 -145.5
 0.400  0.7140 -179.3   9.940   88.2  0.0338   65.7  0.2593 -149.6
 0.450  0.7146  179.1   8.948   86.8  0.0373   66.7  0.2575 -152.4
 0.500  0.7158  177.5   7.963   85.1  0.0408   67.5  0.2564 -155.2
 0.600  0.7164  174.9   6.656   82.4  0.0479   68.9  0.2543 -159.3
 0.700  0.7179  172.8   5.699   80.1  0.0543   70.0  0.2518 -162.1
 0.800  0.7195  170.3   4.989   77.5  0.0622   70.7  0.2523 -163.9
 0.900  0.7189  168.4   4.430   75.4  0.0691   70.3  0.2549 -165.6
 1.000  0.7223  166.6   3.998   73.4  0.0756   70.3  0.2560 -167.3
 1.100  0.7239  164.8   3.638   71.4  0.0832   69.9  0.2574 -168.6
 1.200  0.7244  162.9   3.337   69.3  0.0901   69.5  0.2584 -169.3
 1.300  0.7255  161.2   3.089   67.6  0.0967   69.3  0.2622 -169.8
 1.400  0.7256  159.5   2.882   65.5  0.1045   68.6  0.2661 -171.3
 1.500  0.7305  158.0   2.690   63.7  0.1109   68.0  0.2681 -172.2
 1.600  0.7314  156.5   2.535   61.9  0.1179   67.5  0.2706 -172.2
 1.700  0.7327  154.6   2.401   60.0  0.1251   67.2  0.2767 -173.0
 1.800  0.7353  153.1   2.279   58.1  0.1318   66.4  0.2811 -173.8
 1.900  0.7344  151.7   2.162   56.5  0.1382   65.8  0.2832 -174.3
 2.000  0.7381  150.1   2.064   54.5  0.1458   64.9  0.2876 -174.3
 2.100  0.7377  148.6   1.976   52.9  0.1523   64.2  0.2929 -174.8
 2.200  0.7379  147.1   1.889   51.1  0.1589   63.6  0.2983 -175.2
 2.300  0.7401  145.5   1.817   49.4  0.1656   62.7  0.3013 -175.4
 2.400  0.7428  144.0   1.746   47.6  0.1724   61.9  0.3043 -175.5
 2.500  0.7422  142.5   1.683   46.0  0.1792   61.0  0.3101 -176.0
 2.600  0.7421  141.0   1.622   44.3  0.1861   60.2  0.3160 -176.5
 2.700  0.7435  139.5   1.569   42.9  0.1922   59.4  0.3182 -176.6
 2.800  0.7454  138.1   1.517   41.3  0.1983   58.7  0.3204 -176.6
 2.900  0.7465  136.6   1.471   39.7  0.2045   57.8  0.3261 -177.5
 3.000  0.7481  135.2   1.427   38.1  0.2107   57.0  0.3319 -178.4
 3.100  0.7494  133.7   1.391   36.8  0.2169   56.1  0.3347 -179.1
 3.200  0.7513  132.3   1.356   35.4  0.2231   55.2  0.3376 -179.8
 3.300  0.7536  130.9   1.322   33.9  0.2293   54.3  0.3406  179.6
 3.400  0.7564  129.4   1.288   32.3  0.2356   53.6  0.3436  178.9
 3.500  0.7596  128.0   1.256   30.7  0.2420   52.8  0.3466  178.3
 3.600  0.7609  126.5   1.227   29.4  0.2474   51.8  0.3512  177.2
 3.700  0.7627  125.1   1.198   27.9  0.2528   50.9  0.3559  176.1
 3.800  0.7651  123.6   1.171   26.5  0.2584   50.0  0.3607  175.0
 3.900  0.7679  122.1   1.144   24.9  0.2640   49.1  0.3657  173.9
 4.000  0.7712  120.7   1.118   23.3  0.2696   48.3  0.3708  172.9
 4.100  0.7727  119.4   1.093   22.2  0.2745   47.4  0.3768  171.4
 4.200  0.7745  118.2   1.069   20.9  0.2794   46.6  0.3831  169.9
 4.300  0.7767  117.0   1.045   19.7  0.2844   45.8  0.3897  168.5
 4.400  0.7793  115.7   1.022   18.4  0.2894   45.0  0.3964  167.1
 4.500  0.7822  114.5   0.999   17.0  0.2945   44.2  0.4034  165.8
 4.600  0.7833  113.5   0.978   16.0  0.2988   43.4  0.4101  164.7
 4.700  0.7847  112.5   0.958   15.1  0.3031   42.7  0.4170  163.7
 4.800  0.7863  111.5   0.937   14.0  0.3075   41.9  0.4240  162.7
 4.900  0.7882  110.5   0.918   12.9  0.3120   41.2  0.4311  161.7
 5.000  0.7903  109.5   0.898   11.8  0.3165   40.5  0.4383  160.8
 5.100  0.7920  108.7   0.885   11.0  0.3213   39.8  0.4463  160.3
 5.200  0.7939  107.9   0.873   10.1  0.3261   39.2  0.4543  159.8
 5.300  0.7959  107.1   0.861    9.2  0.3310   38.6  0.4624  159.4
 5.400  0.7981  106.4   0.849    8.3  0.3359   38.0  0.4705  158.9
 5.500  0.8004  105.6   0.837    7.3  0.3408   37.4  0.4786  158.5
 5.600  0.8021  104.7   0.824    6.8  0.3462   36.6  0.4841  158.3
 5.700  0.8041  103.7   0.812    6.2  0.3517   35.9  0.4897  158.2
 5.800  0.8062  102.8   0.800    5.7  0.3572   35.1  0.4952  158.0
 5.900  0.8086  101.8   0.787    5.1  0.3628   34.4  0.5008  157.9
 6.000  0.8112  100.9   0.775    4.5  0.3685   33.7  0.5063  157.7
!
!  f       NFmin   Gammaopt  rn/50
! GHz       dB    MAG  ANG    -
 0.450      1.53  0.57 -176   0.05
 0.900      1.66  0.59 -169   0.06
 1.900      2.60  0.70 -147   0.20
 2.400      3.41  0.71 -138   0.33
!
! (c) 2017  Infineon Technologies AG, Munich