! Infineon Technologies  Discrete & RF Semiconductors
! BFP196WN
! VCE =  10. V,  IC =  30 mA
! Common Emitter S-Parameters:                            Jan 2017
# GHz  S  MA  R  50
!  f         S11            S21            S12            S22
! GHz     MAG   ANG      MAG   ANG      MAG   ANG      MAG   ANG
 0.010  0.4655  -22.3  62.507  171.2  0.0038   75.5  0.9521  -10.5
 0.020  0.4766  -45.4  58.847  161.6  0.0071   75.8  0.9179  -21.0
 0.030  0.4718  -62.2  54.791  155.4  0.0099   66.3  0.8472  -28.5
 0.040  0.5064  -78.0  51.478  148.3  0.0129   61.0  0.7936  -37.3
 0.050  0.5733  -90.9  49.060  140.3  0.0160   57.8  0.7607  -47.0
 0.060  0.5665  -98.7  45.523  137.4  0.0173   55.0  0.7055  -51.0
 0.070  0.5704 -106.6  42.119  134.1  0.0186   52.6  0.6542  -55.6
 0.080  0.5849 -114.3  38.883  130.2  0.0199   50.6  0.6078  -60.9
 0.090  0.6092 -121.4  35.860  125.6  0.0213   48.8  0.5676  -67.1
 0.100  0.6421 -127.9  33.108  120.2  0.0227   47.2  0.5349  -74.1
 0.110  0.6448 -131.5  31.255  118.6  0.0233   46.2  0.5067  -76.7
 0.120  0.6500 -135.0  29.430  116.8  0.0238   45.2  0.4797  -79.6
 0.130  0.6576 -138.5  27.638  114.8  0.0244   44.3  0.4540  -82.8
 0.140  0.6676 -141.8  25.885  112.4  0.0250   43.4  0.4299  -86.4
 0.150  0.6798 -145.1  24.181  109.8  0.0256   42.6  0.4077  -90.4
 0.200  0.6886 -154.8  18.722  103.4  0.0274   43.4  0.3396 -102.3
 0.250  0.6997 -161.1  15.245   99.0  0.0300   46.1  0.2990 -110.7
 0.300  0.7017 -165.8  12.834   95.8  0.0326   47.8  0.2687 -117.7
 0.350  0.7030 -169.0  11.283   93.6  0.0348   50.1  0.2534 -122.6
 0.400  0.7064 -172.2   9.754   90.8  0.0370   52.1  0.2402 -128.0
 0.450  0.7065 -174.5   8.787   89.2  0.0401   53.6  0.2328 -131.6
 0.500  0.7078 -176.8   7.830   87.1  0.0432   54.8  0.2264 -135.5
 0.600  0.7099  179.6   6.550   84.0  0.0489   57.4  0.2181 -141.1
 0.700  0.7118  176.8   5.611   81.3  0.0541   60.3  0.2122 -144.7
 0.800  0.7148  174.1   4.918   78.5  0.0609   61.6  0.2114 -147.5
 0.900  0.7133  171.5   4.367   76.1  0.0671   62.4  0.2125 -150.1
 1.000  0.7164  169.5   3.943   73.9  0.0727   63.3  0.2126 -152.4
 1.100  0.7169  167.4   3.586   71.8  0.0795   63.9  0.2134 -153.8
 1.200  0.7203  165.5   3.290   69.6  0.0855   63.9  0.2152 -155.0
 1.300  0.7198  163.6   3.040   67.7  0.0917   64.4  0.2197 -155.7
 1.400  0.7203  161.6   2.839   65.5  0.0985   64.3  0.2239 -157.6
 1.500  0.7249  160.1   2.650   63.6  0.1045   64.2  0.2259 -158.5
 1.600  0.7266  158.3   2.495   61.7  0.1110   64.0  0.2302 -158.7
 1.700  0.7287  156.4   2.362   59.7  0.1171   64.1  0.2368 -159.8
 1.800  0.7288  154.9   2.242   57.8  0.1240   63.5  0.2420 -160.6
 1.900  0.7299  153.4   2.124   56.1  0.1302   63.4  0.2465 -161.2
 2.000  0.7340  151.7   2.029   54.0  0.1364   62.8  0.2516 -161.4
 2.100  0.7338  150.1   1.941   52.3  0.1427   62.5  0.2581 -162.0
 2.200  0.7342  148.5   1.854   50.4  0.1491   62.2  0.2647 -162.6
 2.300  0.7370  146.9   1.783   48.7  0.1557   61.6  0.2696 -162.9
 2.400  0.7403  145.4   1.713   46.8  0.1623   61.0  0.2745 -163.1
 2.500  0.7402  143.8   1.651   45.2  0.1689   60.3  0.2816 -163.7
 2.600  0.7407  142.3   1.591   43.4  0.1755   59.6  0.2888 -164.3
 2.700  0.7425  140.8   1.537   41.9  0.1814   59.2  0.2931 -164.5
 2.800  0.7447  139.4   1.485   40.3  0.1873   58.8  0.2974 -164.6
 2.900  0.7454  137.8   1.440   38.7  0.1936   58.0  0.3038 -165.6
 3.000  0.7466  136.3   1.396   37.1  0.1999   57.2  0.3103 -166.6
 3.100  0.7484  134.8   1.360   35.7  0.2062   56.4  0.3145 -167.4
 3.200  0.7506  133.3   1.325   34.3  0.2124   55.7  0.3187 -168.2
 3.300  0.7534  131.8   1.291   32.8  0.2188   55.0  0.3230 -169.0
 3.400  0.7567  130.4   1.257   31.2  0.2251   54.4  0.3274 -169.8
 3.500  0.7605  128.9   1.225   29.5  0.2315   53.8  0.3318 -170.5
 3.600  0.7620  127.4   1.196   28.2  0.2371   52.9  0.3371 -171.9
 3.700  0.7640  125.9   1.167   26.8  0.2427   52.0  0.3427 -173.2
 3.800  0.7665  124.4   1.139   25.3  0.2485   51.2  0.3484 -174.5
 3.900  0.7695  123.0   1.112   23.7  0.2542   50.4  0.3543 -175.7
 4.000  0.7730  121.5   1.086   22.1  0.2600   49.7  0.3603 -176.9
 4.100  0.7745  120.2   1.062   21.0  0.2652   48.9  0.3668 -178.6
 4.200  0.7764  118.9   1.038   19.8  0.2704   48.0  0.3736  179.8
 4.300  0.7787  117.6   1.014   18.5  0.2757   47.3  0.3806  178.2
 4.400  0.7814  116.4   0.991   17.2  0.2810   46.5  0.3880  176.7
 4.500  0.7845  115.1   0.969   15.8  0.2864   45.8  0.3956  175.2
 4.600  0.7858  114.1   0.948   14.9  0.2910   45.0  0.4032  173.9
 4.700  0.7873  113.0   0.927   13.9  0.2957   44.3  0.4110  172.6
 4.800  0.7892  112.0   0.906   12.9  0.3004   43.6  0.4190  171.4
 4.900  0.7912  111.0   0.886   11.8  0.3051   42.9  0.4272  170.2
 5.000  0.7935  110.0   0.866   10.7  0.3099   42.2  0.4356  169.1
 5.100  0.7952  109.2   0.853    9.9  0.3149   41.6  0.4446  168.4
 5.200  0.7971  108.3   0.841    9.1  0.3200   40.9  0.4538  167.7
 5.300  0.7992  107.5   0.829    8.2  0.3251   40.3  0.4629  167.0
 5.400  0.8014  106.6   0.817    7.3  0.3302   39.8  0.4722  166.3
 5.500  0.8038  105.8   0.805    6.4  0.3354   39.2  0.4815  165.7
 5.600  0.8053  104.9   0.792    5.9  0.3413   38.4  0.4885  165.4
 5.700  0.8069  103.9   0.779    5.4  0.3472   37.7  0.4955  165.0
 5.800  0.8088  103.0   0.766    4.9  0.3532   37.0  0.5025  164.7
 5.900  0.8110  102.0   0.754    4.4  0.3592   36.3  0.5095  164.4
 6.000  0.8133  101.1   0.741    3.8  0.3653   35.6  0.5165  164.1
!
!  f       NFmin   Gammaopt  rn/50
! GHz       dB    MAG  ANG    -
 0.450      1.06  0.46  178   0.04
 0.900      1.19  0.52  184   0.05
 1.900      2.13  0.68  211   0.13
 2.400      2.86  0.69  218   0.24
!
! (c) 2017  Infineon Technologies AG, Munich