! Infineon Technologies  Discrete & RF Semiconductors
! BFP196WN
! VCE =  4.0 V,  IC =  70 mA
! Common Emitter S-Parameters:                            Jan 2017
# GHz  S  MA  R  50
!  f         S11            S21            S12            S22
! GHz     MAG   ANG      MAG   ANG      MAG   ANG      MAG   ANG
 0.010  0.1995  -82.8  92.036  166.0  0.0030   73.7  0.9124  -18.3
 0.020  0.3392 -107.0  82.440  152.4  0.0059   70.4  0.8421  -35.9
 0.030  0.4069 -121.7  72.846  145.8  0.0076   61.1  0.7352  -45.9
 0.040  0.4934 -131.8  64.488  137.4  0.0095   55.4  0.6575  -58.7
 0.050  0.5904 -138.7  57.904  126.8  0.0114   51.5  0.6201  -74.0
 0.060  0.6028 -143.1  52.837  124.6  0.0122   51.6  0.5714  -78.8
 0.070  0.6186 -147.3  47.864  122.0  0.0129   51.7  0.5274  -84.4
 0.080  0.6375 -151.2  43.017  118.7  0.0137   51.8  0.4893  -91.0
 0.090  0.6593 -154.9  38.342  114.7  0.0144   51.9  0.4587  -98.5
 0.100  0.6836 -158.4  33.913  109.5  0.0152   52.0  0.4371 -107.0
 0.110  0.6896 -160.1  31.819  108.3  0.0157   52.3  0.4199 -110.1
 0.120  0.6962 -161.7  29.740  107.0  0.0162   52.6  0.4040 -113.5
 0.130  0.7034 -163.4  27.678  105.5  0.0166   52.8  0.3897 -117.2
 0.140  0.7111 -164.9  25.640  103.8  0.0171   53.1  0.3770 -121.1
 0.150  0.7194 -166.5  23.629  101.7  0.0176   53.3  0.3663 -125.3
 0.200  0.7253 -171.5  17.926   97.2  0.0201   58.9  0.3405 -136.6
 0.250  0.7307 -174.5  14.459   93.9  0.0240   60.9  0.3253 -143.8
 0.300  0.7329 -177.1  12.099   91.5  0.0274   63.8  0.3147 -149.7
 0.350  0.7346 -179.0  10.613   89.8  0.0313   65.6  0.3106 -153.2
 0.400  0.7370  179.2   9.139   87.6  0.0353   67.0  0.3076 -156.7
 0.450  0.7374  177.7   8.227   86.3  0.0387   67.7  0.3065 -159.1
 0.500  0.7383  176.3   7.320   84.6  0.0422   68.3  0.3059 -161.6
 0.600  0.7379  173.9   6.121   81.9  0.0499   69.6  0.3057 -165.1
 0.700  0.7391  171.8   5.237   79.7  0.0565   70.5  0.3034 -167.6
 0.800  0.7432  169.5   4.589   77.2  0.0646   71.3  0.3044 -169.4
 0.900  0.7432  167.6   4.073   75.0  0.0718   70.3  0.3066 -170.9
 1.000  0.7442  165.8   3.676   72.9  0.0791   70.4  0.3080 -172.6
 1.100  0.7464  164.0   3.347   71.0  0.0867   70.1  0.3090 -173.7
 1.200  0.7461  162.3   3.071   69.0  0.0935   69.3  0.3098 -174.6
 1.300  0.7454  160.5   2.842   67.2  0.1007   69.1  0.3139 -175.1
 1.400  0.7481  158.8   2.655   65.2  0.1081   68.5  0.3177 -176.5
 1.500  0.7525  157.4   2.477   63.3  0.1155   67.9  0.3187 -177.3
 1.600  0.7536  155.7   2.335   61.5  0.1229   67.5  0.3211 -177.6
 1.700  0.7544  153.9   2.213   59.7  0.1304   66.7  0.3268 -178.3
 1.800  0.7543  152.4   2.104   57.8  0.1371   65.8  0.3305 -179.1
 1.900  0.7557  151.1   1.996   56.2  0.1440   65.3  0.3327 -179.7
 2.000  0.7587  149.4   1.906   54.2  0.1515   64.2  0.3362 -179.9
 2.100  0.7574  147.9   1.826   52.5  0.1583   63.5  0.3409  179.6
 2.200  0.7567  146.3   1.747   50.7  0.1652   62.9  0.3457  179.1
 2.300  0.7590  144.8   1.681   49.1  0.1720   62.0  0.3480  178.8
 2.400  0.7619  143.3   1.616   47.3  0.1789   61.2  0.3503  178.6
 2.500  0.7611  141.8   1.559   45.7  0.1859   60.3  0.3557  178.1
 2.600  0.7609  140.3   1.503   44.0  0.1929   59.4  0.3611  177.7
 2.700  0.7625  138.9   1.455   42.5  0.1992   58.5  0.3625  177.4
 2.800  0.7646  137.5   1.408   41.0  0.2055   57.7  0.3639  177.2
 2.900  0.7638  136.0   1.367   39.5  0.2118   56.8  0.3691  176.4
 3.000  0.7636  134.5   1.328   37.9  0.2182   55.9  0.3743  175.6
 3.100  0.7649  133.0   1.295   36.6  0.2244   54.9  0.3766  174.9
 3.200  0.7667  131.6   1.263   35.2  0.2306   54.0  0.3790  174.2
 3.300  0.7689  130.1   1.231   33.7  0.2369   53.2  0.3814  173.5
 3.400  0.7717  128.6   1.201   32.2  0.2432   52.4  0.3839  172.8
 3.500  0.7750  127.2   1.171   30.6  0.2496   51.6  0.3864  172.1
 3.600  0.7761  125.7   1.145   29.3  0.2549   50.6  0.3903  171.0
 3.700  0.7776  124.3   1.119   27.9  0.2603   49.6  0.3944  170.0
 3.800  0.7797  122.9   1.094   26.4  0.2658   48.7  0.3986  168.9
 3.900  0.7823  121.4   1.070   24.9  0.2713   47.8  0.4029  167.9
 4.000  0.7853  120.0   1.046   23.3  0.2769   47.0  0.4074  166.9
 4.100  0.7861  118.8   1.023   22.2  0.2817   46.1  0.4132  165.5
 4.200  0.7872  117.5   1.001   21.0  0.2865   45.2  0.4192  164.1
 4.300  0.7888  116.3   0.979   19.8  0.2914   44.4  0.4255  162.8
 4.400  0.7906  115.0   0.958   18.5  0.2963   43.6  0.4319  161.5
 4.500  0.7929  113.8   0.937   17.2  0.3013   42.8  0.4386  160.3
 4.600  0.7939  112.8   0.918   16.3  0.3055   42.0  0.4447  159.3
 4.700  0.7951  111.8   0.900   15.4  0.3098   41.2  0.4510  158.4
 4.800  0.7966  110.8   0.882   14.4  0.3142   40.5  0.4573  157.5
 4.900  0.7983  109.9   0.864   13.4  0.3186   39.7  0.4638  156.6
 5.000  0.8002  108.9   0.847   12.3  0.3230   39.0  0.4704  155.7
 5.100  0.8016  108.1   0.836   11.5  0.3276   38.4  0.4776  155.3
 5.200  0.8033  107.2   0.825   10.6  0.3323   37.7  0.4847  154.9
 5.300  0.8050  106.4   0.815    9.8  0.3370   37.1  0.4919  154.5
 5.400  0.8070  105.6   0.804    8.9  0.3417   36.6  0.4992  154.2
 5.500  0.8091  104.8   0.794    8.0  0.3465   36.0  0.5064  153.8
 5.600  0.8105  103.9   0.783    7.5  0.3519   35.2  0.5111  153.7
 5.700  0.8121  102.9   0.772    6.9  0.3574   34.5  0.5159  153.6
 5.800  0.8140  102.0   0.761    6.4  0.3629   33.7  0.5206  153.4
 5.900  0.8160  101.0   0.751    5.8  0.3685   33.0  0.5254  153.3
 6.000  0.8183  100.1   0.740    5.2  0.3741   32.3  0.5301  153.2
!
!  f       NFmin   Gammaopt  rn/50
! GHz       dB    MAG  ANG    -
 0.450      1.47  0.57 -176   0.05
 0.900      1.60  0.58 -169   0.06
 1.900      2.54  0.70 -147   0.19
 2.400      3.34  0.71 -139   0.32
!
! (c) 2017  Infineon Technologies AG, Munich