! Infineon Technologies  Discrete & RF Semiconductors
! BFP196WN
! VCE =  10. V,  IC =  15 mA
! Common Emitter S-Parameters:                            Jan 2017
# GHz  S  MA  R  50
!  f         S11            S21            S12            S22
! GHz     MAG   ANG      MAG   ANG      MAG   ANG      MAG   ANG
 0.010  0.6519  -13.1  40.596  174.0  0.0045   82.9  0.9756   -6.9
 0.020  0.6350  -28.3  38.850  166.7  0.0084   77.6  0.9561  -14.1
 0.030  0.6202  -40.1  37.294  161.3  0.0121   69.5  0.9119  -19.9
 0.040  0.6324  -52.0  36.097  155.5  0.0160   65.3  0.8778  -26.2
 0.050  0.6702  -63.0  35.297  149.3  0.0199   62.7  0.8551  -32.9
 0.060  0.6474  -70.7  33.304  146.1  0.0219   58.8  0.8070  -36.4
 0.070  0.6369  -78.7  31.425  142.6  0.0239   55.6  0.7622  -40.3
 0.080  0.6393  -86.9  29.681  138.6  0.0260   52.9  0.7213  -44.6
 0.090  0.6544  -94.8  28.098  134.2  0.0282   50.7  0.6851  -49.5
 0.100  0.6814 -102.3  26.705  129.2  0.0304   48.7  0.6543  -54.8
 0.110  0.6770 -106.9  25.407  127.3  0.0314   47.0  0.6229  -57.0
 0.120  0.6770 -111.5  24.142  125.1  0.0325   45.5  0.5925  -59.4
 0.130  0.6813 -116.1  22.913  122.8  0.0335   44.0  0.5633  -62.1
 0.140  0.6900 -120.5  21.729  120.1  0.0346   42.6  0.5354  -65.1
 0.150  0.7027 -124.9  20.595  117.2  0.0357   41.3  0.5092  -68.4
 0.200  0.7063 -138.5  16.370  109.3  0.0378   38.0  0.4151  -77.9
 0.250  0.7125 -147.7  13.515  103.8  0.0407   38.1  0.3533  -84.5
 0.300  0.7155 -154.4  11.483   99.8  0.0424   37.7  0.3072  -90.0
 0.350  0.7152 -158.9  10.123   97.1  0.0441   38.7  0.2801  -93.7
 0.400  0.7193 -163.4   8.792   93.6  0.0458   39.6  0.2544  -98.1
 0.450  0.7177 -166.5   7.932   91.6  0.0475   40.8  0.2391 -101.3
 0.500  0.7183 -169.6   7.084   89.2  0.0493   42.0  0.2247 -105.0
 0.600  0.7215 -174.3   5.935   85.4  0.0532   44.3  0.2055 -110.3
 0.700  0.7216 -178.1   5.090   82.2  0.0567   47.0  0.1939 -113.9
 0.800  0.7262  178.4   4.466   79.1  0.0618   49.9  0.1896 -117.0
 0.900  0.7260  175.5   3.969   76.3  0.0660   51.3  0.1874 -120.3
 1.000  0.7273  173.1   3.583   73.8  0.0705   53.3  0.1857 -122.9
 1.100  0.7296  170.7   3.260   71.4  0.0751   54.7  0.1866 -124.7
 1.200  0.7312  168.4   2.991   69.0  0.0809   55.7  0.1886 -126.3
 1.300  0.7310  166.4   2.765   66.8  0.0855   56.7  0.1938 -128.1
 1.400  0.7335  164.4   2.581   64.5  0.0909   57.6  0.1977 -130.5
 1.500  0.7370  162.6   2.409   62.4  0.0962   58.4  0.2016 -131.9
 1.600  0.7396  160.7   2.267   60.3  0.1013   58.9  0.2079 -132.9
 1.700  0.7428  158.7   2.145   58.2  0.1074   59.6  0.2158 -134.7
 1.800  0.7450  157.0   2.035   56.1  0.1132   59.9  0.2221 -136.3
 1.900  0.7439  155.4   1.930   54.2  0.1181   60.2  0.2284 -137.4
 2.000  0.7472  153.7   1.842   52.0  0.1244   60.2  0.2364 -138.3
 2.100  0.7485  152.0   1.762   50.2  0.1303   60.3  0.2445 -139.6
 2.200  0.7504  150.3   1.683   48.3  0.1363   60.4  0.2527 -140.9
 2.300  0.7526  148.7   1.617   46.4  0.1425   60.3  0.2608 -141.7
 2.400  0.7554  147.1   1.552   44.4  0.1487   60.3  0.2689 -142.5
 2.500  0.7558  145.4   1.495   42.7  0.1549   59.9  0.2781 -143.8
 2.600  0.7568  143.8   1.439   40.9  0.1611   59.6  0.2875 -145.0
 2.700  0.7588  142.2   1.389   39.3  0.1671   59.3  0.2945 -145.6
 2.800  0.7613  140.7   1.341   37.6  0.1731   59.1  0.3016 -146.2
 2.900  0.7629  139.1   1.299   36.0  0.1795   58.6  0.3095 -147.7
 3.000  0.7650  137.5   1.259   34.3  0.1859   58.2  0.3176 -149.2
 3.100  0.7667  136.0   1.225   32.9  0.1924   57.6  0.3236 -150.4
 3.200  0.7690  134.4   1.193   31.5  0.1989   57.1  0.3297 -151.7
 3.300  0.7718  132.9   1.160   30.0  0.2054   56.6  0.3360 -152.8
 3.400  0.7752  131.4   1.129   28.4  0.2120   56.1  0.3425 -153.9
 3.500  0.7791  129.9   1.099   26.7  0.2185   55.7  0.3490 -155.0
 3.600  0.7805  128.3   1.072   25.4  0.2247   54.9  0.3552 -156.8
 3.700  0.7826  126.8   1.045   24.0  0.2310   54.2  0.3618 -158.6
 3.800  0.7852  125.2   1.020   22.5  0.2374   53.5  0.3687 -160.2
 3.900  0.7883  123.6   0.994   20.9  0.2437   52.8  0.3759 -161.8
 4.000  0.7921  122.1   0.970   19.3  0.2501   52.2  0.3834 -163.4
 4.100  0.7934  120.7   0.947   18.2  0.2559   51.4  0.3902 -165.5
 4.200  0.7952  119.4   0.925   17.0  0.2618   50.6  0.3975 -167.6
 4.300  0.7974  118.1   0.903   15.8  0.2677   49.8  0.4053 -169.6
 4.400  0.8000  116.7   0.882   14.5  0.2736   49.1  0.4135 -171.5
 4.500  0.8031  115.4   0.861   13.2  0.2796   48.4  0.4222 -173.3
 4.600  0.8041  114.4   0.842   12.3  0.2848   47.6  0.4305 -175.0
 4.700  0.8053  113.3   0.822   11.5  0.2901   46.8  0.4391 -176.7
 4.800  0.8069  112.3   0.803   10.5  0.2954   46.1  0.4481 -178.2
 4.900  0.8086  111.2   0.785    9.5  0.3007   45.4  0.4574 -179.7
 5.000  0.8107  110.2   0.766    8.5  0.3061   44.7  0.4670  178.8
 5.100  0.8124  109.3   0.754    7.8  0.3117   44.0  0.4771  177.6
 5.200  0.8144  108.4   0.742    7.1  0.3174   43.4  0.4874  176.5
 5.300  0.8165  107.5   0.731    6.4  0.3231   42.7  0.4978  175.4
 5.400  0.8188  106.7   0.719    5.6  0.3288   42.1  0.5084  174.4
 5.500  0.8213  105.8   0.708    4.8  0.3346   41.5  0.5192  173.4
 5.600  0.8229  104.8   0.696    4.4  0.3409   40.7  0.5272  172.7
 5.700  0.8248  103.8   0.684    4.0  0.3473   39.9  0.5353  172.1
 5.800  0.8269  102.8   0.673    3.6  0.3538   39.1  0.5434  171.4
 5.900  0.8293  101.9   0.661    3.2  0.3603   38.3  0.5516  170.8
 6.000  0.8319  100.9   0.649    2.8  0.3669   37.6  0.5599  170.2
!
!  f       NFmin   Gammaopt  rn/50
! GHz       dB    MAG  ANG    -
!
! noise parameter not available yet for this operation point!
!
! (c) 2017  Infineon Technologies AG, Munich