! Infineon Technologies  Discrete & RF Semiconductors
! BFP196WN
! VCE =  10. V,  IC =  40 mA
! Common Emitter S-Parameters:                            Jan 2017
# GHz  S  MA  R  50
!  f         S11            S21            S12            S22
! GHz     MAG   ANG      MAG   ANG      MAG   ANG      MAG   ANG
 0.010  0.3918  -28.3  72.116  169.9  0.0032   80.0  0.9404  -12.0
 0.020  0.4173  -55.5  67.124  159.5  0.0073   77.6  0.8950  -24.0
 0.030  0.4260  -74.1  61.693  153.1  0.0094   67.1  0.8149  -32.2
 0.040  0.4754  -90.3  57.184  145.5  0.0117   60.6  0.7547  -41.9
 0.050  0.5547 -102.7  53.831  136.8  0.0141   56.3  0.7194  -52.9
 0.060  0.5546 -110.1  49.687  134.1  0.0151   54.1  0.6643  -57.0
 0.070  0.5636 -117.4  45.675  130.9  0.0162   52.2  0.6132  -61.7
 0.080  0.5813 -124.3  41.832  127.1  0.0172   50.6  0.5671  -67.3
 0.090  0.6070 -130.7  38.210  122.6  0.0183   49.1  0.5273  -73.8
 0.100  0.6397 -136.6  34.876  117.1  0.0194   47.8  0.4954  -81.3
 0.110  0.6439 -139.7  32.862  115.6  0.0201   47.3  0.4696  -84.1
 0.120  0.6499 -142.7  30.873  114.0  0.0207   46.9  0.4450  -87.1
 0.130  0.6577 -145.7  28.914  112.1  0.0214   46.5  0.4219  -90.6
 0.140  0.6672 -148.6  26.991  109.9  0.0220   46.2  0.4004  -94.4
 0.150  0.6784 -151.4  25.112  107.4  0.0227   45.8  0.3809  -98.6
 0.200  0.6877 -159.6  19.314  101.6  0.0243   47.4  0.3237 -110.8
 0.250  0.6974 -165.0  15.664   97.6  0.0276   49.7  0.2898 -119.3
 0.300  0.6997 -169.0  13.155   94.6  0.0299   52.3  0.2661 -126.6
 0.350  0.7014 -171.9  11.559   92.6  0.0327   54.6  0.2543 -131.2
 0.400  0.7049 -174.8   9.983   89.9  0.0356   56.6  0.2444 -136.3
 0.450  0.7053 -176.8   8.993   88.4  0.0386   58.3  0.2392 -139.8
 0.500  0.7065 -178.7   8.010   86.5  0.0416   59.7  0.2349 -143.4
 0.600  0.7082  178.0   6.693   83.5  0.0488   62.1  0.2293 -148.6
 0.700  0.7104  175.3   5.735   81.0  0.0542   63.6  0.2250 -151.9
 0.800  0.7121  172.7   5.024   78.3  0.0616   65.1  0.2252 -154.3
 0.900  0.7126  170.4   4.461   76.0  0.0671   65.4  0.2266 -156.6
 1.000  0.7145  168.4   4.026   73.8  0.0736   65.8  0.2270 -158.6
 1.100  0.7165  166.5   3.661   71.8  0.0807   66.1  0.2278 -160.2
 1.200  0.7160  164.5   3.359   69.7  0.0875   66.3  0.2294 -161.1
 1.300  0.7174  162.7   3.107   67.8  0.0934   66.6  0.2339 -161.8
 1.400  0.7192  160.9   2.901   65.8  0.1005   66.2  0.2378 -163.5
 1.500  0.7222  159.4   2.705   63.8  0.1066   65.7  0.2402 -164.3
 1.600  0.7250  157.7   2.549   62.0  0.1134   65.3  0.2432 -164.5
 1.700  0.7275  155.8   2.411   60.1  0.1205   65.0  0.2495 -165.4
 1.800  0.7279  154.2   2.290   58.1  0.1270   64.7  0.2542 -166.2
 1.900  0.7281  152.7   2.172   56.5  0.1329   64.2  0.2576 -166.7
 2.000  0.7302  151.1   2.073   54.4  0.1401   63.7  0.2626 -166.9
 2.100  0.7306  149.5   1.984   52.8  0.1464   63.1  0.2685 -167.4
 2.200  0.7315  148.0   1.896   51.0  0.1528   62.6  0.2744 -167.9
 2.300  0.7338  146.4   1.823   49.3  0.1593   61.9  0.2786 -168.1
 2.400  0.7367  144.8   1.752   47.4  0.1659   61.3  0.2828 -168.2
 2.500  0.7367  143.3   1.689   45.8  0.1725   60.6  0.2892 -168.8
 2.600  0.7372  141.9   1.627   44.0  0.1791   59.9  0.2957 -169.3
 2.700  0.7384  140.4   1.572   42.6  0.1851   59.2  0.2991 -169.4
 2.800  0.7401  139.0   1.519   41.0  0.1912   58.6  0.3026 -169.5
 2.900  0.7418  137.4   1.474   39.4  0.1975   57.8  0.3087 -170.5
 3.000  0.7440  135.8   1.430   37.8  0.2039   57.0  0.3149 -171.4
 3.100  0.7454  134.3   1.393   36.5  0.2100   56.2  0.3186 -172.1
 3.200  0.7473  132.9   1.357   35.0  0.2162   55.4  0.3223 -172.8
 3.300  0.7497  131.5   1.322   33.5  0.2225   54.7  0.3261 -173.5
 3.400  0.7525  130.0   1.287   32.0  0.2287   54.0  0.3299 -174.2
 3.500  0.7558  128.6   1.254   30.3  0.2350   53.3  0.3338 -174.8
 3.600  0.7573  127.1   1.224   29.0  0.2405   52.4  0.3387 -176.1
 3.700  0.7592  125.6   1.196   27.5  0.2461   51.5  0.3437 -177.3
 3.800  0.7617  124.1   1.168   26.1  0.2517   50.7  0.3489 -178.5
 3.900  0.7647  122.7   1.140   24.5  0.2574   49.9  0.3542 -179.7
 4.000  0.7682  121.2   1.114   22.9  0.2631   49.2  0.3597  179.2
 4.100  0.7698  119.9   1.089   21.7  0.2681   48.3  0.3660  177.6
 4.200  0.7718  118.7   1.064   20.5  0.2731   47.5  0.3725  176.0
 4.300  0.7741  117.5   1.040   19.2  0.2782   46.7  0.3793  174.5
 4.400  0.7768  116.2   1.017   17.9  0.2834   45.9  0.3863  173.1
 4.500  0.7799  115.0   0.994   16.5  0.2886   45.2  0.3936  171.7
 4.600  0.7811  114.0   0.973   15.6  0.2932   44.4  0.4009  170.5
 4.700  0.7826  112.9   0.952   14.6  0.2978   43.7  0.4084  169.3
 4.800  0.7843  111.9   0.932   13.6  0.3024   42.9  0.4160  168.2
 4.900  0.7863  110.8   0.912   12.5  0.3071   42.2  0.4238  167.1
 5.000  0.7886  109.8   0.892   11.4  0.3119   41.5  0.4318  166.0
 5.100  0.7906  109.0   0.879   10.6  0.3168   40.9  0.4405  165.4
 5.200  0.7927  108.2   0.866    9.7  0.3216   40.3  0.4492  164.8
 5.300  0.7950  107.4   0.854    8.8  0.3266   39.7  0.4580  164.2
 5.400  0.7974  106.6   0.841    7.9  0.3315   39.1  0.4668  163.6
 5.500  0.8000  105.8   0.829    7.0  0.3365   38.6  0.4757  163.1
 5.600  0.8014  104.9   0.816    6.5  0.3422   37.8  0.4821  162.9
 5.700  0.8031  103.9   0.803    5.9  0.3480   37.1  0.4886  162.6
 5.800  0.8049  103.0   0.790    5.4  0.3539   36.4  0.4951  162.4
 5.900  0.8070  102.0   0.778    4.8  0.3598   35.7  0.5015  162.2
 6.000  0.8093  101.1   0.765    4.2  0.3657   35.0  0.5080  162.0
!
!  f       NFmin   Gammaopt  rn/50
! GHz       dB    MAG  ANG    -
 0.450      1.16  0.50 -179   0.04
 0.900      1.29  0.54 -173   0.05
 1.900      2.21  0.68 -148   0.13
 2.400      2.95  0.69 -141   0.26
!
! (c) 2017  Infineon Technologies AG, Munich