! Infineon Technologies  Discrete & RF Semiconductors
! BFP196WN
! VCE =  1.0 V,  IC = 0.13 A
! Common Emitter S-Parameters:                            Jan 2017
# GHz  S  MA  R  50
!  f         S11            S21            S12            S22
! GHz     MAG   ANG      MAG   ANG      MAG   ANG      MAG   ANG
 0.010  0.5697 -151.2  56.079  147.3  0.0053   56.8  0.4200  -77.4
 0.020  0.7489 -158.6  39.790  127.2  0.0078   48.7  0.4729 -115.6
 0.030  0.7876 -162.9  32.563  123.1  0.0086   46.3  0.4681 -128.5
 0.040  0.8303 -166.8  25.602  116.6  0.0094   44.3  0.4868 -141.0
 0.050  0.8765 -170.3  19.200  105.6  0.0102   42.6  0.5264 -152.1
 0.060  0.8792 -171.6  17.316  104.5  0.0109   45.0  0.5254 -154.8
 0.070  0.8824 -172.9  15.440  103.2  0.0117   47.1  0.5256 -157.5
 0.080  0.8860 -174.1  13.574  101.5  0.0124   48.9  0.5269 -160.2
 0.090  0.8900 -175.4  11.724   99.3  0.0132   50.6  0.5294 -162.9
 0.100  0.8944 -176.6   9.898   96.2  0.0140   52.0  0.5330 -165.5
 0.110  0.8967 -177.1   9.248   95.6  0.0148   53.3  0.5328 -166.6
 0.120  0.8991 -177.6   8.600   94.8  0.0156   54.4  0.5328 -167.8
 0.130  0.9016 -178.2   7.953   93.9  0.0164   55.5  0.5331 -168.9
 0.140  0.9041 -178.7   7.309   92.9  0.0172   56.4  0.5335 -170.1
 0.150  0.9067 -179.2   6.667   91.7  0.0180   57.3  0.5342 -171.2
 0.200  0.9040  178.8   5.012   88.9  0.0213   64.2  0.5407 -173.6
 0.250  0.9053  177.5   4.015   86.4  0.0261   66.1  0.5398 -175.3
 0.300  0.9032  176.0   3.353   84.5  0.0303   68.1  0.5393 -177.1
 0.350  0.9034  174.8   2.940   82.9  0.0349   69.7  0.5399 -177.9
 0.400  0.9039  173.6   2.530   80.8  0.0396   71.0  0.5406 -178.7
 0.450  0.9039  172.6   2.281   79.4  0.0442   71.7  0.5422 -179.5
 0.500  0.9041  171.6   2.034   77.7  0.0489   72.3  0.5439  179.7
 0.600  0.9015  169.5   1.707   74.8  0.0574   72.0  0.5458  178.3
 0.700  0.9009  167.9   1.472   72.2  0.0662   72.4  0.5439  177.1
 0.800  0.9016  165.8   1.295   69.3  0.0756   72.4  0.5446  176.4
 0.900  0.8979  163.9   1.161   66.8  0.0845   71.4  0.5470  175.5
 1.000  0.8989  162.3   1.058   64.4  0.0932   70.9  0.5485  174.3
 1.100  0.8990  160.6   0.972   62.1  0.1018   70.4  0.5490  173.5
 1.200  0.8993  158.8   0.902   59.8  0.1105   69.5  0.5490  172.8
 1.300  0.8962  157.2   0.842   58.0  0.1188   68.7  0.5520  172.3
 1.400  0.8988  155.4   0.797   55.7  0.1280   67.8  0.5564  171.2
 1.500  0.8988  154.0   0.753   53.7  0.1364   66.8  0.5564  170.3
 1.600  0.9005  152.4   0.718   51.8  0.1448   66.1  0.5582  169.8
 1.700  0.9029  150.5   0.690   49.9  0.1536   65.0  0.5637  169.1
 1.800  0.9026  148.9   0.664   47.9  0.1621   64.2  0.5670  168.2
 1.900  0.8995  147.4   0.639   46.5  0.1694   63.3  0.5677  167.5
 2.000  0.8998  145.7   0.617   44.6  0.1784   62.1  0.5703  167.0
 2.100  0.8979  144.1   0.599   43.0  0.1861   61.2  0.5742  166.3
 2.200  0.8968  142.5   0.581   41.4  0.1939   60.3  0.5781  165.6
 2.300  0.8965  140.9   0.566   40.0  0.2019   59.2  0.5789  165.0
 2.400  0.8968  139.4   0.552   38.5  0.2099   58.1  0.5797  164.4
 2.500  0.8949  137.8   0.540   37.2  0.2176   56.9  0.5843  163.6
 2.600  0.8936  136.2   0.528   35.9  0.2253   55.8  0.5890  162.9
 2.700  0.8929  134.8   0.518   34.9  0.2323   54.9  0.5881  162.4
 2.800  0.8928  133.3   0.508   33.8  0.2394   54.0  0.5872  161.9
 2.900  0.8899  131.7   0.500   32.8  0.2462   52.8  0.5917  160.9
 3.000  0.8877  130.1   0.492   31.7  0.2532   51.6  0.5963  159.9
 3.100  0.8866  128.6   0.487   30.8  0.2597   50.5  0.5966  159.0
 3.200  0.8862  127.1   0.481   29.9  0.2662   49.4  0.5970  158.1
 3.300  0.8864  125.6   0.476   28.9  0.2729   48.4  0.5976  157.1
 3.400  0.8871  124.1   0.471   28.0  0.2796   47.4  0.5983  156.2
 3.500  0.8885  122.6   0.466   27.0  0.2864   46.5  0.5992  155.3
 3.600  0.8866  121.1   0.462   26.2  0.2917   45.4  0.6013  154.2
 3.700  0.8853  119.6   0.457   25.4  0.2972   44.3  0.6036  153.1
 3.800  0.8846  118.1   0.453   24.5  0.3027   43.2  0.6062  152.0
 3.900  0.8846  116.6   0.449   23.7  0.3084   42.2  0.6089  151.0
 4.000  0.8851  115.1   0.445   22.8  0.3141   41.2  0.6119  149.9
 4.100  0.8827  113.9   0.442   22.2  0.3184   40.2  0.6159  148.7
 4.200  0.8808  112.6   0.439   21.5  0.3227   39.3  0.6203  147.5
 4.300  0.8792  111.4   0.436   20.9  0.3272   38.4  0.6249  146.3
 4.400  0.8781  110.1   0.433   20.3  0.3317   37.5  0.6297  145.1
 4.500  0.8774  108.9   0.430   19.6  0.3363   36.6  0.6348  144.0
 4.600  0.8755  107.9   0.427   19.2  0.3401   35.8  0.6384  143.1
 4.700  0.8737  107.0   0.425   18.8  0.3440   34.9  0.6421  142.2
 4.800  0.8723  106.0   0.422   18.4  0.3479   34.1  0.6459  141.4
 4.900  0.8711  105.1   0.420   18.0  0.3519   33.4  0.6500  140.5
 5.000  0.8701  104.1   0.417   17.6  0.3560   32.6  0.6541  139.7
 5.100  0.8699  103.3   0.419   17.1  0.3602   31.9  0.6583  139.3
 5.200  0.8699  102.6   0.421   16.6  0.3645   31.2  0.6626  138.9
 5.300  0.8700  101.8   0.423   16.1  0.3688   30.6  0.6668  138.5
 5.400  0.8703  101.1   0.425   15.6  0.3731   29.9  0.6712  138.1
 5.500  0.8707  100.3   0.427   15.1  0.3775   29.3  0.6755  137.7
 5.600  0.8702   99.4   0.427   15.1  0.3825   28.5  0.6767  137.5
 5.700  0.8699   98.5   0.426   15.0  0.3876   27.7  0.6778  137.3
 5.800  0.8699   97.5   0.426   15.0  0.3928   27.0  0.6790  137.1
 5.900  0.8701   96.6   0.425   14.9  0.3980   26.2  0.6802  136.9
 6.000  0.8705   95.7   0.425   14.9  0.4033   25.5  0.6814  136.7
!
!  f       NFmin   Gammaopt  rn/50
! GHz       dB    MAG  ANG    -
!
! noise parameter not available yet for this operation point!
!
! (c) 2017  Infineon Technologies AG, Munich