! Infineon Technologies  Discrete & RF Semiconductors
! BFP196WN
! VCE =  7.0 V,  IC =  60 mA
! Common Emitter S-Parameters:                            Jan 2017
# GHz  S  MA  R  50
!  f         S11            S21            S12            S22
! GHz     MAG   ANG      MAG   ANG      MAG   ANG      MAG   ANG
 0.010  0.2626  -48.8  86.580  167.7  0.0031   78.3  0.9292  -15.3
 0.020  0.3486  -81.4  79.379  155.3  0.0061   76.6  0.8700  -30.2
 0.030  0.3906 -100.1  71.197  148.8  0.0081   65.6  0.7723  -39.3
 0.040  0.4647 -114.1  64.174  140.6  0.0102   59.1  0.6992  -50.7
 0.050  0.5584 -123.8  58.727  130.8  0.0124   54.8  0.6590  -64.0
 0.060  0.5675 -129.7  53.807  128.4  0.0132   53.7  0.6060  -68.4
 0.070  0.5823 -135.4  49.001  125.5  0.0140   52.6  0.5571  -73.6
 0.080  0.6026 -140.7  44.345  122.0  0.0148   51.7  0.5137  -79.7
 0.090  0.6277 -145.7  39.892  117.7  0.0156   50.9  0.4771  -86.8
 0.100  0.6571 -150.2  35.718  112.4  0.0164   50.2  0.4491  -95.0
 0.110  0.6623 -152.4  33.563  111.1  0.0169   50.1  0.4277  -98.0
 0.120  0.6685 -154.6  31.426  109.7  0.0175   50.0  0.4076 -101.2
 0.130  0.6756 -156.7  29.312  108.0  0.0180   49.9  0.3889 -104.8
 0.140  0.6836 -158.8  27.226  106.1  0.0186   49.9  0.3719 -108.8
 0.150  0.6925 -160.8  25.176  103.9  0.0191   49.8  0.3569 -113.1
 0.200  0.6991 -167.0  19.200   98.9  0.0213   55.3  0.3182 -125.3
 0.250  0.7102 -171.1  15.506   95.3  0.0245   56.5  0.2956 -133.4
 0.300  0.7107 -174.0  12.997   92.7  0.0279   59.4  0.2791 -140.2
 0.350  0.7129 -176.2  11.407   90.9  0.0311   61.8  0.2726 -144.3
 0.400  0.7161 -178.4   9.832   88.5  0.0343   63.8  0.2675 -148.5
 0.450  0.7163  179.9   8.854   87.1  0.0378   65.1  0.2654 -151.4
 0.500  0.7170  178.3   7.882   85.4  0.0414   66.2  0.2639 -154.3
 0.600  0.7191  175.5   6.586   82.6  0.0485   67.7  0.2616 -158.7
 0.700  0.7191  173.3   5.639   80.2  0.0549   68.7  0.2584 -161.5
 0.800  0.7215  170.8   4.939   77.7  0.0625   69.1  0.2592 -163.5
 0.900  0.7224  168.7   4.387   75.5  0.0694   69.0  0.2615 -165.2
 1.000  0.7237  166.8   3.960   73.4  0.0760   69.3  0.2627 -167.1
 1.100  0.7260  165.0   3.601   71.5  0.0834   68.9  0.2635 -168.3
 1.200  0.7274  163.2   3.307   69.4  0.0900   68.5  0.2647 -169.3
 1.300  0.7272  161.4   3.059   67.7  0.0971   68.4  0.2691 -169.8
 1.400  0.7283  159.7   2.854   65.6  0.1043   68.2  0.2728 -171.2
 1.500  0.7313  158.3   2.664   63.8  0.1114   67.4  0.2741 -172.2
 1.600  0.7336  156.5   2.509   61.9  0.1180   67.0  0.2772 -172.3
 1.700  0.7345  154.8   2.377   60.1  0.1250   66.5  0.2832 -173.1
 1.800  0.7352  153.3   2.258   58.1  0.1320   65.8  0.2876 -173.8
 1.900  0.7368  151.8   2.140   56.5  0.1385   65.2  0.2898 -174.4
 2.000  0.7396  150.2   2.045   54.5  0.1457   64.4  0.2942 -174.5
 2.100  0.7402  148.6   1.957   52.9  0.1524   63.6  0.2994 -175.0
 2.200  0.7413  147.1   1.871   51.1  0.1592   62.9  0.3047 -175.5
 2.300  0.7427  145.5   1.800   49.4  0.1660   62.2  0.3078 -175.7
 2.400  0.7446  144.0   1.730   47.6  0.1728   61.6  0.3110 -175.8
 2.500  0.7440  142.5   1.669   46.0  0.1795   60.7  0.3169 -176.3
 2.600  0.7440  141.0   1.609   44.3  0.1862   59.9  0.3229 -176.8
 2.700  0.7456  139.6   1.555   42.9  0.1923   59.1  0.3252 -176.9
 2.800  0.7476  138.2   1.503   41.3  0.1985   58.4  0.3275 -177.0
 2.900  0.7485  136.7   1.458   39.7  0.2048   57.5  0.3331 -177.9
 3.000  0.7499  135.3   1.415   38.1  0.2112   56.6  0.3387 -178.7
 3.100  0.7512  133.8   1.380   36.8  0.2174   55.7  0.3417 -179.4
 3.200  0.7529  132.4   1.345   35.4  0.2236   54.9  0.3447  179.9
 3.300  0.7552  130.9   1.312   33.9  0.2299   54.1  0.3478  179.2
 3.400  0.7579  129.4   1.279   32.3  0.2362   53.3  0.3509  178.5
 3.500  0.7611  128.0   1.247   30.7  0.2426   52.6  0.3541  177.8
 3.600  0.7623  126.5   1.218   29.4  0.2480   51.6  0.3587  176.7
 3.700  0.7641  125.1   1.190   28.0  0.2535   50.7  0.3634  175.6
 3.800  0.7663  123.7   1.162   26.5  0.2590   49.8  0.3683  174.5
 3.900  0.7690  122.2   1.135   25.0  0.2646   48.9  0.3733  173.4
 4.000  0.7722  120.8   1.109   23.4  0.2703   48.1  0.3784  172.4
 4.100  0.7738  119.5   1.085   22.2  0.2751   47.2  0.3844  170.9
 4.200  0.7757  118.3   1.061   21.0  0.2800   46.4  0.3907  169.4
 4.300  0.7780  117.0   1.037   19.7  0.2849   45.6  0.3972  168.0
 4.400  0.7807  115.7   1.014   18.4  0.2899   44.8  0.4040  166.6
 4.500  0.7838  114.5   0.992   17.0  0.2950   44.0  0.4110  165.3
 4.600  0.7847  113.5   0.972   16.1  0.2993   43.2  0.4178  164.2
 4.700  0.7858  112.5   0.952   15.1  0.3037   42.5  0.4247  163.2
 4.800  0.7872  111.5   0.932   14.1  0.3082   41.7  0.4318  162.2
 4.900  0.7888  110.6   0.913   13.1  0.3127   41.0  0.4390  161.2
 5.000  0.7906  109.6   0.894   12.0  0.3172   40.3  0.4463  160.3
 5.100  0.7926  108.8   0.881   11.2  0.3220   39.6  0.4543  159.8
 5.200  0.7947  107.9   0.869   10.3  0.3268   39.0  0.4624  159.3
 5.300  0.7970  107.1   0.857    9.4  0.3316   38.4  0.4705  158.9
 5.400  0.7994  106.3   0.845    8.5  0.3365   37.8  0.4786  158.4
 5.500  0.8020  105.5   0.833    7.5  0.3414   37.2  0.4868  158.0
 5.600  0.8034  104.6   0.820    7.0  0.3469   36.4  0.4925  157.8
 5.700  0.8049  103.7   0.808    6.4  0.3525   35.7  0.4981  157.6
 5.800  0.8067  102.8   0.796    5.9  0.3581   35.0  0.5038  157.4
 5.900  0.8086  101.9   0.783    5.3  0.3638   34.3  0.5095  157.3
 6.000  0.8108  101.0   0.771    4.7  0.3695   33.6  0.5152  157.1
!
!  f       NFmin   Gammaopt  rn/50
! GHz       dB    MAG  ANG    -
 0.450      1.38  0.55 -177   0.05
 0.900      1.49  0.57 -169   0.06
 1.900      2.42  0.69 -147   0.18
 2.400      3.19  0.70 -139   0.30
!
! (c) 2017  Infineon Technologies AG, Munich