! Infineon Technologies  Discrete & RF Semiconductors
! BFP196WN
! VCE =  8.0 V,  IC =  50 mA
! Common Emitter S-Parameters:                            Jan 2017
# GHz  S  MA  R  50
!  f         S11            S21            S12            S22
! GHz     MAG   ANG      MAG   ANG      MAG   ANG      MAG   ANG
 0.010  0.3101  -38.2  80.728  168.6  0.0034   79.2  0.9385  -13.9
 0.020  0.3677  -69.0  74.261  157.2  0.0065   71.4  0.8903  -27.6
 0.030  0.3949  -88.8  67.345  150.6  0.0087   62.0  0.7976  -36.3
 0.040  0.4611 -104.5  61.508  142.7  0.0109   56.4  0.7277  -46.9
 0.050  0.5525 -115.7  57.080  133.3  0.0133   52.8  0.6874  -59.3
 0.060  0.5583 -122.2  52.442  130.8  0.0141   51.9  0.6329  -63.5
 0.070  0.5709 -128.4  47.926  127.8  0.0149   51.0  0.5824  -68.5
 0.080  0.5900 -134.3  43.570  124.1  0.0157   50.3  0.5371  -74.4
 0.090  0.6150 -139.8  39.427  119.7  0.0165   49.6  0.4984  -81.2
 0.100  0.6451 -144.8  35.572  114.3  0.0173   49.0  0.4680  -89.1
 0.110  0.6509 -147.4  33.460  112.9  0.0179   48.8  0.4447  -92.0
 0.120  0.6579 -149.9  31.369  111.4  0.0185   48.6  0.4226  -95.3
 0.130  0.6663 -152.4  29.303  109.7  0.0192   48.4  0.4021  -98.8
 0.140  0.6759 -154.9  27.270  107.6  0.0198   48.3  0.3832 -102.8
 0.150  0.6866 -157.2  25.275  105.3  0.0204   48.1  0.3664 -107.1
 0.200  0.6925 -164.2  19.333   99.9  0.0226   52.3  0.3197 -119.4
 0.250  0.7030 -168.8  15.647   96.2  0.0259   54.5  0.2927 -127.8
 0.300  0.7066 -172.2  13.124   93.4  0.0286   56.3  0.2734 -134.9
 0.350  0.7077 -174.7  11.522   91.5  0.0319   58.8  0.2647 -139.2
 0.400  0.7100 -177.1   9.936   89.1  0.0352   60.8  0.2575 -143.8
 0.450  0.7111 -178.9   8.950   87.7  0.0383   62.4  0.2541 -147.0
 0.500  0.7129  179.3   7.970   85.9  0.0414   63.8  0.2514 -150.2
 0.600  0.7130  176.4   6.660   83.0  0.0480   65.2  0.2481 -154.9
 0.700  0.7147  174.0   5.706   80.5  0.0543   66.4  0.2448 -157.9
 0.800  0.7174  171.5   4.995   77.9  0.0620   67.8  0.2455 -160.0
 0.900  0.7154  169.3   4.435   75.7  0.0687   68.1  0.2470 -162.1
 1.000  0.7188  167.5   4.003   73.6  0.0751   67.8  0.2485 -164.1
 1.100  0.7211  165.5   3.643   71.6  0.0823   68.2  0.2489 -165.3
 1.200  0.7225  163.7   3.344   69.5  0.0893   68.0  0.2504 -166.2
 1.300  0.7227  161.9   3.090   67.8  0.0954   67.8  0.2542 -166.9
 1.400  0.7238  160.1   2.885   65.7  0.1030   67.2  0.2583 -168.4
 1.500  0.7280  158.6   2.692   63.8  0.1091   66.9  0.2603 -169.2
 1.600  0.7288  156.9   2.537   62.0  0.1162   66.5  0.2632 -169.4
 1.700  0.7301  155.2   2.400   60.1  0.1233   65.9  0.2691 -170.2
 1.800  0.7316  153.6   2.282   58.2  0.1301   65.4  0.2737 -171.0
 1.900  0.7325  152.2   2.161   56.6  0.1363   65.0  0.2768 -171.5
 2.000  0.7342  150.6   2.065   54.6  0.1436   64.1  0.2811 -171.7
 2.100  0.7350  149.0   1.976   52.9  0.1501   63.5  0.2864 -172.2
 2.200  0.7363  147.4   1.889   51.1  0.1566   63.0  0.2918 -172.6
 2.300  0.7379  145.9   1.817   49.4  0.1633   62.2  0.2954 -172.8
 2.400  0.7401  144.4   1.746   47.6  0.1700   61.4  0.2991 -172.9
 2.500  0.7401  142.9   1.683   46.0  0.1766   60.6  0.3051 -173.4
 2.600  0.7406  141.4   1.622   44.2  0.1833   59.9  0.3112 -173.9
 2.700  0.7420  140.0   1.567   42.8  0.1896   59.2  0.3139 -174.0
 2.800  0.7438  138.6   1.514   41.2  0.1959   58.6  0.3166 -174.1
 2.900  0.7447  137.0   1.469   39.7  0.2021   57.7  0.3224 -175.0
 3.000  0.7462  135.5   1.426   38.1  0.2084   56.8  0.3283 -175.9
 3.100  0.7477  134.0   1.390   36.8  0.2145   55.9  0.3314 -176.6
 3.200  0.7497  132.6   1.355   35.4  0.2206   55.1  0.3346 -177.3
 3.300  0.7522  131.1   1.320   33.9  0.2268   54.3  0.3379 -178.0
 3.400  0.7551  129.6   1.287   32.3  0.2330   53.6  0.3412 -178.6
 3.500  0.7586  128.2   1.254   30.7  0.2393   52.9  0.3445 -179.3
 3.600  0.7601  126.7   1.225   29.4  0.2448   52.0  0.3492  179.5
 3.700  0.7621  125.3   1.196   27.9  0.2503   51.1  0.3541  178.3
 3.800  0.7645  123.9   1.168   26.5  0.2559   50.2  0.3591  177.2
 3.900  0.7675  122.4   1.141   24.9  0.2616   49.4  0.3642  176.1
 4.000  0.7709  121.0   1.115   23.3  0.2673   48.6  0.3695  175.0
 4.100  0.7722  119.7   1.090   22.1  0.2722   47.7  0.3755  173.5
 4.200  0.7739  118.5   1.066   20.9  0.2772   46.9  0.3818  172.0
 4.300  0.7759  117.2   1.042   19.6  0.2822   46.1  0.3884  170.6
 4.400  0.7783  115.9   1.019   18.3  0.2873   45.3  0.3951  169.2
 4.500  0.7811  114.7   0.996   16.9  0.2925   44.5  0.4021  167.9
 4.600  0.7821  113.7   0.975   16.0  0.2969   43.7  0.4090  166.8
 4.700  0.7834  112.6   0.955   15.0  0.3013   43.0  0.4161  165.7
 4.800  0.7850  111.6   0.934   14.0  0.3058   42.2  0.4233  164.6
 4.900  0.7868  110.6   0.915   12.9  0.3103   41.5  0.4306  163.6
 5.000  0.7888  109.6   0.895   11.8  0.3149   40.8  0.4381  162.6
 5.100  0.7906  108.8   0.882   11.0  0.3196   40.2  0.4464  162.1
 5.200  0.7926  108.0   0.870   10.1  0.3244   39.5  0.4547  161.5
 5.300  0.7947  107.2   0.858    9.2  0.3292   38.9  0.4630  161.0
 5.400  0.7970  106.4   0.846    8.3  0.3340   38.4  0.4714  160.6
 5.500  0.7994  105.6   0.834    7.4  0.3389   37.8  0.4798  160.1
 5.600  0.8009  104.7   0.821    6.8  0.3445   37.0  0.4857  159.9
 5.700  0.8026  103.7   0.808    6.3  0.3501   36.3  0.4915  159.7
 5.800  0.8046  102.8   0.795    5.7  0.3558   35.6  0.4974  159.5
 5.900  0.8067  101.8   0.783    5.0  0.3615   34.9  0.5032  159.4
 6.000  0.8091  100.9   0.770    4.4  0.3673   34.2  0.5091  159.2
!
!  f       NFmin   Gammaopt  rn/50
! GHz       dB    MAG  ANG    -
 0.450      1.27  0.53 -177   0.05
 0.900      1.39  0.56 -171   0.05
 1.900      2.33  0.69 -148   0.16
 2.400      3.05  0.70 -140   0.28
!
! (c) 2017  Infineon Technologies AG, Munich