! Infineon Technologies  Discrete & RF Semiconductors
! BFP196WN
! VCE =  4.0 V,  IC =  5.0 mA
! Common Emitter S-Parameters:                            Jan 2017
# GHz  S  MA  R  50
!  f         S11            S21            S12            S22
! GHz     MAG   ANG      MAG   ANG      MAG   ANG      MAG   ANG
 0.010  0.8500   -7.0  16.820  177.0  0.0058   85.6  0.9927   -3.5
 0.020  0.8276  -16.6  16.366  171.7  0.0113   82.4  0.9789   -7.4
 0.030  0.8210  -23.6  16.125  167.8  0.0170   76.2  0.9633  -10.9
 0.040  0.8266  -30.6  15.960  163.8  0.0227   73.0  0.9514  -14.5
 0.050  0.8444  -37.4  15.874  159.8  0.0285   71.2  0.9434  -18.2
 0.060  0.8192  -43.3  15.356  156.8  0.0323   66.9  0.9156  -20.8
 0.070  0.8033  -49.5  14.884  153.5  0.0363   63.6  0.8897  -23.5
 0.080  0.7971  -55.9  14.463  150.1  0.0403   60.9  0.8660  -26.4
 0.090  0.8009  -62.3  14.096  146.5  0.0444   58.7  0.8446  -29.4
 0.100  0.8146  -68.6  13.788  142.7  0.0486   56.9  0.8257  -32.6
 0.110  0.8013  -73.3  13.332  140.5  0.0512   54.1  0.8001  -34.4
 0.120  0.7936  -78.1  12.898  138.1  0.0539   51.6  0.7753  -36.3
 0.130  0.7916  -83.0  12.489  135.5  0.0567   49.4  0.7514  -38.4
 0.140  0.7954  -87.9  12.105  132.8  0.0596   47.3  0.7286  -40.6
 0.150  0.8049  -92.7  11.751  129.9  0.0625   45.5  0.7069  -42.9
 0.200  0.7905 -109.6   9.918  120.2  0.0691   38.0  0.6070  -50.0
 0.250  0.7876 -122.6   8.497  112.9  0.0747   33.5  0.5343  -54.7
 0.300  0.7830 -132.3   7.386  107.3  0.0769   29.4  0.4747  -58.1
 0.350  0.7756 -139.0   6.573  103.5  0.0782   27.3  0.4375  -60.3
 0.400  0.7790 -145.8   5.796   98.7  0.0797   25.2  0.4010  -62.8
 0.450  0.7742 -150.5   5.258   95.9  0.0806   24.3  0.3777  -64.4
 0.500  0.7748 -155.3   4.735   92.4  0.0815   23.4  0.3547  -66.3
 0.600  0.7754 -162.4   3.992   87.2  0.0825   22.4  0.3269  -69.1
 0.700  0.7739 -167.7   3.436   82.8  0.0817   22.3  0.3097  -71.4
 0.800  0.7762 -172.3   3.025   78.6  0.0823   23.5  0.3019  -74.1
 0.900  0.7747 -176.3   2.692   75.0  0.0823   24.1  0.2963  -77.0
 1.000  0.7765 -179.5   2.434   71.7  0.0823   25.8  0.2941  -79.8
 1.100  0.7793  177.5   2.214   68.6  0.0824   27.6  0.2949  -82.4
 1.200  0.7809  174.6   2.033   65.5  0.0825   29.3  0.2977  -85.1
 1.300  0.7818  172.2   1.876   62.8  0.0829   31.7  0.3030  -88.2
 1.400  0.7855  169.7   1.752   59.9  0.0842   34.2  0.3070  -91.4
 1.500  0.7891  167.5   1.635   57.3  0.0854   36.7  0.3128  -94.1
 1.600  0.7926  165.4   1.537   54.8  0.0876   39.5  0.3216  -96.8
 1.700  0.7947  163.1   1.452   52.4  0.0892   42.3  0.3303 -100.1
 1.800  0.7983  161.0   1.378   49.8  0.0929   44.7  0.3379 -103.1
 1.900  0.7997  159.1   1.303   47.8  0.0957   47.1  0.3465 -105.8
 2.000  0.8043  157.1   1.244   45.3  0.0998   49.3  0.3568 -108.3
 2.100  0.8051  155.2   1.187   43.3  0.1043   51.4  0.3672 -111.1
 2.200  0.8067  153.4   1.132   41.0  0.1090   53.3  0.3784 -113.7
 2.300  0.8104  151.5   1.085   39.0  0.1145   54.9  0.3894 -116.0
 2.400  0.8149  149.7   1.040   36.9  0.1201   56.4  0.4010 -118.2
 2.500  0.8152  147.8   0.999   35.1  0.1264   57.5  0.4122 -120.8
 2.600  0.8164  146.0   0.959   33.2  0.1328   58.4  0.4242 -123.3
 2.700  0.8185  144.3   0.924   31.7  0.1395   59.2  0.4342 -125.2
 2.800  0.8212  142.7   0.890   30.0  0.1463   59.9  0.4447 -127.0
 2.900  0.8226  140.9   0.861   28.4  0.1537   60.1  0.4538 -129.4
 3.000  0.8249  139.1   0.832   26.7  0.1612   60.3  0.4636 -131.8
 3.100  0.8265  137.4   0.808   25.5  0.1694   60.2  0.4707 -134.0
 3.200  0.8288  135.7   0.785   24.3  0.1776   60.0  0.4786 -136.2
 3.300  0.8318  134.0   0.762   23.0  0.1859   59.9  0.4870 -138.3
 3.400  0.8356  132.3   0.739   21.7  0.1941   59.8  0.4962 -140.3
 3.500  0.8401  130.6   0.717   20.2  0.2023   59.7  0.5059 -142.3
 3.600  0.8403  128.9   0.699   19.2  0.2103   58.9  0.5116 -144.8
 3.700  0.8413  127.1   0.681   18.2  0.2184   58.1  0.5183 -147.2
 3.800  0.8430  125.4   0.663   17.1  0.2265   57.4  0.5259 -149.5
 3.900  0.8455  123.7   0.646   16.0  0.2346   56.8  0.5343 -151.8
 4.000  0.8488  122.0   0.629   14.8  0.2428   56.2  0.5435 -154.0
 4.100  0.8483  120.6   0.615   14.1  0.2502   55.2  0.5485 -156.6
 4.200  0.8484  119.1   0.600   13.5  0.2577   54.3  0.5547 -159.2
 4.300  0.8490  117.7   0.586   12.7  0.2653   53.4  0.5619 -161.7
 4.400  0.8502  116.2   0.572   12.0  0.2729   52.6  0.5702 -164.1
 4.500  0.8519  114.8   0.558   11.2  0.2806   51.8  0.5795 -166.5
 4.600  0.8512  113.7   0.547   10.9  0.2871   50.8  0.5858 -168.7
 4.700  0.8509  112.5   0.536   10.5  0.2938   49.8  0.5930 -170.8
 4.800  0.8509  111.4   0.526   10.2  0.3005   48.9  0.6009 -172.9
 4.900  0.8512  110.2   0.515    9.8  0.3073   48.0  0.6096 -174.9
 5.000  0.8519  109.1   0.504    9.4  0.3141   47.2  0.6191 -176.9
 5.100  0.8531  108.2   0.500    9.2  0.3205   46.3  0.6273 -178.5
 5.200  0.8544  107.3   0.495    9.0  0.3269   45.5  0.6359  179.8
 5.300  0.8560  106.4   0.491    8.9  0.3335   44.7  0.6451  178.3
 5.400  0.8578  105.5   0.486    8.7  0.3401   43.9  0.6547  176.8
 5.500  0.8598  104.6   0.482    8.5  0.3467   43.2  0.6648  175.3
 5.600  0.8600  103.6   0.477    8.7  0.3537   42.2  0.6709  174.2
 5.700  0.8605  102.6   0.472    8.9  0.3607   41.3  0.6773  173.2
 5.800  0.8613  101.5   0.467    9.1  0.3679   40.3  0.6839  172.1
 5.900  0.8623  100.5   0.462    9.4  0.3752   39.4  0.6908  171.1
 6.000  0.8636   99.5   0.457    9.6  0.3825   38.6  0.6978  170.1
!
!  f       NFmin   Gammaopt  rn/50
! GHz       dB    MAG  ANG    -
 0.450      1.08  0.44  121   0.07
 0.900      1.21  0.58  158   0.06
 1.900      2.72  0.75  203   0.15
 2.400      3.62  0.76  211   0.29
!
! (c) 2017  Infineon Technologies AG, Munich