! Infineon Technologies  Discrete & RF Semiconductors
! BFP196WN
! VCE =  4.0 V,  IC =  85 mA
! Common Emitter S-Parameters:                            Jan 2017
# GHz  S  MA  R  50
!  f         S11            S21            S12            S22
! GHz     MAG   ANG      MAG   ANG      MAG   ANG      MAG   ANG
 0.010  0.1996 -101.9  96.529  165.1  0.0029   84.3  0.8962  -19.6
 0.020  0.3597 -118.5  86.160  150.7  0.0059   70.0  0.8213  -38.4
 0.030  0.4310 -130.2  75.455  144.2  0.0073   61.1  0.7117  -48.5
 0.040  0.5151 -138.4  66.010  135.8  0.0087   55.1  0.6316  -61.8
 0.050  0.6067 -144.2  58.438  124.9  0.0103   50.9  0.5932  -77.7
 0.060  0.6190 -148.0  53.236  122.8  0.0110   51.6  0.5471  -82.5
 0.070  0.6341 -151.7  48.120  120.3  0.0117   52.1  0.5056  -88.2
 0.080  0.6515 -155.2  43.119  117.2  0.0124   52.6  0.4698  -94.7
 0.090  0.6713 -158.5  38.281  113.2  0.0131   53.1  0.4412 -102.3
 0.100  0.6932 -161.6  33.673  108.2  0.0138   53.5  0.4212 -110.7
 0.110  0.6989 -163.1  31.581  107.1  0.0144   54.2  0.4056 -113.8
 0.120  0.7050 -164.5  29.503  105.9  0.0150   54.9  0.3913 -117.2
 0.130  0.7116 -165.9  27.440  104.4  0.0157   55.5  0.3785 -120.8
 0.140  0.7187 -167.3  25.397  102.8  0.0163   56.1  0.3672 -124.6
 0.150  0.7261 -168.7  23.380  100.8  0.0169   56.6  0.3577 -128.7
 0.200  0.7310 -173.1  17.714   96.5  0.0201   61.2  0.3359 -139.6
 0.250  0.7388 -175.8  14.264   93.3  0.0236   62.8  0.3227 -146.5
 0.300  0.7384 -178.2  11.944   91.0  0.0273   65.4  0.3131 -152.1
 0.350  0.7396 -179.9  10.471   89.4  0.0308   67.5  0.3100 -155.3
 0.400  0.7415  178.4   9.009   87.2  0.0344   69.1  0.3078 -158.5
 0.450  0.7417  177.0   8.108   85.9  0.0381   70.0  0.3076 -160.8
 0.500  0.7423  175.6   7.213   84.3  0.0418   70.7  0.3079 -163.0
 0.600  0.7431  173.2   6.028   81.6  0.0496   71.2  0.3068 -166.5
 0.700  0.7434  171.2   5.163   79.4  0.0562   71.7  0.3053 -168.8
 0.800  0.7482  169.1   4.519   76.9  0.0646   72.1  0.3061 -170.3
 0.900  0.7479  167.1   4.014   74.7  0.0719   71.3  0.3089 -171.8
 1.000  0.7490  165.4   3.626   72.7  0.0791   71.5  0.3104 -173.4
 1.100  0.7501  163.6   3.298   70.8  0.0866   71.1  0.3111 -174.5
 1.200  0.7506  161.9   3.028   68.8  0.0939   70.2  0.3117 -175.3
 1.300  0.7509  160.2   2.802   67.0  0.1013   69.9  0.3156 -175.8
 1.400  0.7518  158.5   2.615   64.9  0.1089   69.3  0.3201 -177.1
 1.500  0.7556  157.1   2.442   63.1  0.1158   68.4  0.3211 -178.0
 1.600  0.7574  155.5   2.302   61.3  0.1235   67.7  0.3230 -178.2
 1.700  0.7580  153.8   2.182   59.5  0.1307   67.4  0.3286 -178.8
 1.800  0.7601  152.2   2.075   57.6  0.1378   66.4  0.3328 -179.7
 1.900  0.7595  150.8   1.968   56.0  0.1443   65.6  0.3347  179.7
 2.000  0.7607  149.2   1.878   54.0  0.1521   64.7  0.3381  179.6
 2.100  0.7607  147.6   1.799   52.3  0.1588   63.9  0.3430  179.1
 2.200  0.7613  146.1   1.722   50.5  0.1656   63.1  0.3480  178.6
 2.300  0.7631  144.6   1.657   48.9  0.1727   62.3  0.3501  178.4
 2.400  0.7655  143.1   1.594   47.1  0.1798   61.5  0.3523  178.2
 2.500  0.7647  141.6   1.538   45.5  0.1865   60.5  0.3574  177.6
 2.600  0.7644  140.1   1.484   43.8  0.1933   59.5  0.3625  177.1
 2.700  0.7656  138.7   1.436   42.4  0.1997   58.7  0.3638  176.9
 2.800  0.7672  137.3   1.388   40.8  0.2062   58.0  0.3652  176.8
 2.900  0.7677  135.7   1.349   39.3  0.2127   57.0  0.3706  175.9
 3.000  0.7688  134.2   1.310   37.7  0.2193   56.0  0.3761  175.1
 3.100  0.7697  132.8   1.278   36.4  0.2255   55.0  0.3783  174.4
 3.200  0.7711  131.3   1.246   35.0  0.2317   54.1  0.3805  173.7
 3.300  0.7730  129.9   1.216   33.5  0.2379   53.3  0.3827  173.0
 3.400  0.7754  128.5   1.186   32.0  0.2442   52.5  0.3850  172.4
 3.500  0.7782  127.1   1.157   30.4  0.2506   51.7  0.3874  171.7
 3.600  0.7792  125.6   1.131   29.1  0.2559   50.7  0.3915  170.6
 3.700  0.7806  124.2   1.105   27.7  0.2612   49.7  0.3956  169.6
 3.800  0.7826  122.7   1.081   26.3  0.2666   48.8  0.4000  168.5
 3.900  0.7851  121.2   1.056   24.8  0.2721   47.9  0.4044  167.5
 4.000  0.7881  119.8   1.033   23.2  0.2776   47.1  0.4090  166.5
 4.100  0.7890  118.6   1.011   22.1  0.2824   46.2  0.4146  165.1
 4.200  0.7902  117.3   0.989   20.9  0.2873   45.3  0.4205  163.8
 4.300  0.7918  116.1   0.968   19.7  0.2922   44.5  0.4266  162.5
 4.400  0.7938  114.8   0.947   18.4  0.2972   43.7  0.4329  161.2
 4.500  0.7961  113.6   0.927   17.1  0.3022   42.9  0.4394  160.0
 4.600  0.7969  112.6   0.909   16.2  0.3064   42.1  0.4455  159.0
 4.700  0.7978  111.6   0.891   15.2  0.3106   41.3  0.4517  158.1
 4.800  0.7991  110.7   0.873   14.2  0.3149   40.5  0.4580  157.2
 4.900  0.8005  109.7   0.855   13.2  0.3193   39.7  0.4645  156.3
 5.000  0.8022  108.7   0.838   12.1  0.3237   39.0  0.4710  155.4
 5.100  0.8038  107.9   0.827   11.3  0.3282   38.4  0.4783  155.0
 5.200  0.8056  107.1   0.817   10.5  0.3328   37.8  0.4855  154.6
 5.300  0.8075  106.3   0.806    9.6  0.3374   37.2  0.4928  154.2
 5.400  0.8096  105.5   0.796    8.8  0.3420   36.6  0.5002  153.9
 5.500  0.8118  104.7   0.786    7.9  0.3467   36.0  0.5075  153.5
 5.600  0.8129  103.8   0.775    7.4  0.3521   35.2  0.5122  153.4
 5.700  0.8141  102.9   0.764    6.8  0.3576   34.5  0.5168  153.3
 5.800  0.8156  101.9   0.753    6.3  0.3631   33.7  0.5215  153.1
 5.900  0.8173  101.0   0.743    5.7  0.3687   33.0  0.5261  153.0
 6.000  0.8192  100.1   0.732    5.1  0.3744   32.3  0.5308  152.9
!
!  f       NFmin   Gammaopt  rn/50
! GHz       dB    MAG  ANG    -
 0.450      1.64  0.59 -175   0.05
 0.900      1.77  0.60 -168   0.07
 1.900      2.75  0.70 -146   0.22
 2.400      3.53  0.72 -138   0.37
!
! (c) 2017  Infineon Technologies AG, Munich