! Infineon Technologies  Discrete & RF Semiconductors
! BFP196WN
! VCE =  4.0 V,  IC =  50 mA
! Common Emitter S-Parameters:                            Jan 2017
# GHz  S  MA  R  50
!  f         S11            S21            S12            S22
! GHz     MAG   ANG      MAG   ANG      MAG   ANG      MAG   ANG
 0.010  0.2445  -54.4  81.859  167.6  0.0032   79.3  0.9361  -16.1
 0.020  0.3429  -86.4  74.576  155.1  0.0068   72.2  0.8747  -31.7
 0.030  0.3929 -104.8  66.840  148.5  0.0087   62.7  0.7747  -41.2
 0.040  0.4731 -118.0  60.218  140.3  0.0108   56.7  0.7019  -53.2
 0.050  0.5708 -127.1  55.113  130.3  0.0130   52.7  0.6654  -67.1
 0.060  0.5813 -132.7  50.462  127.9  0.0139   51.9  0.6128  -71.7
 0.070  0.5970 -138.0  45.917  125.0  0.0147   51.1  0.5650  -77.2
 0.080  0.6176 -143.0  41.511  121.6  0.0156   50.4  0.5232  -83.6
 0.090  0.6425 -147.6  37.296  117.3  0.0164   49.8  0.4890  -91.0
 0.100  0.6714 -151.9  33.343  111.9  0.0173   49.3  0.4642  -99.4
 0.110  0.6773 -154.0  31.328  110.7  0.0179   49.2  0.4438 -102.5
 0.120  0.6841 -156.1  29.330  109.3  0.0184   49.1  0.4248 -105.9
 0.130  0.6918 -158.1  27.352  107.6  0.0190   49.0  0.4075 -109.6
 0.140  0.7004 -160.1  25.399  105.8  0.0195   49.0  0.3921 -113.7
 0.150  0.7097 -162.0  23.477  103.6  0.0201   48.9  0.3787 -118.0
 0.200  0.7176 -167.9  17.871   98.6  0.0224   53.4  0.3437 -130.1
 0.250  0.7273 -171.8  14.434   95.0  0.0260   55.8  0.3239 -138.0
 0.300  0.7322 -174.7  12.092   92.4  0.0290   59.1  0.3093 -144.5
 0.350  0.7322 -176.9  10.615   90.6  0.0323   60.9  0.3036 -148.3
 0.400  0.7332 -179.0   9.151   88.3  0.0356   62.4  0.2992 -152.2
 0.450  0.7336  179.3   8.238   86.9  0.0389   63.9  0.2974 -155.0
 0.500  0.7346  177.7   7.332   85.1  0.0423   65.1  0.2964 -157.8
 0.600  0.7344  175.1   6.126   82.3  0.0497   66.1  0.2946 -161.9
 0.700  0.7383  172.8   5.246   79.9  0.0565   67.6  0.2921 -164.6
 0.800  0.7398  170.5   4.597   77.4  0.0639   68.3  0.2929 -166.5
 0.900  0.7392  168.2   4.078   75.2  0.0712   68.2  0.2953 -168.3
 1.000  0.7402  166.3   3.683   73.1  0.0778   68.5  0.2964 -170.0
 1.100  0.7439  164.7   3.352   71.1  0.0856   68.4  0.2972 -171.2
 1.200  0.7439  162.8   3.076   69.0  0.0924   68.2  0.2982 -172.2
 1.300  0.7434  161.1   2.846   67.3  0.0994   67.6  0.3024 -172.8
 1.400  0.7446  159.4   2.659   65.2  0.1070   67.4  0.3059 -174.1
 1.500  0.7475  157.8   2.481   63.3  0.1141   66.6  0.3074 -175.0
 1.600  0.7498  156.2   2.337   61.5  0.1212   66.3  0.3097 -175.3
 1.700  0.7511  154.3   2.215   59.6  0.1283   65.9  0.3157 -176.1
 1.800  0.7521  152.9   2.106   57.7  0.1355   65.1  0.3196 -176.8
 1.900  0.7539  151.4   1.998   56.1  0.1416   64.5  0.3223 -177.5
 2.000  0.7554  149.7   1.908   54.1  0.1494   63.7  0.3257 -177.7
 2.100  0.7550  148.2   1.827   52.4  0.1560   63.0  0.3307 -178.2
 2.200  0.7551  146.7   1.748   50.6  0.1626   62.3  0.3357 -178.6
 2.300  0.7567  145.2   1.682   48.9  0.1695   61.5  0.3385 -178.9
 2.400  0.7588  143.7   1.617   47.1  0.1764   60.8  0.3414 -179.2
 2.500  0.7587  142.1   1.560   45.5  0.1832   59.9  0.3468 -179.7
 2.600  0.7592  140.6   1.504   43.8  0.1900   59.1  0.3522  179.9
 2.700  0.7606  139.2   1.455   42.3  0.1963   58.3  0.3542  179.7
 2.800  0.7624  137.8   1.407   40.8  0.2027   57.6  0.3563  179.5
 2.900  0.7628  136.2   1.366   39.3  0.2091   56.7  0.3617  178.7
 3.000  0.7638  134.7   1.326   37.7  0.2156   55.8  0.3672  177.9
 3.100  0.7650  133.2   1.293   36.4  0.2218   54.9  0.3698  177.2
 3.200  0.7666  131.8   1.261   35.0  0.2281   54.0  0.3724  176.4
 3.300  0.7688  130.4   1.230   33.5  0.2344   53.2  0.3751  175.7
 3.400  0.7714  128.9   1.199   31.9  0.2407   52.4  0.3779  175.0
 3.500  0.7745  127.5   1.170   30.3  0.2471   51.7  0.3807  174.3
 3.600  0.7756  126.0   1.143   29.0  0.2525   50.7  0.3849  173.2
 3.700  0.7771  124.6   1.117   27.6  0.2580   49.8  0.3893  172.1
 3.800  0.7792  123.1   1.092   26.2  0.2635   48.9  0.3937  171.0
 3.900  0.7818  121.6   1.067   24.7  0.2691   48.0  0.3984  170.0
 4.000  0.7849  120.2   1.043   23.1  0.2748   47.2  0.4031  169.0
 4.100  0.7858  119.0   1.021   22.0  0.2795   46.3  0.4089  167.6
 4.200  0.7872  117.7   0.999   20.8  0.2843   45.5  0.4149  166.2
 4.300  0.7888  116.5   0.977   19.5  0.2891   44.7  0.4212  164.9
 4.400  0.7909  115.2   0.956   18.2  0.2940   43.9  0.4277  163.6
 4.500  0.7933  114.0   0.936   16.9  0.2990   43.1  0.4344  162.4
 4.600  0.7942  113.0   0.917   16.0  0.3033   42.3  0.4409  161.4
 4.700  0.7952  112.0   0.898   15.1  0.3076   41.5  0.4475  160.4
 4.800  0.7966  111.0   0.879   14.1  0.3120   40.8  0.4543  159.4
 4.900  0.7981  110.1   0.861   13.1  0.3165   40.0  0.4612  158.5
 5.000  0.7999  109.1   0.843   12.0  0.3210   39.3  0.4682  157.6
 5.100  0.8014  108.3   0.832   11.2  0.3257   38.7  0.4757  157.1
 5.200  0.8031  107.4   0.821   10.4  0.3304   38.0  0.4833  156.7
 5.300  0.8049  106.6   0.811    9.5  0.3352   37.4  0.4909  156.2
 5.400  0.8069  105.8   0.800    8.7  0.3400   36.9  0.4985  155.8
 5.500  0.8091  105.0   0.790    7.8  0.3449   36.3  0.5061  155.4
 5.600  0.8105  104.1   0.779    7.3  0.3504   35.6  0.5111  155.3
 5.700  0.8122  103.1   0.767    6.7  0.3559   34.8  0.5161  155.1
 5.800  0.8140  102.2   0.756    6.2  0.3614   34.1  0.5212  155.0
 5.900  0.8161  101.2   0.745    5.6  0.3670   33.5  0.5262  154.8
 6.000  0.8184  100.3   0.734    5.0  0.3727   32.8  0.5312  154.7
!
!  f       NFmin   Gammaopt  rn/50
! GHz       dB    MAG  ANG    -
 0.450      1.27  0.53 -177   0.05
 0.900      1.39  0.56 -171   0.05
 1.900      2.33  0.69 -148   0.16
 2.400      3.05  0.70 -140   0.28
!
! (c) 2017  Infineon Technologies AG, Munich