! Infineon Technologies  Discrete & RF Semiconductors
! BFP196WN
! VCE =  5.0 V,  IC =  85 mA
! Common Emitter S-Parameters:                            Jan 2017
# GHz  S  MA  R  50
!  f         S11            S21            S12            S22
! GHz     MAG   ANG      MAG   ANG      MAG   ANG      MAG   ANG
 0.010  0.1957  -91.0  96.671  165.6  0.0029   77.0  0.8996  -18.5
 0.020  0.3420 -112.2  86.257  151.7  0.0056   71.4  0.8289  -36.4
 0.030  0.4118 -125.6  75.949  145.2  0.0073   62.4  0.7209  -46.3
 0.040  0.4971 -134.7  66.925  136.7  0.0091   56.9  0.6411  -59.1
 0.050  0.5914 -141.1  59.767  126.0  0.0109   53.2  0.6009  -74.5
 0.060  0.6039 -145.3  54.497  123.9  0.0114   53.1  0.5531  -79.1
 0.070  0.6195 -149.2  49.320  121.2  0.0120   53.0  0.5096  -84.6
 0.080  0.6379 -153.0  44.269  118.0  0.0125   52.9  0.4717  -91.1
 0.090  0.6589 -156.5  39.392  114.0  0.0131   52.9  0.4406  -98.5
 0.100  0.6822 -159.8  34.763  108.9  0.0136   52.8  0.4180 -106.9
 0.110  0.6877 -161.4  32.611  107.8  0.0142   53.5  0.4014 -110.0
 0.120  0.6938 -163.0  30.474  106.5  0.0149   54.2  0.3860 -113.4
 0.130  0.7003 -164.5  28.353  105.1  0.0155   54.7  0.3720 -117.0
 0.140  0.7074 -166.0  26.254  103.4  0.0162   55.3  0.3597 -120.9
 0.150  0.7149 -167.5  24.181  101.4  0.0168   55.8  0.3491 -125.0
 0.200  0.7198 -172.1  18.331   96.9  0.0198   62.4  0.3240 -136.3
 0.250  0.7278 -175.0  14.773   93.7  0.0234   62.1  0.3089 -143.5
 0.300  0.7298 -177.5  12.370   91.4  0.0265   64.8  0.2987 -149.5
 0.350  0.7314 -179.4  10.846   89.7  0.0302   67.0  0.2946 -152.9
 0.400  0.7338  178.8   9.335   87.4  0.0339   68.8  0.2915 -156.3
 0.450  0.7329  177.5   8.403   86.1  0.0374   69.5  0.2907 -158.7
 0.500  0.7324  176.1   7.477   84.5  0.0410   70.0  0.2904 -161.1
 0.600  0.7337  173.6   6.249   81.9  0.0490   70.8  0.2897 -164.7
 0.700  0.7355  171.6   5.351   79.6  0.0560   71.4  0.2876 -167.1
 0.800  0.7397  169.3   4.685   77.1  0.0639   72.0  0.2886 -168.6
 0.900  0.7385  167.4   4.159   74.9  0.0713   71.3  0.2913 -170.2
 1.000  0.7404  165.6   3.756   72.9  0.0780   71.1  0.2929 -171.8
 1.100  0.7410  163.9   3.418   71.0  0.0856   70.7  0.2940 -173.0
 1.200  0.7426  162.1   3.137   68.9  0.0924   70.1  0.2945 -173.8
 1.300  0.7421  160.4   2.903   67.2  0.1000   69.9  0.2987 -174.3
 1.400  0.7436  158.8   2.709   65.2  0.1074   69.2  0.3027 -175.6
 1.500  0.7457  157.3   2.529   63.3  0.1143   68.5  0.3038 -176.5
 1.600  0.7486  155.7   2.385   61.5  0.1217   67.9  0.3062 -176.6
 1.700  0.7497  153.9   2.258   59.7  0.1292   67.4  0.3118 -177.4
 1.800  0.7513  152.4   2.146   57.7  0.1363   66.4  0.3162 -178.1
 1.900  0.7522  151.0   2.035   56.2  0.1427   65.8  0.3181 -178.7
 2.000  0.7544  149.4   1.945   54.2  0.1500   64.8  0.3216 -178.8
 2.100  0.7534  147.9   1.862   52.5  0.1568   64.0  0.3265 -179.3
 2.200  0.7530  146.4   1.780   50.7  0.1636   63.3  0.3315 -179.7
 2.300  0.7551  144.8   1.713   49.1  0.1706   62.5  0.3341 -180.0
 2.400  0.7578  143.3   1.648   47.3  0.1777   61.7  0.3368  179.8
 2.500  0.7573  141.8   1.589   45.7  0.1844   60.8  0.3421  179.3
 2.600  0.7573  140.3   1.532   44.0  0.1912   59.9  0.3474  178.8
 2.700  0.7584  138.9   1.483   42.5  0.1974   59.1  0.3490  178.7
 2.800  0.7599  137.5   1.435   41.0  0.2037   58.3  0.3507  178.6
 2.900  0.7609  136.0   1.393   39.5  0.2101   57.3  0.3560  177.7
 3.000  0.7624  134.6   1.352   37.9  0.2165   56.4  0.3614  176.9
 3.100  0.7635  133.1   1.319   36.6  0.2227   55.4  0.3638  176.2
 3.200  0.7651  131.7   1.286   35.2  0.2289   54.5  0.3663  175.5
 3.300  0.7672  130.2   1.254   33.7  0.2352   53.7  0.3688  174.8
 3.400  0.7698  128.7   1.223   32.2  0.2415   52.9  0.3714  174.2
 3.500  0.7729  127.3   1.193   30.6  0.2479   52.1  0.3740  173.5
 3.600  0.7738  125.8   1.166   29.3  0.2532   51.1  0.3783  172.4
 3.700  0.7751  124.4   1.139   27.9  0.2587   50.1  0.3826  171.3
 3.800  0.7770  123.0   1.113   26.4  0.2641   49.2  0.3872  170.2
 3.900  0.7794  121.5   1.087   24.9  0.2697   48.3  0.3918  169.2
 4.000  0.7822  120.1   1.063   23.3  0.2753   47.5  0.3966  168.2
 4.100  0.7832  118.9   1.040   22.1  0.2801   46.6  0.4024  166.8
 4.200  0.7845  117.6   1.018   20.9  0.2849   45.7  0.4084  165.4
 4.300  0.7862  116.4   0.996   19.7  0.2898   44.8  0.4147  164.1
 4.400  0.7883  115.2   0.974   18.4  0.2948   44.0  0.4211  162.8
 4.500  0.7907  114.0   0.953   17.0  0.2998   43.2  0.4278  161.6
 4.600  0.7916  113.0   0.934   16.1  0.3040   42.4  0.4340  160.6
 4.700  0.7927  111.9   0.915   15.2  0.3083   41.7  0.4404  159.6
 4.800  0.7941  110.9   0.896   14.2  0.3127   40.9  0.4468  158.7
 4.900  0.7957  109.9   0.878   13.2  0.3171   40.2  0.4534  157.8
 5.000  0.7976  108.9   0.860   12.2  0.3215   39.5  0.4601  156.9
 5.100  0.7992  108.1   0.849   11.4  0.3261   38.9  0.4675  156.5
 5.200  0.8010  107.3   0.838   10.5  0.3307   38.2  0.4749  156.1
 5.300  0.8029  106.5   0.827    9.6  0.3354   37.6  0.4824  155.7
 5.400  0.8050  105.8   0.816    8.7  0.3401   37.1  0.4899  155.3
 5.500  0.8072  105.0   0.806    7.8  0.3449   36.5  0.4974  154.9
 5.600  0.8084  104.1   0.794    7.3  0.3504   35.7  0.5023  154.8
 5.700  0.8099  103.1   0.782    6.7  0.3560   34.9  0.5073  154.7
 5.800  0.8116  102.2   0.770    6.1  0.3616   34.1  0.5122  154.5
 5.900  0.8135  101.2   0.759    5.5  0.3673   33.4  0.5172  154.4
 6.000  0.8156  100.3   0.747    4.9  0.3731   32.7  0.5221  154.3
!
!  f       NFmin   Gammaopt  rn/50
! GHz       dB    MAG  ANG    -
 0.450      1.64  0.59 -175   0.05
 0.900      1.77  0.60 -168   0.07
 1.900      2.75  0.70 -146   0.22
 2.400      3.53  0.72 -138   0.37
!
! (c) 2017  Infineon Technologies AG, Munich