! Infineon Technologies  Discrete & RF Semiconductors
! BFP196WN
! VCE =  12. V,  IC =  40 mA
! Common Emitter S-Parameters:                            Jan 2017
# GHz  S  MA  R  50
!  f         S11            S21            S12            S22
! GHz     MAG   ANG      MAG   ANG      MAG   ANG      MAG   ANG
 0.010  0.4058  -26.5  70.624  170.1  0.0034   68.0  0.9050  -11.6
 0.020  0.4290  -52.8  66.175  159.9  0.0062   66.3  0.8651  -23.2
 0.030  0.4338  -71.0  60.945  153.6  0.0088   59.6  0.7907  -31.3
 0.040  0.4790  -87.2  56.590  146.2  0.0116   56.0  0.7350  -40.8
 0.050  0.5549  -99.8  53.325  137.7  0.0143   53.8  0.7027  -51.6
 0.060  0.5531 -107.3  49.282  135.0  0.0154   51.7  0.6494  -55.7
 0.070  0.5608 -114.8  45.373  131.7  0.0164   49.9  0.6000  -60.4
 0.080  0.5777 -121.9  41.635  127.9  0.0175   48.3  0.5555  -66.0
 0.090  0.6030 -128.6  38.119  123.3  0.0186   46.9  0.5171  -72.5
 0.100  0.6357 -134.6  34.891  117.9  0.0197   45.6  0.4863  -79.9
 0.110  0.6400 -137.8  32.893  116.4  0.0203   45.4  0.4610  -82.6
 0.120  0.6463 -140.9  30.920  114.7  0.0209   45.3  0.4369  -85.7
 0.130  0.6545 -144.0  28.979  112.7  0.0215   45.2  0.4141  -89.1
 0.140  0.6645 -147.0  27.075  110.5  0.0221   45.0  0.3930  -92.9
 0.150  0.6763 -149.9  25.218  108.0  0.0227   44.9  0.3738  -97.1
 0.200  0.6845 -158.6  19.427  102.0  0.0247   45.7  0.3170 -109.3
 0.250  0.6929 -164.1  15.769   97.9  0.0281   49.1  0.2832 -117.8
 0.300  0.6970 -168.2  13.263   94.9  0.0302   51.5  0.2591 -125.0
 0.350  0.6989 -171.2  11.651   92.9  0.0330   54.0  0.2473 -129.7
 0.400  0.7026 -174.1  10.059   90.2  0.0359   56.1  0.2373 -134.8
 0.450  0.7025 -176.2   9.059   88.6  0.0389   57.5  0.2319 -138.4
 0.500  0.7033 -178.2   8.068   86.7  0.0419   58.7  0.2274 -142.1
 0.600  0.7049  178.4   6.747   83.7  0.0481   61.1  0.2220 -147.2
 0.700  0.7071  175.7   5.783   81.1  0.0537   63.5  0.2173 -150.7
 0.800  0.7101  173.0   5.067   78.4  0.0611   64.8  0.2170 -153.2
 0.900  0.7091  170.6   4.496   76.1  0.0673   64.4  0.2190 -155.5
 1.000  0.7108  168.7   4.059   73.9  0.0732   65.7  0.2199 -157.6
 1.100  0.7145  166.7   3.693   71.9  0.0804   65.9  0.2204 -158.9
 1.200  0.7163  164.7   3.389   69.8  0.0862   65.6  0.2219 -160.0
 1.300  0.7134  162.9   3.133   67.9  0.0929   65.7  0.2260 -160.7
 1.400  0.7160  161.1   2.925   65.8  0.0998   65.9  0.2306 -162.3
 1.500  0.7190  159.6   2.730   63.9  0.1060   65.4  0.2322 -163.2
 1.600  0.7225  157.8   2.570   62.0  0.1126   65.3  0.2361 -163.4
 1.700  0.7242  155.9   2.433   60.1  0.1197   65.1  0.2424 -164.2
 1.800  0.7242  154.6   2.310   58.1  0.1262   64.5  0.2470 -165.0
 1.900  0.7261  153.0   2.189   56.5  0.1325   64.1  0.2510 -165.6
 2.000  0.7283  151.3   2.090   54.5  0.1392   63.5  0.2558 -165.8
 2.100  0.7291  149.7   2.000   52.8  0.1455   63.0  0.2618 -166.3
 2.200  0.7304  148.2   1.912   50.9  0.1519   62.5  0.2678 -166.8
 2.300  0.7325  146.6   1.838   49.2  0.1584   61.9  0.2722 -167.0
 2.400  0.7352  145.1   1.765   47.4  0.1650   61.3  0.2766 -167.1
 2.500  0.7349  143.6   1.702   45.8  0.1715   60.5  0.2832 -167.7
 2.600  0.7351  142.0   1.640   44.0  0.1780   59.7  0.2899 -168.2
 2.700  0.7369  140.6   1.585   42.5  0.1842   59.2  0.2933 -168.3
 2.800  0.7391  139.2   1.532   40.9  0.1905   58.7  0.2968 -168.3
 2.900  0.7399  137.6   1.485   39.3  0.1966   57.9  0.3030 -169.3
 3.000  0.7413  136.1   1.440   37.7  0.2027   57.1  0.3092 -170.2
 3.100  0.7429  134.6   1.403   36.4  0.2088   56.3  0.3129 -171.0
 3.200  0.7450  133.2   1.367   34.9  0.2150   55.5  0.3166 -171.7
 3.300  0.7475  131.7   1.332   33.4  0.2213   54.8  0.3204 -172.4
 3.400  0.7506  130.2   1.297   31.9  0.2275   54.1  0.3242 -173.1
 3.500  0.7541  128.8   1.264   30.2  0.2338   53.4  0.3281 -173.8
 3.600  0.7557  127.3   1.234   28.9  0.2393   52.5  0.3331 -175.1
 3.700  0.7577  125.8   1.205   27.5  0.2449   51.6  0.3382 -176.3
 3.800  0.7603  124.3   1.176   26.0  0.2505   50.8  0.3435 -177.5
 3.900  0.7634  122.9   1.149   24.4  0.2562   50.0  0.3489 -178.7
 4.000  0.7670  121.4   1.122   22.8  0.2619   49.3  0.3545 -179.8
 4.100  0.7686  120.1   1.097   21.6  0.2669   48.4  0.3608  178.5
 4.200  0.7706  118.9   1.072   20.4  0.2719   47.6  0.3674  176.9
 4.300  0.7729  117.7   1.047   19.1  0.2770   46.8  0.3742  175.4
 4.400  0.7756  116.4   1.023   17.7  0.2821   46.0  0.3813  173.9
 4.500  0.7787  115.2   1.000   16.3  0.2873   45.3  0.3887  172.5
 4.600  0.7799  114.2   0.979   15.4  0.2918   44.5  0.3961  171.3
 4.700  0.7814  113.1   0.958   14.4  0.2964   43.8  0.4036  170.1
 4.800  0.7831  112.1   0.937   13.4  0.3010   43.1  0.4113  169.0
 4.900  0.7851  111.0   0.917   12.4  0.3057   42.4  0.4192  167.9
 5.000  0.7873  110.0   0.897   11.3  0.3104   41.7  0.4272  166.8
 5.100  0.7892  109.2   0.884   10.5  0.3153   41.1  0.4359  166.2
 5.200  0.7912  108.3   0.870    9.6  0.3203   40.4  0.4447  165.5
 5.300  0.7934  107.5   0.857    8.7  0.3252   39.8  0.4536  164.9
 5.400  0.7958  106.7   0.845    7.8  0.3303   39.3  0.4625  164.4
 5.500  0.7983  105.9   0.832    6.8  0.3353   38.7  0.4714  163.8
 5.600  0.8000  105.0   0.819    6.3  0.3410   37.9  0.4780  163.5
 5.700  0.8020  104.0   0.806    5.7  0.3468   37.2  0.4846  163.3
 5.800  0.8041  103.1   0.793    5.1  0.3526   36.5  0.4912  163.0
 5.900  0.8064  102.2   0.780    4.5  0.3585   35.8  0.4979  162.7
 6.000  0.8090  101.3   0.767    3.9  0.3644   35.1  0.5045  162.5
!
!  f       NFmin   Gammaopt  rn/50
! GHz       dB    MAG  ANG    -
 0.450      1.16  0.50 -179   0.04
 0.900      1.29  0.54 -173   0.05
 1.900      2.21  0.68 -148   0.13
 2.400      2.95  0.69 -141   0.26
!
! (c) 2017  Infineon Technologies AG, Munich