! Infineon Technologies  Discrete & RF Semiconductors
! BFP196WN
! VCE =  6.0 V,  IC =  95 mA
! Common Emitter S-Parameters:                            Jan 2017
# GHz  S  MA  R  50
!  f         S11            S21            S12            S22
! GHz     MAG   ANG      MAG   ANG      MAG   ANG      MAG   ANG
 0.010  0.1952  -90.2  98.527  165.5  0.0030   79.3  0.8917  -18.3
 0.020  0.3457 -111.6  87.918  151.4  0.0054   72.5  0.8234  -36.1
 0.030  0.4135 -125.2  77.348  144.9  0.0069   63.2  0.7150  -45.7
 0.040  0.4977 -134.6  68.071  136.5  0.0085   57.3  0.6334  -58.3
 0.050  0.5912 -141.1  60.680  125.8  0.0101   53.3  0.5899  -73.6
 0.060  0.6031 -145.3  55.318  123.7  0.0108   53.2  0.5425  -78.2
 0.070  0.6180 -149.3  50.049  121.1  0.0115   53.2  0.4992  -83.6
 0.080  0.6358 -153.1  44.906  117.9  0.0122   53.2  0.4611  -89.9
 0.090  0.6563 -156.7  39.937  113.9  0.0129   53.1  0.4297  -97.3
 0.100  0.6791 -160.0  35.217  108.8  0.0136   53.1  0.4064 -105.7
 0.110  0.6848 -161.6  33.037  107.7  0.0142   54.2  0.3893 -108.7
 0.120  0.6910 -163.1  30.870  106.4  0.0149   55.3  0.3734 -112.0
 0.130  0.6977 -164.6  28.722  105.0  0.0155   56.2  0.3588 -115.6
 0.140  0.7049 -166.1  26.594  103.3  0.0162   57.1  0.3457 -119.5
 0.150  0.7126 -167.6  24.494  101.3  0.0168   57.9  0.3343 -123.6
 0.200  0.7168 -172.1  18.580   96.8  0.0192   59.8  0.3087 -135.0
 0.250  0.7248 -175.0  14.957   93.7  0.0227   63.7  0.2935 -142.1
 0.300  0.7274 -177.5  12.515   91.3  0.0261   65.2  0.2820 -148.2
 0.350  0.7284 -179.3  10.983   89.6  0.0298   67.3  0.2779 -151.6
 0.400  0.7301  179.0   9.463   87.4  0.0336   69.0  0.2749 -155.1
 0.450  0.7297  177.6   8.519   86.1  0.0372   69.5  0.2740 -157.5
 0.500  0.7298  176.1   7.580   84.5  0.0409   70.0  0.2737 -160.0
 0.600  0.7313  173.7   6.330   81.8  0.0487   70.8  0.2735 -163.5
 0.700  0.7332  171.6   5.419   79.6  0.0553   71.9  0.2714 -166.0
 0.800  0.7345  169.5   4.747   77.1  0.0630   72.0  0.2726 -167.5
 0.900  0.7338  167.4   4.213   74.9  0.0700   71.5  0.2749 -169.1
 1.000  0.7365  165.8   3.802   72.9  0.0770   71.2  0.2765 -170.7
 1.100  0.7373  163.9   3.461   70.9  0.0847   71.3  0.2776 -171.8
 1.200  0.7388  162.2   3.177   68.9  0.0914   70.7  0.2783 -172.6
 1.300  0.7385  160.5   2.938   67.1  0.0987   70.2  0.2824 -172.9
 1.400  0.7407  158.7   2.744   65.1  0.1064   69.6  0.2870 -174.3
 1.500  0.7442  157.4   2.561   63.3  0.1130   68.9  0.2881 -175.1
 1.600  0.7466  155.6   2.412   61.5  0.1198   68.3  0.2908 -175.3
 1.700  0.7466  154.0   2.287   59.6  0.1280   67.7  0.2962 -175.9
 1.800  0.7485  152.5   2.172   57.7  0.1347   66.8  0.3011 -176.6
 1.900  0.7480  151.1   2.060   56.1  0.1412   66.1  0.3033 -177.2
 2.000  0.7506  149.4   1.967   54.1  0.1485   65.2  0.3069 -177.2
 2.100  0.7507  147.9   1.884   52.5  0.1553   64.5  0.3120 -177.7
 2.200  0.7513  146.5   1.802   50.7  0.1621   63.8  0.3172 -178.1
 2.300  0.7530  145.0   1.734   49.0  0.1692   62.9  0.3197 -178.3
 2.400  0.7553  143.5   1.667   47.2  0.1763   62.1  0.3223 -178.4
 2.500  0.7547  142.0   1.608   45.6  0.1829   61.1  0.3281 -178.9
 2.600  0.7547  140.4   1.550   43.9  0.1895   60.2  0.3340 -179.4
 2.700  0.7560  139.0   1.499   42.5  0.1956   59.4  0.3358 -179.5
 2.800  0.7578  137.6   1.449   40.9  0.2018   58.7  0.3377 -179.6
 2.900  0.7580  136.1   1.407   39.3  0.2084   57.7  0.3432  179.5
 3.000  0.7588  134.6   1.366   37.7  0.2151   56.8  0.3488  178.7
 3.100  0.7600  133.1   1.332   36.4  0.2212   55.9  0.3514  178.0
 3.200  0.7616  131.7   1.299   35.0  0.2273   55.0  0.3540  177.4
 3.300  0.7638  130.3   1.266   33.5  0.2335   54.1  0.3566  176.7
 3.400  0.7664  128.8   1.235   32.0  0.2397   53.4  0.3593  176.0
 3.500  0.7695  127.4   1.204   30.4  0.2460   52.6  0.3621  175.4
 3.600  0.7709  125.9   1.176   29.1  0.2514   51.6  0.3666  174.3
 3.700  0.7728  124.5   1.149   27.7  0.2568   50.6  0.3713  173.2
 3.800  0.7752  123.1   1.123   26.2  0.2623   49.7  0.3761  172.1
 3.900  0.7780  121.6   1.097   24.7  0.2679   48.8  0.3810  171.1
 4.000  0.7814  120.2   1.072   23.1  0.2735   48.0  0.3861  170.1
 4.100  0.7824  119.0   1.049   22.0  0.2784   47.1  0.3919  168.7
 4.200  0.7838  117.7   1.026   20.8  0.2833   46.2  0.3979  167.3
 4.300  0.7855  116.5   1.003   19.5  0.2883   45.4  0.4041  165.9
 4.400  0.7876  115.3   0.981   18.3  0.2933   44.6  0.4106  164.6
 4.500  0.7900  114.1   0.960   16.9  0.2984   43.8  0.4173  163.3
 4.600  0.7911  113.1   0.941   16.0  0.3026   43.0  0.4237  162.3
 4.700  0.7924  112.1   0.922   15.0  0.3069   42.2  0.4303  161.2
 4.800  0.7940  111.1   0.903   14.0  0.3112   41.4  0.4370  160.3
 4.900  0.7958  110.1   0.884   13.0  0.3156   40.6  0.4439  159.3
 5.000  0.7978  109.1   0.866   11.9  0.3201   39.9  0.4508  158.4
 5.100  0.7991  108.3   0.854   11.1  0.3248   39.3  0.4585  158.0
 5.200  0.8006  107.5   0.843   10.2  0.3295   38.6  0.4662  157.5
 5.300  0.8022  106.7   0.831    9.3  0.3342   38.0  0.4739  157.1
 5.400  0.8040  105.9   0.820    8.4  0.3390   37.5  0.4816  156.7
 5.500  0.8059  105.1   0.809    7.5  0.3438   36.9  0.4894  156.3
 5.600  0.8075  104.2   0.797    7.0  0.3493   36.1  0.4946  156.2
 5.700  0.8093  103.2   0.785    6.4  0.3549   35.4  0.4999  156.1
 5.800  0.8113  102.3   0.773    5.8  0.3606   34.7  0.5051  155.9
 5.900  0.8135  101.4   0.762    5.2  0.3662   34.0  0.5104  155.8
 6.000  0.8159  100.5   0.750    4.6  0.3720   33.3  0.5156  155.7
!
!  f       NFmin   Gammaopt  rn/50
! GHz       dB    MAG  ANG    -
!
! noise parameter not available yet for this operation point!
!
! (c) 2017  Infineon Technologies AG, Munich