! Infineon Technologies  Discrete & RF Semiconductors
! BFP196WN
! VCE =  8.0 V,  IC =  35 mA
! Common Emitter S-Parameters:                            Jan 2017
# GHz  S  MA  R  50
!  f         S11            S21            S12            S22
! GHz     MAG   ANG      MAG   ANG      MAG   ANG      MAG   ANG
 0.010  0.4005  -27.4  68.634  170.2  0.0035   78.9  0.9550  -11.8
 0.020  0.4271  -53.8  64.167  160.0  0.0070   79.8  0.9107  -23.6
 0.030  0.4333  -72.2  59.121  153.6  0.0094   67.9  0.8317  -31.7
 0.040  0.4808  -88.5  54.949  146.1  0.0120   61.0  0.7724  -41.2
 0.050  0.5591 -101.1  51.863  137.5  0.0148   56.6  0.7377  -52.0
 0.060  0.5581 -108.5  47.913  134.8  0.0159   54.0  0.6816  -56.1
 0.070  0.5664 -115.9  44.092  131.5  0.0171   51.7  0.6295  -60.9
 0.080  0.5837 -122.9  40.437  127.7  0.0183   49.8  0.5827  -66.5
 0.090  0.6092 -129.5  36.997  123.1  0.0195   48.0  0.5424  -73.0
 0.100  0.6420 -135.4  33.838  117.7  0.0207   46.5  0.5102  -80.5
 0.110  0.6465 -138.6  31.895  116.2  0.0213   46.2  0.4837  -83.2
 0.120  0.6530 -141.7  29.976  114.5  0.0219   45.9  0.4584  -86.3
 0.130  0.6614 -144.7  28.087  112.6  0.0225   45.6  0.4346  -89.7
 0.140  0.6715 -147.6  26.233  110.4  0.0231   45.3  0.4125  -93.4
 0.150  0.6834 -150.5  24.424  107.9  0.0237   45.0  0.3923  -97.6
 0.200  0.6939 -159.0  18.816  101.9  0.0252   45.8  0.3325 -109.9
 0.250  0.7028 -164.5  15.278   97.8  0.0285   48.7  0.2978 -118.5
 0.300  0.7070 -168.7  12.837   94.8  0.0309   50.4  0.2731 -125.8
 0.350  0.7093 -171.5  11.278   92.7  0.0337   53.1  0.2608 -130.4
 0.400  0.7133 -174.3   9.739   90.0  0.0365   55.4  0.2503 -135.5
 0.450  0.7124 -176.4   8.772   88.4  0.0393   57.1  0.2446 -139.0
 0.500  0.7124 -178.5   7.813   86.5  0.0422   58.5  0.2399 -142.7
 0.600  0.7151  178.3   6.531   83.5  0.0488   60.9  0.2340 -148.0
 0.700  0.7164  175.4   5.596   80.9  0.0547   62.8  0.2291 -151.5
 0.800  0.7182  172.9   4.904   78.2  0.0615   64.1  0.2293 -153.8
 0.900  0.7192  170.5   4.353   75.9  0.0676   64.5  0.2308 -156.2
 1.000  0.7202  168.4   3.929   73.7  0.0744   65.0  0.2314 -158.3
 1.100  0.7224  166.5   3.576   71.6  0.0810   65.7  0.2325 -159.6
 1.200  0.7242  164.6   3.281   69.5  0.0871   65.6  0.2339 -160.8
 1.300  0.7227  162.8   3.033   67.7  0.0937   65.6  0.2382 -161.4
 1.400  0.7262  161.0   2.833   65.6  0.1004   65.5  0.2421 -163.1
 1.500  0.7278  159.5   2.642   63.6  0.1069   65.3  0.2443 -164.0
 1.600  0.7307  157.8   2.489   61.7  0.1136   65.1  0.2481 -164.2
 1.700  0.7334  155.9   2.357   59.8  0.1203   64.7  0.2546 -165.1
 1.800  0.7328  154.3   2.238   57.8  0.1269   64.3  0.2592 -165.9
 1.900  0.7361  152.7   2.122   56.2  0.1331   63.9  0.2625 -166.5
 2.000  0.7365  151.2   2.025   54.2  0.1401   63.3  0.2675 -166.7
 2.100  0.7366  149.6   1.938   52.5  0.1467   62.8  0.2735 -167.2
 2.200  0.7373  148.1   1.853   50.6  0.1533   62.4  0.2796 -167.7
 2.300  0.7398  146.5   1.782   48.9  0.1598   61.7  0.2840 -168.0
 2.400  0.7429  144.9   1.712   47.0  0.1663   61.1  0.2885 -168.2
 2.500  0.7424  143.4   1.650   45.4  0.1727   60.3  0.2951 -168.8
 2.600  0.7424  141.8   1.589   43.7  0.1791   59.6  0.3017 -169.3
 2.700  0.7443  140.4   1.536   42.2  0.1853   59.0  0.3053 -169.4
 2.800  0.7467  139.0   1.485   40.6  0.1915   58.5  0.3090 -169.5
 2.900  0.7477  137.5   1.440   39.0  0.1977   57.7  0.3152 -170.5
 3.000  0.7492  136.0   1.397   37.4  0.2040   56.9  0.3214 -171.4
 3.100  0.7506  134.5   1.361   36.1  0.2102   56.1  0.3251 -172.2
 3.200  0.7526  133.0   1.326   34.6  0.2165   55.3  0.3290 -172.9
 3.300  0.7551  131.5   1.292   33.1  0.2228   54.6  0.3328 -173.7
 3.400  0.7580  130.1   1.259   31.6  0.2291   53.9  0.3367 -174.4
 3.500  0.7615  128.6   1.227   29.9  0.2355   53.2  0.3407 -175.1
 3.600  0.7629  127.1   1.198   28.6  0.2411   52.3  0.3458 -176.4
 3.700  0.7647  125.6   1.170   27.2  0.2468   51.4  0.3510 -177.6
 3.800  0.7671  124.1   1.142   25.7  0.2525   50.6  0.3563 -178.7
 3.900  0.7700  122.7   1.115   24.1  0.2583   49.8  0.3618 -179.9
 4.000  0.7734  121.2   1.089   22.5  0.2641   49.0  0.3675  179.0
 4.100  0.7750  119.9   1.065   21.3  0.2691   48.2  0.3737  177.4
 4.200  0.7769  118.7   1.041   20.1  0.2742   47.4  0.3803  175.8
 4.300  0.7793  117.5   1.018   18.8  0.2793   46.6  0.3871  174.3
 4.400  0.7820  116.2   0.995   17.5  0.2845   45.8  0.3942  172.8
 4.500  0.7850  115.0   0.973   16.1  0.2897   45.1  0.4015  171.4
 4.600  0.7863  114.0   0.952   15.2  0.2942   44.3  0.4088  170.2
 4.700  0.7878  112.9   0.932   14.2  0.2987   43.6  0.4164  169.0
 4.800  0.7895  111.9   0.912   13.2  0.3033   42.9  0.4240  167.9
 4.900  0.7915  110.9   0.892   12.2  0.3079   42.2  0.4319  166.8
 5.000  0.7938  109.9   0.873   11.1  0.3126   41.5  0.4399  165.7
 5.100  0.7954  109.0   0.860   10.3  0.3175   40.8  0.4486  165.1
 5.200  0.7971  108.2   0.848    9.4  0.3224   40.2  0.4574  164.4
 5.300  0.7991  107.3   0.835    8.5  0.3274   39.6  0.4663  163.8
 5.400  0.8012  106.5   0.823    7.6  0.3324   39.0  0.4752  163.3
 5.500  0.8035  105.6   0.811    6.7  0.3375   38.4  0.4841  162.7
 5.600  0.8051  104.7   0.798    6.2  0.3433   37.6  0.4906  162.4
 5.700  0.8070  103.7   0.786    5.6  0.3492   36.8  0.4970  162.2
 5.800  0.8090  102.8   0.773    5.1  0.3551   36.1  0.5035  161.9
 5.900  0.8112  101.9   0.760    4.5  0.3611   35.4  0.5100  161.6
 6.000  0.8137  101.0   0.748    3.9  0.3671   34.7  0.5165  161.4
!
!  f       NFmin   Gammaopt  rn/50
! GHz       dB    MAG  ANG    -
 0.450      1.11  0.47  179   0.05
 0.900      1.24  0.53  186   0.05
 1.900      2.17  0.68  212   0.13
 2.400      2.91  0.69  219   0.25
!
! (c) 2017  Infineon Technologies AG, Munich