! Infineon Technologies  Discrete & RF Semiconductors
! BFP196WN
! VCE =  3.0 V,  IC = 0.10 A
! Common Emitter S-Parameters:                            Jan 2017
# GHz  S  MA  R  50
!  f         S11            S21            S12            S22
! GHz     MAG   ANG      MAG   ANG      MAG   ANG      MAG   ANG
 0.010  0.2444 -125.4  97.494  163.4  0.0030   79.1  0.8569  -22.6
 0.020  0.4086 -132.5  84.883  147.9  0.0054   68.0  0.7726  -43.6
 0.030  0.4827 -141.1  73.471  141.6  0.0067   61.2  0.6624  -54.4
 0.040  0.5647 -147.4  63.268  133.1  0.0082   56.7  0.5840  -68.7
 0.050  0.6517 -152.0  54.952  121.7  0.0096   53.5  0.5511  -86.0
 0.060  0.6628 -155.0  49.934  119.8  0.0103   53.8  0.5109  -91.0
 0.070  0.6757 -158.0  44.984  117.5  0.0110   54.0  0.4752  -96.8
 0.080  0.6903 -160.8  40.125  114.6  0.0118   54.2  0.4452 -103.5
 0.090  0.7065 -163.4  35.398  110.9  0.0125   54.3  0.4219 -111.0
 0.100  0.7242 -166.0  30.861  106.1  0.0132   54.5  0.4067 -119.2
 0.110  0.7290 -167.2  28.919  105.1  0.0138   55.6  0.3945 -122.3
 0.120  0.7342 -168.4  26.988  104.0  0.0144   56.7  0.3836 -125.5
 0.130  0.7396 -169.5  25.069  102.6  0.0150   57.6  0.3739 -128.9
 0.140  0.7454 -170.7  23.165  101.1  0.0157   58.5  0.3656 -132.5
 0.150  0.7514 -171.8  21.281   99.3  0.0163   59.3  0.3589 -136.3
 0.200  0.7556 -175.4  16.080   95.2  0.0193   64.1  0.3448 -146.1
 0.250  0.7610 -177.8  12.944   92.3  0.0233   65.1  0.3352 -151.9
 0.300  0.7631 -179.8  10.828   90.1  0.0268   67.7  0.3286 -157.0
 0.350  0.7635  178.6   9.491   88.5  0.0304   69.2  0.3268 -159.7
 0.400  0.7645  177.1   8.164   86.4  0.0341   70.4  0.3257 -162.5
 0.450  0.7647  175.9   7.348   85.1  0.0381   71.1  0.3259 -164.5
 0.500  0.7652  174.7   6.537   83.5  0.0422   71.7  0.3265 -166.4
 0.600  0.7655  172.4   5.461   80.9  0.0502   72.1  0.3273 -169.3
 0.700  0.7669  170.6   4.674   78.6  0.0572   73.0  0.3252 -171.4
 0.800  0.7704  168.4   4.095   76.1  0.0656   72.8  0.3264 -172.7
 0.900  0.7675  166.5   3.634   74.0  0.0731   72.2  0.3293 -174.1
 1.000  0.7684  164.7   3.284   71.9  0.0805   71.8  0.3310 -175.5
 1.100  0.7713  163.1   2.990   69.9  0.0882   71.5  0.3320 -176.6
 1.200  0.7721  161.2   2.744   67.9  0.0955   70.9  0.3325 -177.3
 1.300  0.7724  159.7   2.540   66.1  0.1028   70.1  0.3367 -177.7
 1.400  0.7726  157.9   2.375   64.1  0.1110   69.5  0.3407 -178.9
 1.500  0.7754  156.5   2.217   62.2  0.1180   68.8  0.3414 -179.8
 1.600  0.7777  154.9   2.091   60.4  0.1259   68.2  0.3439 -180.0
 1.700  0.7791  153.1   1.984   58.5  0.1327   67.4  0.3490  179.4
 1.800  0.7784  151.7   1.887   56.5  0.1402   66.6  0.3538  178.6
 1.900  0.7790  150.2   1.789   54.9  0.1468   65.7  0.3552  178.0
 2.000  0.7818  148.6   1.711   52.9  0.1545   64.9  0.3586  177.8
 2.100  0.7813  147.1   1.640   51.2  0.1616   64.1  0.3635  177.3
 2.200  0.7813  145.6   1.570   49.4  0.1687   63.4  0.3684  176.9
 2.300  0.7828  144.0   1.512   47.8  0.1759   62.4  0.3703  176.6
 2.400  0.7848  142.5   1.455   46.0  0.1832   61.4  0.3723  176.3
 2.500  0.7836  141.0   1.405   44.4  0.1901   60.4  0.3776  175.8
 2.600  0.7829  139.5   1.356   42.7  0.1970   59.5  0.3829  175.3
 2.700  0.7839  138.1   1.313   41.2  0.2033   58.7  0.3841  175.1
 2.800  0.7853  136.7   1.270   39.7  0.2097   57.9  0.3854  175.0
 2.900  0.7858  135.2   1.234   38.2  0.2162   56.9  0.3906  174.1
 3.000  0.7868  133.7   1.199   36.6  0.2228   55.9  0.3959  173.3
 3.100  0.7876  132.2   1.170   35.3  0.2290   54.9  0.3979  172.6
 3.200  0.7889  130.8   1.142   33.9  0.2352   54.0  0.4000  171.9
 3.300  0.7907  129.3   1.115   32.5  0.2415   53.1  0.4021  171.2
 3.400  0.7930  127.8   1.089   31.0  0.2479   52.2  0.4043  170.5
 3.500  0.7958  126.4   1.063   29.4  0.2543   51.4  0.4066  169.8
 3.600  0.7964  124.9   1.040   28.1  0.2597   50.4  0.4106  168.7
 3.700  0.7976  123.5   1.017   26.7  0.2651   49.4  0.4148  167.7
 3.800  0.7992  122.1   0.995   25.3  0.2706   48.5  0.4191  166.6
 3.900  0.8014  120.6   0.973   23.8  0.2762   47.6  0.4235  165.6
 4.000  0.8040  119.2   0.952   22.3  0.2819   46.7  0.4281  164.6
 4.100  0.8042  118.0   0.932   21.2  0.2867   45.8  0.4337  163.3
 4.200  0.8048  116.7   0.913   20.1  0.2915   44.9  0.4396  162.0
 4.300  0.8057  115.5   0.894   18.9  0.2964   44.0  0.4456  160.7
 4.400  0.8071  114.2   0.875   17.6  0.3014   43.2  0.4519  159.5
 4.500  0.8088  113.0   0.857   16.3  0.3064   42.4  0.4584  158.3
 4.600  0.8095  112.0   0.841   15.5  0.3106   41.6  0.4644  157.4
 4.700  0.8105  111.0   0.824   14.6  0.3148   40.8  0.4705  156.4
 4.800  0.8117  110.0   0.808   13.6  0.3191   40.0  0.4767  155.5
 4.900  0.8131  109.0   0.793   12.7  0.3234   39.2  0.4831  154.7
 5.000  0.8148  108.0   0.777   11.7  0.3278   38.5  0.4895  153.8
 5.100  0.8160  107.2   0.768   10.9  0.3324   37.9  0.4966  153.4
 5.200  0.8174  106.4   0.759   10.1  0.3370   37.3  0.5036  153.0
 5.300  0.8190  105.7   0.750    9.3  0.3416   36.7  0.5107  152.6
 5.400  0.8207  104.9   0.741    8.5  0.3463   36.1  0.5179  152.3
 5.500  0.8225  104.1   0.732    7.6  0.3510   35.5  0.5250  151.9
 5.600  0.8233  103.2   0.722    7.1  0.3564   34.7  0.5293  151.8
 5.700  0.8243  102.3   0.712    6.6  0.3619   34.0  0.5336  151.7
 5.800  0.8255  101.4   0.702    6.1  0.3675   33.2  0.5379  151.5
 5.900  0.8269  100.5   0.693    5.6  0.3731   32.5  0.5422  151.4
 6.000  0.8285   99.6   0.683    5.1  0.3788   31.8  0.5465  151.3
!
!  f       NFmin   Gammaopt  rn/50
! GHz       dB    MAG  ANG    -
 0.450      1.80  0.60 -174   0.06
 0.900      1.96  0.61 -167   0.08
 1.900      2.98  0.71 -146   0.26
 2.400      3.72  0.72 -137   0.44
!
! (c) 2017  Infineon Technologies AG, Munich