! Infineon Technologies  Discrete & RF Semiconductors
! BFP196WN
! VCE =  9.0 V,  IC =  10 mA
! Common Emitter S-Parameters:                            Jan 2017
# GHz  S  MA  R  50
!  f         S11            S21            S12            S22
! GHz     MAG   ANG      MAG   ANG      MAG   ANG      MAG   ANG
 0.010  0.7399  -10.0  30.045  175.4  0.0048   86.7  0.9854   -5.2
 0.020  0.7192  -22.4  29.043  169.1  0.0095   80.8  0.9727  -10.8
 0.030  0.7066  -31.9  28.239  164.3  0.0137   73.4  0.9415  -15.5
 0.040  0.7137  -41.4  27.642  159.3  0.0180   69.5  0.9171  -20.5
 0.050  0.7399  -50.5  27.265  154.1  0.0223   67.1  0.9001  -25.8
 0.060  0.7141  -57.5  26.008  150.9  0.0249   62.7  0.8598  -28.9
 0.070  0.6996  -64.9  24.838  147.4  0.0275   59.2  0.8222  -32.3
 0.080  0.6971  -72.5  23.768  143.6  0.0303   56.3  0.7878  -36.0
 0.090  0.7069  -80.0  22.814  139.5  0.0331   53.9  0.7570  -40.1
 0.100  0.7284  -87.2  21.989  135.0  0.0360   51.9  0.7303  -44.4
 0.110  0.7190  -92.0  21.048  132.9  0.0373   49.7  0.6998  -46.4
 0.120  0.7148  -96.9  20.138  130.6  0.0386   47.7  0.6703  -48.6
 0.130  0.7159 -101.9  19.263  128.1  0.0400   45.7  0.6418  -51.0
 0.140  0.7223 -106.7  18.428  125.4  0.0414   44.0  0.6146  -53.6
 0.150  0.7338 -111.5  17.639  122.4  0.0428   42.3  0.5887  -56.4
 0.200  0.7299 -126.9  14.329  113.7  0.0469   37.7  0.4868  -64.5
 0.250  0.7333 -137.9  12.004  107.4  0.0505   35.1  0.4165  -69.9
 0.300  0.7339 -146.0  10.261  102.8  0.0515   33.4  0.3621  -74.1
 0.350  0.7311 -151.4   9.074   99.7  0.0529   33.2  0.3294  -76.8
 0.400  0.7348 -156.8   7.922   95.7  0.0543   33.0  0.2976  -80.1
 0.450  0.7333 -160.6   7.160   93.4  0.0555   33.4  0.2778  -82.4
 0.500  0.7349 -164.3   6.413   90.6  0.0567   33.8  0.2585  -85.0
 0.600  0.7364 -169.8   5.382   86.4  0.0597   35.9  0.2338  -88.6
 0.700  0.7363 -174.2   4.624   82.8  0.0610   37.9  0.2186  -91.4
 0.800  0.7381 -178.1   4.057   79.3  0.0651   40.8  0.2114  -94.1
 0.900  0.7385  178.6   3.607   76.3  0.0679   42.2  0.2077  -97.0
 1.000  0.7401  175.9   3.259   73.6  0.0706   44.4  0.2041  -99.8
 1.100  0.7437  173.2   2.964   70.9  0.0742   46.7  0.2048 -101.8
 1.200  0.7448  170.7   2.720   68.3  0.0779   48.1  0.2069 -103.9
 1.300  0.7443  168.5   2.514   66.0  0.0820   49.9  0.2119 -106.3
 1.400  0.7462  166.5   2.346   63.5  0.0863   51.4  0.2152 -109.1
 1.500  0.7506  164.5   2.189   61.2  0.0904   53.0  0.2201 -111.3
 1.600  0.7532  162.5   2.059   59.0  0.0948   54.4  0.2273 -112.8
 1.700  0.7569  160.4   1.948   56.8  0.0998   55.7  0.2352 -115.5
 1.800  0.7587  158.6   1.850   54.5  0.1047   56.2  0.2418 -117.9
 1.900  0.7614  156.9   1.751   52.6  0.1092   57.2  0.2492 -119.6
 2.000  0.7636  155.0   1.671   50.3  0.1149   57.8  0.2586 -121.3
 2.100  0.7642  153.3   1.597   48.4  0.1204   58.4  0.2675 -123.4
 2.200  0.7655  151.6   1.525   46.3  0.1259   58.9  0.2767 -125.4
 2.300  0.7680  149.9   1.464   44.4  0.1318   59.3  0.2863 -126.8
 2.400  0.7711  148.2   1.405   42.4  0.1377   59.6  0.2960 -128.2
 2.500  0.7725  146.4   1.352   40.6  0.1440   59.7  0.3060 -130.1
 2.600  0.7747  144.7   1.301   38.7  0.1503   59.8  0.3164 -131.9
 2.700  0.7764  143.1   1.255   37.1  0.1564   59.9  0.3250 -133.1
 2.800  0.7786  141.6   1.211   35.4  0.1625   59.9  0.3337 -134.3
 2.900  0.7804  139.9   1.173   33.8  0.1692   59.6  0.3422 -136.2
 3.000  0.7828  138.3   1.137   32.0  0.1759   59.3  0.3510 -138.0
 3.100  0.7845  136.7   1.106   30.6  0.1828   58.9  0.3579 -139.7
 3.200  0.7868  135.1   1.075   29.2  0.1898   58.5  0.3650 -141.3
 3.300  0.7897  133.5   1.045   27.7  0.1968   58.1  0.3724 -142.9
 3.400  0.7933  131.9   1.015   26.1  0.2037   57.8  0.3801 -144.4
 3.500  0.7974  130.3   0.987   24.4  0.2107   57.5  0.3881 -145.8
 3.600  0.7987  128.7   0.962   23.1  0.2174   56.8  0.3945 -147.9
 3.700  0.8006  127.1   0.937   21.8  0.2242   56.1  0.4015 -150.0
 3.800  0.8031  125.5   0.913   20.4  0.2310   55.4  0.4089 -152.0
 3.900  0.8063  123.9   0.890   18.9  0.2378   54.8  0.4168 -153.9
 4.000  0.8101  122.3   0.867   17.4  0.2446   54.2  0.4252 -155.7
 4.100  0.8110  120.9   0.846   16.4  0.2510   53.3  0.4317 -158.1
 4.200  0.8124  119.6   0.826   15.3  0.2574   52.5  0.4389 -160.4
 4.300  0.8142  118.2   0.806   14.1  0.2639   51.7  0.4469 -162.7
 4.400  0.8165  116.8   0.786   13.0  0.2704   51.0  0.4555 -164.8
 4.500  0.8192  115.5   0.767   11.7  0.2770   50.3  0.4647 -166.9
 4.600  0.8201  114.4   0.749   11.0  0.2828   49.5  0.4727 -168.9
 4.700  0.8212  113.3   0.732   10.2  0.2886   48.7  0.4813 -170.8
 4.800  0.8226  112.2   0.714    9.4  0.2944   47.9  0.4904 -172.7
 4.900  0.8244  111.2   0.697    8.5  0.3003   47.2  0.5000 -174.5
 5.000  0.8264  110.1   0.680    7.6  0.3063   46.5  0.5101 -176.2
 5.100  0.8276  109.2   0.670    7.0  0.3123   45.7  0.5200 -177.6
 5.200  0.8291  108.2   0.660    6.5  0.3184   45.0  0.5303 -179.0
 5.300  0.8307  107.3   0.650    5.9  0.3245   44.3  0.5408  179.6
 5.400  0.8326  106.4   0.640    5.2  0.3307   43.6  0.5516  178.3
 5.500  0.8347  105.5   0.630    4.6  0.3369   43.0  0.5627  177.1
 5.600  0.8358  104.5   0.620    4.4  0.3436   42.1  0.5706  176.2
 5.700  0.8372  103.5   0.610    4.2  0.3504   41.2  0.5787  175.3
 5.800  0.8389  102.5   0.600    4.0  0.3572   40.4  0.5869  174.4
 5.900  0.8408  101.5   0.590    3.7  0.3641   39.6  0.5952  173.6
 6.000  0.8429  100.5   0.580    3.5  0.3711   38.8  0.6037  172.8
!
!  f       NFmin   Gammaopt  rn/50
! GHz       dB    MAG  ANG    -
 0.450      0.92  0.37  146   0.05
 0.900      1.09  0.52  167   0.05
 1.900      2.29  0.71  206   0.13
 2.400      3.04  0.72  213   0.24
!
! (c) 2017  Infineon Technologies AG, Munich