! Infineon Technologies  Discrete & RF Semiconductors
! BFP196WN
! VCE =  9.0 V,  IC =  70 mA
! Common Emitter S-Parameters:                            Jan 2017
# GHz  S  MA  R  50
!  f         S11            S21            S12            S22
! GHz     MAG   ANG      MAG   ANG      MAG   ANG      MAG   ANG
 0.010  0.2596  -48.9  89.743  167.4  0.0029   79.6  0.9162  -15.1
 0.020  0.3482  -82.5  82.192  155.0  0.0058   73.2  0.8600  -30.3
 0.030  0.3904 -101.1  73.580  148.5  0.0077   63.9  0.7617  -39.3
 0.040  0.4642 -114.9  66.170  140.3  0.0097   58.4  0.6870  -50.5
 0.050  0.5571 -124.5  60.403  130.4  0.0118   54.8  0.6442  -63.8
 0.060  0.5657 -130.2  55.311  128.0  0.0126   53.8  0.5919  -68.1
 0.070  0.5798 -135.8  50.333  125.2  0.0133   52.9  0.5434  -73.1
 0.080  0.5990 -141.0  45.507  121.7  0.0141   52.1  0.5000  -79.1
 0.090  0.6228 -145.8  40.887  117.4  0.0148   51.4  0.4629  -86.1
 0.100  0.6508 -150.3  36.551  112.1  0.0156   50.7  0.4340  -94.2
 0.110  0.6562 -152.5  34.345  110.8  0.0162   51.0  0.4130  -97.1
 0.120  0.6626 -154.7  32.157  109.4  0.0167   51.2  0.3932 -100.4
 0.130  0.6699 -156.9  29.993  107.8  0.0173   51.5  0.3748 -103.9
 0.140  0.6782 -159.0  27.856  105.9  0.0178   51.7  0.3579 -107.8
 0.150  0.6873 -161.0  25.755  103.7  0.0184   51.9  0.3429 -112.1
 0.200  0.6957 -167.1  19.618   98.7  0.0206   54.8  0.3032 -124.3
 0.250  0.7036 -171.1  15.845   95.2  0.0240   57.8  0.2808 -132.2
 0.300  0.7055 -174.2  13.278   92.6  0.0272   60.1  0.2648 -139.0
 0.350  0.7069 -176.4  11.655   90.8  0.0305   62.6  0.2581 -143.1
 0.400  0.7093 -178.6  10.047   88.4  0.0338   64.6  0.2527 -147.3
 0.450  0.7097  179.8   9.045   87.1  0.0370   65.6  0.2505 -150.2
 0.500  0.7106  178.3   8.049   85.4  0.0402   66.4  0.2489 -153.2
 0.600  0.7117  175.5   6.724   82.6  0.0481   68.0  0.2463 -157.6
 0.700  0.7160  173.0   5.763   80.2  0.0540   69.1  0.2432 -160.4
 0.800  0.7163  170.7   5.046   77.7  0.0617   69.9  0.2443 -162.2
 0.900  0.7180  168.7   4.478   75.5  0.0686   69.1  0.2465 -164.1
 1.000  0.7178  166.8   4.043   73.4  0.0754   69.4  0.2477 -165.9
 1.100  0.7202  165.0   3.677   71.5  0.0826   69.6  0.2485 -167.1
 1.200  0.7224  163.1   3.373   69.4  0.0893   68.9  0.2498 -168.0
 1.300  0.7209  161.4   3.121   67.7  0.0964   68.9  0.2541 -168.5
 1.400  0.7228  159.8   2.912   65.6  0.1035   68.4  0.2579 -169.9
 1.500  0.7262  158.3   2.718   63.8  0.1099   67.8  0.2595 -170.7
 1.600  0.7280  156.6   2.561   62.0  0.1170   67.3  0.2620 -170.9
 1.700  0.7287  154.9   2.424   60.1  0.1245   66.9  0.2685 -171.5
 1.800  0.7313  153.3   2.302   58.2  0.1307   66.1  0.2728 -172.3
 1.900  0.7322  151.9   2.183   56.5  0.1371   65.6  0.2754 -172.9
 2.000  0.7339  150.2   2.085   54.6  0.1451   64.7  0.2791 -172.9
 2.100  0.7340  148.7   1.996   52.9  0.1513   64.0  0.2846 -173.4
 2.200  0.7347  147.2   1.908   51.1  0.1576   63.4  0.2902 -173.8
 2.300  0.7376  145.6   1.835   49.4  0.1646   62.6  0.2936 -174.0
 2.400  0.7411  144.1   1.764   47.6  0.1717   61.9  0.2970 -174.1
 2.500  0.7402  142.7   1.700   46.0  0.1781   61.0  0.3027 -174.6
 2.600  0.7397  141.2   1.638   44.3  0.1846   60.2  0.3085 -175.1
 2.700  0.7406  139.7   1.584   42.9  0.1906   59.5  0.3112 -175.2
 2.800  0.7420  138.3   1.531   41.3  0.1967   58.8  0.3139 -175.2
 2.900  0.7433  136.8   1.485   39.7  0.2029   57.9  0.3197 -176.1
 3.000  0.7452  135.3   1.440   38.1  0.2092   57.0  0.3255 -176.9
 3.100  0.7465  133.9   1.404   36.8  0.2154   56.1  0.3284 -177.6
 3.200  0.7482  132.4   1.368   35.4  0.2216   55.3  0.3314 -178.3
 3.300  0.7504  131.0   1.333   33.9  0.2279   54.5  0.3345 -179.0
 3.400  0.7530  129.6   1.300   32.3  0.2342   53.7  0.3376 -179.6
 3.500  0.7561  128.2   1.267   30.7  0.2406   53.0  0.3407  179.7
 3.600  0.7576  126.7   1.237   29.4  0.2460   52.0  0.3453  178.5
 3.700  0.7597  125.3   1.208   27.9  0.2514   51.1  0.3500  177.4
 3.800  0.7622  123.8   1.180   26.5  0.2569   50.2  0.3548  176.3
 3.900  0.7652  122.3   1.153   24.9  0.2625   49.4  0.3598  175.2
 4.000  0.7687  120.9   1.126   23.3  0.2681   48.6  0.3649  174.2
 4.100  0.7701  119.6   1.101   22.1  0.2729   47.7  0.3710  172.7
 4.200  0.7719  118.4   1.077   20.9  0.2778   46.8  0.3773  171.2
 4.300  0.7740  117.2   1.053   19.6  0.2827   46.0  0.3839  169.8
 4.400  0.7765  115.9   1.030   18.3  0.2877   45.2  0.3907  168.4
 4.500  0.7794  114.7   1.007   16.9  0.2928   44.4  0.3977  167.1
 4.600  0.7807  113.7   0.986   16.0  0.2972   43.6  0.4045  166.0
 4.700  0.7823  112.6   0.965   15.0  0.3016   42.9  0.4114  165.0
 4.800  0.7841  111.6   0.944   14.0  0.3061   42.1  0.4184  163.9
 4.900  0.7861  110.6   0.924   12.9  0.3107   41.4  0.4256  163.0
 5.000  0.7884  109.6   0.904   11.8  0.3153   40.7  0.4329  162.0
 5.100  0.7902  108.8   0.891   10.9  0.3200   40.1  0.4410  161.5
 5.200  0.7922  108.0   0.879   10.0  0.3247   39.4  0.4492  161.0
 5.300  0.7943  107.2   0.866    9.1  0.3294   38.8  0.4573  160.5
 5.400  0.7966  106.4   0.854    8.2  0.3342   38.3  0.4656  160.0
 5.500  0.7990  105.6   0.842    7.2  0.3390   37.7  0.4738  159.6
 5.600  0.8005  104.7   0.829    6.6  0.3446   36.9  0.4796  159.4
 5.700  0.8023  103.7   0.817    6.1  0.3503   36.2  0.4854  159.3
 5.800  0.8042  102.8   0.804    5.5  0.3561   35.5  0.4912  159.1
 5.900  0.8064  101.8   0.791    4.8  0.3619   34.8  0.4971  159.0
 6.000  0.8088  100.9   0.779    4.2  0.3677   34.1  0.5029  158.8
!
!  f       NFmin   Gammaopt  rn/50
! GHz       dB    MAG  ANG    -
 0.450      1.47  0.57 -176   0.05
 0.900      1.60  0.58 -169   0.06
 1.900      2.54  0.70 -147   0.19
 2.400      3.34  0.71 -139   0.32
!
! (c) 2017  Infineon Technologies AG, Munich