! Infineon Technologies  Discrete & RF Semiconductors
! BFP196WN
! VCE =  5.0 V,  IC = 0.11 A
! Common Emitter S-Parameters:                            Jan 2017
# GHz  S  MA  R  50
!  f         S11            S21            S12            S22
! GHz     MAG   ANG      MAG   ANG      MAG   ANG      MAG   ANG
 0.010  0.2118 -113.2 100.000  164.4  0.0027   73.1  0.8656  -20.0
 0.020  0.3732 -124.4  88.439  149.6  0.0051   68.7  0.7913  -39.3
 0.030  0.4458 -135.0  77.098  143.2  0.0066   61.2  0.6814  -49.3
 0.040  0.5293 -142.4  67.043  134.7  0.0082   56.5  0.5993  -62.5
 0.050  0.6192 -147.8  58.934  123.6  0.0098   53.4  0.5575  -78.7
 0.060  0.6311 -151.3  53.624  121.6  0.0104   54.3  0.5138  -83.4
 0.070  0.6451 -154.6  48.396  119.1  0.0110   55.1  0.4741  -88.9
 0.080  0.6613 -157.7  43.277  116.1  0.0115   55.8  0.4395  -95.3
 0.090  0.6794 -160.8  38.312  112.3  0.0121   56.4  0.4114 -102.7
 0.100  0.6992 -163.6  33.570  107.3  0.0127   57.0  0.3911 -111.1
 0.110  0.7044 -164.9  31.470  106.3  0.0134   57.5  0.3762 -114.2
 0.120  0.7100 -166.2  29.382  105.1  0.0141   57.9  0.3624 -117.4
 0.130  0.7160 -167.5  27.309  103.7  0.0148   58.3  0.3499 -121.0
 0.140  0.7223 -168.8  25.254  102.1  0.0155   58.7  0.3388 -124.8
 0.150  0.7290 -170.0  23.222  100.2  0.0162   59.0  0.3293 -128.8
 0.200  0.7335 -174.1  17.586   95.9  0.0188   65.4  0.3090 -139.5
 0.250  0.7403 -176.6  14.143   92.8  0.0226   65.4  0.2969 -146.1
 0.300  0.7424 -178.8  11.844   90.6  0.0262   66.7  0.2879 -151.8
 0.350  0.7429  179.5  10.385   89.0  0.0297   68.9  0.2850 -154.8
 0.400  0.7441  177.9   8.937   86.9  0.0333   70.7  0.2829 -157.9
 0.450  0.7441  176.5   8.043   85.6  0.0371   71.1  0.2828 -160.2
 0.500  0.7445  175.1   7.155   84.0  0.0410   71.5  0.2832 -162.4
 0.600  0.7447  173.0   5.975   81.3  0.0488   72.1  0.2823 -165.7
 0.700  0.7461  171.0   5.119   79.1  0.0554   73.2  0.2810 -168.0
 0.800  0.7482  168.8   4.480   76.6  0.0635   73.0  0.2822 -169.2
 0.900  0.7479  167.0   3.980   74.4  0.0707   72.4  0.2854 -170.6
 1.000  0.7496  165.2   3.592   72.4  0.0776   72.4  0.2869 -172.1
 1.100  0.7513  163.5   3.271   70.4  0.0849   72.0  0.2877 -173.1
 1.200  0.7526  161.8   3.004   68.4  0.0922   71.2  0.2891 -173.8
 1.300  0.7531  160.1   2.777   66.6  0.0992   70.7  0.2934 -174.1
 1.400  0.7542  158.4   2.594   64.6  0.1072   70.1  0.2976 -175.4
 1.500  0.7546  156.9   2.420   62.8  0.1146   69.3  0.2985 -176.3
 1.600  0.7588  155.3   2.283   60.9  0.1217   68.6  0.3016 -176.3
 1.700  0.7597  153.6   2.162   59.0  0.1290   68.0  0.3079 -177.0
 1.800  0.7618  152.1   2.055   57.1  0.1357   67.1  0.3120 -177.8
 1.900  0.7615  150.7   1.950   55.5  0.1427   66.4  0.3142 -178.3
 2.000  0.7640  149.1   1.863   53.5  0.1503   65.4  0.3177 -178.3
 2.100  0.7634  147.6   1.785   51.8  0.1569   64.7  0.3229 -178.8
 2.200  0.7634  146.1   1.709   50.0  0.1636   64.0  0.3281 -179.2
 2.300  0.7647  144.6   1.643   48.3  0.1707   63.1  0.3308 -179.4
 2.400  0.7666  143.1   1.579   46.5  0.1779   62.2  0.3335 -179.6
 2.500  0.7668  141.6   1.524   44.9  0.1847   61.3  0.3392  179.9
 2.600  0.7675  140.1   1.470   43.2  0.1916   60.4  0.3450  179.5
 2.700  0.7682  138.6   1.422   41.8  0.1978   59.5  0.3469  179.4
 2.800  0.7693  137.2   1.375   40.2  0.2041   58.7  0.3488  179.3
 2.900  0.7699  135.7   1.336   38.7  0.2106   57.7  0.3544  178.4
 3.000  0.7710  134.3   1.297   37.1  0.2171   56.8  0.3600  177.5
 3.100  0.7720  132.8   1.265   35.8  0.2233   55.8  0.3625  176.8
 3.200  0.7735  131.4   1.234   34.4  0.2295   54.9  0.3651  176.1
 3.300  0.7755  129.9   1.203   32.9  0.2358   54.0  0.3677  175.4
 3.400  0.7780  128.4   1.174   31.3  0.2421   53.2  0.3704  174.8
 3.500  0.7810  127.0   1.145   29.7  0.2485   52.4  0.3731  174.1
 3.600  0.7819  125.5   1.119   28.4  0.2539   51.4  0.3776  173.0
 3.700  0.7834  124.1   1.093   27.0  0.2594   50.4  0.3822  171.9
 3.800  0.7853  122.7   1.069   25.6  0.2649   49.5  0.3869  170.9
 3.900  0.7878  121.2   1.044   24.1  0.2705   48.6  0.3917  169.9
 4.000  0.7907  119.8   1.021   22.5  0.2762   47.8  0.3967  168.9
 4.100  0.7916  118.6   0.999   21.4  0.2810   46.9  0.4026  167.5
 4.200  0.7929  117.3   0.978   20.2  0.2858   46.0  0.4087  166.1
 4.300  0.7946  116.1   0.957   19.0  0.2907   45.2  0.4151  164.7
 4.400  0.7967  114.8   0.937   17.7  0.2957   44.4  0.4217  163.4
 4.500  0.7991  113.6   0.917   16.4  0.3007   43.6  0.4285  162.1
 4.600  0.7998  112.6   0.899   15.5  0.3050   42.8  0.4348  161.1
 4.700  0.8008  111.6   0.881   14.6  0.3093   42.0  0.4412  160.1
 4.800  0.8019  110.7   0.863   13.6  0.3137   41.2  0.4478  159.2
 4.900  0.8034  109.7   0.845   12.6  0.3181   40.4  0.4544  158.3
 5.000  0.8050  108.7   0.828   11.5  0.3226   39.7  0.4612  157.4
 5.100  0.8063  107.9   0.817   10.7  0.3272   39.0  0.4688  156.9
 5.200  0.8077  107.1   0.806    9.8  0.3318   38.4  0.4764  156.5
 5.300  0.8094  106.2   0.795    9.0  0.3365   37.8  0.4841  156.0
 5.400  0.8111  105.4   0.784    8.1  0.3412   37.2  0.4918  155.6
 5.500  0.8131  104.6   0.774    7.2  0.3460   36.6  0.4995  155.2
 5.600  0.8144  103.7   0.763    6.7  0.3515   35.8  0.5045  155.1
 5.700  0.8158  102.7   0.752    6.2  0.3571   35.0  0.5096  155.0
 5.800  0.8175  101.8   0.741    5.6  0.3628   34.3  0.5146  154.8
 5.900  0.8194  100.9   0.730    5.1  0.3685   33.6  0.5197  154.7
 6.000  0.8215  100.0   0.719    4.5  0.3743   32.9  0.5247  154.6
!
!  f       NFmin   Gammaopt  rn/50
! GHz       dB    MAG  ANG    -
!
! noise parameter not available yet for this operation point!
!
! (c) 2017  Infineon Technologies AG, Munich