! Infineon Technologies  Discrete & RF Semiconductors
! BFP196WN
! VCE =  5.0 V,  IC =  70 mA
! Common Emitter S-Parameters:                            Jan 2017
# GHz  S  MA  R  50
!  f         S11            S21            S12            S22
! GHz     MAG   ANG      MAG   ANG      MAG   ANG      MAG   ANG
 0.010  0.2053  -73.1  92.031  166.5  0.0031   82.5  0.9172  -17.4
 0.020  0.3371 -101.6  83.297  153.1  0.0057   70.0  0.8489  -34.3
 0.030  0.3996 -117.2  73.786  146.5  0.0075   60.8  0.7439  -44.0
 0.040  0.4830 -128.0  65.517  138.2  0.0094   55.2  0.6667  -56.4
 0.050  0.5783 -135.4  59.016  127.7  0.0114   51.6  0.6276  -71.2
 0.060  0.5905 -140.1  53.903  125.5  0.0122   52.2  0.5777  -75.8
 0.070  0.6066 -144.6  48.890  122.8  0.0129   52.7  0.5322  -81.2
 0.080  0.6261 -148.9  44.008  119.5  0.0137   53.2  0.4923  -87.6
 0.090  0.6489 -152.8  39.308  115.4  0.0144   53.6  0.4596  -95.0
 0.100  0.6746 -156.5  34.863  110.2  0.0152   54.0  0.4356 -103.4
 0.110  0.6802 -158.3  32.721  109.0  0.0157   53.9  0.4172 -106.5
 0.120  0.6864 -160.1  30.595  107.7  0.0163   53.8  0.4001 -109.9
 0.130  0.6933 -161.8  28.488  106.2  0.0168   53.7  0.3845 -113.5
 0.140  0.7008 -163.5  26.405  104.4  0.0174   53.6  0.3706 -117.5
 0.150  0.7089 -165.2  24.351  102.3  0.0179   53.5  0.3586 -121.7
 0.200  0.7155 -170.4  18.518   97.6  0.0205   58.7  0.3291 -133.4
 0.250  0.7244 -173.7  14.920   94.2  0.0243   60.6  0.3119 -140.9
 0.300  0.7254 -176.4  12.507   91.9  0.0269   63.2  0.3004 -147.2
 0.350  0.7268 -178.4  10.971   90.1  0.0308   64.9  0.2958 -150.8
 0.400  0.7290  179.7   9.449   87.8  0.0347   66.3  0.2923 -154.4
 0.450  0.7290  178.2   8.504   86.5  0.0381   67.4  0.2908 -157.0
 0.500  0.7295  176.8   7.565   84.8  0.0415   68.4  0.2898 -159.6
 0.600  0.7309  174.3   6.322   82.1  0.0492   69.1  0.2893 -163.4
 0.700  0.7330  172.1   5.413   79.8  0.0560   70.4  0.2869 -165.9
 0.800  0.7355  169.9   4.740   77.3  0.0638   70.8  0.2878 -167.7
 0.900  0.7342  168.0   4.210   75.2  0.0710   70.2  0.2896 -169.3
 1.000  0.7360  166.1   3.800   73.1  0.0781   70.1  0.2914 -171.1
 1.100  0.7380  164.2   3.458   71.2  0.0853   69.9  0.2920 -172.1
 1.200  0.7394  162.5   3.172   69.1  0.0922   69.5  0.2931 -173.1
 1.300  0.7374  160.8   2.935   67.4  0.0995   69.1  0.2970 -173.5
 1.400  0.7401  159.0   2.740   65.4  0.1068   68.7  0.3013 -175.0
 1.500  0.7443  157.6   2.560   63.6  0.1138   68.1  0.3023 -175.8
 1.600  0.7452  155.9   2.410   61.7  0.1211   67.4  0.3046 -176.0
 1.700  0.7456  154.1   2.285   59.9  0.1287   67.0  0.3102 -176.7
 1.800  0.7475  152.7   2.171   57.9  0.1356   65.9  0.3147 -177.5
 1.900  0.7468  151.3   2.059   56.4  0.1421   65.2  0.3169 -178.1
 2.000  0.7499  149.6   1.966   54.4  0.1497   64.5  0.3205 -178.3
 2.100  0.7500  148.1   1.883   52.7  0.1564   63.8  0.3253 -178.8
 2.200  0.7506  146.6   1.801   50.9  0.1631   63.1  0.3302 -179.2
 2.300  0.7521  145.0   1.733   49.2  0.1701   62.2  0.3327 -179.5
 2.400  0.7542  143.5   1.666   47.4  0.1771   61.4  0.3352 -179.7
 2.500  0.7541  142.0   1.607   45.9  0.1837   60.4  0.3407  179.8
 2.600  0.7546  140.5   1.549   44.2  0.1904   59.5  0.3463  179.4
 2.700  0.7555  139.1   1.498   42.8  0.1967   58.7  0.3482  179.2
 2.800  0.7568  137.7   1.449   41.2  0.2030   58.0  0.3501  179.0
 2.900  0.7578  136.2   1.406   39.7  0.2095   57.1  0.3553  178.2
 3.000  0.7594  134.7   1.365   38.1  0.2160   56.2  0.3606  177.4
 3.100  0.7603  133.2   1.331   36.8  0.2221   55.3  0.3630  176.7
 3.200  0.7617  131.8   1.298   35.4  0.2283   54.4  0.3654  176.0
 3.300  0.7636  130.4   1.266   33.9  0.2346   53.5  0.3679  175.3
 3.400  0.7660  128.9   1.235   32.3  0.2409   52.8  0.3704  174.6
 3.500  0.7688  127.5   1.205   30.7  0.2472   52.0  0.3730  173.9
 3.600  0.7700  126.0   1.177   29.4  0.2526   51.0  0.3773  172.8
 3.700  0.7718  124.6   1.150   28.0  0.2580   50.0  0.3818  171.7
 3.800  0.7740  123.1   1.124   26.6  0.2636   49.1  0.3863  170.6
 3.900  0.7768  121.6   1.099   25.1  0.2691   48.2  0.3911  169.6
 4.000  0.7800  120.2   1.074   23.5  0.2748   47.4  0.3959  168.6
 4.100  0.7810  119.0   1.051   22.3  0.2795   46.5  0.4017  167.2
 4.200  0.7824  117.7   1.028   21.1  0.2843   45.6  0.4078  165.8
 4.300  0.7842  116.5   1.005   19.9  0.2891   44.8  0.4141  164.5
 4.400  0.7863  115.3   0.983   18.6  0.2940   44.0  0.4206  163.2
 4.500  0.7887  114.1   0.962   17.2  0.2990   43.2  0.4273  161.9
 4.600  0.7897  113.1   0.942   16.3  0.3032   42.4  0.4336  160.9
 4.700  0.7909  112.0   0.923   15.3  0.3075   41.7  0.4399  159.9
 4.800  0.7924  111.0   0.904   14.3  0.3118   40.9  0.4464  159.0
 4.900  0.7942  110.0   0.885   13.3  0.3162   40.2  0.4531  158.1
 5.000  0.7962  109.0   0.867   12.2  0.3206   39.5  0.4598  157.2
 5.100  0.7980  108.2   0.856   11.4  0.3252   38.8  0.4673  156.8
 5.200  0.7999  107.4   0.844   10.6  0.3299   38.2  0.4749  156.3
 5.300  0.8019  106.6   0.833    9.7  0.3346   37.6  0.4825  155.9
 5.400  0.8041  105.9   0.823    8.9  0.3394   37.0  0.4901  155.5
 5.500  0.8065  105.1   0.812    8.0  0.3442   36.4  0.4977  155.1
 5.600  0.8078  104.1   0.800    7.4  0.3497   35.6  0.5026  155.0
 5.700  0.8094  103.2   0.788    6.9  0.3552   34.9  0.5075  154.9
 5.800  0.8112  102.2   0.776    6.3  0.3608   34.2  0.5125  154.7
 5.900  0.8132  101.3   0.765    5.6  0.3665   33.5  0.5174  154.6
 6.000  0.8155  100.3   0.753    5.0  0.3722   32.8  0.5223  154.5
!
!  f       NFmin   Gammaopt  rn/50
! GHz       dB    MAG  ANG    -
 0.450      1.47  0.57 -176   0.05
 0.900      1.60  0.58 -169   0.06
 1.900      2.54  0.70 -147   0.19
 2.400      3.34  0.71 -139   0.32
!
! (c) 2017  Infineon Technologies AG, Munich