! Infineon Technologies  Discrete & RF Semiconductors
! BFP196WN
! VCE =  7.0 V,  IC =  55 mA
! Common Emitter S-Parameters:                            Jan 2017
# GHz  S  MA  R  50
!  f         S11            S21            S12            S22
! GHz     MAG   ANG      MAG   ANG      MAG   ANG      MAG   ANG
 0.010  0.2724  -45.6  84.290  168.0  0.0034   81.8  0.9343  -14.9
 0.020  0.3497  -78.2  77.461  156.0  0.0060   74.4  0.8815  -29.4
 0.030  0.3884  -97.3  69.710  149.4  0.0081   64.6  0.7844  -38.3
 0.040  0.4609 -111.7  63.098  141.3  0.0103   58.9  0.7113  -49.5
 0.050  0.5539 -121.7  58.013  131.6  0.0126   55.2  0.6702  -62.5
 0.060  0.5627 -127.7  53.202  129.2  0.0135   53.9  0.6166  -66.9
 0.070  0.5774 -133.5  48.507  126.2  0.0143   52.8  0.5672  -72.0
 0.080  0.5976 -138.9  43.965  122.7  0.0152   51.8  0.5232  -78.1
 0.090  0.6228 -143.9  39.629  118.4  0.0161   50.9  0.4862  -85.2
 0.100  0.6524 -148.5  35.574  113.0  0.0170   50.1  0.4577  -93.3
 0.110  0.6582 -150.9  33.439  111.7  0.0175   50.1  0.4356  -96.3
 0.120  0.6650 -153.2  31.323  110.2  0.0180   50.1  0.4147  -99.5
 0.130  0.6729 -155.4  29.231  108.6  0.0186   50.0  0.3954 -103.1
 0.140  0.6819 -157.7  27.168  106.6  0.0191   50.0  0.3778 -107.1
 0.150  0.6918 -159.8  25.140  104.4  0.0196   50.0  0.3621 -111.4
 0.200  0.6994 -166.2  19.179   99.2  0.0217   53.9  0.3205 -123.6
 0.250  0.7086 -170.5  15.496   95.6  0.0254   55.5  0.2962 -131.8
 0.300  0.7110 -173.5  12.997   92.9  0.0280   58.6  0.2801 -138.7
 0.350  0.7124 -175.8  11.411   91.1  0.0312   60.8  0.2728 -142.9
 0.400  0.7150 -178.1   9.840   88.7  0.0345   62.5  0.2670 -147.3
 0.450  0.7152 -179.8   8.859   87.3  0.0381   63.6  0.2641 -150.3
 0.500  0.7161  178.5   7.884   85.5  0.0417   64.6  0.2620 -153.3
 0.600  0.7176  175.8   6.588   82.7  0.0487   66.3  0.2594 -157.7
 0.700  0.7186  173.4   5.642   80.3  0.0546   67.8  0.2564 -160.6
 0.800  0.7218  171.0   4.942   77.8  0.0627   69.1  0.2567 -162.5
 0.900  0.7196  168.9   4.387   75.6  0.0691   68.4  0.2589 -164.5
 1.000  0.7235  167.0   3.959   73.5  0.0760   68.8  0.2604 -166.3
 1.100  0.7244  165.1   3.602   71.5  0.0831   68.7  0.2610 -167.6
 1.200  0.7266  163.2   3.305   69.5  0.0903   68.2  0.2622 -168.5
 1.300  0.7247  161.6   3.056   67.7  0.0968   68.2  0.2667 -169.1
 1.400  0.7274  159.7   2.854   65.6  0.1042   67.7  0.2704 -170.6
 1.500  0.7308  158.3   2.664   63.8  0.1111   67.2  0.2720 -171.5
 1.600  0.7338  156.7   2.509   61.9  0.1173   66.9  0.2750 -171.6
 1.700  0.7341  154.8   2.376   60.1  0.1248   66.3  0.2808 -172.3
 1.800  0.7357  153.4   2.256   58.2  0.1316   65.5  0.2849 -173.2
 1.900  0.7354  151.9   2.140   56.5  0.1377   65.0  0.2879 -173.7
 2.000  0.7384  150.3   2.043   54.5  0.1456   64.3  0.2920 -173.8
 2.100  0.7387  148.7   1.956   52.9  0.1520   63.6  0.2972 -174.3
 2.200  0.7395  147.2   1.870   51.1  0.1585   62.9  0.3025 -174.7
 2.300  0.7414  145.7   1.798   49.4  0.1652   62.2  0.3059 -175.0
 2.400  0.7438  144.2   1.728   47.6  0.1720   61.5  0.3094 -175.2
 2.500  0.7438  142.7   1.667   46.0  0.1788   60.6  0.3149 -175.7
 2.600  0.7444  141.2   1.607   44.3  0.1856   59.8  0.3205 -176.1
 2.700  0.7451  139.7   1.553   42.9  0.1917   59.1  0.3231 -176.3
 2.800  0.7463  138.3   1.501   41.3  0.1978   58.4  0.3257 -176.4
 2.900  0.7475  136.8   1.457   39.7  0.2040   57.5  0.3314 -177.2
 3.000  0.7493  135.3   1.414   38.1  0.2103   56.6  0.3372 -178.0
 3.100  0.7506  133.8   1.378   36.8  0.2164   55.7  0.3401 -178.7
 3.200  0.7523  132.4   1.343   35.4  0.2226   54.9  0.3430 -179.4
 3.300  0.7546  130.9   1.309   33.9  0.2289   54.1  0.3460  179.9
 3.400  0.7573  129.4   1.276   32.3  0.2352   53.3  0.3490  179.3
 3.500  0.7605  128.0   1.244   30.7  0.2415   52.6  0.3521  178.6
 3.600  0.7619  126.5   1.215   29.4  0.2470   51.7  0.3567  177.4
 3.700  0.7638  125.1   1.187   28.0  0.2525   50.8  0.3614  176.3
 3.800  0.7661  123.6   1.159   26.5  0.2581   49.9  0.3663  175.2
 3.900  0.7690  122.1   1.132   25.0  0.2637   49.1  0.3713  174.1
 4.000  0.7724  120.7   1.106   23.4  0.2694   48.3  0.3764  173.0
 4.100  0.7737  119.5   1.082   22.2  0.2742   47.4  0.3823  171.5
 4.200  0.7754  118.2   1.058   21.0  0.2791   46.5  0.3885  170.1
 4.300  0.7774  117.0   1.035   19.8  0.2840   45.7  0.3950  168.7
 4.400  0.7798  115.8   1.012   18.5  0.2890   44.9  0.4016  167.3
 4.500  0.7825  114.6   0.990   17.1  0.2941   44.1  0.4085  166.0
 4.600  0.7838  113.6   0.969   16.2  0.2985   43.3  0.4152  164.9
 4.700  0.7854  112.5   0.949   15.2  0.3029   42.6  0.4221  163.9
 4.800  0.7872  111.5   0.929   14.2  0.3073   41.8  0.4290  162.8
 4.900  0.7893  110.5   0.909   13.1  0.3118   41.1  0.4362  161.9
 5.000  0.7916  109.5   0.890   12.0  0.3164   40.4  0.4434  160.9
 5.100  0.7931  108.7   0.878   11.1  0.3211   39.8  0.4515  160.4
 5.200  0.7949  107.9   0.865   10.3  0.3259   39.1  0.4596  159.9
 5.300  0.7967  107.1   0.853    9.4  0.3307   38.5  0.4677  159.5
 5.400  0.7987  106.3   0.842    8.5  0.3355   38.0  0.4759  159.0
 5.500  0.8009  105.5   0.830    7.5  0.3404   37.4  0.4841  158.6
 5.600  0.8026  104.6   0.817    7.0  0.3459   36.6  0.4897  158.4
 5.700  0.8045  103.6   0.805    6.4  0.3515   35.8  0.4952  158.2
 5.800  0.8066  102.7   0.793    5.8  0.3571   35.1  0.5008  158.0
 5.900  0.8089  101.8   0.780    5.2  0.3628   34.4  0.5063  157.9
 6.000  0.8114  100.9   0.768    4.6  0.3685   33.7  0.5119  157.7
!
!  f       NFmin   Gammaopt  rn/50
! GHz       dB    MAG  ANG    -
 0.450      1.34  0.54 -177   0.05
 0.900      1.44  0.57 -170   0.06
 1.900      2.36  0.69 -147   0.17
 2.400      3.11  0.70 -140   0.29
!
! (c) 2017  Infineon Technologies AG, Munich