! Infineon Technologies  Discrete & RF Semiconductors
! BFP196WN
! VCE =  7.0 V,  IC =  75 mA
! Common Emitter S-Parameters:                            Jan 2017
# GHz  S  MA  R  50
!  f         S11            S21            S12            S22
! GHz     MAG   ANG      MAG   ANG      MAG   ANG      MAG   ANG
 0.010  0.2206  -62.9  93.008  166.7  0.0032   75.0  0.9133  -16.5
 0.020  0.3364  -94.0  84.250  153.7  0.0057   75.6  0.8494  -32.5
 0.030  0.3910 -111.2  74.940  147.1  0.0075   65.5  0.7471  -41.9
 0.040  0.4712 -123.3  66.878  138.9  0.0095   59.5  0.6704  -53.7
 0.050  0.5662 -131.7  60.566  128.6  0.0115   55.5  0.6288  -67.9
 0.060  0.5771 -136.8  55.362  126.3  0.0121   54.2  0.5778  -72.3
 0.070  0.5924 -141.7  50.265  123.6  0.0128   53.0  0.5309  -77.6
 0.080  0.6117 -146.3  45.308  120.2  0.0134   52.0  0.4892  -83.8
 0.090  0.6348 -150.6  40.546  116.0  0.0141   51.0  0.4543  -91.0
 0.100  0.6612 -154.6  36.054  110.8  0.0147   50.1  0.4278  -99.3
 0.110  0.6670 -156.5  33.850  109.6  0.0154   50.8  0.4083 -102.3
 0.120  0.6735 -158.4  31.664  108.2  0.0161   51.5  0.3900 -105.6
 0.130  0.6807 -160.2  29.498  106.6  0.0167   52.1  0.3732 -109.2
 0.140  0.6885 -162.0  27.359  104.8  0.0174   52.7  0.3579 -113.1
 0.150  0.6971 -163.8  25.251  102.7  0.0181   53.2  0.3444 -117.3
 0.200  0.7044 -169.2  19.204   97.9  0.0203   57.2  0.3113 -129.3
 0.250  0.7107 -172.8  15.492   94.6  0.0238   58.8  0.2915 -136.9
 0.300  0.7147 -175.6  12.973   92.1  0.0267   62.4  0.2783 -143.5
 0.350  0.7157 -177.6  11.386   90.4  0.0303   64.3  0.2725 -147.3
 0.400  0.7175 -179.5   9.812   88.1  0.0339   65.8  0.2680 -151.2
 0.450  0.7184  178.8   8.834   86.7  0.0374   67.2  0.2666 -153.9
 0.500  0.7198  177.2   7.863   85.0  0.0409   68.3  0.2658 -156.7
 0.600  0.7196  174.8   6.567   82.3  0.0481   68.7  0.2639 -160.8
 0.700  0.7217  172.5   5.624   80.0  0.0547   69.8  0.2616 -163.3
 0.800  0.7242  170.2   4.925   77.5  0.0628   70.6  0.2624 -165.1
 0.900  0.7255  168.1   4.374   75.3  0.0699   70.5  0.2644 -166.9
 1.000  0.7269  166.3   3.945   73.3  0.0764   70.1  0.2662 -168.6
 1.100  0.7276  164.5   3.590   71.3  0.0835   70.1  0.2669 -169.7
 1.200  0.7291  162.8   3.296   69.3  0.0906   69.7  0.2679 -170.6
 1.300  0.7285  161.1   3.047   67.5  0.0974   69.3  0.2724 -171.1
 1.400  0.7301  159.3   2.845   65.5  0.1050   68.7  0.2760 -172.5
 1.500  0.7335  157.8   2.655   63.7  0.1122   68.4  0.2777 -173.3
 1.600  0.7356  156.3   2.504   61.8  0.1189   67.5  0.2805 -173.5
 1.700  0.7371  154.5   2.368   60.0  0.1261   67.0  0.2864 -174.1
 1.800  0.7377  153.0   2.250   58.1  0.1329   66.2  0.2904 -174.9
 1.900  0.7391  151.5   2.133   56.5  0.1397   65.5  0.2929 -175.5
 2.000  0.7405  149.9   2.038   54.5  0.1472   64.8  0.2970 -175.6
 2.100  0.7408  148.4   1.951   52.9  0.1536   64.1  0.3020 -176.1
 2.200  0.7417  146.9   1.866   51.1  0.1601   63.5  0.3071 -176.6
 2.300  0.7438  145.4   1.795   49.4  0.1670   62.6  0.3101 -176.7
 2.400  0.7464  143.9   1.725   47.6  0.1739   61.8  0.3131 -176.8
 2.500  0.7457  142.4   1.663   46.0  0.1806   60.9  0.3186 -177.3
 2.600  0.7456  140.8   1.603   44.3  0.1874   60.1  0.3242 -177.8
 2.700  0.7468  139.4   1.550   42.9  0.1936   59.3  0.3265 -177.9
 2.800  0.7484  138.1   1.499   41.3  0.1999   58.6  0.3288 -178.0
 2.900  0.7495  136.6   1.454   39.8  0.2062   57.7  0.3343 -178.9
 3.000  0.7512  135.1   1.411   38.2  0.2126   56.8  0.3398 -179.7
 3.100  0.7525  133.6   1.376   36.8  0.2187   55.9  0.3425  179.6
 3.200  0.7542  132.2   1.341   35.4  0.2249   55.0  0.3453  178.9
 3.300  0.7564  130.7   1.307   33.9  0.2311   54.1  0.3481  178.3
 3.400  0.7592  129.2   1.275   32.4  0.2374   53.4  0.3509  177.6
 3.500  0.7624  127.8   1.243   30.7  0.2437   52.6  0.3538  177.0
 3.600  0.7637  126.3   1.214   29.4  0.2491   51.6  0.3583  175.9
 3.700  0.7655  124.9   1.186   28.0  0.2545   50.7  0.3629  174.8
 3.800  0.7678  123.5   1.158   26.5  0.2600   49.8  0.3676  173.7
 3.900  0.7706  122.0   1.132   25.0  0.2656   48.9  0.3725  172.6
 4.000  0.7738  120.6   1.106   23.4  0.2712   48.1  0.3775  171.6
 4.100  0.7751  119.3   1.082   22.2  0.2760   47.2  0.3835  170.1
 4.200  0.7767  118.1   1.058   21.0  0.2809   46.4  0.3897  168.7
 4.300  0.7788  116.9   1.035   19.8  0.2858   45.6  0.3961  167.3
 4.400  0.7812  115.6   1.012   18.5  0.2908   44.8  0.4028  166.0
 4.500  0.7839  114.4   0.990   17.1  0.2959   44.0  0.4097  164.7
 4.600  0.7850  113.4   0.969   16.2  0.3002   43.2  0.4162  163.6
 4.700  0.7864  112.4   0.949   15.2  0.3045   42.5  0.4229  162.6
 4.800  0.7880  111.4   0.929   14.2  0.3089   41.7  0.4297  161.6
 4.900  0.7898  110.4   0.909   13.1  0.3134   41.0  0.4366  160.6
 5.000  0.7919  109.4   0.890   12.0  0.3179   40.3  0.4437  159.7
 5.100  0.7937  108.6   0.878   11.1  0.3225   39.6  0.4516  159.2
 5.200  0.7956  107.7   0.866   10.3  0.3272   39.0  0.4595  158.8
 5.300  0.7977  106.9   0.855    9.4  0.3319   38.4  0.4674  158.3
 5.400  0.7999  106.1   0.843    8.4  0.3366   37.8  0.4753  157.9
 5.500  0.8023  105.3   0.832    7.5  0.3414   37.2  0.4833  157.5
 5.600  0.8037  104.4   0.819    7.0  0.3469   36.4  0.4887  157.4
 5.700  0.8054  103.5   0.807    6.4  0.3524   35.7  0.4942  157.2
 5.800  0.8072  102.6   0.795    5.8  0.3580   35.0  0.4996  157.1
 5.900  0.8093  101.7   0.782    5.2  0.3637   34.3  0.5051  156.9
 6.000  0.8115  100.8   0.770    4.6  0.3694   33.6  0.5105  156.8
!
!  f       NFmin   Gammaopt  rn/50
! GHz       dB    MAG  ANG    -
 0.450      1.53  0.57 -176   0.05
 0.900      1.66  0.59 -169   0.06
 1.900      2.60  0.70 -147   0.20
 2.400      3.41  0.71 -138   0.33
!
! (c) 2017  Infineon Technologies AG, Munich