! Infineon Technologies  Discrete & RF Semiconductors
! BFP196WN
! VCE =  12. V,  IC =  50 mA
! Common Emitter S-Parameters:                            Jan 2017
# GHz  S  MA  R  50
!  f         S11            S21            S12            S22
! GHz     MAG   ANG      MAG   ANG      MAG   ANG      MAG   ANG
 0.010  0.3546  -31.7  77.048  169.2  0.0035   65.0  0.8888  -12.7
 0.020  0.3934  -60.1  71.249  158.4  0.0067   63.6  0.8472  -25.4
 0.030  0.4081  -79.4  65.147  151.9  0.0089   57.1  0.7663  -33.8
 0.040  0.4635  -95.7  60.041  144.2  0.0113   53.2  0.7055  -43.9
 0.050  0.5475 -107.8  56.202  135.3  0.0136   50.7  0.6703  -55.5
 0.060  0.5503 -114.9  51.785  132.7  0.0146   50.1  0.6182  -59.7
 0.070  0.5613 -121.8  47.499  129.5  0.0156   49.6  0.5700  -64.6
 0.080  0.5801 -128.3  43.381  125.8  0.0166   49.1  0.5267  -70.4
 0.090  0.6059 -134.4  39.484  121.3  0.0176   48.7  0.4897  -77.1
 0.100  0.6379 -139.9  35.881  115.9  0.0186   48.3  0.4605  -84.8
 0.110  0.6426 -142.8  33.779  114.5  0.0192   47.9  0.4368  -87.6
 0.120  0.6488 -145.6  31.700  112.9  0.0197   47.4  0.4142  -90.7
 0.130  0.6566 -148.4  29.648  111.1  0.0203   47.0  0.3931  -94.2
 0.140  0.6660 -151.1  27.631  109.0  0.0208   46.7  0.3735  -98.0
 0.150  0.6767 -153.7  25.656  106.6  0.0214   46.3  0.3558 -102.3
 0.200  0.6842 -161.4  19.688  100.9  0.0236   50.7  0.3072 -114.6
 0.250  0.6950 -166.7  15.952   97.0  0.0265   51.9  0.2770 -123.2
 0.300  0.6977 -170.4  13.394   94.1  0.0286   54.4  0.2568 -130.3
 0.350  0.6988 -173.1  11.763   92.2  0.0318   57.0  0.2470 -134.8
 0.400  0.7014 -175.8  10.149   89.6  0.0350   59.1  0.2388 -139.6
 0.450  0.7021 -177.7   9.142   88.1  0.0381   60.5  0.2348 -142.9
 0.500  0.7035 -179.5   8.142   86.3  0.0413   61.6  0.2316 -146.4
 0.600  0.7045  177.5   6.807   83.4  0.0484   64.0  0.2276 -151.4
 0.700  0.7057  174.7   5.829   80.9  0.0535   65.4  0.2235 -154.5
 0.800  0.7097  172.2   5.109   78.2  0.0613   66.5  0.2240 -156.6
 0.900  0.7088  170.0   4.535   76.0  0.0677   66.6  0.2259 -158.8
 1.000  0.7126  168.0   4.095   73.8  0.0742   67.1  0.2263 -160.9
 1.100  0.7126  166.1   3.722   71.8  0.0807   67.4  0.2276 -162.0
 1.200  0.7142  164.2   3.415   69.7  0.0874   67.0  0.2285 -163.1
 1.300  0.7125  162.4   3.157   67.9  0.0941   66.8  0.2333 -163.6
 1.400  0.7171  160.7   2.947   65.8  0.1012   66.5  0.2369 -165.2
 1.500  0.7201  159.1   2.751   63.9  0.1077   66.3  0.2392 -166.0
 1.600  0.7220  157.4   2.592   62.1  0.1143   66.2  0.2426 -166.2
 1.700  0.7230  155.6   2.452   60.2  0.1211   65.5  0.2487 -167.0
 1.800  0.7245  154.1   2.329   58.3  0.1280   65.1  0.2531 -167.8
 1.900  0.7256  152.6   2.208   56.6  0.1340   64.6  0.2564 -168.3
 2.000  0.7283  150.9   2.108   54.6  0.1412   63.8  0.2608 -168.5
 2.100  0.7280  149.3   2.017   52.9  0.1474   63.3  0.2665 -169.0
 2.200  0.7283  147.8   1.928   51.1  0.1537   62.9  0.2723 -169.4
 2.300  0.7304  146.3   1.854   49.4  0.1604   62.2  0.2762 -169.5
 2.400  0.7330  144.8   1.781   47.6  0.1672   61.6  0.2801 -169.6
 2.500  0.7330  143.2   1.717   46.0  0.1737   60.8  0.2862 -170.1
 2.600  0.7335  141.7   1.654   44.3  0.1803   60.0  0.2924 -170.6
 2.700  0.7352  140.3   1.599   42.8  0.1863   59.3  0.2956 -170.7
 2.800  0.7373  138.9   1.545   41.2  0.1923   58.7  0.2989 -170.7
 2.900  0.7383  137.4   1.499   39.6  0.1986   57.8  0.3048 -171.6
 3.000  0.7398  135.9   1.454   38.0  0.2049   57.0  0.3108 -172.5
 3.100  0.7414  134.4   1.417   36.7  0.2110   56.2  0.3142 -173.2
 3.200  0.7436  133.0   1.380   35.2  0.2171   55.4  0.3176 -173.9
 3.300  0.7462  131.5   1.344   33.7  0.2232   54.7  0.3211 -174.6
 3.400  0.7493  130.0   1.310   32.2  0.2294   54.0  0.3246 -175.2
 3.500  0.7529  128.6   1.276   30.5  0.2356   53.3  0.3282 -175.9
 3.600  0.7542  127.1   1.246   29.2  0.2411   52.4  0.3330 -177.1
 3.700  0.7560  125.7   1.216   27.7  0.2466   51.5  0.3380 -178.3
 3.800  0.7583  124.2   1.188   26.3  0.2522   50.7  0.3431 -179.5
 3.900  0.7610  122.7   1.160   24.7  0.2579   49.9  0.3484  179.4
 4.000  0.7643  121.3   1.133   23.1  0.2636   49.1  0.3538  178.3
 4.100  0.7659  120.0   1.108   21.9  0.2685   48.2  0.3599  176.7
 4.200  0.7678  118.8   1.083   20.7  0.2736   47.4  0.3663  175.2
 4.300  0.7701  117.6   1.058   19.4  0.2786   46.6  0.3730  173.7
 4.400  0.7728  116.3   1.034   18.0  0.2837   45.8  0.3799  172.3
 4.500  0.7758  115.1   1.011   16.6  0.2889   45.1  0.3870  170.9
 4.600  0.7772  114.1   0.990   15.7  0.2933   44.3  0.3941  169.7
 4.700  0.7789  113.0   0.969   14.7  0.2978   43.6  0.4014  168.6
 4.800  0.7809  112.0   0.948   13.7  0.3023   42.8  0.4089  167.5
 4.900  0.7831  111.0   0.927   12.6  0.3069   42.1  0.4165  166.4
 5.000  0.7855  110.0   0.907   11.5  0.3115   41.4  0.4242  165.4
 5.100  0.7875  109.2   0.894   10.7  0.3163   40.8  0.4328  164.8
 5.200  0.7896  108.4   0.881    9.8  0.3212   40.1  0.4414  164.3
 5.300  0.7919  107.6   0.868    8.9  0.3262   39.5  0.4501  163.7
 5.400  0.7944  106.8   0.855    8.0  0.3311   39.0  0.4588  163.2
 5.500  0.7970  106.0   0.843    7.0  0.3361   38.4  0.4675  162.7
 5.600  0.7990  105.0   0.830    6.4  0.3418   37.7  0.4739  162.5
 5.700  0.8012  104.1   0.816    5.8  0.3475   36.9  0.4803  162.3
 5.800  0.8037  103.1   0.803    5.2  0.3532   36.2  0.4867  162.1
 5.900  0.8064  102.1   0.790    4.6  0.3590   35.6  0.4932  161.9
 6.000  0.8093  101.2   0.777    3.9  0.3649   34.9  0.4996  161.7
!
!  f       NFmin   Gammaopt  rn/50
! GHz       dB    MAG  ANG    -
 0.450      1.27  0.53 -177   0.05
 0.900      1.39  0.56 -171   0.05
 1.900      2.33  0.69 -148   0.16
 2.400      3.05  0.70 -140   0.28
!
! (c) 2017  Infineon Technologies AG, Munich