! Infineon Technologies  Discrete & RF Semiconductors
! BFP196WN
! VCE =  1.0 V,  IC = 0.10 A
! Common Emitter S-Parameters:                            Jan 2017
# GHz  S  MA  R  50
!  f         S11            S21            S12            S22
! GHz     MAG   ANG      MAG   ANG      MAG   ANG      MAG   ANG
 0.010  0.4543 -140.4  70.481  152.2  0.0052   63.5  0.5673  -51.8
 0.020  0.6496 -149.5  52.956  132.9  0.0077   50.7  0.5334  -88.7
 0.030  0.7026 -155.7  43.827  128.1  0.0088   46.6  0.4843 -103.3
 0.040  0.7625 -160.9  35.162  120.9  0.0099   43.3  0.4718 -119.8
 0.050  0.8279 -165.4  27.403  109.3  0.0111   40.8  0.4986 -135.8
 0.060  0.8332 -167.2  24.742  108.0  0.0117   43.2  0.4910 -139.9
 0.070  0.8392 -168.9  22.097  106.5  0.0124   45.3  0.4860 -144.0
 0.080  0.8461 -170.6  19.471  104.5  0.0130   47.3  0.4835 -148.2
 0.090  0.8537 -172.3  16.877  101.9  0.0137   49.0  0.4837 -152.5
 0.100  0.8620 -174.0  14.329   98.4  0.0144   50.6  0.4866 -156.7
 0.110  0.8642 -174.7  13.394   97.7  0.0150   51.8  0.4852 -158.4
 0.120  0.8664 -175.4  12.461   96.9  0.0157   52.9  0.4843 -160.0
 0.130  0.8688 -176.1  11.531   95.9  0.0163   54.0  0.4838 -161.7
 0.140  0.8714 -176.7  10.605   94.8  0.0170   54.9  0.4837 -163.4
 0.150  0.8740 -177.4   9.683   93.5  0.0176   55.8  0.4840 -165.1
 0.200  0.8742 -179.8   7.277   90.5  0.0214   60.9  0.4884 -169.0
 0.250  0.8754  178.5   5.830   88.0  0.0258   63.6  0.4866 -171.5
 0.300  0.8749  177.1   4.870   86.2  0.0300   67.1  0.4860 -173.8
 0.350  0.8749  175.7   4.269   84.7  0.0340   68.4  0.4865 -175.0
 0.400  0.8753  174.4   3.672   82.6  0.0380   69.4  0.4871 -176.1
 0.450  0.8743  173.3   3.305   81.3  0.0424   70.2  0.4884 -177.1
 0.500  0.8737  172.2   2.940   79.7  0.0469   70.9  0.4898 -178.1
 0.600  0.8737  170.2   2.463   76.9  0.0560   70.8  0.4917 -179.7
 0.700  0.8725  168.4   2.117   74.6  0.0643   71.6  0.4896  178.9
 0.800  0.8728  166.4   1.860   71.8  0.0730   71.8  0.4902  178.0
 0.900  0.8725  164.4   1.661   69.5  0.0817   71.0  0.4929  177.0
 1.000  0.8731  162.8   1.507   67.3  0.0900   70.3  0.4939  175.9
 1.100  0.8719  161.0   1.378   65.1  0.0991   69.8  0.4944  174.9
 1.200  0.8718  159.4   1.275   62.9  0.1066   69.2  0.4949  174.2
 1.300  0.8711  157.7   1.186   61.1  0.1150   68.4  0.4979  173.8
 1.400  0.8719  156.0   1.116   58.9  0.1236   67.9  0.5014  172.7
 1.500  0.8732  154.5   1.049   56.9  0.1316   66.8  0.5021  171.8
 1.600  0.8749  152.9   0.995   55.0  0.1401   66.2  0.5035  171.4
 1.700  0.8751  151.1   0.953   53.1  0.1482   65.3  0.5089  170.6
 1.800  0.8755  149.5   0.913   50.9  0.1560   64.3  0.5123  169.9
 1.900  0.8733  148.0   0.872   49.5  0.1636   63.5  0.5128  169.2
 2.000  0.8750  146.3   0.840   47.4  0.1719   62.3  0.5156  168.7
 2.100  0.8732  144.7   0.812   45.8  0.1796   61.4  0.5194  168.1
 2.200  0.8721  143.1   0.784   44.1  0.1873   60.6  0.5233  167.5
 2.300  0.8724  141.5   0.761   42.5  0.1950   59.6  0.5241  166.9
 2.400  0.8734  140.0   0.738   40.9  0.2028   58.6  0.5250  166.4
 2.500  0.8716  138.5   0.718   39.4  0.2102   57.5  0.5293  165.7
 2.600  0.8704  136.9   0.699   37.9  0.2176   56.5  0.5336  165.1
 2.700  0.8687  135.5   0.682   36.6  0.2245   55.5  0.5332  164.7
 2.800  0.8676  134.0   0.665   35.3  0.2314   54.6  0.5329  164.2
 2.900  0.8671  132.5   0.651   34.0  0.2381   53.5  0.5373  163.3
 3.000  0.8672  130.9   0.638   32.6  0.2449   52.5  0.5419  162.4
 3.100  0.8664  129.4   0.628   31.5  0.2512   51.4  0.5425  161.6
 3.200  0.8661  127.9   0.618   30.4  0.2577   50.3  0.5433  160.7
 3.300  0.8664  126.4   0.608   29.2  0.2642   49.4  0.5442  159.9
 3.400  0.8674  124.9   0.598   28.0  0.2707   48.4  0.5452  159.0
 3.500  0.8689  123.4   0.589   26.7  0.2774   47.5  0.5463  158.2
 3.600  0.8678  121.9   0.580   25.7  0.2828   46.4  0.5489  157.2
 3.700  0.8673  120.4   0.572   24.6  0.2882   45.4  0.5518  156.1
 3.800  0.8673  119.0   0.563   23.6  0.2938   44.4  0.5548  155.1
 3.900  0.8680  117.5   0.555   22.4  0.2994   43.4  0.5580  154.1
 4.000  0.8692  116.0   0.547   21.3  0.3051   42.5  0.5613  153.1
 4.100  0.8673  114.8   0.540   20.5  0.3097   41.5  0.5658  151.9
 4.200  0.8659  113.5   0.533   19.7  0.3143   40.6  0.5706  150.7
 4.300  0.8648  112.3   0.527   18.9  0.3191   39.7  0.5757  149.5
 4.400  0.8641  111.0   0.520   18.1  0.3239   38.8  0.5810  148.3
 4.500  0.8639  109.8   0.514   17.2  0.3288   38.0  0.5865  147.2
 4.600  0.8628  108.8   0.508   16.7  0.3326   37.2  0.5909  146.3
 4.700  0.8619  107.8   0.503   16.1  0.3365   36.4  0.5955  145.5
 4.800  0.8613  106.9   0.497   15.6  0.3405   35.6  0.6002  144.6
 4.900  0.8610  105.9   0.492   15.0  0.3445   34.8  0.6050  143.8
 5.000  0.8609  104.9   0.486   14.4  0.3486   34.1  0.6099  143.0
 5.100  0.8608  104.1   0.485   13.9  0.3529   33.4  0.6151  142.6
 5.200  0.8608  103.3   0.484   13.3  0.3572   32.8  0.6202  142.3
 5.300  0.8610  102.6   0.483   12.8  0.3615   32.1  0.6254  141.9
 5.400  0.8613  101.8   0.482   12.2  0.3660   31.5  0.6307  141.5
 5.500  0.8618  101.0   0.481   11.7  0.3704   30.9  0.6359  141.2
 5.600  0.8620  100.1   0.479   11.6  0.3756   30.1  0.6380  141.0
 5.700  0.8623   99.2   0.476   11.5  0.3809   29.4  0.6401  140.8
 5.800  0.8629   98.4   0.474   11.3  0.3863   28.6  0.6422  140.7
 5.900  0.8637   97.5   0.471   11.2  0.3917   27.9  0.6443  140.5
 6.000  0.8647   96.6   0.469   11.1  0.3972   27.2  0.6464  140.3
!
!  f       NFmin   Gammaopt  rn/50
! GHz       dB    MAG  ANG    -
 0.450      1.80  0.60 -174   0.06
 0.900      1.96  0.61 -167   0.08
 1.900      2.98  0.71 -146   0.26
 2.400      3.72  0.72 -137   0.44
!
! (c) 2017  Infineon Technologies AG, Munich