! Infineon Technologies  Discrete & RF Semiconductors
! BFP196WN
! VCE =  7.0 V,  IC =  70 mA
! Common Emitter S-Parameters:                            Jan 2017
# GHz  S  MA  R  50
!  f         S11            S21            S12            S22
! GHz     MAG   ANG      MAG   ANG      MAG   ANG      MAG   ANG
 0.010  0.2300  -58.3  91.277  167.0  0.0031   81.6  0.9196  -16.2
 0.020  0.3356  -90.8  82.972  154.2  0.0059   72.4  0.8571  -31.9
 0.030  0.3884 -108.4  73.977  147.6  0.0077   63.2  0.7557  -41.2
 0.040  0.4681 -120.9  66.213  139.4  0.0097   57.6  0.6797  -52.9
 0.050  0.5633 -129.5  60.161  129.2  0.0117   53.9  0.6382  -66.8
 0.060  0.5739 -134.8  55.024  126.9  0.0124   53.3  0.5866  -71.2
 0.070  0.5892 -139.8  49.994  124.1  0.0132   52.8  0.5391  -76.4
 0.080  0.6088 -144.6  45.106  120.7  0.0139   52.4  0.4969  -82.6
 0.090  0.6324 -149.0  40.415  116.6  0.0147   52.0  0.4615  -89.8
 0.100  0.6594 -153.1  35.994  111.3  0.0154   51.6  0.4344  -98.0
 0.110  0.6651 -155.2  33.804  110.1  0.0160   51.8  0.4145 -101.0
 0.120  0.6717 -157.2  31.632  108.7  0.0165   52.0  0.3958 -104.3
 0.130  0.6791 -159.2  29.480  107.1  0.0171   52.2  0.3786 -107.9
 0.140  0.6873 -161.1  27.356  105.3  0.0176   52.3  0.3630 -111.8
 0.150  0.6962 -163.0  25.264  103.1  0.0182   52.5  0.3493 -116.1
 0.200  0.7014 -168.8  19.238   98.2  0.0207   56.5  0.3137 -128.2
 0.250  0.7113 -172.3  15.529   94.8  0.0241   58.5  0.2935 -136.0
 0.300  0.7145 -175.2  13.008   92.3  0.0272   61.5  0.2791 -142.6
 0.350  0.7151 -177.3  11.415   90.5  0.0304   63.7  0.2732 -146.4
 0.400  0.7166 -179.4   9.836   88.2  0.0337   65.5  0.2686 -150.4
 0.450  0.7173  179.1   8.855   86.9  0.0372   66.7  0.2669 -153.2
 0.500  0.7185  177.6   7.880   85.2  0.0408   67.7  0.2659 -156.1
 0.600  0.7189  174.8   6.582   82.4  0.0482   68.4  0.2639 -160.2
 0.700  0.7204  172.7   5.634   80.1  0.0547   69.5  0.2613 -162.9
 0.800  0.7233  170.4   4.936   77.6  0.0629   70.2  0.2619 -164.7
 0.900  0.7231  168.2   4.383   75.4  0.0696   69.9  0.2644 -166.4
 1.000  0.7255  166.6   3.954   73.4  0.0762   70.0  0.2655 -168.3
 1.100  0.7270  164.7   3.601   71.4  0.0835   70.0  0.2666 -169.4
 1.200  0.7283  162.8   3.303   69.3  0.0906   69.5  0.2676 -170.3
 1.300  0.7279  161.2   3.056   67.6  0.0975   69.2  0.2715 -170.7
 1.400  0.7294  159.5   2.852   65.6  0.1051   68.6  0.2759 -172.2
 1.500  0.7329  158.0   2.661   63.7  0.1118   68.1  0.2769 -173.2
 1.600  0.7350  156.4   2.508   61.9  0.1188   67.5  0.2796 -173.2
 1.700  0.7362  154.6   2.377   60.1  0.1258   66.8  0.2860 -173.9
 1.800  0.7368  153.0   2.256   58.2  0.1329   66.0  0.2902 -174.7
 1.900  0.7383  151.7   2.139   56.6  0.1393   65.5  0.2924 -175.3
 2.000  0.7412  149.9   2.044   54.6  0.1466   64.7  0.2963 -175.3
 2.100  0.7407  148.4   1.956   52.9  0.1534   64.0  0.3016 -175.8
 2.200  0.7408  146.9   1.870   51.1  0.1602   63.4  0.3069 -176.3
 2.300  0.7425  145.4   1.799   49.4  0.1669   62.6  0.3099 -176.5
 2.400  0.7448  143.9   1.729   47.6  0.1737   61.8  0.3129 -176.6
 2.500  0.7449  142.4   1.668   46.1  0.1804   60.9  0.3186 -177.1
 2.600  0.7455  140.9   1.608   44.4  0.1871   60.0  0.3243 -177.6
 2.700  0.7463  139.5   1.554   42.9  0.1933   59.2  0.3264 -177.7
 2.800  0.7476  138.1   1.502   41.3  0.1995   58.5  0.3286 -177.8
 2.900  0.7486  136.6   1.457   39.8  0.2056   57.5  0.3341 -178.7
 3.000  0.7502  135.1   1.414   38.2  0.2117   56.6  0.3396 -179.5
 3.100  0.7516  133.6   1.378   36.9  0.2179   55.7  0.3424  179.8
 3.200  0.7534  132.2   1.344   35.5  0.2242   54.9  0.3452  179.1
 3.300  0.7558  130.8   1.310   34.0  0.2305   54.1  0.3481  178.4
 3.400  0.7586  129.3   1.277   32.4  0.2369   53.3  0.3510  177.8
 3.500  0.7619  127.9   1.245   30.8  0.2433   52.6  0.3540  177.1
 3.600  0.7632  126.4   1.216   29.5  0.2487   51.6  0.3585  176.0
 3.700  0.7651  125.0   1.188   28.0  0.2542   50.7  0.3631  174.9
 3.800  0.7674  123.5   1.160   26.6  0.2597   49.8  0.3678  173.8
 3.900  0.7703  122.0   1.134   25.0  0.2653   48.9  0.3727  172.7
 4.000  0.7736  120.6   1.108   23.4  0.2710   48.1  0.3777  171.7
 4.100  0.7750  119.4   1.084   22.2  0.2758   47.2  0.3838  170.2
 4.200  0.7767  118.1   1.060   21.0  0.2806   46.4  0.3901  168.8
 4.300  0.7788  116.9   1.037   19.8  0.2855   45.6  0.3966  167.4
 4.400  0.7812  115.7   1.015   18.5  0.2904   44.8  0.4034  166.1
 4.500  0.7840  114.5   0.993   17.1  0.2954   44.0  0.4104  164.8
 4.600  0.7849  113.5   0.972   16.2  0.2997   43.2  0.4170  163.7
 4.700  0.7861  112.4   0.952   15.2  0.3042   42.4  0.4236  162.7
 4.800  0.7875  111.4   0.932   14.2  0.3086   41.7  0.4305  161.7
 4.900  0.7891  110.4   0.912   13.2  0.3131   40.9  0.4374  160.7
 5.000  0.7910  109.4   0.892   12.1  0.3177   40.2  0.4445  159.8
 5.100  0.7928  108.6   0.880   11.2  0.3224   39.6  0.4524  159.3
 5.200  0.7947  107.8   0.868   10.4  0.3271   38.9  0.4603  158.9
 5.300  0.7968  107.0   0.856    9.5  0.3319   38.3  0.4683  158.4
 5.400  0.7991  106.2   0.844    8.5  0.3367   37.8  0.4763  158.0
 5.500  0.8015  105.4   0.833    7.6  0.3415   37.2  0.4843  157.6
 5.600  0.8029  104.5   0.820    7.0  0.3470   36.4  0.4897  157.5
 5.700  0.8046  103.5   0.808    6.5  0.3526   35.7  0.4951  157.3
 5.800  0.8064  102.6   0.796    5.9  0.3583   35.0  0.5005  157.2
 5.900  0.8084  101.7   0.783    5.2  0.3640   34.3  0.5059  157.0
 6.000  0.8107  100.8   0.771    4.6  0.3697   33.6  0.5113  156.9
!
!  f       NFmin   Gammaopt  rn/50
! GHz       dB    MAG  ANG    -
 0.450      1.47  0.57 -176   0.05
 0.900      1.60  0.58 -169   0.06
 1.900      2.54  0.70 -147   0.19
 2.400      3.34  0.71 -139   0.32
!
! (c) 2017  Infineon Technologies AG, Munich