! Infineon Technologies  Discrete & RF Semiconductors
! BFP196WN
! VCE =  4.0 V,  IC = 0.13 A
! Common Emitter S-Parameters:                            Jan 2017
# GHz  S  MA  R  50
!  f         S11            S21            S12            S22
! GHz     MAG   ANG      MAG   ANG      MAG   ANG      MAG   ANG
 0.010  0.2721 -132.8  97.613  162.5  0.0027   75.0  0.8034  -23.0
 0.020  0.4368 -137.1  84.084  146.6  0.0053   72.6  0.7206  -44.7
 0.030  0.5085 -144.8  72.376  140.4  0.0064   62.4  0.6136  -55.2
 0.040  0.5870 -150.5  61.833  131.9  0.0077   55.5  0.5351  -69.4
 0.050  0.6700 -154.8  53.150  120.4  0.0091   50.6  0.4987  -87.0
 0.060  0.6805 -157.6  48.246  118.6  0.0097   52.1  0.4620  -91.8
 0.070  0.6927 -160.3  43.403  116.3  0.0103   53.4  0.4292  -97.5
 0.080  0.7063 -162.9  38.644  113.5  0.0109   54.5  0.4011 -103.9
 0.090  0.7213 -165.4  34.004  109.9  0.0116   55.6  0.3789 -111.3
 0.100  0.7376 -167.8  29.539  105.2  0.0122   56.5  0.3636 -119.4
 0.110  0.7421 -168.8  27.668  104.2  0.0128   57.8  0.3523 -122.4
 0.120  0.7469 -169.9  25.806  103.1  0.0134   59.0  0.3421 -125.6
 0.130  0.7519 -170.9  23.955  101.8  0.0140   60.1  0.3330 -128.9
 0.140  0.7571 -171.9  22.118  100.4  0.0146   61.1  0.3251 -132.5
 0.150  0.7626 -172.9  20.299   98.6  0.0152   62.0  0.3185 -136.2
 0.200  0.7639 -176.4  15.335   94.6  0.0180   65.2  0.3059 -145.9
 0.250  0.7715 -178.5  12.337   91.8  0.0225   67.3  0.2968 -151.5
 0.300  0.7712  179.6  10.315   89.6  0.0257   68.5  0.2908 -156.4
 0.350  0.7715  178.0   9.040   88.0  0.0296   70.6  0.2892 -158.9
 0.400  0.7723  176.5   7.775   85.9  0.0335   72.2  0.2881 -161.5
 0.450  0.7730  175.3   6.997   84.7  0.0371   72.6  0.2887 -163.4
 0.500  0.7741  174.2   6.224   83.1  0.0408   73.0  0.2896 -165.2
 0.600  0.7731  172.0   5.201   80.4  0.0487   73.4  0.2904 -167.9
 0.700  0.7758  170.2   4.452   78.2  0.0557   74.5  0.2888 -169.7
 0.800  0.7769  168.0   3.901   75.7  0.0638   74.1  0.2909 -170.8
 0.900  0.7763  166.2   3.465   73.5  0.0711   73.0  0.2946 -171.9
 1.000  0.7767  164.6   3.129   71.4  0.0785   73.1  0.2967 -173.3
 1.100  0.7788  162.8   2.848   69.4  0.0863   72.3  0.2978 -174.1
 1.200  0.7800  161.1   2.616   67.3  0.0932   71.9  0.2991 -174.6
 1.300  0.7791  159.5   2.421   65.5  0.1005   71.3  0.3039 -174.9
 1.400  0.7808  157.7   2.265   63.4  0.1081   70.4  0.3084 -176.1
 1.500  0.7825  156.4   2.115   61.5  0.1155   69.7  0.3105 -176.9
 1.600  0.7853  154.8   1.996   59.7  0.1226   69.1  0.3128 -176.9
 1.700  0.7867  153.0   1.893   57.8  0.1299   68.2  0.3199 -177.6
 1.800  0.7878  151.5   1.800   55.8  0.1377   67.5  0.3243 -178.2
 1.900  0.7878  150.0   1.709   54.1  0.1440   66.7  0.3263 -178.7
 2.000  0.7888  148.4   1.633   52.1  0.1519   65.8  0.3307 -178.7
 2.100  0.7884  146.9   1.565   50.4  0.1589   65.1  0.3363 -179.2
 2.200  0.7885  145.4   1.499   48.6  0.1659   64.4  0.3420 -179.6
 2.300  0.7903  143.9   1.444   46.9  0.1731   63.4  0.3449 -179.8
 2.400  0.7927  142.4   1.390   45.1  0.1803   62.5  0.3478 -180.0
 2.500  0.7915  140.9   1.342   43.5  0.1871   61.5  0.3539  179.5
 2.600  0.7908  139.3   1.296   41.8  0.1939   60.6  0.3601  179.0
 2.700  0.7917  137.9   1.255   40.3  0.2004   59.7  0.3621  178.9
 2.800  0.7930  136.6   1.214   38.8  0.2070   58.9  0.3641  178.8
 2.900  0.7934  135.0   1.180   37.2  0.2135   58.0  0.3700  177.8
 3.000  0.7943  133.5   1.147   35.6  0.2201   57.1  0.3761  176.9
 3.100  0.7951  132.0   1.119   34.3  0.2263   56.1  0.3788  176.2
 3.200  0.7964  130.6   1.093   32.9  0.2326   55.1  0.3815  175.5
 3.300  0.7982  129.2   1.066   31.4  0.2390   54.2  0.3843  174.8
 3.400  0.8006  127.7   1.041   29.9  0.2454   53.3  0.3872  174.2
 3.500  0.8034  126.3   1.016   28.3  0.2519   52.5  0.3901  173.5
 3.600  0.8039  124.8   0.993   27.0  0.2574   51.5  0.3948  172.4
 3.700  0.8050  123.3   0.972   25.7  0.2629   50.5  0.3996  171.3
 3.800  0.8066  121.8   0.950   24.3  0.2685   49.6  0.4045  170.2
 3.900  0.8087  120.4   0.929   22.8  0.2742   48.7  0.4096  169.2
 4.000  0.8114  118.9   0.909   21.3  0.2799   47.8  0.4148  168.2
 4.100  0.8116  117.7   0.890   20.2  0.2848   46.9  0.4209  166.8
 4.200  0.8123  116.4   0.872   19.1  0.2897   46.0  0.4272  165.4
 4.300  0.8133  115.2   0.854   17.9  0.2947   45.1  0.4338  164.0
 4.400  0.8146  113.9   0.836   16.7  0.2998   44.3  0.4406  162.7
 4.500  0.8164  112.7   0.819   15.4  0.3049   43.5  0.4477  161.4
 4.600  0.8167  111.7   0.803   14.6  0.3092   42.7  0.4539  160.4
 4.700  0.8173  110.7   0.787   13.7  0.3136   41.8  0.4603  159.4
 4.800  0.8181  109.8   0.772   12.8  0.3180   41.0  0.4668  158.4
 4.900  0.8192  108.8   0.756   11.8  0.3225   40.3  0.4734  157.5
 5.000  0.8205  107.8   0.741   10.8  0.3270   39.5  0.4801  156.6
 5.100  0.8216  107.0   0.732   10.1  0.3317   38.8  0.4878  156.1
 5.200  0.8228  106.2   0.723    9.3  0.3364   38.2  0.4955  155.7
 5.300  0.8242  105.4   0.715    8.5  0.3411   37.6  0.5032  155.2
 5.400  0.8258  104.6   0.706    7.7  0.3459   37.0  0.5110  154.8
 5.500  0.8275  103.8   0.698    6.9  0.3507   36.4  0.5188  154.4
 5.600  0.8287  102.9   0.689    6.5  0.3562   35.6  0.5237  154.2
 5.700  0.8301  101.9   0.679    6.0  0.3619   34.8  0.5286  154.1
 5.800  0.8317  101.0   0.670    5.6  0.3675   34.0  0.5335  153.9
 5.900  0.8336  100.0   0.660    5.1  0.3733   33.3  0.5385  153.8
 6.000  0.8357   99.1   0.651    4.6  0.3791   32.6  0.5434  153.6
!
!  f       NFmin   Gammaopt  rn/50
! GHz       dB    MAG  ANG    -
!
! noise parameter not available yet for this operation point!
!
! (c) 2017  Infineon Technologies AG, Munich