! Infineon Technologies  Discrete & RF Semiconductors
! BFP196WN
! VCE =  11. V,  IC =  50 mA
! Common Emitter S-Parameters:                            Jan 2017
# GHz  S  MA  R  50
!  f         S11            S21            S12            S22
! GHz     MAG   ANG      MAG   ANG      MAG   ANG      MAG   ANG
 0.010  0.3484  -32.8  78.380  169.0  0.0032   75.4  0.9145  -13.0
 0.020  0.3909  -62.5  72.826  158.0  0.0066   69.7  0.8701  -26.0
 0.030  0.4078  -81.6  66.325  151.5  0.0088   61.7  0.7849  -34.4
 0.040  0.4642  -97.6  60.843  143.8  0.0112   57.0  0.7203  -44.6
 0.050  0.5479 -109.4  56.678  134.7  0.0136   54.0  0.6823  -56.3
 0.060  0.5511 -116.4  52.176  132.1  0.0145   52.5  0.6288  -60.5
 0.070  0.5623 -123.2  47.801  129.0  0.0154   51.2  0.5793  -65.4
 0.080  0.5811 -129.6  43.591  125.3  0.0163   50.1  0.5347  -71.1
 0.090  0.6067 -135.6  39.599  120.9  0.0173   49.0  0.4966  -77.9
 0.100  0.6383 -141.0  35.897  115.5  0.0182   48.1  0.4663  -85.6
 0.110  0.6434 -143.8  33.789  114.1  0.0187   48.0  0.4423  -88.4
 0.120  0.6501 -146.6  31.703  112.5  0.0193   47.8  0.4195  -91.6
 0.130  0.6583 -149.3  29.646  110.7  0.0198   47.7  0.3980  -95.1
 0.140  0.6679 -151.9  27.622  108.6  0.0204   47.6  0.3783  -98.9
 0.150  0.6789 -154.5  25.641  106.2  0.0209   47.5  0.3604 -103.2
 0.200  0.6852 -162.2  19.655  100.6  0.0231   50.0  0.3109 -115.6
 0.250  0.6955 -167.0  15.913   96.8  0.0261   52.6  0.2819 -124.0
 0.300  0.6993 -170.8  13.363   93.9  0.0289   54.3  0.2613 -131.1
 0.350  0.7002 -173.5  11.736   92.0  0.0318   57.3  0.2516 -135.6
 0.400  0.7025 -176.1  10.127   89.4  0.0348   59.8  0.2435 -140.4
 0.450  0.7034 -178.0   9.120   88.0  0.0379   61.0  0.2395 -143.7
 0.500  0.7051 -179.8   8.121   86.2  0.0411   62.1  0.2363 -147.0
 0.600  0.7057  177.2   6.788   83.3  0.0479   64.5  0.2318 -151.9
 0.700  0.7073  174.6   5.815   80.8  0.0538   65.8  0.2282 -155.2
 0.800  0.7100  172.0   5.095   78.2  0.0614   67.1  0.2285 -157.3
 0.900  0.7105  169.9   4.522   75.9  0.0678   66.5  0.2303 -159.3
 1.000  0.7115  167.9   4.085   73.8  0.0742   67.2  0.2317 -161.4
 1.100  0.7150  165.9   3.712   71.8  0.0813   67.6  0.2323 -162.7
 1.200  0.7159  164.0   3.407   69.7  0.0877   67.1  0.2336 -163.8
 1.300  0.7144  162.3   3.150   67.9  0.0943   67.2  0.2380 -164.3
 1.400  0.7163  160.4   2.941   65.8  0.1012   66.7  0.2413 -165.9
 1.500  0.7205  159.0   2.743   63.9  0.1082   66.5  0.2435 -166.8
 1.600  0.7222  157.4   2.583   62.1  0.1145   66.3  0.2465 -166.9
 1.700  0.7244  155.4   2.447   60.2  0.1218   65.8  0.2528 -167.7
 1.800  0.7255  153.9   2.324   58.3  0.1279   65.3  0.2576 -168.5
 1.900  0.7261  152.5   2.203   56.6  0.1342   64.8  0.2606 -169.0
 2.000  0.7297  150.9   2.103   54.6  0.1415   63.9  0.2653 -169.1
 2.100  0.7298  149.3   2.012   52.9  0.1478   63.5  0.2709 -169.6
 2.200  0.7304  147.8   1.923   51.1  0.1541   63.1  0.2766 -170.1
 2.300  0.7321  146.2   1.849   49.4  0.1609   62.4  0.2805 -170.2
 2.400  0.7343  144.7   1.777   47.6  0.1678   61.7  0.2844 -170.3
 2.500  0.7339  143.2   1.712   46.0  0.1742   60.8  0.2904 -170.8
 2.600  0.7340  141.7   1.649   44.3  0.1806   59.9  0.2965 -171.2
 2.700  0.7356  140.3   1.594   42.8  0.1867   59.3  0.2995 -171.3
 2.800  0.7376  138.9   1.541   41.2  0.1929   58.8  0.3026 -171.4
 2.900  0.7388  137.3   1.495   39.6  0.1992   57.9  0.3085 -172.3
 3.000  0.7406  135.8   1.451   38.0  0.2056   57.0  0.3144 -173.2
 3.100  0.7421  134.3   1.414   36.7  0.2117   56.2  0.3178 -173.9
 3.200  0.7441  132.9   1.378   35.3  0.2178   55.4  0.3213 -174.6
 3.300  0.7466  131.4   1.342   33.8  0.2240   54.6  0.3248 -175.3
 3.400  0.7496  129.9   1.308   32.2  0.2302   53.9  0.3283 -175.9
 3.500  0.7530  128.5   1.274   30.6  0.2365   53.2  0.3319 -176.6
 3.600  0.7547  127.0   1.244   29.3  0.2419   52.3  0.3366 -177.8
 3.700  0.7569  125.6   1.214   27.9  0.2475   51.4  0.3414 -179.0
 3.800  0.7596  124.1   1.186   26.4  0.2530   50.6  0.3464  179.8
 3.900  0.7628  122.7   1.158   24.9  0.2586   49.8  0.3515  178.7
 4.000  0.7664  121.3   1.131   23.3  0.2643   49.0  0.3568  177.6
 4.100  0.7678  120.0   1.106   22.1  0.2693   48.1  0.3631  176.0
 4.200  0.7695  118.8   1.081   20.8  0.2743   47.3  0.3696  174.5
 4.300  0.7716  117.5   1.056   19.5  0.2794   46.5  0.3764  173.1
 4.400  0.7741  116.2   1.032   18.1  0.2845   45.7  0.3834  171.7
 4.500  0.7769  115.0   1.009   16.7  0.2897   45.0  0.3906  170.3
 4.600  0.7783  114.0   0.988   15.8  0.2941   44.2  0.3976  169.1
 4.700  0.7800  112.9   0.967   14.8  0.2985   43.5  0.4048  168.0
 4.800  0.7819  111.9   0.946   13.8  0.3031   42.7  0.4122  166.9
 4.900  0.7840  110.9   0.926   12.7  0.3076   42.0  0.4197  165.8
 5.000  0.7864  109.9   0.906   11.6  0.3122   41.3  0.4273  164.8
 5.100  0.7883  109.1   0.893   10.8  0.3171   40.7  0.4359  164.2
 5.200  0.7904  108.3   0.880    9.9  0.3220   40.1  0.4445  163.7
 5.300  0.7926  107.5   0.867    9.0  0.3269   39.5  0.4531  163.1
 5.400  0.7950  106.7   0.854    8.1  0.3319   38.9  0.4618  162.6
 5.500  0.7975  105.9   0.842    7.1  0.3369   38.4  0.4705  162.1
 5.600  0.7992  105.0   0.829    6.6  0.3425   37.6  0.4767  161.9
 5.700  0.8011  104.0   0.816    6.0  0.3482   36.8  0.4830  161.7
 5.800  0.8032  103.1   0.803    5.4  0.3539   36.1  0.4892  161.5
 5.900  0.8055  102.1   0.790    4.8  0.3597   35.4  0.4955  161.4
 6.000  0.8081  101.2   0.777    4.2  0.3656   34.7  0.5017  161.2
!
!  f       NFmin   Gammaopt  rn/50
! GHz       dB    MAG  ANG    -
 0.450      1.27  0.53 -177   0.05
 0.900      1.39  0.56 -171   0.05
 1.900      2.33  0.69 -148   0.16
 2.400      3.05  0.70 -140   0.28
!
! (c) 2017  Infineon Technologies AG, Munich