! Infineon Technologies  Discrete & RF Semiconductors
! BFP196WN
! VCE =  4.0 V,  IC =  10 mA
! Common Emitter S-Parameters:                            Jan 2017
# GHz  S  MA  R  50
!  f         S11            S21            S12            S22
! GHz     MAG   ANG      MAG   ANG      MAG   ANG      MAG   ANG
 0.010  0.7158  -11.4  30.427  175.0  0.0051   82.5  0.9853   -6.1
 0.020  0.6969  -24.9  29.245  168.2  0.0102   79.2  0.9692  -12.6
 0.030  0.6821  -35.4  28.315  163.1  0.0150   71.7  0.9324  -17.9
 0.040  0.6910  -46.1  27.625  157.6  0.0199   67.8  0.9044  -23.7
 0.050  0.7226  -56.1  27.195  152.0  0.0248   65.5  0.8859  -29.7
 0.060  0.6975  -63.4  25.807  148.8  0.0273   61.0  0.8410  -33.1
 0.070  0.6846  -71.2  24.508  145.2  0.0300   57.2  0.7994  -36.9
 0.080  0.6846  -79.1  23.315  141.3  0.0328   54.1  0.7617  -41.1
 0.090  0.6975  -86.9  22.243  137.0  0.0357   51.5  0.7284  -45.7
 0.100  0.7225  -94.2  21.311  132.2  0.0386   49.3  0.7003  -50.7
 0.110  0.7154  -99.0  20.346  130.2  0.0400   47.3  0.6688  -52.9
 0.120  0.7133 -103.8  19.409  127.9  0.0415   45.4  0.6384  -55.4
 0.130  0.7164 -108.7  18.504  125.5  0.0430   43.6  0.6093  -58.0
 0.140  0.7245 -113.5  17.637  122.8  0.0446   41.9  0.5816  -61.0
 0.150  0.7375 -118.1  16.813  119.8  0.0462   40.4  0.5556  -64.2
 0.200  0.7398 -132.6  13.505  111.3  0.0495   35.8  0.4572  -73.7
 0.250  0.7459 -142.9  11.237  105.4  0.0522   33.3  0.3913  -80.2
 0.300  0.7460 -150.3   9.573  100.9  0.0537   32.3  0.3409  -85.7
 0.350  0.7440 -155.3   8.450   97.9  0.0552   32.2  0.3113  -89.3
 0.400  0.7477 -160.3   7.357   94.1  0.0567   32.2  0.2831  -93.6
 0.450  0.7463 -163.7   6.644   91.9  0.0580   33.1  0.2659  -96.7
 0.500  0.7476 -167.1   5.943   89.2  0.0594   33.9  0.2496 -100.2
 0.600  0.7493 -172.1   4.982   85.1  0.0622   35.5  0.2286 -105.2
 0.700  0.7510 -176.2   4.277   81.6  0.0639   38.0  0.2160 -108.6
 0.800  0.7534 -179.9   3.756   78.2  0.0680   40.7  0.2112 -111.8
 0.900  0.7534  177.1   3.338   75.2  0.0712   42.0  0.2093 -115.0
 1.000  0.7536  174.5   3.015   72.4  0.0745   44.4  0.2084 -117.6
 1.100  0.7554  171.9   2.743   69.9  0.0785   46.4  0.2098 -119.8
 1.200  0.7587  169.4   2.518   67.2  0.0823   47.8  0.2128 -121.6
 1.300  0.7597  167.4   2.327   64.9  0.0864   49.5  0.2189 -123.4
 1.400  0.7621  165.2   2.172   62.4  0.0910   50.9  0.2238 -125.9
 1.500  0.7650  163.4   2.028   60.1  0.0953   52.0  0.2288 -127.6
 1.600  0.7674  161.5   1.910   57.9  0.1007   53.3  0.2371 -128.7
 1.700  0.7697  159.4   1.806   55.6  0.1051   54.6  0.2457 -130.8
 1.800  0.7711  157.8   1.716   53.4  0.1103   55.2  0.2536 -132.7
 1.900  0.7735  156.0   1.625   51.5  0.1155   56.1  0.2614 -134.2
 2.000  0.7761  154.1   1.551   49.2  0.1217   56.5  0.2711 -135.3
 2.100  0.7772  152.4   1.483   47.3  0.1274   57.0  0.2804 -136.9
 2.200  0.7789  150.7   1.417   45.2  0.1331   57.4  0.2899 -138.4
 2.300  0.7817  149.0   1.362   43.3  0.1391   57.7  0.2993 -139.5
 2.400  0.7851  147.3   1.308   41.3  0.1451   58.0  0.3088 -140.5
 2.500  0.7855  145.6   1.259   39.5  0.1515   57.9  0.3191 -142.0
 2.600  0.7866  144.0   1.212   37.6  0.1580   57.9  0.3297 -143.5
 2.700  0.7888  142.4   1.170   36.0  0.1640   57.9  0.3380 -144.4
 2.800  0.7916  140.9   1.129   34.3  0.1699   57.9  0.3464 -145.3
 2.900  0.7927  139.2   1.094   32.7  0.1767   57.5  0.3553 -147.0
 3.000  0.7945  137.6   1.060   30.9  0.1835   57.2  0.3645 -148.6
 3.100  0.7960  136.0   1.032   29.6  0.1905   56.7  0.3714 -150.1
 3.200  0.7981  134.4   1.004   28.2  0.1974   56.3  0.3786 -151.5
 3.300  0.8008  132.8   0.976   26.8  0.2044   55.9  0.3859 -152.8
 3.400  0.8041  131.2   0.950   25.2  0.2114   55.5  0.3935 -154.1
 3.500  0.8081  129.6   0.924   23.6  0.2184   55.2  0.4013 -155.4
 3.600  0.8092  128.0   0.901   22.4  0.2250   54.4  0.4080 -157.3
 3.700  0.8109  126.4   0.879   21.0  0.2317   53.7  0.4151 -159.2
 3.800  0.8133  124.8   0.856   19.7  0.2383   53.0  0.4227 -161.0
 3.900  0.8162  123.3   0.835   18.2  0.2451   52.4  0.4307 -162.7
 4.000  0.8198  121.7   0.814   16.7  0.2518   51.8  0.4390 -164.4
 4.100  0.8203  120.3   0.795   15.7  0.2580   50.9  0.4460 -166.6
 4.200  0.8212  119.0   0.777   14.7  0.2642   50.1  0.4536 -168.7
 4.300  0.8226  117.6   0.759   13.6  0.2705   49.4  0.4618 -170.8
 4.400  0.8244  116.2   0.741   12.5  0.2768   48.6  0.4706 -172.8
 4.500  0.8267  114.9   0.723   11.3  0.2832   47.9  0.4800 -174.7
 4.600  0.8272  113.8   0.707   10.6  0.2888   47.1  0.4882 -176.5
 4.700  0.8280  112.7   0.691    9.9  0.2945   46.3  0.4968 -178.2
 4.800  0.8291  111.6   0.675    9.1  0.3003   45.5  0.5058 -179.9
 4.900  0.8305  110.5   0.660    8.3  0.3061   44.8  0.5153  178.5
 5.000  0.8322  109.4   0.644    7.5  0.3119   44.1  0.5252  176.9
 5.100  0.8336  108.5   0.635    7.0  0.3177   43.4  0.5350  175.6
 5.200  0.8352  107.7   0.627    6.5  0.3236   42.7  0.5450  174.4
 5.300  0.8370  106.8   0.618    5.9  0.3295   42.0  0.5552  173.2
 5.400  0.8390  106.0   0.609    5.4  0.3354   41.3  0.5657  172.1
 5.500  0.8412  105.1   0.601    4.8  0.3414   40.7  0.5764  171.0
 5.600  0.8420  104.1   0.592    4.6  0.3479   39.8  0.5837  170.2
 5.700  0.8431  103.1   0.583    4.5  0.3544   39.0  0.5912  169.5
 5.800  0.8444  102.1   0.574    4.3  0.3610   38.1  0.5987  168.7
 5.900  0.8460  101.1   0.565    4.1  0.3677   37.4  0.6064  168.0
 6.000  0.8478  100.1   0.556    3.9  0.3745   36.6  0.6141  167.3
!
!  f       NFmin   Gammaopt  rn/50
! GHz       dB    MAG  ANG    -
 0.450      0.92  0.37  146   0.05
 0.900      1.09  0.52  167   0.05
 1.900      2.29  0.71  206   0.13
 2.400      3.04  0.72  213   0.24
!
! (c) 2017  Infineon Technologies AG, Munich