! Infineon Technologies  Discrete & RF Semiconductors
! BFP196WN
! VCE =  5.0 V,  IC =  55 mA
! Common Emitter S-Parameters:                            Jan 2017
# GHz  S  MA  R  50
!  f         S11            S21            S12            S22
! GHz     MAG   ANG      MAG   ANG      MAG   ANG      MAG   ANG
 0.010  0.2376  -55.2  84.885  167.6  0.0033   78.7  0.9325  -16.0
 0.020  0.3392  -87.4  77.540  155.0  0.0061   71.9  0.8703  -31.4
 0.030  0.3897 -105.6  69.399  148.4  0.0081   62.5  0.7705  -40.8
 0.040  0.4693 -118.7  62.409  140.2  0.0101   56.9  0.6972  -52.7
 0.050  0.5658 -127.6  56.996  130.2  0.0123   53.2  0.6594  -66.5
 0.060  0.5763 -133.1  52.189  127.8  0.0130   52.2  0.6068  -71.0
 0.070  0.5920 -138.3  47.489  125.0  0.0138   51.3  0.5586  -76.4
 0.080  0.6123 -143.3  42.933  121.5  0.0145   50.5  0.5162  -82.6
 0.090  0.6369 -147.9  38.572  117.2  0.0153   49.8  0.4810  -89.9
 0.100  0.6652 -152.1  34.478  111.9  0.0160   49.1  0.4547  -98.2
 0.110  0.6710 -154.2  32.388  110.7  0.0167   49.2  0.4344 -101.3
 0.120  0.6777 -156.3  30.315  109.3  0.0173   49.3  0.4154 -104.7
 0.130  0.6852 -158.3  28.263  107.6  0.0180   49.4  0.3980 -108.4
 0.140  0.6936 -160.3  26.237  105.8  0.0186   49.4  0.3825 -112.4
 0.150  0.7028 -162.2  24.244  103.6  0.0193   49.5  0.3689 -116.7
 0.200  0.7102 -168.0  18.473   98.6  0.0212   55.3  0.3331 -128.9
 0.250  0.7193 -171.8  14.916   95.0  0.0254   56.2  0.3121 -136.7
 0.300  0.7220 -174.8  12.496   92.5  0.0284   59.9  0.2986 -143.4
 0.350  0.7236 -177.0  10.967   90.7  0.0318   61.9  0.2926 -147.3
 0.400  0.7262 -179.1   9.453   88.3  0.0352   63.5  0.2879 -151.3
 0.450  0.7264  179.3   8.510   86.9  0.0386   64.6  0.2856 -154.1
 0.500  0.7272  177.7   7.574   85.2  0.0420   65.5  0.2840 -156.9
 0.600  0.7284  175.1   6.329   82.4  0.0495   66.7  0.2826 -161.0
 0.700  0.7297  172.7   5.422   80.1  0.0552   68.7  0.2801 -163.7
 0.800  0.7326  170.4   4.748   77.5  0.0635   68.8  0.2805 -165.7
 0.900  0.7320  168.3   4.212   75.3  0.0704   68.7  0.2827 -167.5
 1.000  0.7343  166.4   3.804   73.2  0.0777   69.0  0.2841 -169.2
 1.100  0.7350  164.7   3.463   71.3  0.0849   68.8  0.2852 -170.5
 1.200  0.7364  162.8   3.177   69.2  0.0915   68.4  0.2860 -171.3
 1.300  0.7374  161.2   2.938   67.5  0.0985   68.2  0.2901 -171.9
 1.400  0.7386  159.5   2.744   65.4  0.1064   67.7  0.2938 -173.3
 1.500  0.7410  157.9   2.562   63.6  0.1130   67.2  0.2953 -174.1
 1.600  0.7438  156.2   2.413   61.7  0.1198   66.6  0.2980 -174.5
 1.700  0.7448  154.5   2.287   59.9  0.1273   66.2  0.3039 -175.1
 1.800  0.7453  153.0   2.172   57.9  0.1340   65.5  0.3076 -175.9
 1.900  0.7468  151.5   2.059   56.3  0.1403   65.0  0.3101 -176.5
 2.000  0.7491  149.8   1.968   54.3  0.1482   64.0  0.3144 -176.7
 2.100  0.7486  148.3   1.884   52.7  0.1548   63.4  0.3192 -177.2
 2.200  0.7486  146.7   1.801   50.9  0.1615   62.8  0.3241 -177.6
 2.300  0.7504  145.2   1.733   49.2  0.1684   62.0  0.3270 -177.9
 2.400  0.7526  143.8   1.666   47.4  0.1753   61.2  0.3299 -178.1
 2.500  0.7527  142.3   1.607   45.9  0.1821   60.3  0.3353 -178.6
 2.600  0.7534  140.8   1.549   44.2  0.1890   59.5  0.3408 -179.0
 2.700  0.7544  139.3   1.498   42.7  0.1951   58.7  0.3430 -179.2
 2.800  0.7559  137.9   1.449   41.1  0.2013   58.0  0.3452 -179.4
 2.900  0.7565  136.4   1.406   39.6  0.2076   57.1  0.3505  179.8
 3.000  0.7576  134.9   1.365   38.0  0.2140   56.2  0.3559  179.0
 3.100  0.7588  133.4   1.331   36.7  0.2202   55.3  0.3586  178.3
 3.200  0.7606  132.0   1.298   35.3  0.2264   54.4  0.3613  177.6
 3.300  0.7628  130.5   1.265   33.8  0.2326   53.6  0.3640  176.9
 3.400  0.7655  129.0   1.234   32.3  0.2390   52.8  0.3668  176.3
 3.500  0.7687  127.6   1.203   30.7  0.2453   52.1  0.3697  175.6
 3.600  0.7698  126.1   1.175   29.4  0.2507   51.1  0.3740  174.5
 3.700  0.7714  124.7   1.148   28.0  0.2561   50.2  0.3785  173.4
 3.800  0.7734  123.3   1.122   26.5  0.2617   49.3  0.3831  172.3
 3.900  0.7760  121.8   1.096   25.0  0.2673   48.4  0.3878  171.2
 4.000  0.7790  120.4   1.071   23.4  0.2729   47.6  0.3927  170.2
 4.100  0.7800  119.2   1.048   22.2  0.2777   46.7  0.3986  168.8
 4.200  0.7813  117.9   1.025   21.0  0.2825   45.9  0.4047  167.4
 4.300  0.7830  116.7   1.003   19.8  0.2874   45.1  0.4110  166.1
 4.400  0.7851  115.4   0.981   18.5  0.2923   44.3  0.4175  164.8
 4.500  0.7875  114.2   0.960   17.1  0.2973   43.5  0.4243  163.5
 4.600  0.7887  113.2   0.941   16.2  0.3016   42.7  0.4308  162.5
 4.700  0.7901  112.2   0.922   15.3  0.3060   42.0  0.4374  161.4
 4.800  0.7918  111.2   0.903   14.3  0.3105   41.2  0.4442  160.5
 4.900  0.7937  110.2   0.884   13.3  0.3150   40.5  0.4511  159.5
 5.000  0.7959  109.2   0.866   12.2  0.3195   39.8  0.4581  158.6
 5.100  0.7975  108.4   0.854   11.4  0.3242   39.1  0.4658  158.1
 5.200  0.7993  107.6   0.842   10.6  0.3290   38.5  0.4735  157.7
 5.300  0.8013  106.8   0.831    9.7  0.3338   37.9  0.4812  157.2
 5.400  0.8033  106.0   0.819    8.8  0.3386   37.3  0.4890  156.8
 5.500  0.8056  105.2   0.808    7.9  0.3435   36.7  0.4968  156.4
 5.600  0.8070  104.3   0.796    7.4  0.3490   35.9  0.5020  156.3
 5.700  0.8085  103.3   0.785    6.8  0.3546   35.2  0.5072  156.1
 5.800  0.8103  102.4   0.774    6.3  0.3602   34.5  0.5123  156.0
 5.900  0.8124  101.4   0.762    5.7  0.3659   33.8  0.5175  155.8
 6.000  0.8146  100.5   0.751    5.1  0.3716   33.1  0.5227  155.7
!
!  f       NFmin   Gammaopt  rn/50
! GHz       dB    MAG  ANG    -
 0.450      1.34  0.54 -177   0.05
 0.900      1.44  0.57 -170   0.06
 1.900      2.36  0.69 -147   0.17
 2.400      3.11  0.70 -140   0.29
!
! (c) 2017  Infineon Technologies AG, Munich