! Infineon Technologies  Discrete & RF Semiconductors
! BFP196WN
! VCE =  3.0 V,  IC =  45 mA
! Common Emitter S-Parameters:                            Jan 2017
# GHz  S  MA  R  50
!  f         S11            S21            S12            S22
! GHz     MAG   ANG      MAG   ANG      MAG   ANG      MAG   ANG
 0.010  0.2574  -52.9  78.390  167.7  0.0034   82.1  0.9385  -16.4
 0.020  0.3553  -84.8  71.361  155.1  0.0067   72.4  0.8813  -32.5
 0.030  0.4027 -103.5  63.943  148.5  0.0091   62.3  0.7794  -42.1
 0.040  0.4825 -117.2  57.599  140.2  0.0117   56.5  0.7055  -54.2
 0.050  0.5816 -126.6  52.718  130.2  0.0143   52.8  0.6690  -68.3
 0.060  0.5916 -132.2  48.269  127.8  0.0150   51.3  0.6167  -73.1
 0.070  0.6071 -137.5  43.919  125.0  0.0157   49.9  0.5693  -78.6
 0.080  0.6275 -142.6  39.702  121.5  0.0164   48.6  0.5284  -85.2
 0.090  0.6525 -147.3  35.665  117.2  0.0172   47.5  0.4953  -92.7
 0.100  0.6815 -151.6  31.876  111.9  0.0179   46.4  0.4719 -101.1
 0.110  0.6874 -153.7  29.941  110.6  0.0186   46.6  0.4519 -104.3
 0.120  0.6942 -155.9  28.022  109.2  0.0194   46.8  0.4335 -107.7
 0.130  0.7019 -157.9  26.123  107.6  0.0201   47.0  0.4168 -111.5
 0.140  0.7105 -159.9  24.248  105.7  0.0209   47.1  0.4020 -115.6
 0.150  0.7200 -161.9  22.404  103.5  0.0216   47.3  0.3894 -119.9
 0.200  0.7288 -167.9  17.072   98.4  0.0230   51.5  0.3566 -132.0
 0.250  0.7356 -171.7  13.783   94.9  0.0267   54.0  0.3377 -139.8
 0.300  0.7388 -174.7  11.563   92.3  0.0298   56.7  0.3246 -146.1
 0.350  0.7400 -177.0  10.142   90.5  0.0332   59.2  0.3191 -149.9
 0.400  0.7423 -179.2   8.735   88.1  0.0366   61.3  0.3150 -153.8
 0.450  0.7428  179.2   7.864   86.7  0.0400   62.6  0.3135 -156.5
 0.500  0.7439  177.7   7.000   84.9  0.0434   63.7  0.3126 -159.2
 0.600  0.7461  174.9   5.851   82.1  0.0506   64.9  0.3110 -163.0
 0.700  0.7461  172.7   5.009   79.7  0.0577   66.9  0.3083 -165.7
 0.800  0.7481  170.4   4.388   77.2  0.0652   67.5  0.3094 -167.6
 0.900  0.7477  168.3   3.897   74.9  0.0720   67.3  0.3108 -169.4
 1.000  0.7502  166.4   3.520   72.8  0.0791   67.9  0.3127 -171.1
 1.100  0.7516  164.5   3.202   70.8  0.0869   67.7  0.3140 -172.3
 1.200  0.7525  162.7   2.937   68.7  0.0935   67.1  0.3145 -173.3
 1.300  0.7524  161.0   2.722   66.9  0.1008   67.1  0.3184 -173.8
 1.400  0.7548  159.3   2.541   64.9  0.1084   66.7  0.3221 -175.3
 1.500  0.7568  157.7   2.371   63.0  0.1155   66.1  0.3235 -176.2
 1.600  0.7595  156.1   2.237   61.1  0.1223   65.7  0.3264 -176.4
 1.700  0.7601  154.2   2.119   59.2  0.1295   65.3  0.3318 -177.3
 1.800  0.7617  152.8   2.014   57.3  0.1367   64.4  0.3361 -177.9
 1.900  0.7623  151.3   1.911   55.7  0.1435   63.9  0.3387 -178.6
 2.000  0.7647  149.7   1.826   53.6  0.1510   63.0  0.3421 -178.8
 2.100  0.7642  148.2   1.749   52.0  0.1576   62.4  0.3467 -179.3
 2.200  0.7642  146.6   1.674   50.2  0.1642   61.8  0.3513 -179.8
 2.300  0.7656  145.0   1.611   48.5  0.1713   61.0  0.3540  179.9
 2.400  0.7675  143.5   1.549   46.7  0.1785   60.2  0.3568  179.6
 2.500  0.7673  142.0   1.495   45.1  0.1853   59.3  0.3622  179.1
 2.600  0.7676  140.5   1.442   43.3  0.1922   58.5  0.3677  178.6
 2.700  0.7687  139.0   1.395   41.8  0.1983   57.7  0.3695  178.3
 2.800  0.7702  137.6   1.349   40.3  0.2045   57.0  0.3714  178.1
 2.900  0.7704  136.1   1.311   38.8  0.2111   56.1  0.3765  177.3
 3.000  0.7712  134.6   1.273   37.2  0.2178   55.2  0.3816  176.5
 3.100  0.7723  133.1   1.242   35.9  0.2240   54.3  0.3842  175.7
 3.200  0.7738  131.7   1.211   34.5  0.2302   53.4  0.3868  175.0
 3.300  0.7759  130.2   1.181   33.0  0.2364   52.6  0.3896  174.2
 3.400  0.7785  128.7   1.152   31.5  0.2427   51.8  0.3924  173.5
 3.500  0.7816  127.3   1.124   29.9  0.2491   51.1  0.3952  172.8
 3.600  0.7825  125.8   1.099   28.6  0.2545   50.1  0.3993  171.7
 3.700  0.7840  124.4   1.074   27.2  0.2600   49.2  0.4035  170.6
 3.800  0.7860  122.9   1.050   25.8  0.2655   48.4  0.4079  169.6
 3.900  0.7884  121.4   1.027   24.3  0.2711   47.5  0.4124  168.5
 4.000  0.7914  120.0   1.004   22.7  0.2767   46.7  0.4171  167.5
 4.100  0.7920  118.8   0.983   21.6  0.2815   45.8  0.4229  166.1
 4.200  0.7930  117.5   0.962   20.4  0.2864   44.9  0.4289  164.8
 4.300  0.7943  116.3   0.941   19.2  0.2913   44.1  0.4351  163.5
 4.400  0.7960  115.0   0.922   17.9  0.2963   43.3  0.4415  162.2
 4.500  0.7981  113.8   0.902   16.6  0.3013   42.5  0.4482  161.0
 4.600  0.7990  112.8   0.884   15.7  0.3056   41.7  0.4546  160.0
 4.700  0.8000  111.8   0.866   14.8  0.3099   40.9  0.4612  159.0
 4.800  0.8014  110.8   0.848   13.8  0.3143   40.2  0.4679  158.1
 4.900  0.8030  109.8   0.831   12.8  0.3187   39.4  0.4748  157.2
 5.000  0.8048  108.8   0.814   11.8  0.3232   38.7  0.4817  156.3
 5.100  0.8061  108.0   0.804   11.0  0.3279   38.1  0.4890  155.8
 5.200  0.8077  107.1   0.794   10.2  0.3326   37.4  0.4964  155.4
 5.300  0.8093  106.3   0.784    9.4  0.3373   36.8  0.5038  154.9
 5.400  0.8112  105.5   0.774    8.6  0.3421   36.3  0.5112  154.5
 5.500  0.8132  104.7   0.765    7.7  0.3469   35.7  0.5187  154.1
 5.600  0.8146  103.8   0.754    7.2  0.3523   34.9  0.5234  154.0
 5.700  0.8162  102.8   0.743    6.7  0.3578   34.2  0.5281  153.8
 5.800  0.8180  101.9   0.732    6.2  0.3634   33.5  0.5329  153.7
 5.900  0.8201  101.0   0.722    5.7  0.3690   32.8  0.5376  153.5
 6.000  0.8223  100.1   0.711    5.1  0.3747   32.1  0.5423  153.4
!
!  f       NFmin   Gammaopt  rn/50
! GHz       dB    MAG  ANG    -
 0.450      1.22  0.52 -178   0.05
 0.900      1.34  0.55 -172   0.05
 1.900      2.26  0.68 -148   0.14
 2.400      2.99  0.69 -141   0.27
!
! (c) 2017  Infineon Technologies AG, Munich