! Infineon Technologies  Discrete & RF Semiconductors
! BFP196WN
! VCE =  10. V,  IC =  10 mA
! Common Emitter S-Parameters:                            Jan 2017
# GHz  S  MA  R  50
!  f         S11            S21            S12            S22
! GHz     MAG   ANG      MAG   ANG      MAG   ANG      MAG   ANG
 0.010  0.7453   -9.9  29.973  175.5  0.0048   82.0  0.9835   -5.2
 0.020  0.7232  -22.1  28.795  169.2  0.0088   80.9  0.9723  -10.7
 0.030  0.7109  -31.5  28.067  164.4  0.0132   72.4  0.9413  -15.3
 0.040  0.7178  -40.9  27.542  159.4  0.0176   68.1  0.9168  -20.3
 0.050  0.7436  -49.9  27.234  154.3  0.0222   65.6  0.8994  -25.4
 0.060  0.7176  -56.9  25.988  151.1  0.0248   61.7  0.8597  -28.5
 0.070  0.7029  -64.2  24.831  147.6  0.0274   58.5  0.8226  -31.8
 0.080  0.7002  -71.8  23.773  143.8  0.0302   55.9  0.7887  -35.5
 0.090  0.7096  -79.2  22.831  139.7  0.0330   53.7  0.7583  -39.5
 0.100  0.7306  -86.4  22.018  135.2  0.0358   51.9  0.7319  -43.8
 0.110  0.7208  -91.2  21.081  133.1  0.0372   49.7  0.7016  -45.8
 0.120  0.7163  -96.2  20.175  130.8  0.0387   47.7  0.6723  -48.0
 0.130  0.7171 -101.1  19.304  128.3  0.0402   45.8  0.6441  -50.4
 0.140  0.7232 -106.0  18.473  125.6  0.0417   44.0  0.6171  -53.0
 0.150  0.7345 -110.8  17.688  122.6  0.0433   42.4  0.5914  -55.8
 0.200  0.7312 -126.2  14.391  113.9  0.0469   38.0  0.4887  -63.8
 0.250  0.7327 -137.4  12.054  107.6  0.0500   34.8  0.4186  -69.1
 0.300  0.7330 -145.4  10.313  102.9  0.0518   33.4  0.3643  -73.2
 0.350  0.7293 -150.9   9.122   99.8  0.0528   33.4  0.3313  -75.9
 0.400  0.7324 -156.5   7.966   95.8  0.0539   33.4  0.2992  -79.2
 0.450  0.7312 -160.3   7.199   93.6  0.0552   33.7  0.2792  -81.3
 0.500  0.7332 -164.0   6.446   90.8  0.0566   34.0  0.2597  -83.8
 0.600  0.7339 -169.7   5.413   86.5  0.0591   35.6  0.2345  -87.4
 0.700  0.7349 -174.1   4.647   82.9  0.0611   37.9  0.2191  -90.0
 0.800  0.7372 -177.9   4.081   79.4  0.0640   40.7  0.2123  -92.7
 0.900  0.7357  178.7   3.629   76.4  0.0682   42.1  0.2077  -95.5
 1.000  0.7398  176.0   3.276   73.6  0.0704   44.4  0.2042  -98.4
 1.100  0.7417  173.4   2.980   71.0  0.0737   46.7  0.2055 -100.3
 1.200  0.7419  170.9   2.736   68.4  0.0776   48.2  0.2072 -102.3
 1.300  0.7419  168.7   2.528   66.1  0.0813   50.2  0.2121 -104.9
 1.400  0.7457  166.5   2.359   63.6  0.0856   51.5  0.2152 -107.8
 1.500  0.7491  164.6   2.202   61.3  0.0897   52.8  0.2197 -109.8
 1.600  0.7524  162.6   2.072   59.1  0.0946   54.1  0.2273 -111.6
 1.700  0.7557  160.5   1.959   56.9  0.0988   55.4  0.2350 -114.3
 1.800  0.7557  158.7   1.860   54.6  0.1036   56.2  0.2413 -116.7
 1.900  0.7592  157.0   1.761   52.7  0.1093   57.2  0.2489 -118.6
 2.000  0.7617  155.1   1.681   50.4  0.1144   57.9  0.2582 -120.2
 2.100  0.7626  153.3   1.607   48.5  0.1198   58.5  0.2670 -122.3
 2.200  0.7643  151.6   1.534   46.4  0.1252   59.0  0.2761 -124.3
 2.300  0.7668  149.8   1.474   44.5  0.1312   59.4  0.2855 -125.8
 2.400  0.7700  148.1   1.415   42.5  0.1373   59.8  0.2950 -127.2
 2.500  0.7703  146.4   1.361   40.7  0.1434   59.9  0.3052 -129.2
 2.600  0.7713  144.8   1.308   38.8  0.1496   59.9  0.3157 -131.0
 2.700  0.7739  143.2   1.262   37.2  0.1558   60.0  0.3244 -132.2
 2.800  0.7770  141.7   1.217   35.4  0.1620   60.0  0.3332 -133.4
 2.900  0.7783  140.0   1.179   33.8  0.1686   59.7  0.3414 -135.3
 3.000  0.7802  138.4   1.142   32.0  0.1752   59.4  0.3500 -137.2
 3.100  0.7820  136.8   1.111   30.7  0.1822   59.0  0.3569 -138.9
 3.200  0.7844  135.2   1.080   29.3  0.1891   58.6  0.3642 -140.6
 3.300  0.7874  133.6   1.050   27.8  0.1961   58.3  0.3717 -142.1
 3.400  0.7911  132.0   1.021   26.3  0.2031   58.0  0.3795 -143.6
 3.500  0.7953  130.4   0.992   24.6  0.2101   57.7  0.3876 -145.1
 3.600  0.7968  128.8   0.967   23.3  0.2168   56.9  0.3939 -147.2
 3.700  0.7990  127.2   0.942   21.9  0.2234   56.2  0.4007 -149.3
 3.800  0.8018  125.6   0.918   20.5  0.2302   55.5  0.4080 -151.3
 3.900  0.8053  124.0   0.895   19.0  0.2369   54.9  0.4158 -153.2
 4.000  0.8093  122.4   0.872   17.4  0.2437   54.3  0.4241 -155.1
 4.100  0.8101  121.0   0.851   16.4  0.2502   53.5  0.4305 -157.5
 4.200  0.8113  119.6   0.830   15.3  0.2567   52.7  0.4377 -159.9
 4.300  0.8130  118.2   0.810   14.1  0.2633   51.9  0.4456 -162.1
 4.400  0.8152  116.9   0.790   12.9  0.2699   51.2  0.4541 -164.3
 4.500  0.8178  115.5   0.770   11.6  0.2766   50.5  0.4633 -166.4
 4.600  0.8187  114.4   0.753   10.9  0.2824   49.7  0.4713 -168.4
 4.700  0.8199  113.3   0.735   10.1  0.2882   48.8  0.4799 -170.3
 4.800  0.8214  112.2   0.718    9.3  0.2941   48.1  0.4890 -172.2
 4.900  0.8231  111.2   0.701    8.5  0.3000   47.3  0.4986 -174.0
 5.000  0.8252  110.1   0.684    7.6  0.3060   46.6  0.5087 -175.7
 5.100  0.8268  109.2   0.674    7.0  0.3120   45.8  0.5187 -177.2
 5.200  0.8285  108.3   0.663    6.5  0.3181   45.1  0.5290 -178.6
 5.300  0.8305  107.4   0.653    5.9  0.3242   44.4  0.5397 -179.9
 5.400  0.8327  106.5   0.643    5.2  0.3303   43.7  0.5506  178.8
 5.500  0.8351  105.6   0.633    4.6  0.3365   43.1  0.5618  177.5
 5.600  0.8362  104.6   0.623    4.4  0.3431   42.2  0.5699  176.6
 5.700  0.8375  103.6   0.612    4.2  0.3498   41.4  0.5780  175.7
 5.800  0.8391  102.6   0.602    4.0  0.3566   40.5  0.5864  174.8
 5.900  0.8409  101.7   0.591    3.7  0.3634   39.8  0.5948  174.0
 6.000  0.8430  100.7   0.581    3.5  0.3703   39.0  0.6034  173.2
!
!  f       NFmin   Gammaopt  rn/50
! GHz       dB    MAG  ANG    -
 0.450      0.92  0.37  146   0.05
 0.900      1.09  0.52  167   0.05
 1.900      2.29  0.71  206   0.13
 2.400      3.04  0.72  213   0.24
!
! (c) 2017  Infineon Technologies AG, Munich