! Infineon Technologies  Discrete & RF Semiconductors
! BFP196WN
! VCE =  1.0 V,  IC =  50 mA
! Common Emitter S-Parameters:                            Jan 2017
# GHz  S  MA  R  50
!  f         S11            S21            S12            S22
! GHz     MAG   ANG      MAG   ANG      MAG   ANG      MAG   ANG
 0.010  0.2592  -84.2  78.513  163.3  0.0048   76.6  0.8877  -24.7
 0.020  0.4267 -111.4  68.239  147.9  0.0087   66.9  0.8065  -47.0
 0.030  0.4914 -125.6  59.142  141.6  0.0106   56.6  0.6951  -58.9
 0.040  0.5788 -136.1  51.016  133.1  0.0128   49.7  0.6238  -74.4
 0.050  0.6802 -143.6  44.397  121.8  0.0151   44.8  0.6067  -92.2
 0.060  0.6897 -147.5  40.358  119.9  0.0157   44.7  0.5681  -97.6
 0.070  0.7023 -151.3  36.375  117.5  0.0164   44.5  0.5354 -103.8
 0.080  0.7179 -154.9  32.467  114.6  0.0170   44.4  0.5096 -110.7
 0.090  0.7362 -158.4  28.667  110.9  0.0177   44.3  0.4920 -118.2
 0.100  0.7571 -161.7  25.022  106.1  0.0183   44.2  0.4832 -126.1
 0.110  0.7617 -163.2  23.447  105.1  0.0190   45.0  0.4726 -129.1
 0.120  0.7669 -164.7  21.881  103.9  0.0197   45.7  0.4634 -132.3
 0.130  0.7726 -166.1  20.324  102.6  0.0203   46.4  0.4556 -135.6
 0.140  0.7788 -167.6  18.781  101.0  0.0210   47.1  0.4495 -139.0
 0.150  0.7854 -169.0  17.254   99.2  0.0217   47.7  0.4449 -142.5
 0.200  0.7883 -173.3  13.053   95.0  0.0239   52.1  0.4347 -151.4
 0.250  0.7949 -176.1  10.506   92.0  0.0280   53.8  0.4268 -156.9
 0.300  0.7968 -178.5   8.786   89.8  0.0315   57.9  0.4218 -161.4
 0.350  0.7976  179.7   7.703   88.1  0.0352   60.2  0.4203 -163.9
 0.400  0.7992  178.0   6.628   85.9  0.0389   62.0  0.4196 -166.5
 0.450  0.7988  176.6   5.967   84.6  0.0427   63.6  0.4199 -168.4
 0.500  0.7989  175.2   5.309   83.0  0.0466   64.9  0.4206 -170.2
 0.600  0.7984  172.8   4.435   80.3  0.0544   65.9  0.4221 -172.9
 0.700  0.7988  170.7   3.801   78.0  0.0620   66.8  0.4198 -175.0
 0.800  0.8014  168.5   3.331   75.4  0.0709   67.7  0.4205 -176.4
 0.900  0.8009  166.6   2.959   73.1  0.0782   67.3  0.4229 -177.8
 1.000  0.8020  164.7   2.676   71.0  0.0863   67.5  0.4243 -179.2
 1.100  0.8024  163.0   2.437   69.0  0.0940   67.3  0.4247  179.6
 1.200  0.8024  161.2   2.243   66.9  0.1018   66.7  0.4253  178.6
 1.300  0.8025  159.5   2.079   65.1  0.1095   66.5  0.4287  178.1
 1.400  0.8040  157.8   1.946   63.0  0.1178   65.9  0.4319  176.8
 1.500  0.8051  156.3   1.819   61.1  0.1251   65.2  0.4327  175.9
 1.600  0.8073  154.7   1.718   59.2  0.1332   64.6  0.4341  175.4
 1.700  0.8084  152.9   1.633   57.3  0.1408   64.0  0.4396  174.6
 1.800  0.8092  151.4   1.555   55.3  0.1483   63.1  0.4428  173.8
 1.900  0.8081  149.9   1.477   53.7  0.1552   62.5  0.4438  173.1
 2.000  0.8097  148.2   1.415   51.7  0.1635   61.6  0.4467  172.6
 2.100  0.8090  146.6   1.359   50.0  0.1706   60.8  0.4506  172.0
 2.200  0.8090  145.0   1.304   48.1  0.1778   60.1  0.4545  171.5
 2.300  0.8102  143.5   1.258   46.5  0.1851   59.2  0.4559  171.0
 2.400  0.8119  142.0   1.213   44.8  0.1925   58.4  0.4574  170.5
 2.500  0.8106  140.5   1.173   43.2  0.1997   57.4  0.4618  169.9
 2.600  0.8099  138.9   1.134   41.5  0.2070   56.5  0.4663  169.4
 2.700  0.8103  137.5   1.101   40.0  0.2135   55.6  0.4666  169.0
 2.800  0.8112  136.1   1.068   38.5  0.2200   54.7  0.4669  168.6
 2.900  0.8108  134.6   1.039   37.0  0.2267   53.7  0.4712  167.7
 3.000  0.8110  133.0   1.011   35.5  0.2335   52.8  0.4757  166.9
 3.100  0.8112  131.5   0.989   34.2  0.2397   51.8  0.4770  166.1
 3.200  0.8120  130.1   0.967   32.9  0.2461   50.8  0.4783  165.2
 3.300  0.8133  128.6   0.946   31.5  0.2525   49.9  0.4798  164.4
 3.400  0.8151  127.1   0.926   30.0  0.2589   49.0  0.4813  163.6
 3.500  0.8175  125.7   0.906   28.5  0.2654   48.2  0.4830  162.8
 3.600  0.8178  124.2   0.887   27.2  0.2707   47.2  0.4861  161.8
 3.700  0.8187  122.7   0.869   25.9  0.2761   46.2  0.4893  160.7
 3.800  0.8201  121.2   0.852   24.6  0.2816   45.3  0.4927  159.7
 3.900  0.8220  119.8   0.835   23.2  0.2871   44.4  0.4962  158.7
 4.000  0.8245  118.3   0.818   21.7  0.2927   43.5  0.4999  157.7
 4.100  0.8240  117.1   0.803   20.7  0.2972   42.6  0.5049  156.5
 4.200  0.8238  115.9   0.788   19.6  0.3018   41.7  0.5101  155.3
 4.300  0.8240  114.6   0.773   18.5  0.3065   40.9  0.5155  154.1
 4.400  0.8246  113.4   0.758   17.3  0.3112   40.1  0.5212  152.9
 4.500  0.8256  112.2   0.744   16.1  0.3160   39.3  0.5270  151.8
 4.600  0.8253  111.2   0.731   15.3  0.3200   38.5  0.5322  150.9
 4.700  0.8253  110.2   0.718   14.5  0.3240   37.7  0.5375  150.0
 4.800  0.8255  109.3   0.706   13.7  0.3281   37.0  0.5429  149.2
 4.900  0.8260  108.3   0.693   12.8  0.3322   36.2  0.5484  148.3
 5.000  0.8267  107.3   0.681   11.9  0.3364   35.5  0.5541  147.5
 5.100  0.8280  106.5   0.675   11.2  0.3409   34.8  0.5600  147.1
 5.200  0.8294  105.7   0.669   10.5  0.3454   34.2  0.5659  146.7
 5.300  0.8310  104.8   0.663    9.8  0.3499   33.6  0.5718  146.3
 5.400  0.8328  104.0   0.657    9.0  0.3545   33.0  0.5777  146.0
 5.500  0.8347  103.2   0.651    8.3  0.3591   32.4  0.5837  145.6
 5.600  0.8351  102.3   0.644    7.9  0.3644   31.6  0.5868  145.5
 5.700  0.8358  101.4   0.636    7.5  0.3697   30.9  0.5899  145.4
 5.800  0.8367  100.4   0.629    7.1  0.3751   30.2  0.5929  145.2
 5.900  0.8378   99.5   0.621    6.7  0.3805   29.5  0.5960  145.1
 6.000  0.8391   98.6   0.614    6.3  0.3860   28.8  0.5991  145.0
!
!  f       NFmin   Gammaopt  rn/50
! GHz       dB    MAG  ANG    -
 0.450      1.27  0.53 -177   0.05
 0.900      1.39  0.56 -171   0.05
 1.900      2.33  0.69 -148   0.16
 2.400      3.05  0.70 -140   0.28
!
! (c) 2017  Infineon Technologies AG, Munich