! Infineon Technologies  Discrete & RF Semiconductors
! BFP196WN
! VCE =  11. V,  IC =  45 mA
! Common Emitter S-Parameters:                            Jan 2017
# GHz  S  MA  R  50
!  f         S11            S21            S12            S22
! GHz     MAG   ANG      MAG   ANG      MAG   ANG      MAG   ANG
 0.010  0.3709  -30.1  75.164  169.5  0.0034   72.3  0.9196  -12.4
 0.020  0.4048  -58.3  69.669  158.8  0.0068   71.9  0.8742  -24.9
 0.030  0.4167  -77.1  63.837  152.3  0.0089   62.6  0.7934  -33.2
 0.040  0.4689  -93.3  58.968  144.7  0.0112   57.0  0.7327  -43.1
 0.050  0.5500 -105.5  55.318  135.9  0.0136   53.3  0.6973  -54.4
 0.060  0.5512 -112.8  50.996  133.2  0.0147   52.1  0.6433  -58.5
 0.070  0.5612 -119.9  46.806  130.1  0.0157   51.0  0.5933  -63.4
 0.080  0.5795 -126.7  42.787  126.3  0.0168   50.1  0.5483  -69.1
 0.090  0.6054 -133.0  38.990  121.8  0.0179   49.2  0.5097  -75.8
 0.100  0.6379 -138.7  35.488  116.3  0.0190   48.5  0.4790  -83.4
 0.110  0.6425 -141.6  33.423  114.9  0.0196   48.0  0.4540  -86.2
 0.120  0.6487 -144.5  31.381  113.3  0.0203   47.5  0.4303  -89.2
 0.130  0.6566 -147.3  29.367  111.4  0.0209   47.0  0.4079  -92.7
 0.140  0.6659 -150.0  27.388  109.3  0.0216   46.6  0.3871  -96.5
 0.150  0.6768 -152.7  25.451  106.9  0.0222   46.2  0.3682 -100.7
 0.200  0.6865 -160.9  19.543  101.2  0.0234   48.7  0.3154 -113.2
 0.250  0.6943 -165.9  15.850   97.2  0.0268   51.2  0.2845 -121.5
 0.300  0.6973 -169.9  13.301   94.3  0.0296   53.6  0.2619 -128.8
 0.350  0.6997 -172.7  11.687   92.3  0.0324   56.2  0.2512 -133.4
 0.400  0.7037 -175.4  10.092   89.7  0.0352   58.3  0.2422 -138.3
 0.450  0.7036 -177.3   9.088   88.2  0.0382   59.6  0.2378 -141.7
 0.500  0.7043 -179.2   8.092   86.4  0.0413   60.8  0.2342 -145.2
 0.600  0.7050  177.6   6.764   83.4  0.0480   63.3  0.2292 -150.2
 0.700  0.7076  175.0   5.795   80.9  0.0540   64.7  0.2254 -153.5
 0.800  0.7100  172.5   5.075   78.3  0.0616   66.1  0.2256 -155.8
 0.900  0.7104  170.0   4.507   76.0  0.0671   66.0  0.2274 -158.1
 1.000  0.7120  168.2   4.069   73.9  0.0738   66.9  0.2280 -160.0
 1.100  0.7131  166.3   3.701   71.8  0.0810   66.7  0.2288 -161.4
 1.200  0.7169  164.4   3.395   69.7  0.0869   66.6  0.2301 -162.4
 1.300  0.7149  162.5   3.139   67.9  0.0936   66.6  0.2346 -163.0
 1.400  0.7166  160.8   2.930   65.8  0.1011   66.5  0.2387 -164.6
 1.500  0.7209  159.2   2.735   63.9  0.1072   66.2  0.2409 -165.5
 1.600  0.7228  157.5   2.575   62.1  0.1136   65.8  0.2440 -165.6
 1.700  0.7248  155.6   2.438   60.2  0.1211   65.4  0.2501 -166.5
 1.800  0.7261  154.1   2.316   58.2  0.1275   64.9  0.2549 -167.3
 1.900  0.7263  152.6   2.195   56.6  0.1338   64.5  0.2578 -167.8
 2.000  0.7285  151.0   2.095   54.6  0.1404   63.8  0.2627 -167.9
 2.100  0.7289  149.4   2.004   52.9  0.1470   63.3  0.2683 -168.4
 2.200  0.7298  147.9   1.915   51.1  0.1536   62.8  0.2740 -168.9
 2.300  0.7316  146.4   1.841   49.4  0.1602   62.1  0.2782 -169.1
 2.400  0.7340  144.9   1.769   47.5  0.1669   61.4  0.2824 -169.2
 2.500  0.7340  143.3   1.706   45.9  0.1734   60.7  0.2888 -169.7
 2.600  0.7345  141.8   1.644   44.2  0.1800   60.0  0.2952 -170.2
 2.700  0.7365  140.3   1.588   42.8  0.1859   59.3  0.2982 -170.3
 2.800  0.7389  138.9   1.534   41.2  0.1919   58.7  0.3013 -170.4
 2.900  0.7395  137.4   1.488   39.6  0.1983   57.9  0.3073 -171.3
 3.000  0.7407  135.9   1.444   37.9  0.2047   57.1  0.3134 -172.1
 3.100  0.7425  134.4   1.407   36.6  0.2108   56.3  0.3169 -172.9
 3.200  0.7448  132.9   1.371   35.2  0.2170   55.4  0.3204 -173.6
 3.300  0.7475  131.5   1.336   33.7  0.2232   54.7  0.3240 -174.3
 3.400  0.7508  130.0   1.302   32.1  0.2295   54.0  0.3277 -175.0
 3.500  0.7545  128.6   1.269   30.5  0.2358   53.3  0.3314 -175.7
 3.600  0.7559  127.1   1.239   29.2  0.2412   52.4  0.3363 -176.9
 3.700  0.7578  125.7   1.210   27.7  0.2467   51.5  0.3413 -178.1
 3.800  0.7602  124.2   1.181   26.3  0.2523   50.7  0.3464 -179.3
 3.900  0.7630  122.7   1.154   24.7  0.2579   49.9  0.3517  179.6
 4.000  0.7664  121.3   1.127   23.1  0.2635   49.1  0.3571  178.5
 4.100  0.7680  120.0   1.101   21.9  0.2685   48.2  0.3633  176.9
 4.200  0.7699  118.8   1.076   20.7  0.2736   47.4  0.3698  175.4
 4.300  0.7722  117.5   1.052   19.4  0.2787   46.6  0.3766  173.9
 4.400  0.7749  116.2   1.028   18.1  0.2839   45.8  0.3836  172.5
 4.500  0.7780  115.0   1.004   16.7  0.2891   45.1  0.3908  171.1
 4.600  0.7791  114.0   0.983   15.8  0.2935   44.3  0.3979  169.9
 4.700  0.7805  112.9   0.962   14.8  0.2980   43.6  0.4051  168.7
 4.800  0.7821  111.9   0.941   13.8  0.3025   42.9  0.4125  167.6
 4.900  0.7839  110.9   0.921   12.7  0.3071   42.2  0.4201  166.5
 5.000  0.7860  109.9   0.901   11.6  0.3117   41.5  0.4278  165.5
 5.100  0.7883  109.1   0.888   10.8  0.3166   40.9  0.4365  164.9
 5.200  0.7908  108.2   0.875    9.9  0.3216   40.2  0.4452  164.3
 5.300  0.7934  107.4   0.863    9.0  0.3265   39.6  0.4540  163.8
 5.400  0.7962  106.6   0.850    8.1  0.3316   39.1  0.4628  163.2
 5.500  0.7992  105.8   0.838    7.1  0.3366   38.5  0.4716  162.7
 5.600  0.8006  104.8   0.825    6.6  0.3423   37.7  0.4779  162.5
 5.700  0.8022  103.9   0.812    6.0  0.3480   37.0  0.4843  162.2
 5.800  0.8040  102.9   0.799    5.4  0.3538   36.3  0.4907  162.0
 5.900  0.8060  102.0   0.786    4.8  0.3597   35.6  0.4970  161.8
 6.000  0.8083  101.0   0.773    4.2  0.3656   34.9  0.5034  161.6
!
!  f       NFmin   Gammaopt  rn/50
! GHz       dB    MAG  ANG    -
 0.450      1.22  0.52 -178   0.05
 0.900      1.34  0.55 -172   0.05
 1.900      2.26  0.68 -148   0.14
 2.400      2.99  0.69 -141   0.27
!
! (c) 2017  Infineon Technologies AG, Munich