! Infineon Technologies  Discrete & RF Semiconductors
! BFP196WN
! VCE =  6.0 V,  IC =  75 mA
! Common Emitter S-Parameters:                            Jan 2017
# GHz  S  MA  R  50
!  f         S11            S21            S12            S22
! GHz     MAG   ANG      MAG   ANG      MAG   ANG      MAG   ANG
 0.010  0.2091  -70.2  93.461  166.4  0.0031   81.5  0.9135  -17.1
 0.020  0.3354  -99.3  84.612  153.2  0.0056   71.8  0.8497  -33.8
 0.030  0.3961 -115.5  75.020  146.6  0.0072   63.0  0.7447  -43.3
 0.040  0.4793 -126.7  66.685  138.3  0.0089   57.5  0.6662  -55.4
 0.050  0.5753 -134.4  60.132  127.9  0.0107   53.8  0.6242  -69.9
 0.060  0.5863 -139.2  54.923  125.7  0.0115   53.2  0.5738  -74.4
 0.070  0.6013 -143.8  49.816  122.9  0.0122   52.8  0.5277  -79.8
 0.080  0.6200 -148.1  44.846  119.6  0.0130   52.3  0.4870  -86.1
 0.090  0.6420 -152.2  40.062  115.5  0.0137   51.9  0.4533  -93.4
 0.100  0.6670 -156.0  35.542  110.3  0.0145   51.6  0.4281 -101.8
 0.110  0.6730 -157.8  33.365  109.1  0.0152   51.7  0.4095 -104.9
 0.120  0.6798 -159.6  31.204  107.8  0.0158   51.8  0.3921 -108.2
 0.130  0.6872 -161.4  29.062  106.3  0.0165   51.9  0.3762 -111.8
 0.140  0.6952 -163.1  26.944  104.5  0.0171   52.0  0.3619 -115.8
 0.150  0.7038 -164.8  24.857  102.4  0.0178   52.1  0.3495 -120.0
 0.200  0.7097 -170.2  18.895   97.6  0.0200   58.9  0.3186 -131.8
 0.250  0.7183 -173.4  15.234   94.3  0.0241   60.8  0.3006 -139.4
 0.300  0.7210 -176.1  12.759   91.9  0.0269   63.2  0.2880 -145.7
 0.350  0.7214 -178.1  11.192   90.2  0.0304   65.3  0.2829 -149.3
 0.400  0.7227  179.9   9.639   87.9  0.0339   67.0  0.2789 -153.1
 0.450  0.7232  178.3   8.679   86.6  0.0377   67.6  0.2776 -155.8
 0.500  0.7243  176.8   7.725   84.9  0.0415   68.1  0.2770 -158.5
 0.600  0.7252  174.3   6.455   82.2  0.0486   69.4  0.2757 -162.3
 0.700  0.7271  172.2   5.525   79.9  0.0552   70.9  0.2734 -164.8
 0.800  0.7308  170.1   4.843   77.4  0.0634   70.9  0.2743 -166.5
 0.900  0.7284  167.9   4.298   75.2  0.0700   70.6  0.2767 -168.3
 1.000  0.7296  166.1   3.878   73.2  0.0776   70.6  0.2780 -170.0
 1.100  0.7334  164.2   3.528   71.2  0.0845   70.2  0.2787 -171.2
 1.200  0.7335  162.4   3.239   69.2  0.0915   69.6  0.2799 -172.0
 1.300  0.7343  160.8   2.996   67.5  0.0986   69.5  0.2841 -172.4
 1.400  0.7362  159.1   2.797   65.4  0.1059   68.8  0.2880 -173.8
 1.500  0.7389  157.7   2.611   63.6  0.1131   68.1  0.2896 -174.7
 1.600  0.7411  156.0   2.460   61.8  0.1200   67.7  0.2918 -174.9
 1.700  0.7416  154.3   2.330   59.9  0.1275   67.0  0.2975 -175.6
 1.800  0.7433  152.9   2.214   58.1  0.1338   66.4  0.3020 -176.3
 1.900  0.7430  151.3   2.099   56.4  0.1409   65.7  0.3040 -176.9
 2.000  0.7446  149.7   2.005   54.4  0.1482   64.7  0.3077 -177.1
 2.100  0.7448  148.1   1.920   52.8  0.1550   64.0  0.3129 -177.6
 2.200  0.7455  146.6   1.836   51.0  0.1618   63.4  0.3182 -178.0
 2.300  0.7482  145.1   1.766   49.3  0.1688   62.5  0.3208 -178.2
 2.400  0.7513  143.7   1.698   47.5  0.1758   61.7  0.3235 -178.3
 2.500  0.7502  142.2   1.638   46.0  0.1822   60.8  0.3291 -178.8
 2.600  0.7496  140.7   1.579   44.3  0.1886   59.9  0.3347 -179.3
 2.700  0.7512  139.3   1.527   42.9  0.1951   59.1  0.3366 -179.4
 2.800  0.7532  137.9   1.476   41.3  0.2016   58.4  0.3386 -179.5
 2.900  0.7539  136.4   1.432   39.7  0.2078   57.4  0.3440  179.6
 3.000  0.7551  134.9   1.390   38.1  0.2141   56.5  0.3494  178.8
 3.100  0.7563  133.4   1.356   36.8  0.2203   55.6  0.3520  178.1
 3.200  0.7579  132.0   1.322   35.4  0.2265   54.7  0.3547  177.4
 3.300  0.7601  130.5   1.289   33.9  0.2327   53.8  0.3575  176.7
 3.400  0.7628  129.0   1.257   32.4  0.2390   53.1  0.3603  176.1
 3.500  0.7659  127.6   1.226   30.8  0.2454   52.3  0.3631  175.4
 3.600  0.7671  126.1   1.198   29.5  0.2508   51.3  0.3674  174.3
 3.700  0.7688  124.7   1.170   28.1  0.2562   50.4  0.3719  173.2
 3.800  0.7710  123.3   1.143   26.6  0.2617   49.5  0.3765  172.1
 3.900  0.7737  121.8   1.117   25.1  0.2673   48.6  0.3812  171.1
 4.000  0.7769  120.4   1.092   23.5  0.2729   47.8  0.3861  170.1
 4.100  0.7781  119.1   1.068   22.3  0.2777   46.9  0.3920  168.7
 4.200  0.7796  117.9   1.045   21.1  0.2825   46.0  0.3982  167.3
 4.300  0.7816  116.7   1.021   19.9  0.2874   45.2  0.4046  165.9
 4.400  0.7839  115.4   0.999   18.6  0.2924   44.4  0.4112  164.6
 4.500  0.7865  114.2   0.977   17.2  0.2974   43.6  0.4180  163.3
 4.600  0.7873  113.2   0.957   16.3  0.3016   42.8  0.4244  162.3
 4.700  0.7883  112.2   0.937   15.3  0.3059   42.1  0.4309  161.2
 4.800  0.7895  111.2   0.918   14.3  0.3103   41.3  0.4375  160.3
 4.900  0.7910  110.2   0.899   13.3  0.3147   40.6  0.4442  159.3
 5.000  0.7927  109.2   0.880   12.2  0.3191   39.9  0.4511  158.4
 5.100  0.7946  108.4   0.868   11.3  0.3238   39.3  0.4588  158.0
 5.200  0.7966  107.6   0.856   10.5  0.3286   38.6  0.4665  157.5
 5.300  0.7988  106.8   0.845    9.6  0.3333   38.0  0.4742  157.1
 5.400  0.8012  106.0   0.833    8.6  0.3381   37.5  0.4819  156.7
 5.500  0.8037  105.2   0.822    7.7  0.3430   36.9  0.4897  156.3
 5.600  0.8050  104.3   0.810    7.2  0.3484   36.1  0.4949  156.2
 5.700  0.8065  103.3   0.798    6.6  0.3539   35.4  0.5002  156.1
 5.800  0.8082  102.4   0.786    6.0  0.3594   34.7  0.5054  155.9
 5.900  0.8102  101.5   0.775    5.4  0.3650   34.0  0.5107  155.8
 6.000  0.8123  100.6   0.763    4.8  0.3706   33.3  0.5159  155.7
!
!  f       NFmin   Gammaopt  rn/50
! GHz       dB    MAG  ANG    -
 0.450      1.53  0.57 -176   0.05
 0.900      1.66  0.59 -169   0.06
 1.900      2.60  0.70 -147   0.20
 2.400      3.41  0.71 -138   0.33
!
! (c) 2017  Infineon Technologies AG, Munich