! Infineon Technologies  Discrete & RF Semiconductors
! BFP196WN
! VCE =  5.0 V,  IC =  75 mA
! Common Emitter S-Parameters:                            Jan 2017
# GHz  S  MA  R  50
!  f         S11            S21            S12            S22
! GHz     MAG   ANG      MAG   ANG      MAG   ANG      MAG   ANG
 0.010  0.1989  -79.4  93.763  166.1  0.0029   76.7  0.9106  -17.8
 0.020  0.3370 -105.7  84.362  152.6  0.0055   76.2  0.8408  -35.0
 0.030  0.4030 -120.4  74.590  146.0  0.0072   64.8  0.7349  -44.8
 0.040  0.4875 -130.5  66.076  137.7  0.0091   57.9  0.6570  -57.4
 0.050  0.5827 -137.5  59.365  127.1  0.0110   53.4  0.6179  -72.4
 0.060  0.5950 -142.1  54.196  124.9  0.0117   52.6  0.5687  -77.0
 0.070  0.6109 -146.4  49.124  122.2  0.0124   52.0  0.5239  -82.5
 0.080  0.6302 -150.5  44.183  118.9  0.0131   51.3  0.4847  -88.9
 0.090  0.6524 -154.3  39.423  114.9  0.0138   50.8  0.4525  -96.3
 0.100  0.6774 -157.9  34.916  109.7  0.0145   50.3  0.4290 -104.7
 0.110  0.6830 -159.6  32.761  108.6  0.0150   51.1  0.4114 -107.8
 0.120  0.6892 -161.3  30.621  107.3  0.0155   51.8  0.3950 -111.2
 0.130  0.6960 -162.9  28.499  105.8  0.0160   52.5  0.3802 -114.8
 0.140  0.7033 -164.5  26.400  104.0  0.0165   53.1  0.3670 -118.7
 0.150  0.7112 -166.1  24.329  102.0  0.0170   53.7  0.3556 -122.9
 0.200  0.7184 -171.1  18.473   97.3  0.0201   58.5  0.3273 -134.6
 0.250  0.7228 -174.3  14.895   94.0  0.0237   60.8  0.3111 -142.0
 0.300  0.7282 -176.8  12.470   91.7  0.0265   63.7  0.2999 -148.1
 0.350  0.7290 -178.7  10.939   90.0  0.0304   65.9  0.2955 -151.6
 0.400  0.7306  179.4   9.421   87.7  0.0343   67.6  0.2923 -155.2
 0.450  0.7302  178.0   8.479   86.4  0.0379   68.5  0.2914 -157.7
 0.500  0.7303  176.5   7.543   84.7  0.0416   69.2  0.2910 -160.2
 0.600  0.7313  174.2   6.305   82.0  0.0487   69.9  0.2903 -163.9
 0.700  0.7346  171.9   5.398   79.8  0.0558   71.2  0.2872 -166.4
 0.800  0.7357  169.7   4.730   77.3  0.0637   71.6  0.2888 -168.1
 0.900  0.7367  167.6   4.198   75.1  0.0712   70.6  0.2912 -169.6
 1.000  0.7382  166.0   3.789   73.1  0.0777   70.4  0.2925 -171.4
 1.100  0.7389  164.2   3.448   71.1  0.0851   70.4  0.2937 -172.5
 1.200  0.7392  162.4   3.164   69.1  0.0928   69.6  0.2937 -173.3
 1.300  0.7400  160.6   2.929   67.4  0.0998   69.3  0.2979 -173.8
 1.400  0.7411  158.9   2.734   65.3  0.1073   68.8  0.3019 -175.2
 1.500  0.7435  157.5   2.552   63.5  0.1144   68.2  0.3033 -176.1
 1.600  0.7461  155.8   2.405   61.7  0.1209   67.6  0.3058 -176.4
 1.700  0.7474  154.0   2.279   59.8  0.1284   67.0  0.3117 -177.1
 1.800  0.7492  152.7   2.165   57.9  0.1355   66.0  0.3157 -177.8
 1.900  0.7484  151.1   2.054   56.3  0.1419   65.4  0.3174 -178.4
 2.000  0.7513  149.4   1.961   54.3  0.1497   64.6  0.3215 -178.5
 2.100  0.7512  147.9   1.878   52.7  0.1566   63.9  0.3263 -179.0
 2.200  0.7516  146.4   1.797   50.9  0.1636   63.2  0.3311 -179.5
 2.300  0.7537  144.9   1.728   49.2  0.1704   62.3  0.3336 -179.8
 2.400  0.7563  143.4   1.661   47.4  0.1772   61.5  0.3361 -180.0
 2.500  0.7554  141.9   1.602   45.9  0.1840   60.6  0.3414  179.5
 2.600  0.7550  140.4   1.544   44.2  0.1909   59.7  0.3468  179.1
 2.700  0.7566  139.0   1.494   42.7  0.1971   58.9  0.3486  178.9
 2.800  0.7586  137.7   1.445   41.2  0.2034   58.2  0.3505  178.8
 2.900  0.7585  136.1   1.403   39.6  0.2097   57.2  0.3559  177.9
 3.000  0.7590  134.6   1.363   38.0  0.2160   56.3  0.3613  177.1
 3.100  0.7602  133.1   1.329   36.7  0.2222   55.3  0.3637  176.4
 3.200  0.7619  131.7   1.297   35.3  0.2284   54.4  0.3661  175.7
 3.300  0.7641  130.3   1.264   33.8  0.2347   53.6  0.3686  175.0
 3.400  0.7668  128.8   1.233   32.3  0.2410   52.8  0.3711  174.4
 3.500  0.7699  127.4   1.203   30.7  0.2474   52.0  0.3737  173.7
 3.600  0.7709  125.9   1.175   29.4  0.2528   51.0  0.3780  172.6
 3.700  0.7725  124.5   1.148   28.0  0.2582   50.0  0.3824  171.5
 3.800  0.7745  123.1   1.122   26.5  0.2637   49.1  0.3870  170.4
 3.900  0.7770  121.6   1.096   25.0  0.2693   48.2  0.3917  169.4
 4.000  0.7800  120.2   1.071   23.4  0.2749   47.4  0.3965  168.4
 4.100  0.7813  119.0   1.048   22.3  0.2796   46.5  0.4022  167.0
 4.200  0.7830  117.7   1.025   21.1  0.2844   45.6  0.4082  165.6
 4.300  0.7850  116.5   1.003   19.8  0.2892   44.8  0.4144  164.3
 4.400  0.7874  115.3   0.981   18.6  0.2941   44.0  0.4208  163.0
 4.500  0.7901  114.1   0.960   17.2  0.2991   43.2  0.4274  161.8
 4.600  0.7908  113.1   0.941   16.3  0.3034   42.4  0.4337  160.8
 4.700  0.7918  112.1   0.922   15.3  0.3078   41.6  0.4401  159.8
 4.800  0.7931  111.0   0.903   14.3  0.3122   40.9  0.4467  158.8
 4.900  0.7946  110.0   0.884   13.3  0.3167   40.1  0.4534  157.9
 5.000  0.7963  109.0   0.866   12.2  0.3212   39.4  0.4602  157.0
 5.100  0.7980  108.2   0.854   11.4  0.3257   38.8  0.4676  156.6
 5.200  0.7999  107.4   0.843   10.5  0.3303   38.1  0.4750  156.2
 5.300  0.8019  106.6   0.832    9.6  0.3349   37.6  0.4825  155.8
 5.400  0.8041  105.8   0.821    8.7  0.3395   37.0  0.4900  155.4
 5.500  0.8064  105.0   0.810    7.8  0.3442   36.4  0.4975  155.0
 5.600  0.8076  104.1   0.798    7.3  0.3498   35.6  0.5024  154.9
 5.700  0.8089  103.2   0.787    6.7  0.3554   34.9  0.5073  154.8
 5.800  0.8105  102.3   0.776    6.2  0.3611   34.2  0.5122  154.6
 5.900  0.8122  101.4   0.764    5.6  0.3668   33.5  0.5171  154.5
 6.000  0.8142  100.5   0.753    5.0  0.3726   32.8  0.5220  154.4
!
!  f       NFmin   Gammaopt  rn/50
! GHz       dB    MAG  ANG    -
 0.450      1.53  0.57 -176   0.05
 0.900      1.66  0.59 -169   0.06
 1.900      2.60  0.70 -147   0.20
 2.400      3.41  0.71 -138   0.33
!
! (c) 2017  Infineon Technologies AG, Munich