! Infineon Technologies  Discrete & RF Semiconductors
! BFP196WN
! VCE =  11. V,  IC =  5.0 mA
! Common Emitter S-Parameters:                            Jan 2017
# GHz  S  MA  R  50
!  f         S11            S21            S12            S22
! GHz     MAG   ANG      MAG   ANG      MAG   ANG      MAG   ANG
 0.010  0.8712   -6.2  16.567  177.2  0.0049   85.1  0.9913   -2.9
 0.020  0.8419  -14.9  16.069  172.4  0.0092   81.6  0.9877   -6.3
 0.030  0.8382  -21.3  15.904  168.8  0.0143   75.9  0.9726   -9.3
 0.040  0.8449  -27.6  15.804  165.1  0.0196   73.2  0.9602  -12.4
 0.050  0.8618  -33.8  15.769  161.4  0.0248   71.6  0.9506  -15.5
 0.060  0.8385  -39.3  15.314  158.5  0.0284   67.8  0.9271  -17.8
 0.070  0.8234  -45.1  14.901  155.4  0.0321   64.9  0.9051  -20.2
 0.080  0.8168  -51.0  14.533  152.2  0.0358   62.6  0.8848  -22.7
 0.090  0.8191  -56.9  14.215  148.7  0.0396   60.7  0.8663  -25.3
 0.100  0.8301  -62.8  13.949  145.2  0.0434   59.2  0.8496  -28.0
 0.110  0.8163  -67.4  13.530  143.0  0.0458   56.4  0.8266  -29.6
 0.120  0.8078  -72.1  13.133  140.6  0.0482   54.0  0.8043  -31.3
 0.130  0.8048  -76.8  12.760  138.1  0.0508   51.7  0.7827  -33.1
 0.140  0.8074  -81.6  12.412  135.5  0.0534   49.7  0.7620  -35.0
 0.150  0.8156  -86.3  12.092  132.7  0.0561   47.9  0.7421  -37.0
 0.200  0.7989 -103.4  10.372  122.9  0.0633   40.6  0.6472  -43.3
 0.250  0.7901 -116.8   8.954  115.5  0.0681   35.4  0.5767  -47.3
 0.300  0.7840 -127.1   7.832  109.7  0.0715   31.5  0.5176  -50.0
 0.350  0.7732 -134.3   6.994  105.8  0.0729   29.3  0.4798  -51.8
 0.400  0.7749 -141.6   6.197  100.8  0.0744   27.2  0.4426  -53.9
 0.450  0.7697 -146.6   5.628   97.9  0.0755   25.9  0.4197  -55.1
 0.500  0.7704 -151.6   5.076   94.4  0.0766   24.6  0.3969  -56.4
 0.600  0.7680 -159.1   4.290   89.1  0.0771   23.6  0.3660  -58.4
 0.700  0.7670 -164.9   3.698   84.5  0.0760   23.2  0.3485  -60.2
 0.800  0.7678 -169.9   3.257   80.4  0.0767   24.5  0.3385  -62.5
 0.900  0.7674 -174.1   2.902   76.7  0.0764   24.9  0.3320  -65.0
 1.000  0.7682 -177.7   2.622   73.4  0.0765   26.8  0.3273  -67.5
 1.100  0.7706  179.3   2.385   70.3  0.0765   28.6  0.3268  -69.9
 1.200  0.7717  176.1   2.190   67.2  0.0770   30.4  0.3280  -72.5
 1.300  0.7733  173.6   2.024   64.5  0.0772   33.1  0.3310  -75.5
 1.400  0.7768  171.2   1.887   61.6  0.0782   35.7  0.3328  -78.8
 1.500  0.7796  168.8   1.761   59.1  0.0792   38.2  0.3371  -81.5
 1.600  0.7825  166.5   1.654   56.5  0.0809   41.0  0.3447  -84.3
 1.700  0.7866  164.2   1.564   54.1  0.0831   44.3  0.3503  -87.6
 1.800  0.7886  162.2   1.483   51.6  0.0861   46.6  0.3558  -90.6
 1.900  0.7909  160.1   1.402   49.5  0.0890   49.2  0.3630  -93.4
 2.000  0.7943  158.1   1.338   47.0  0.0933   51.7  0.3718  -96.2
 2.100  0.7956  156.1   1.276   45.0  0.0976   53.9  0.3802  -99.1
 2.200  0.7979  154.2   1.216   42.8  0.1020   56.0  0.3896 -101.9
 2.300  0.8008  152.3   1.167   40.8  0.1074   57.6  0.3993 -104.5
 2.400  0.8046  150.4   1.119   38.6  0.1128   59.0  0.4097 -106.9
 2.500  0.8056  148.6   1.074   36.8  0.1191   60.3  0.4196 -109.7
 2.600  0.8074  146.8   1.030   34.9  0.1254   61.5  0.4305 -112.4
 2.700  0.8097  145.1   0.992   33.3  0.1320   62.3  0.4398 -114.5
 2.800  0.8127  143.4   0.955   31.6  0.1386   63.0  0.4496 -116.5
 2.900  0.8142  141.5   0.924   30.0  0.1461   63.3  0.4577 -119.0
 3.000  0.8165  139.7   0.893   28.2  0.1536   63.5  0.4666 -121.5
 3.100  0.8180  138.0   0.867   27.0  0.1618   63.4  0.4729 -123.9
 3.200  0.8203  136.2   0.841   25.7  0.1700   63.3  0.4801 -126.2
 3.300  0.8233  134.5   0.816   24.4  0.1783   63.2  0.4880 -128.4
 3.400  0.8270  132.8   0.791   22.9  0.1865   63.1  0.4966 -130.6
 3.500  0.8315  131.1   0.767   21.4  0.1947   63.0  0.5059 -132.7
 3.600  0.8320  129.4   0.747   20.4  0.2029   62.2  0.5108 -135.3
 3.700  0.8333  127.7   0.727   19.3  0.2111   61.4  0.5167 -137.8
 3.800  0.8354  126.0   0.707   18.1  0.2193   60.7  0.5236 -140.3
 3.900  0.8381  124.3   0.688   16.9  0.2276   60.1  0.5315 -142.7
 4.000  0.8416  122.6   0.669   15.6  0.2359   59.5  0.5402 -145.0
 4.100  0.8413  121.1   0.654   14.9  0.2436   58.5  0.5443 -147.8
 4.200  0.8416  119.6   0.638   14.1  0.2513   57.5  0.5496 -150.5
 4.300  0.8424  118.2   0.623   13.3  0.2591   56.6  0.5562 -153.2
 4.400  0.8438  116.7   0.608   12.4  0.2670   55.8  0.5639 -155.8
 4.500  0.8458  115.2   0.593   11.5  0.2749   55.0  0.5728 -158.3
 4.600  0.8456  114.1   0.580   11.1  0.2817   53.9  0.5785 -160.7
 4.700  0.8458  112.9   0.567   10.7  0.2885   52.9  0.5853 -163.0
 4.800  0.8463  111.8   0.555   10.3  0.2954   52.0  0.5929 -165.3
 4.900  0.8471  110.6   0.542    9.9  0.3024   51.1  0.6015 -167.5
 5.000  0.8483  109.5   0.529    9.4  0.3095   50.2  0.6109 -169.6
 5.100  0.8491  108.6   0.523    9.2  0.3161   49.3  0.6190 -171.4
 5.200  0.8501  107.7   0.517    9.0  0.3228   48.4  0.6277 -173.1
 5.300  0.8513  106.7   0.512    8.8  0.3296   47.6  0.6370 -174.8
 5.400  0.8527  105.8   0.506    8.6  0.3365   46.8  0.6468 -176.5
 5.500  0.8544  104.9   0.500    8.4  0.3434   46.0  0.6571 -178.1
 5.600  0.8549  103.9   0.494    8.6  0.3505   44.9  0.6636 -179.3
 5.700  0.8557  102.9   0.488    8.7  0.3578   43.9  0.6704  179.5
 5.800  0.8568  101.8   0.483    8.9  0.3651   42.9  0.6774  178.3
 5.900  0.8582  100.8   0.477    9.0  0.3726   42.0  0.6848  177.1
 6.000  0.8598   99.8   0.471    9.2  0.3801   41.1  0.6924  176.0
!
!  f       NFmin   Gammaopt  rn/50
! GHz       dB    MAG  ANG    -
 0.450      1.08  0.44  121   0.07
 0.900      1.21  0.58  158   0.06
 1.900      2.72  0.75  203   0.15
 2.400      3.62  0.76  211   0.29
!
! (c) 2017  Infineon Technologies AG, Munich