! Infineon Technologies  Discrete & RF Semiconductors
! BFP196WN
! VCE =  11. V,  IC =  15 mA
! Common Emitter S-Parameters:                            Jan 2017
# GHz  S  MA  R  50
!  f         S11            S21            S12            S22
! GHz     MAG   ANG      MAG   ANG      MAG   ANG      MAG   ANG
 0.010  0.6588  -13.0  40.525  174.1  0.0042   81.7  0.9710   -6.8
 0.020  0.6425  -27.9  38.709  166.8  0.0088   76.5  0.9537  -13.9
 0.030  0.6269  -39.6  37.201  161.4  0.0123   68.9  0.9097  -19.6
 0.040  0.6380  -51.4  36.052  155.5  0.0160   64.7  0.8756  -25.8
 0.050  0.6746  -62.3  35.299  149.4  0.0197   62.1  0.8526  -32.5
 0.060  0.6514  -69.9  33.310  146.3  0.0217   58.7  0.8053  -35.9
 0.070  0.6404  -78.0  31.434  142.7  0.0237   55.8  0.7613  -39.8
 0.080  0.6423  -86.1  29.692  138.8  0.0257   53.4  0.7211  -44.1
 0.090  0.6570  -94.0  28.110  134.3  0.0279   51.4  0.6855  -48.9
 0.100  0.6836 -101.5  26.715  129.4  0.0300   49.6  0.6552  -54.2
 0.110  0.6785 -106.1  25.426  127.5  0.0311   47.8  0.6235  -56.4
 0.120  0.6778 -110.7  24.168  125.3  0.0322   46.1  0.5929  -58.8
 0.130  0.6816 -115.4  22.948  123.0  0.0334   44.5  0.5634  -61.5
 0.140  0.6898 -119.9  21.772  120.3  0.0346   43.0  0.5353  -64.5
 0.150  0.7021 -124.3  20.647  117.4  0.0358   41.6  0.5088  -67.8
 0.200  0.7067 -137.9  16.423  109.5  0.0381   38.1  0.4148  -77.3
 0.250  0.7138 -147.2  13.573  104.0  0.0405   37.7  0.3535  -83.8
 0.300  0.7135 -154.1  11.526   99.9  0.0425   37.2  0.3066  -89.2
 0.350  0.7139 -158.6  10.162   97.2  0.0441   38.3  0.2797  -92.8
 0.400  0.7187 -163.1   8.828   93.7  0.0457   39.4  0.2542  -97.1
 0.450  0.7174 -166.3   7.967   91.7  0.0475   40.9  0.2384 -100.3
 0.500  0.7184 -169.6   7.119   89.2  0.0494   42.2  0.2235 -104.0
 0.600  0.7199 -174.1   5.962   85.5  0.0530   43.8  0.2047 -109.0
 0.700  0.7208 -177.8   5.113   82.3  0.0567   47.6  0.1926 -112.8
 0.800  0.7233  178.7   4.488   79.1  0.0616   50.1  0.1879 -115.8
 0.900  0.7227  175.6   3.986   76.4  0.0659   51.1  0.1858 -119.0
 1.000  0.7244  173.2   3.600   73.9  0.0706   52.9  0.1843 -121.6
 1.100  0.7270  170.8   3.275   71.5  0.0757   54.7  0.1852 -123.6
 1.200  0.7286  168.6   3.006   69.1  0.0801   55.6  0.1870 -125.2
 1.300  0.7294  166.5   2.777   66.9  0.0852   56.7  0.1922 -126.9
 1.400  0.7336  164.5   2.591   64.6  0.0908   57.7  0.1961 -129.3
 1.500  0.7358  162.7   2.418   62.5  0.0956   58.5  0.1995 -130.9
 1.600  0.7375  160.8   2.276   60.3  0.1013   58.9  0.2062 -131.8
 1.700  0.7394  158.8   2.154   58.3  0.1069   59.6  0.2139 -133.5
 1.800  0.7423  157.3   2.045   56.1  0.1127   59.8  0.2202 -135.3
 1.900  0.7430  155.4   1.938   54.3  0.1177   60.4  0.2265 -136.4
 2.000  0.7463  153.6   1.849   52.1  0.1240   60.1  0.2346 -137.3
 2.100  0.7473  151.9   1.768   50.3  0.1299   60.3  0.2429 -138.7
 2.200  0.7490  150.3   1.689   48.3  0.1359   60.5  0.2513 -140.1
 2.300  0.7512  148.6   1.622   46.5  0.1420   60.3  0.2592 -140.8
 2.400  0.7540  147.0   1.557   44.5  0.1482   60.2  0.2672 -141.5
 2.500  0.7543  145.4   1.499   42.8  0.1543   59.9  0.2764 -142.9
 2.600  0.7552  143.9   1.443   40.9  0.1605   59.6  0.2858 -144.2
 2.700  0.7572  142.4   1.394   39.3  0.1665   59.4  0.2928 -144.8
 2.800  0.7598  140.9   1.347   37.6  0.1726   59.2  0.2998 -145.4
 2.900  0.7611  139.2   1.305   36.0  0.1789   58.6  0.3079 -146.9
 3.000  0.7630  137.6   1.265   34.3  0.1852   58.1  0.3162 -148.4
 3.100  0.7650  136.0   1.231   32.9  0.1918   57.6  0.3222 -149.7
 3.200  0.7676  134.5   1.198   31.5  0.1984   57.1  0.3284 -150.9
 3.300  0.7708  132.9   1.165   30.0  0.2050   56.6  0.3348 -152.1
 3.400  0.7745  131.4   1.134   28.4  0.2117   56.2  0.3413 -153.3
 3.500  0.7788  129.9   1.103   26.7  0.2183   55.8  0.3479 -154.4
 3.600  0.7802  128.3   1.076   25.4  0.2244   55.0  0.3541 -156.2
 3.700  0.7822  126.8   1.049   24.0  0.2306   54.2  0.3606 -157.9
 3.800  0.7847  125.2   1.024   22.5  0.2369   53.5  0.3674 -159.6
 3.900  0.7878  123.7   0.998   20.9  0.2431   52.8  0.3745 -161.2
 4.000  0.7915  122.2   0.974   19.3  0.2494   52.2  0.3819 -162.7
 4.100  0.7927  120.8   0.951   18.2  0.2552   51.4  0.3887 -164.9
 4.200  0.7943  119.5   0.928   17.0  0.2610   50.7  0.3959 -166.9
 4.300  0.7964  118.2   0.906   15.8  0.2669   49.9  0.4037 -168.9
 4.400  0.7989  116.8   0.884   14.5  0.2728   49.3  0.4120 -170.9
 4.500  0.8018  115.5   0.863   13.2  0.2787   48.6  0.4207 -172.7
 4.600  0.8029  114.4   0.844   12.3  0.2841   47.8  0.4289 -174.4
 4.700  0.8043  113.4   0.824   11.4  0.2895   47.0  0.4376 -176.1
 4.800  0.8059  112.3   0.805   10.5  0.2949   46.2  0.4466 -177.7
 4.900  0.8078  111.3   0.787    9.5  0.3004   45.5  0.4559 -179.2
 5.000  0.8100  110.2   0.768    8.4  0.3060   44.8  0.4655  179.3
 5.100  0.8118  109.3   0.756    7.7  0.3115   44.1  0.4756  178.1
 5.200  0.8137  108.5   0.744    7.0  0.3170   43.5  0.4860  177.0
 5.300  0.8158  107.6   0.733    6.3  0.3226   42.8  0.4965  175.9
 5.400  0.8181  106.8   0.721    5.6  0.3282   42.2  0.5071  174.8
 5.500  0.8206  105.9   0.710    4.8  0.3339   41.6  0.5180  173.8
 5.600  0.8224  104.9   0.698    4.4  0.3403   40.8  0.5260  173.1
 5.700  0.8243  104.0   0.686    4.1  0.3467   40.0  0.5340  172.4
 5.800  0.8266  103.0   0.675    3.7  0.3533   39.2  0.5421  171.8
 5.900  0.8290  102.0   0.663    3.3  0.3599   38.4  0.5503  171.1
 6.000  0.8317  101.1   0.651    2.9  0.3665   37.7  0.5586  170.5
!
!  f       NFmin   Gammaopt  rn/50
! GHz       dB    MAG  ANG    -
!
! noise parameter not available yet for this operation point!
!
! (c) 2017  Infineon Technologies AG, Munich