! Infineon Technologies  Discrete & RF Semiconductors
! BFP196WN
! VCE =  3.0 V,  IC =  85 mA
! Common Emitter S-Parameters:                            Jan 2017
# GHz  S  MA  R  50
!  f         S11            S21            S12            S22
! GHz     MAG   ANG      MAG   ANG      MAG   ANG      MAG   ANG
 0.010  0.2160 -112.8  95.732  164.4  0.0031   73.4  0.8841  -21.2
 0.020  0.3795 -125.1  84.278  149.6  0.0058   68.9  0.8081  -41.2
 0.030  0.4538 -135.4  73.453  143.2  0.0073   60.0  0.6964  -51.8
 0.040  0.5384 -142.6  63.861  134.7  0.0089   54.2  0.6164  -65.7
 0.050  0.6292 -147.8  56.138  123.5  0.0105   50.2  0.5814  -82.4
 0.060  0.6410 -151.3  51.077  121.5  0.0111   51.0  0.5381  -87.4
 0.070  0.6550 -154.6  46.092  119.0  0.0117   51.7  0.4995  -93.1
 0.080  0.6711 -157.7  41.213  116.0  0.0124   52.3  0.4668  -99.8
 0.090  0.6892 -160.8  36.480  112.2  0.0130   52.9  0.4413 -107.3
 0.100  0.7091 -163.6  31.959  107.2  0.0136   53.4  0.4242 -115.6
 0.110  0.7147 -165.0  29.963  106.2  0.0143   54.3  0.4103 -118.7
 0.120  0.7206 -166.3  27.978  105.0  0.0150   55.1  0.3978 -122.1
 0.130  0.7270 -167.6  26.007  103.6  0.0156   55.8  0.3867 -125.6
 0.140  0.7337 -168.9  24.053  102.0  0.0163   56.5  0.3771 -129.4
 0.150  0.7408 -170.2  22.122  100.1  0.0170   57.1  0.3693 -133.3
 0.200  0.7445 -174.2  16.744   95.9  0.0194   61.5  0.3517 -143.6
 0.250  0.7496 -176.8  13.468   92.8  0.0240   63.1  0.3399 -150.0
 0.300  0.7532 -179.0  11.283   90.6  0.0273   66.0  0.3324 -155.2
 0.350  0.7542  179.3   9.892   89.0  0.0311   67.8  0.3302 -158.2
 0.400  0.7558  177.7   8.511   86.8  0.0349   69.2  0.3289 -161.2
 0.450  0.7564  176.4   7.661   85.5  0.0385   70.0  0.3289 -163.3
 0.500  0.7574  175.2   6.815   83.9  0.0421   70.6  0.3294 -165.4
 0.600  0.7567  172.8   5.689   81.3  0.0503   71.0  0.3294 -168.5
 0.700  0.7582  170.9   4.872   79.0  0.0574   72.4  0.3276 -170.7
 0.800  0.7602  168.7   4.269   76.5  0.0658   72.1  0.3284 -172.2
 0.900  0.7588  166.7   3.790   74.4  0.0730   71.5  0.3309 -173.6
 1.000  0.7616  165.1   3.422   72.3  0.0804   71.4  0.3324 -175.2
 1.100  0.7616  163.4   3.115   70.4  0.0881   70.7  0.3332 -176.2
 1.200  0.7633  161.7   2.860   68.4  0.0951   70.1  0.3339 -177.0
 1.300  0.7626  159.9   2.647   66.6  0.1029   69.7  0.3375 -177.5
 1.400  0.7641  158.3   2.473   64.6  0.1107   69.3  0.3415 -178.8
 1.500  0.7671  156.7   2.309   62.7  0.1179   68.3  0.3424 -179.7
 1.600  0.7690  155.2   2.179   60.9  0.1248   67.7  0.3446 -180.0
 1.700  0.7703  153.4   2.065   59.0  0.1329   67.1  0.3503  179.3
 1.800  0.7710  151.9   1.963   57.1  0.1402   66.1  0.3539  178.6
 1.900  0.7705  150.5   1.863   55.5  0.1467   65.4  0.3559  178.0
 2.000  0.7732  148.9   1.781   53.5  0.1544   64.5  0.3593  177.9
 2.100  0.7723  147.3   1.706   51.8  0.1614   63.7  0.3639  177.3
 2.200  0.7721  145.7   1.633   50.0  0.1685   62.9  0.3686  176.8
 2.300  0.7738  144.2   1.572   48.4  0.1754   62.0  0.3703  176.5
 2.400  0.7761  142.7   1.513   46.6  0.1824   61.2  0.3721  176.2
 2.500  0.7756  141.2   1.460   45.1  0.1895   60.2  0.3773  175.7
 2.600  0.7756  139.7   1.409   43.4  0.1967   59.3  0.3825  175.2
 2.700  0.7773  138.3   1.364   41.9  0.2030   58.4  0.3836  175.0
 2.800  0.7794  136.9   1.320   40.3  0.2093   57.6  0.3848  174.8
 2.900  0.7788  135.4   1.283   38.8  0.2158   56.6  0.3900  173.9
 3.000  0.7788  133.9   1.246   37.2  0.2224   55.7  0.3953  173.1
 3.100  0.7798  132.4   1.216   35.9  0.2285   54.7  0.3972  172.4
 3.200  0.7814  131.0   1.187   34.5  0.2347   53.8  0.3992  171.6
 3.300  0.7834  129.6   1.158   33.1  0.2410   52.9  0.4013  170.9
 3.400  0.7859  128.1   1.130   31.6  0.2473   52.0  0.4034  170.2
 3.500  0.7889  126.7   1.103   30.0  0.2537   51.2  0.4056  169.5
 3.600  0.7895  125.2   1.078   28.7  0.2591   50.2  0.4095  168.5
 3.700  0.7906  123.8   1.054   27.3  0.2645   49.2  0.4135  167.4
 3.800  0.7923  122.3   1.031   25.9  0.2700   48.3  0.4177  166.4
 3.900  0.7944  120.8   1.008   24.4  0.2756   47.4  0.4220  165.5
 4.000  0.7971  119.4   0.986   22.9  0.2813   46.5  0.4264  164.5
 4.100  0.7974  118.2   0.965   21.8  0.2860   45.6  0.4320  163.2
 4.200  0.7981  116.9   0.945   20.6  0.2908   44.7  0.4377  161.8
 4.300  0.7992  115.7   0.925   19.4  0.2956   43.8  0.4437  160.6
 4.400  0.8007  114.4   0.906   18.1  0.3005   43.0  0.4500  159.3
 4.500  0.8025  113.2   0.887   16.8  0.3055   42.2  0.4564  158.1
 4.600  0.8031  112.2   0.870   15.9  0.3096   41.4  0.4623  157.2
 4.700  0.8040  111.2   0.853   15.0  0.3138   40.7  0.4683  156.3
 4.800  0.8051  110.3   0.837   14.1  0.3181   39.9  0.4744  155.4
 4.900  0.8064  109.3   0.820   13.1  0.3224   39.2  0.4806  154.5
 5.000  0.8080  108.3   0.804   12.1  0.3267   38.5  0.4869  153.7
 5.100  0.8095  107.5   0.794   11.3  0.3312   37.8  0.4938  153.3
 5.200  0.8111  106.7   0.784   10.4  0.3358   37.2  0.5008  152.9
 5.300  0.8129  105.9   0.775    9.6  0.3404   36.5  0.5077  152.5
 5.400  0.8149  105.1   0.765    8.7  0.3451   35.9  0.5147  152.2
 5.500  0.8170  104.3   0.756    7.8  0.3498   35.3  0.5217  151.8
 5.600  0.8183  103.4   0.746    7.3  0.3553   34.6  0.5261  151.7
 5.700  0.8198  102.4   0.736    6.8  0.3609   33.8  0.5305  151.6
 5.800  0.8215  101.5   0.726    6.3  0.3666   33.1  0.5348  151.4
 5.900  0.8234  100.6   0.716    5.7  0.3723   32.5  0.5392  151.3
 6.000  0.8255   99.7   0.706    5.2  0.3780   31.8  0.5436  151.2
!
!  f       NFmin   Gammaopt  rn/50
! GHz       dB    MAG  ANG    -
 0.450      1.64  0.59 -175   0.05
 0.900      1.77  0.60 -168   0.07
 1.900      2.75  0.70 -146   0.22
 2.400      3.53  0.72 -138   0.37
!
! (c) 2017  Infineon Technologies AG, Munich