! Infineon Technologies  Discrete & RF Semiconductors
! BFP196WN
! VCE =  6.0 V,  IC = 0.11 A
! Common Emitter S-Parameters:                            Jan 2017
# GHz  S  MA  R  50
!  f         S11            S21            S12            S22
! GHz     MAG   ANG      MAG   ANG      MAG   ANG      MAG   ANG
 0.010  0.2019 -102.2  99.922  164.9  0.0029   76.0  0.8712  -18.9
 0.020  0.3576 -118.2  88.471  150.4  0.0049   67.6  0.7994  -37.5
 0.030  0.4287 -130.2  77.404  143.9  0.0064   60.3  0.6903  -47.2
 0.040  0.5131 -138.6  67.634  135.5  0.0080   55.8  0.6077  -60.0
 0.050  0.6052 -144.5  59.802  124.5  0.0096   52.8  0.5633  -75.7
 0.060  0.6170 -148.3  54.456  122.4  0.0102   53.4  0.5179  -80.2
 0.070  0.6315 -152.0  49.195  119.9  0.0109   53.9  0.4763  -85.5
 0.080  0.6485 -155.5  44.052  116.8  0.0115   54.3  0.4396  -91.8
 0.090  0.6677 -158.8  39.071  112.9  0.0122   54.7  0.4090  -99.1
 0.100  0.6890 -161.9  34.324  107.9  0.0128   55.1  0.3860 -107.4
 0.110  0.6946 -163.4  32.186  106.8  0.0135   55.7  0.3703 -110.4
 0.120  0.7007 -164.9  30.061  105.6  0.0141   56.2  0.3558 -113.7
 0.130  0.7072 -166.3  27.952  104.2  0.0148   56.7  0.3425 -117.3
 0.140  0.7142 -167.7  25.863  102.5  0.0154   57.2  0.3307 -121.1
 0.150  0.7216 -169.1  23.799  100.6  0.0161   57.6  0.3204 -125.2
 0.200  0.7254 -173.1  18.035   96.3  0.0187   61.5  0.2971 -136.3
 0.250  0.7319 -175.9  14.520   93.2  0.0224   64.7  0.2829 -143.1
 0.300  0.7328 -178.2  12.138   90.9  0.0258   66.2  0.2727 -149.0
 0.350  0.7339  180.0  10.649   89.2  0.0293   68.5  0.2692 -152.3
 0.400  0.7358  178.2   9.173   87.0  0.0328   70.3  0.2665 -155.6
 0.450  0.7359  176.9   8.257   85.7  0.0366   70.5  0.2658 -157.9
 0.500  0.7364  175.6   7.346   84.1  0.0405   70.7  0.2656 -160.3
 0.600  0.7380  173.3   6.137   81.5  0.0479   71.5  0.2658 -163.7
 0.700  0.7390  171.2   5.252   79.2  0.0547   73.1  0.2640 -166.0
 0.800  0.7427  169.1   4.599   76.7  0.0628   73.0  0.2646 -167.4
 0.900  0.7401  167.1   4.085   74.5  0.0699   72.1  0.2683 -168.9
 1.000  0.7436  165.4   3.689   72.5  0.0768   72.3  0.2698 -170.5
 1.100  0.7447  163.6   3.356   70.5  0.0844   71.7  0.2709 -171.4
 1.200  0.7453  162.0   3.079   68.5  0.0915   70.9  0.2725 -172.0
 1.300  0.7444  160.2   2.850   66.7  0.0985   70.6  0.2766 -172.3
 1.400  0.7472  158.6   2.660   64.7  0.1059   70.1  0.2810 -173.6
 1.500  0.7498  157.2   2.484   62.9  0.1128   69.2  0.2823 -174.4
 1.600  0.7511  155.5   2.341   61.0  0.1199   68.7  0.2854 -174.5
 1.700  0.7526  153.9   2.219   59.2  0.1274   68.0  0.2912 -175.1
 1.800  0.7536  152.3   2.107   57.2  0.1344   67.2  0.2960 -175.9
 1.900  0.7544  150.9   1.999   55.6  0.1410   66.7  0.2987 -176.4
 2.000  0.7573  149.3   1.910   53.6  0.1485   65.6  0.3025 -176.4
 2.100  0.7570  147.8   1.829   51.9  0.1551   64.9  0.3080 -176.9
 2.200  0.7572  146.3   1.749   50.1  0.1617   64.2  0.3136 -177.3
 2.300  0.7589  144.8   1.683   48.4  0.1689   63.3  0.3164 -177.4
 2.400  0.7612  143.3   1.618   46.6  0.1761   62.5  0.3192 -177.5
 2.500  0.7613  141.8   1.561   45.0  0.1826   61.6  0.3252 -178.0
 2.600  0.7620  140.3   1.506   43.3  0.1891   60.7  0.3313 -178.5
 2.700  0.7627  138.8   1.456   41.9  0.1956   59.9  0.3333 -178.6
 2.800  0.7639  137.4   1.407   40.3  0.2022   59.1  0.3354 -178.6
 2.900  0.7647  135.9   1.366   38.7  0.2084   58.1  0.3410 -179.5
 3.000  0.7661  134.4   1.327   37.1  0.2147   57.2  0.3466  179.6
 3.100  0.7672  132.9   1.294   35.8  0.2209   56.2  0.3494  178.9
 3.200  0.7689  131.5   1.262   34.4  0.2272   55.3  0.3522  178.2
 3.300  0.7710  130.1   1.230   32.9  0.2335   54.5  0.3551  177.6
 3.400  0.7736  128.6   1.200   31.4  0.2399   53.7  0.3580  176.9
 3.500  0.7767  127.2   1.170   29.8  0.2463   52.9  0.3610  176.3
 3.600  0.7776  125.8   1.143   28.5  0.2517   51.9  0.3657  175.2
 3.700  0.7789  124.3   1.117   27.1  0.2572   50.9  0.3705  174.1
 3.800  0.7808  122.9   1.091   25.6  0.2627   50.0  0.3755  173.0
 3.900  0.7831  121.5   1.066   24.1  0.2683   49.1  0.3806  171.9
 4.000  0.7859  120.1   1.042   22.5  0.2740   48.3  0.3858  170.9
 4.100  0.7870  118.8   1.020   21.4  0.2788   47.4  0.3917  169.4
 4.200  0.7884  117.6   0.997   20.2  0.2836   46.5  0.3979  168.0
 4.300  0.7903  116.4   0.976   18.9  0.2886   45.6  0.4044  166.6
 4.400  0.7924  115.1   0.955   17.7  0.2936   44.8  0.4110  165.3
 4.500  0.7950  113.9   0.934   16.3  0.2986   44.0  0.4179  164.0
 4.600  0.7958  112.9   0.915   15.4  0.3029   43.2  0.4244  163.0
 4.700  0.7968  111.9   0.896   14.4  0.3072   42.4  0.4310  161.9
 4.800  0.7981  110.8   0.878   13.4  0.3116   41.7  0.4378  161.0
 4.900  0.7996  109.8   0.860   12.4  0.3161   40.9  0.4447  160.0
 5.000  0.8014  108.8   0.842   11.3  0.3206   40.2  0.4517  159.1
 5.100  0.8032  108.0   0.831   10.5  0.3253   39.5  0.4596  158.6
 5.200  0.8051  107.2   0.820    9.6  0.3300   38.9  0.4675  158.2
 5.300  0.8072  106.4   0.809    8.8  0.3348   38.3  0.4755  157.7
 5.400  0.8094  105.6   0.798    7.9  0.3396   37.7  0.4835  157.3
 5.500  0.8118  104.8   0.788    7.0  0.3444   37.1  0.4915  156.9
 5.600  0.8130  103.9   0.776    6.5  0.3500   36.3  0.4967  156.7
 5.700  0.8145  103.0   0.765    5.9  0.3557   35.5  0.5020  156.6
 5.800  0.8161  102.1   0.753    5.4  0.3614   34.8  0.5072  156.4
 5.900  0.8180  101.2   0.741    4.8  0.3672   34.1  0.5125  156.3
 6.000  0.8200  100.3   0.730    4.2  0.3730   33.4  0.5177  156.1
!
!  f       NFmin   Gammaopt  rn/50
! GHz       dB    MAG  ANG    -
!
! noise parameter not available yet for this operation point!
!
! (c) 2017  Infineon Technologies AG, Munich