! Infineon Technologies  Discrete & RF Semiconductors
! BFP196WN
! VCE =  3.0 V,  IC = 0.14 A
! Common Emitter S-Parameters:                            Jan 2017
# GHz  S  MA  R  50
!  f         S11            S21            S12            S22
! GHz     MAG   ANG      MAG   ANG      MAG   ANG      MAG   ANG
 0.010  0.3472 -142.7  89.660  160.0  0.0029   73.1  0.7086  -28.1
 0.020  0.5130 -145.7  74.800  142.8  0.0054   61.1  0.6230  -53.4
 0.030  0.5803 -151.8  63.499  136.9  0.0067   54.4  0.5281  -65.1
 0.040  0.6528 -156.6  53.141  128.7  0.0080   50.0  0.4638  -80.9
 0.050  0.7290 -160.4  44.393  116.8  0.0094   46.8  0.4435  -99.9
 0.060  0.7375 -162.6  40.207  115.2  0.0099   49.4  0.4169 -105.0
 0.070  0.7471 -164.8  36.062  113.1  0.0104   51.7  0.3940 -110.7
 0.080  0.7577 -166.9  31.973  110.6  0.0109   53.8  0.3755 -117.1
 0.090  0.7693 -168.9  27.967  107.3  0.0115   55.8  0.3621 -124.0
 0.100  0.7818 -170.9  24.084  102.9  0.0120   57.5  0.3544 -131.4
 0.110  0.7858 -171.8  22.543  102.0  0.0128   57.9  0.3471 -134.2
 0.120  0.7900 -172.6  21.009  101.0  0.0135   58.3  0.3406 -137.0
 0.130  0.7943 -173.5  19.482   99.9  0.0143   58.6  0.3350 -140.0
 0.140  0.7989 -174.4  17.964   98.5  0.0150   58.9  0.3303 -143.1
 0.150  0.8036 -175.2  16.458   96.9  0.0158   59.2  0.3266 -146.2
 0.200  0.8048 -178.0  12.406   93.3  0.0186   67.1  0.3225 -154.0
 0.250  0.8106 -179.8   9.970   90.6  0.0226   68.4  0.3177 -158.4
 0.300  0.8098  178.4   8.333   88.5  0.0264   70.2  0.3139 -162.5
 0.350  0.8105  176.9   7.302   87.0  0.0304   71.9  0.3136 -164.4
 0.400  0.8118  175.5   6.279   84.9  0.0344   73.2  0.3137 -166.4
 0.450  0.8110  174.4   5.650   83.6  0.0381   73.3  0.3148 -167.8
 0.500  0.8106  173.2   5.025   82.0  0.0418   73.3  0.3161 -169.2
 0.600  0.8104  171.3   4.198   79.4  0.0495   73.2  0.3180 -171.3
 0.700  0.8104  169.3   3.598   77.1  0.0567   74.5  0.3168 -172.9
 0.800  0.8130  167.4   3.155   74.5  0.0655   74.4  0.3182 -173.7
 0.900  0.8124  165.4   2.806   72.3  0.0729   73.4  0.3227 -174.6
 1.000  0.8126  163.7   2.536   70.1  0.0802   73.1  0.3246 -175.8
 1.100  0.8155  162.1   2.311   68.0  0.0877   72.7  0.3264 -176.6
 1.200  0.8144  160.4   2.126   65.9  0.0951   71.9  0.3276 -177.0
 1.300  0.8135  158.8   1.970   64.1  0.1027   71.3  0.3325 -177.1
 1.400  0.8153  157.1   1.842   61.9  0.1105   70.5  0.3374 -178.3
 1.500  0.8170  155.6   1.724   60.0  0.1180   69.8  0.3390 -179.0
 1.600  0.8188  154.0   1.629   58.1  0.1257   69.2  0.3421 -179.0
 1.700  0.8200  152.3   1.547   56.1  0.1331   68.3  0.3492 -179.5
 1.800  0.8216  150.8   1.472   54.1  0.1402   67.4  0.3540  179.8
 1.900  0.8202  149.3   1.401   52.5  0.1476   66.7  0.3562  179.2
 2.000  0.8217  147.7   1.341   50.4  0.1551   65.8  0.3603  179.2
 2.100  0.8214  146.1   1.287   48.7  0.1623   64.9  0.3662  178.7
 2.200  0.8218  144.6   1.234   46.9  0.1695   64.1  0.3721  178.3
 2.300  0.8223  143.0   1.190   45.2  0.1767   63.2  0.3746  178.0
 2.400  0.8234  141.5   1.147   43.3  0.1840   62.3  0.3771  177.8
 2.500  0.8224  140.0   1.110   41.8  0.1913   61.3  0.3835  177.3
 2.600  0.8221  138.4   1.073   40.1  0.1986   60.3  0.3900  176.8
 2.700  0.8227  137.0   1.040   38.6  0.2051   59.4  0.3918  176.6
 2.800  0.8237  135.6   1.007   37.1  0.2116   58.6  0.3937  176.5
 2.900  0.8228  134.1   0.980   35.6  0.2183   57.6  0.3999  175.5
 3.000  0.8225  132.5   0.954   34.1  0.2250   56.6  0.4062  174.6
 3.100  0.8229  131.0   0.933   32.8  0.2314   55.6  0.4089  173.9
 3.200  0.8238  129.6   0.912   31.5  0.2378   54.7  0.4116  173.1
 3.300  0.8252  128.1   0.891   30.1  0.2443   53.8  0.4144  172.4
 3.400  0.8272  126.6   0.871   28.6  0.2508   52.9  0.4173  171.7
 3.500  0.8297  125.2   0.852   27.1  0.2574   52.1  0.4202  171.0
 3.600  0.8294  123.7   0.834   25.9  0.2629   51.0  0.4247  169.9
 3.700  0.8297  122.2   0.817   24.6  0.2686   50.0  0.4294  168.8
 3.800  0.8306  120.8   0.800   23.3  0.2743   49.0  0.4343  167.7
 3.900  0.8320  119.3   0.783   21.9  0.2800   48.1  0.4393  166.7
 4.000  0.8339  117.8   0.767   20.5  0.2859   47.2  0.4444  165.7
 4.100  0.8339  116.6   0.752   19.5  0.2907   46.2  0.4506  164.3
 4.200  0.8343  115.4   0.737   18.5  0.2956   45.3  0.4570  163.0
 4.300  0.8351  114.1   0.723   17.4  0.3005   44.4  0.4636  161.7
 4.400  0.8363  112.9   0.709   16.3  0.3055   43.5  0.4705  160.4
 4.500  0.8378  111.7   0.695   15.1  0.3106   42.7  0.4776  159.2
 4.600  0.8375  110.7   0.683   14.3  0.3149   41.9  0.4837  158.2
 4.700  0.8375  109.7   0.671   13.5  0.3193   41.1  0.4900  157.2
 4.800  0.8378  108.6   0.659   12.7  0.3237   40.3  0.4964  156.2
 4.900  0.8383  107.6   0.647   11.9  0.3282   39.5  0.5030  155.3
 5.000  0.8391  106.6   0.635   11.0  0.3327   38.8  0.5097  154.4
 5.100  0.8396  105.8   0.629   10.4  0.3374   38.1  0.5172  153.9
 5.200  0.8404  105.0   0.623    9.7  0.3422   37.5  0.5247  153.5
 5.300  0.8412  104.3   0.617    9.1  0.3470   36.8  0.5322  153.0
 5.400  0.8422  103.5   0.611    8.4  0.3519   36.2  0.5398  152.6
 5.500  0.8434  102.7   0.605    7.7  0.3568   35.6  0.5474  152.2
 5.600  0.8442  101.8   0.598    7.4  0.3623   34.8  0.5520  152.0
 5.700  0.8451  100.9   0.591    7.1  0.3679   34.0  0.5567  151.8
 5.800  0.8463   99.9   0.584    6.8  0.3735   33.2  0.5613  151.6
 5.900  0.8478   99.0   0.577    6.5  0.3792   32.4  0.5659  151.4
 6.000  0.8494   98.1   0.570    6.2  0.3850   31.7  0.5706  151.2
!
!  f       NFmin   Gammaopt  rn/50
! GHz       dB    MAG  ANG    -
!
! noise parameter not available yet for this operation point!
!
! (c) 2017  Infineon Technologies AG, Munich