! Infineon Technologies  Discrete & RF Semiconductors
! BFP196WN
! VCE =  7.0 V,  IC =  50 mA
! Common Emitter S-Parameters:                            Jan 2017
# GHz  S  MA  R  50
!  f         S11            S21            S12            S22
! GHz     MAG   ANG      MAG   ANG      MAG   ANG      MAG   ANG
 0.010  0.2942  -41.0  81.187  168.5  0.0032   82.4  0.9401  -14.3
 0.020  0.3618  -73.5  74.981  156.7  0.0066   73.6  0.8852  -28.3
 0.030  0.3943  -92.6  67.764  150.2  0.0086   64.6  0.7919  -37.2
 0.040  0.4622 -107.5  61.630  142.2  0.0108   59.1  0.7221  -48.1
 0.050  0.5526 -118.0  56.930  132.7  0.0130   55.4  0.6832  -60.7
 0.060  0.5596 -124.3  52.262  130.2  0.0138   53.7  0.6288  -65.0
 0.070  0.5732 -130.4  47.712  127.2  0.0147   52.2  0.5786  -70.1
 0.080  0.5930 -136.2  43.316  123.7  0.0155   50.9  0.5338  -76.1
 0.090  0.6183 -141.5  39.129  119.3  0.0163   49.7  0.4959  -83.1
 0.100  0.6486 -146.4  35.222  113.9  0.0172   48.6  0.4665  -91.1
 0.110  0.6546 -148.9  33.127  112.6  0.0179   48.4  0.4436  -94.0
 0.120  0.6617 -151.3  31.053  111.0  0.0186   48.3  0.4221  -97.3
 0.130  0.6701 -153.7  29.003  109.3  0.0193   48.1  0.4020 -100.9
 0.140  0.6795 -156.0  26.984  107.3  0.0200   48.0  0.3837 -104.8
 0.150  0.6901 -158.3  25.003  105.0  0.0207   47.9  0.3673 -109.1
 0.200  0.6982 -164.9  19.109   99.7  0.0220   52.3  0.3230 -121.5
 0.250  0.7072 -169.4  15.447   95.9  0.0257   54.9  0.2976 -129.9
 0.300  0.7109 -172.8  12.959   93.2  0.0282   56.7  0.2794 -136.8
 0.350  0.7123 -175.2  11.378   91.3  0.0316   59.2  0.2714 -141.0
 0.400  0.7148 -177.5   9.812   88.9  0.0351   61.2  0.2649 -145.5
 0.450  0.7151 -179.3   8.835   87.5  0.0383   62.6  0.2620 -148.6
 0.500  0.7161  179.0   7.865   85.7  0.0415   63.8  0.2598 -151.8
 0.600  0.7161  176.1   6.573   82.9  0.0481   65.4  0.2563 -156.4
 0.700  0.7167  173.6   5.627   80.4  0.0546   67.0  0.2532 -159.5
 0.800  0.7219  171.2   4.932   77.8  0.0623   68.1  0.2536 -161.5
 0.900  0.7200  169.1   4.377   75.6  0.0694   67.9  0.2556 -163.4
 1.000  0.7233  167.1   3.952   73.5  0.0760   68.0  0.2570 -165.3
 1.100  0.7239  165.3   3.595   71.5  0.0831   68.0  0.2576 -166.6
 1.200  0.7248  163.5   3.299   69.5  0.0892   67.9  0.2590 -167.6
 1.300  0.7256  161.7   3.049   67.7  0.0963   67.8  0.2629 -168.2
 1.400  0.7269  160.0   2.848   65.6  0.1037   67.1  0.2670 -169.6
 1.500  0.7307  158.5   2.659   63.8  0.1101   66.8  0.2687 -170.5
 1.600  0.7317  156.8   2.502   61.9  0.1171   66.6  0.2719 -170.7
 1.700  0.7333  154.9   2.371   60.0  0.1246   66.0  0.2777 -171.3
 1.800  0.7348  153.5   2.252   58.1  0.1310   65.4  0.2822 -172.2
 1.900  0.7365  152.0   2.136   56.5  0.1374   64.9  0.2850 -172.8
 2.000  0.7393  150.3   2.039   54.5  0.1448   64.1  0.2889 -172.9
 2.100  0.7386  148.8   1.952   52.8  0.1512   63.4  0.2944 -173.4
 2.200  0.7385  147.3   1.866   51.0  0.1577   62.8  0.3000 -173.9
 2.300  0.7407  145.7   1.794   49.3  0.1646   62.1  0.3034 -174.1
 2.400  0.7434  144.2   1.724   47.5  0.1715   61.4  0.3068 -174.2
 2.500  0.7430  142.8   1.662   45.9  0.1780   60.6  0.3127 -174.7
 2.600  0.7430  141.3   1.602   44.2  0.1846   59.8  0.3187 -175.2
 2.700  0.7448  139.8   1.549   42.8  0.1908   59.1  0.3213 -175.4
 2.800  0.7470  138.4   1.497   41.2  0.1970   58.5  0.3240 -175.5
 2.900  0.7476  136.9   1.453   39.6  0.2034   57.5  0.3297 -176.4
 3.000  0.7487  135.4   1.410   38.0  0.2098   56.5  0.3354 -177.2
 3.100  0.7501  133.9   1.374   36.7  0.2159   55.7  0.3384 -177.9
 3.200  0.7520  132.5   1.339   35.3  0.2221   54.9  0.3415 -178.6
 3.300  0.7544  131.0   1.305   33.8  0.2283   54.1  0.3447 -179.3
 3.400  0.7573  129.5   1.272   32.2  0.2345   53.4  0.3479 -179.9
 3.500  0.7607  128.1   1.240   30.6  0.2408   52.7  0.3511  179.4
 3.600  0.7621  126.6   1.211   29.3  0.2463   51.7  0.3557  178.2
 3.700  0.7640  125.2   1.183   27.9  0.2518   50.8  0.3604  177.1
 3.800  0.7665  123.7   1.155   26.4  0.2574   49.9  0.3653  176.0
 3.900  0.7694  122.2   1.129   24.9  0.2630   49.1  0.3703  174.9
 4.000  0.7728  120.8   1.103   23.3  0.2687   48.3  0.3754  173.8
 4.100  0.7741  119.5   1.079   22.1  0.2735   47.4  0.3814  172.3
 4.200  0.7757  118.3   1.055   20.9  0.2783   46.6  0.3878  170.8
 4.300  0.7777  117.1   1.032   19.6  0.2832   45.8  0.3943  169.4
 4.400  0.7801  115.8   1.009   18.3  0.2882   45.0  0.4011  168.0
 4.500  0.7828  114.6   0.987   16.9  0.2932   44.2  0.4081  166.7
 4.600  0.7840  113.6   0.966   16.0  0.2976   43.4  0.4150  165.6
 4.700  0.7855  112.5   0.946   15.0  0.3021   42.7  0.4220  164.6
 4.800  0.7872  111.5   0.926   14.0  0.3066   41.9  0.4291  163.5
 4.900  0.7891  110.5   0.906   13.0  0.3112   41.2  0.4364  162.6
 5.000  0.7913  109.5   0.887   11.9  0.3158   40.5  0.4438  161.6
 5.100  0.7932  108.7   0.875   11.0  0.3206   39.9  0.4518  161.1
 5.200  0.7952  107.9   0.862   10.2  0.3254   39.2  0.4599  160.5
 5.300  0.7974  107.1   0.850    9.3  0.3302   38.6  0.4680  160.0
 5.400  0.7997  106.3   0.839    8.4  0.3351   38.1  0.4761  159.6
 5.500  0.8022  105.5   0.827    7.4  0.3400   37.5  0.4843  159.1
 5.600  0.8034  104.6   0.815    6.9  0.3456   36.7  0.4901  158.9
 5.700  0.8048  103.6   0.802    6.4  0.3512   36.0  0.4958  158.8
 5.800  0.8064  102.7   0.790    5.8  0.3569   35.3  0.5016  158.6
 5.900  0.8083  101.8   0.778    5.3  0.3627   34.6  0.5073  158.5
 6.000  0.8103  100.9   0.766    4.7  0.3685   33.9  0.5131  158.3
!
!  f       NFmin   Gammaopt  rn/50
! GHz       dB    MAG  ANG    -
 0.450      1.27  0.53 -177   0.05
 0.900      1.39  0.56 -171   0.05
 1.900      2.33  0.69 -148   0.16
 2.400      3.05  0.70 -140   0.28
!
! (c) 2017  Infineon Technologies AG, Munich