! Infineon Technologies  Discrete & RF Semiconductors
! BFP196WN
! VCE =  4.0 V,  IC = 0.12 A
! Common Emitter S-Parameters:                            Jan 2017
# GHz  S  MA  R  50
!  f         S11            S21            S12            S22
! GHz     MAG   ANG      MAG   ANG      MAG   ANG      MAG   ANG
 0.010  0.2515 -128.6  99.207  163.2  0.0030   75.0  0.8324  -22.1
 0.020  0.4170 -134.0  86.448  147.5  0.0051   67.3  0.7487  -43.0
 0.030  0.4888 -142.4  74.667  141.3  0.0066   59.5  0.6404  -53.5
 0.040  0.5682 -148.5  64.094  132.8  0.0082   54.6  0.5612  -67.5
 0.050  0.6526 -153.1  55.425  121.4  0.0099   51.4  0.5246  -84.7
 0.060  0.6639 -156.0  50.347  119.5  0.0104   52.7  0.4853  -89.5
 0.070  0.6770 -158.9  45.337  117.2  0.0108   53.9  0.4500  -95.2
 0.080  0.6916 -161.6  40.420  114.3  0.0113   55.0  0.4198 -101.7
 0.090  0.7077 -164.2  35.634  110.6  0.0118   56.0  0.3958 -109.1
 0.100  0.7252 -166.7  31.041  105.8  0.0123   56.9  0.3792 -117.3
 0.110  0.7300 -167.8  29.087  104.8  0.0131   57.6  0.3668 -120.3
 0.120  0.7351 -168.9  27.143  103.7  0.0138   58.3  0.3555 -123.6
 0.130  0.7405 -170.0  25.211  102.4  0.0146   58.9  0.3453 -127.0
 0.140  0.7461 -171.1  23.293  101.0  0.0153   59.4  0.3365 -130.6
 0.150  0.7520 -172.1  21.394   99.2  0.0161   59.9  0.3291 -134.4
 0.200  0.7535 -175.8  16.168   95.0  0.0183   65.2  0.3146 -144.3
 0.250  0.7597 -177.9  13.003   92.2  0.0228   66.1  0.3049 -150.2
 0.300  0.7620 -179.9  10.879   90.0  0.0258   68.1  0.2980 -155.5
 0.350  0.7625  178.5   9.536   88.4  0.0296   70.5  0.2962 -158.2
 0.400  0.7635  177.0   8.204   86.2  0.0334   72.4  0.2951 -161.0
 0.450  0.7636  175.8   7.381   85.0  0.0372   72.5  0.2950 -162.9
 0.500  0.7641  174.6   6.563   83.4  0.0411   72.6  0.2953 -164.8
 0.600  0.7644  172.3   5.487   80.8  0.0490   72.7  0.2966 -167.8
 0.700  0.7657  170.3   4.698   78.5  0.0558   73.5  0.2947 -169.8
 0.800  0.7668  168.3   4.112   76.0  0.0644   73.9  0.2961 -171.0
 0.900  0.7682  166.3   3.652   73.8  0.0716   73.1  0.2990 -172.2
 1.000  0.7670  164.8   3.297   71.7  0.0783   72.7  0.3012 -173.6
 1.100  0.7691  162.9   3.005   69.8  0.0861   72.2  0.3023 -174.6
 1.200  0.7706  161.2   2.757   67.7  0.0931   71.5  0.3037 -175.2
 1.300  0.7701  159.7   2.552   65.9  0.1009   70.8  0.3078 -175.5
 1.400  0.7718  158.0   2.386   63.9  0.1086   70.3  0.3125 -176.7
 1.500  0.7752  156.5   2.228   62.0  0.1155   69.7  0.3136 -177.5
 1.600  0.7765  154.9   2.100   60.2  0.1231   68.8  0.3163 -177.6
 1.700  0.7763  153.2   1.992   58.2  0.1310   68.1  0.3221 -178.1
 1.800  0.7782  151.7   1.894   56.3  0.1375   67.3  0.3269 -178.9
 1.900  0.7791  150.4   1.796   54.7  0.1443   66.4  0.3293 -179.4
 2.000  0.7813  148.7   1.718   52.7  0.1520   65.7  0.3331 -179.4
 2.100  0.7804  147.2   1.646   51.0  0.1589   64.8  0.3383 -179.9
 2.200  0.7800  145.6   1.576   49.2  0.1658   64.0  0.3435  179.6
 2.300  0.7818  144.1   1.517   47.5  0.1729   63.2  0.3460  179.4
 2.400  0.7842  142.6   1.460   45.7  0.1801   62.4  0.3486  179.2
 2.500  0.7829  141.1   1.410   44.1  0.1870   61.3  0.3545  178.7
 2.600  0.7822  139.6   1.361   42.3  0.1940   60.3  0.3604  178.2
 2.700  0.7836  138.2   1.317   40.9  0.2004   59.5  0.3622  178.1
 2.800  0.7854  136.8   1.274   39.4  0.2068   58.7  0.3641  178.0
 2.900  0.7853  135.3   1.237   37.8  0.2132   57.7  0.3698  177.1
 3.000  0.7858  133.8   1.201   36.2  0.2197   56.7  0.3755  176.2
 3.100  0.7867  132.3   1.172   34.9  0.2259   55.7  0.3780  175.5
 3.200  0.7881  130.8   1.144   33.5  0.2323   54.8  0.3805  174.8
 3.300  0.7901  129.3   1.117   32.0  0.2386   53.9  0.3830  174.1
 3.400  0.7926  127.9   1.090   30.5  0.2450   53.1  0.3856  173.5
 3.500  0.7956  126.4   1.064   28.9  0.2515   52.3  0.3883  172.8
 3.600  0.7962  125.0   1.040   27.6  0.2570   51.3  0.3928  171.7
 3.700  0.7974  123.5   1.017   26.3  0.2626   50.3  0.3974  170.6
 3.800  0.7990  122.1   0.994   24.8  0.2682   49.4  0.4021  169.6
 3.900  0.8011  120.7   0.972   23.4  0.2739   48.5  0.4070  168.6
 4.000  0.8037  119.3   0.951   21.8  0.2797   47.6  0.4120  167.6
 4.100  0.8042  118.0   0.931   20.7  0.2844   46.7  0.4179  166.2
 4.200  0.8052  116.8   0.911   19.6  0.2893   45.8  0.4241  164.8
 4.300  0.8065  115.5   0.892   18.4  0.2941   44.9  0.4305  163.5
 4.400  0.8082  114.3   0.873   17.1  0.2991   44.1  0.4371  162.2
 4.500  0.8103  113.0   0.854   15.8  0.3041   43.3  0.4440  160.9
 4.600  0.8105  112.0   0.838   14.9  0.3083   42.5  0.4502  159.9
 4.700  0.8110  111.0   0.821   14.0  0.3126   41.7  0.4566  158.9
 4.800  0.8117  110.1   0.805   13.1  0.3169   40.9  0.4631  157.9
 4.900  0.8126  109.1   0.790   12.1  0.3213   40.1  0.4697  157.0
 5.000  0.8138  108.1   0.774   11.1  0.3258   39.4  0.4764  156.1
 5.100  0.8152  107.3   0.764   10.3  0.3304   38.7  0.4840  155.7
 5.200  0.8169  106.4   0.754    9.5  0.3350   38.1  0.4915  155.3
 5.300  0.8186  105.6   0.745    8.7  0.3397   37.5  0.4991  154.9
 5.400  0.8206  104.8   0.735    7.9  0.3444   36.9  0.5068  154.5
 5.500  0.8227  104.0   0.726    7.0  0.3492   36.3  0.5144  154.1
 5.600  0.8239  103.1   0.716    6.5  0.3548   35.5  0.5192  154.0
 5.700  0.8253  102.2   0.707    6.1  0.3604   34.7  0.5241  153.8
 5.800  0.8269  101.3   0.697    5.6  0.3661   33.9  0.5289  153.7
 5.900  0.8288  100.4   0.687    5.1  0.3719   33.2  0.5338  153.5
 6.000  0.8308   99.5   0.678    4.6  0.3777   32.5  0.5386  153.4
!
!  f       NFmin   Gammaopt  rn/50
! GHz       dB    MAG  ANG    -
!
! noise parameter not available yet for this operation point!
!
! (c) 2017  Infineon Technologies AG, Munich