! Infineon Technologies  Discrete & RF Semiconductors
! BFP196WN
! VCE =  2.0 V,  IC =  85 mA
! Common Emitter S-Parameters:                            Jan 2017
# GHz  S  MA  R  50
!  f         S11            S21            S12            S22
! GHz     MAG   ANG      MAG   ANG      MAG   ANG      MAG   ANG
 0.010  0.2529 -122.4  93.092  162.7  0.0037   73.0  0.8562  -24.3
 0.020  0.4296 -131.6  80.920  146.9  0.0058   67.1  0.7722  -46.4
 0.030  0.5018 -140.6  69.726  140.7  0.0074   59.2  0.6611  -57.7
 0.040  0.5830 -147.2  59.639  132.3  0.0091   54.2  0.5851  -72.7
 0.050  0.6701 -152.1  51.318  120.9  0.0108   50.8  0.5585  -90.6
 0.060  0.6808 -155.2  46.610  119.0  0.0115   51.3  0.5206  -95.8
 0.070  0.6933 -158.1  41.962  116.7  0.0121   51.8  0.4876 -101.7
 0.080  0.7076 -161.0  37.399  113.9  0.0128   52.3  0.4605 -108.4
 0.090  0.7236 -163.7  32.954  110.2  0.0134   52.6  0.4404 -115.8
 0.100  0.7412 -166.3  28.682  105.5  0.0141   53.0  0.4283 -123.8
 0.110  0.7460 -167.5  26.868  104.5  0.0148   53.5  0.4173 -126.8
 0.120  0.7511 -168.6  25.063  103.4  0.0155   54.0  0.4076 -130.0
 0.130  0.7565 -169.7  23.269  102.1  0.0163   54.4  0.3991 -133.3
 0.140  0.7621 -170.8  21.488  100.6  0.0170   54.8  0.3921 -136.7
 0.150  0.7681 -171.9  19.726   98.8  0.0177   55.1  0.3865 -140.3
 0.200  0.7710 -175.5  14.900   94.8  0.0202   61.6  0.3756 -149.6
 0.250  0.7770 -177.9  11.998   91.9  0.0242   63.5  0.3680 -155.2
 0.300  0.7792 -179.9  10.026   89.7  0.0269   66.0  0.3621 -159.9
 0.350  0.7785  178.5   8.788   88.1  0.0311   67.9  0.3607 -162.4
 0.400  0.7785  176.9   7.559   86.0  0.0353   69.3  0.3599 -164.9
 0.450  0.7791  175.7   6.803   84.7  0.0393   70.2  0.3604 -166.8
 0.500  0.7801  174.5   6.052   83.1  0.0434   70.9  0.3612 -168.6
 0.600  0.7801  172.2   5.055   80.5  0.0516   70.7  0.3622 -171.4
 0.700  0.7820  170.2   4.330   78.3  0.0588   71.8  0.3603 -173.3
 0.800  0.7835  168.2   3.793   75.8  0.0672   72.1  0.3614 -174.6
 0.900  0.7826  166.2   3.370   73.6  0.0745   71.3  0.3638 -176.0
 1.000  0.7827  164.6   3.045   71.6  0.0824   71.1  0.3654 -177.3
 1.100  0.7864  162.9   2.773   69.5  0.0910   70.8  0.3664 -178.3
 1.200  0.7852  161.1   2.547   67.5  0.0977   70.0  0.3669 -179.2
 1.300  0.7858  159.4   2.356   65.7  0.1056   69.5  0.3702 -179.7
 1.400  0.7871  157.8   2.206   63.6  0.1134   68.8  0.3742  179.1
 1.500  0.7887  156.4   2.060   61.8  0.1209   68.0  0.3753  178.2
 1.600  0.7910  154.7   1.945   59.9  0.1283   67.4  0.3768  177.9
 1.700  0.7930  152.9   1.844   58.1  0.1360   66.6  0.3829  177.2
 1.800  0.7921  151.3   1.756   56.1  0.1432   65.7  0.3864  176.5
 1.900  0.7929  150.0   1.667   54.5  0.1503   65.0  0.3879  175.9
 2.000  0.7949  148.3   1.594   52.4  0.1584   64.0  0.3913  175.6
 2.100  0.7942  146.8   1.529   50.8  0.1654   63.2  0.3953  175.1
 2.200  0.7941  145.3   1.465   49.0  0.1725   62.5  0.3993  174.6
 2.300  0.7953  143.7   1.411   47.4  0.1798   61.5  0.4013  174.2
 2.400  0.7971  142.2   1.359   45.6  0.1871   60.6  0.4033  173.9
 2.500  0.7960  140.7   1.313   44.0  0.1941   59.6  0.4082  173.3
 2.600  0.7954  139.2   1.268   42.3  0.2011   58.6  0.4132  172.8
 2.700  0.7957  137.8   1.228   40.8  0.2074   57.8  0.4140  172.5
 2.800  0.7965  136.4   1.189   39.3  0.2138   57.1  0.4148  172.3
 2.900  0.7969  134.9   1.157   37.8  0.2204   56.0  0.4199  171.5
 3.000  0.7979  133.4   1.126   36.2  0.2270   55.0  0.4250  170.7
 3.100  0.7984  131.9   1.100   34.9  0.2333   54.0  0.4267  169.9
 3.200  0.7995  130.4   1.074   33.6  0.2397   53.1  0.4285  169.2
 3.300  0.8012  128.9   1.049   32.1  0.2461   52.2  0.4304  168.5
 3.400  0.8033  127.5   1.025   30.7  0.2526   51.3  0.4323  167.7
 3.500  0.8060  126.0   1.001   29.1  0.2591   50.5  0.4343  167.0
 3.600  0.8063  124.6   0.979   27.8  0.2645   49.5  0.4380  165.9
 3.700  0.8071  123.1   0.958   26.5  0.2699   48.5  0.4418  164.9
 3.800  0.8084  121.7   0.937   25.1  0.2754   47.6  0.4458  163.9
 3.900  0.8102  120.2   0.917   23.6  0.2810   46.7  0.4499  162.9
 4.000  0.8125  118.8   0.898   22.1  0.2867   45.8  0.4542  161.9
 4.100  0.8129  117.6   0.880   21.0  0.2913   44.9  0.4596  160.6
 4.200  0.8137  116.3   0.862   19.9  0.2960   44.0  0.4652  159.4
 4.300  0.8149  115.1   0.845   18.8  0.3008   43.1  0.4710  158.1
 4.400  0.8165  113.8   0.828   17.6  0.3057   42.2  0.4770  157.0
 4.500  0.8184  112.6   0.811   16.3  0.3106   41.4  0.4832  155.8
 4.600  0.8183  111.6   0.796   15.5  0.3147   40.6  0.4889  154.9
 4.700  0.8185  110.6   0.781   14.6  0.3189   39.8  0.4948  154.0
 4.800  0.8189  109.7   0.767   13.7  0.3232   39.1  0.5007  153.1
 4.900  0.8195  108.7   0.752   12.8  0.3275   38.3  0.5068  152.2
 5.000  0.8204  107.7   0.738   11.8  0.3319   37.6  0.5130  151.4
 5.100  0.8215  106.9   0.730   11.1  0.3365   36.9  0.5196  151.0
 5.200  0.8229  106.1   0.722   10.3  0.3411   36.3  0.5262  150.7
 5.300  0.8243  105.2   0.715    9.5  0.3457   35.7  0.5328  150.3
 5.400  0.8260  104.4   0.707    8.7  0.3504   35.1  0.5394  149.9
 5.500  0.8278  103.6   0.700    7.9  0.3551   34.5  0.5461  149.6
 5.600  0.8286  102.7   0.691    7.5  0.3604   33.7  0.5500  149.5
 5.700  0.8295  101.8   0.681    7.0  0.3658   33.0  0.5539  149.3
 5.800  0.8307  100.8   0.672    6.6  0.3713   32.2  0.5579  149.2
 5.900  0.8321   99.9   0.663    6.1  0.3768   31.5  0.5618  149.0
 6.000  0.8337   99.0   0.654    5.6  0.3824   30.8  0.5657  148.9
!
!  f       NFmin   Gammaopt  rn/50
! GHz       dB    MAG  ANG    -
 0.450      1.64  0.59 -175   0.05
 0.900      1.77  0.60 -168   0.07
 1.900      2.75  0.70 -146   0.22
 2.400      3.53  0.72 -138   0.37
!
! (c) 2017  Infineon Technologies AG, Munich