! Infineon Technologies  Discrete & RF Semiconductors
! BFP196WN
! VCE =  10. V,  IC =  50 mA
! Common Emitter S-Parameters:                            Jan 2017
# GHz  S  MA  R  50
!  f         S11            S21            S12            S22
! GHz     MAG   ANG      MAG   ANG      MAG   ANG      MAG   ANG
 0.010  0.3378  -34.2  79.359  168.9  0.0034   76.4  0.9275  -13.3
 0.020  0.3823  -64.3  73.217  157.8  0.0062   74.1  0.8798  -26.4
 0.030  0.4028  -83.7  66.642  151.3  0.0085   63.2  0.7924  -34.9
 0.040  0.4628  -99.6  61.119  143.4  0.0110   57.1  0.7265  -45.3
 0.050  0.5494 -111.2  56.952  134.2  0.0135   53.2  0.6883  -57.2
 0.060  0.5532 -118.1  52.399  131.6  0.0144   52.2  0.6341  -61.4
 0.070  0.5648 -124.8  47.971  128.6  0.0153   51.3  0.5838  -66.3
 0.080  0.5838 -131.2  43.706  124.9  0.0162   50.5  0.5386  -72.1
 0.090  0.6095 -137.0  39.658  120.5  0.0171   49.8  0.4999  -78.8
 0.100  0.6411 -142.4  35.899  115.1  0.0180   49.2  0.4692  -86.6
 0.110  0.6460 -145.1  33.782  113.7  0.0186   48.9  0.4453  -89.4
 0.120  0.6524 -147.8  31.687  112.1  0.0191   48.6  0.4226  -92.6
 0.130  0.6602 -150.4  29.620  110.3  0.0197   48.3  0.4014  -96.1
 0.140  0.6692 -152.9  27.586  108.3  0.0202   48.0  0.3818  -99.9
 0.150  0.6796 -155.4  25.593  105.9  0.0208   47.8  0.3641 -104.2
 0.200  0.6893 -162.7  19.606  100.4  0.0226   50.7  0.3140 -116.5
 0.250  0.6977 -167.5  15.868   96.6  0.0261   53.1  0.2853 -124.8
 0.300  0.7011 -171.2  13.319   93.8  0.0288   55.6  0.2652 -132.1
 0.350  0.7024 -173.8  11.696   91.9  0.0318   57.9  0.2555 -136.4
 0.400  0.7051 -176.3  10.091   89.3  0.0348   59.8  0.2473 -141.1
 0.450  0.7053 -178.2   9.088   87.9  0.0379   61.4  0.2436 -144.5
 0.500  0.7062  179.9   8.093   86.1  0.0411   62.7  0.2407 -147.9
 0.600  0.7071  176.9   6.760   83.2  0.0482   64.8  0.2365 -152.7
 0.700  0.7094  174.3   5.790   80.7  0.0542   66.1  0.2327 -155.9
 0.800  0.7119  171.9   5.074   78.1  0.0613   67.2  0.2334 -158.1
 0.900  0.7116  169.6   4.503   75.9  0.0681   67.1  0.2347 -160.1
 1.000  0.7141  167.7   4.065   73.7  0.0745   67.7  0.2358 -162.1
 1.100  0.7153  165.9   3.698   71.7  0.0818   67.5  0.2366 -163.3
 1.200  0.7175  163.9   3.393   69.7  0.0880   67.1  0.2381 -164.4
 1.300  0.7173  162.2   3.137   67.9  0.0946   67.4  0.2427 -165.0
 1.400  0.7185  160.3   2.928   65.8  0.1020   67.1  0.2462 -166.5
 1.500  0.7222  158.9   2.733   63.9  0.1081   66.6  0.2481 -167.4
 1.600  0.7246  157.2   2.574   62.1  0.1150   66.2  0.2512 -167.6
 1.700  0.7254  155.4   2.437   60.2  0.1220   65.9  0.2570 -168.3
 1.800  0.7273  153.8   2.314   58.2  0.1285   65.4  0.2616 -169.1
 1.900  0.7282  152.4   2.195   56.6  0.1351   64.7  0.2651 -169.7
 2.000  0.7292  150.7   2.093   54.6  0.1422   64.1  0.2694 -169.8
 2.100  0.7299  149.1   2.004   52.9  0.1486   63.5  0.2750 -170.3
 2.200  0.7311  147.6   1.916   51.1  0.1551   63.0  0.2807 -170.7
 2.300  0.7325  146.1   1.842   49.4  0.1617   62.2  0.2844 -170.9
 2.400  0.7345  144.6   1.769   47.6  0.1683   61.5  0.2881 -171.0
 2.500  0.7349  143.0   1.706   46.0  0.1747   60.7  0.2941 -171.5
 2.600  0.7358  141.5   1.644   44.3  0.1812   60.0  0.3002 -172.0
 2.700  0.7373  140.0   1.589   42.8  0.1875   59.4  0.3034 -172.1
 2.800  0.7393  138.6   1.535   41.2  0.1938   58.8  0.3066 -172.1
 2.900  0.7404  137.1   1.489   39.7  0.2000   57.9  0.3122 -173.0
 3.000  0.7419  135.7   1.445   38.1  0.2062   57.0  0.3178 -173.9
 3.100  0.7433  134.2   1.408   36.8  0.2123   56.2  0.3212 -174.6
 3.200  0.7452  132.8   1.372   35.3  0.2184   55.4  0.3247 -175.3
 3.300  0.7475  131.3   1.337   33.8  0.2246   54.6  0.3282 -176.0
 3.400  0.7504  129.8   1.303   32.3  0.2308   53.9  0.3318 -176.6
 3.500  0.7537  128.4   1.270   30.6  0.2371   53.2  0.3354 -177.3
 3.600  0.7554  126.9   1.240   29.3  0.2426   52.3  0.3401 -178.5
 3.700  0.7575  125.5   1.211   27.8  0.2481   51.4  0.3449 -179.7
 3.800  0.7601  124.0   1.182   26.4  0.2537   50.5  0.3499  179.2
 3.900  0.7632  122.6   1.155   24.8  0.2593   49.7  0.3550  178.1
 4.000  0.7668  121.2   1.128   23.2  0.2650   48.9  0.3602  177.0
 4.100  0.7681  119.9   1.103   22.1  0.2699   48.0  0.3664  175.4
 4.200  0.7697  118.7   1.078   20.9  0.2749   47.2  0.3729  173.9
 4.300  0.7717  117.4   1.054   19.6  0.2799   46.4  0.3796  172.5
 4.400  0.7741  116.1   1.030   18.3  0.2850   45.6  0.3865  171.1
 4.500  0.7768  114.9   1.007   16.9  0.2901   44.9  0.3937  169.7
 4.600  0.7781  113.9   0.986   16.0  0.2946   44.1  0.4007  168.5
 4.700  0.7797  112.8   0.965   15.0  0.2991   43.4  0.4079  167.4
 4.800  0.7815  111.8   0.944   14.0  0.3037   42.6  0.4152  166.3
 4.900  0.7836  110.8   0.923   12.9  0.3083   41.9  0.4227  165.3
 5.000  0.7859  109.8   0.903   11.8  0.3130   41.2  0.4303  164.3
 5.100  0.7880  109.0   0.890   11.0  0.3178   40.6  0.4387  163.7
 5.200  0.7903  108.2   0.878   10.1  0.3227   40.0  0.4472  163.2
 5.300  0.7927  107.4   0.865    9.2  0.3275   39.4  0.4557  162.7
 5.400  0.7952  106.7   0.853    8.3  0.3325   38.8  0.4643  162.2
 5.500  0.7979  105.9   0.841    7.3  0.3374   38.3  0.4729  161.7
 5.600  0.7993  104.9   0.828    6.8  0.3431   37.5  0.4790  161.5
 5.700  0.8010  103.9   0.815    6.2  0.3489   36.8  0.4852  161.3
 5.800  0.8029  102.9   0.802    5.6  0.3547   36.1  0.4913  161.1
 5.900  0.8050  102.0   0.789    5.0  0.3606   35.4  0.4974  160.9
 6.000  0.8074  101.0   0.776    4.4  0.3665   34.7  0.5036  160.7
!
!  f       NFmin   Gammaopt  rn/50
! GHz       dB    MAG  ANG    -
 0.450      1.27  0.53 -177   0.05
 0.900      1.39  0.56 -171   0.05
 1.900      2.33  0.69 -148   0.16
 2.400      3.05  0.70 -140   0.28
!
! (c) 2017  Infineon Technologies AG, Munich