! Infineon Technologies  Discrete & RF Semiconductors
! BFP196WN
! VCE =  9.0 V,  IC =  55 mA
! Common Emitter S-Parameters:                            Jan 2017
# GHz  S  MA  R  50
!  f         S11            S21            S12            S22
! GHz     MAG   ANG      MAG   ANG      MAG   ANG      MAG   ANG
 0.010  0.3031  -39.4  83.164  168.3  0.0034   81.4  0.9304  -14.2
 0.020  0.3634  -70.6  76.223  156.7  0.0065   71.2  0.8755  -27.9
 0.030  0.3922  -90.4  69.009  150.1  0.0084   63.2  0.7840  -36.7
 0.040  0.4592 -105.9  62.903  142.2  0.0104   58.2  0.7153  -47.4
 0.050  0.5506 -116.9  58.256  132.7  0.0125   54.9  0.6763  -59.9
 0.060  0.5569 -123.3  53.493  130.2  0.0134   53.6  0.6223  -64.1
 0.070  0.5701 -129.5  48.851  127.2  0.0142   52.5  0.5723  -69.1
 0.080  0.5896 -135.4  44.368  123.6  0.0151   51.5  0.5274  -75.0
 0.090  0.6148 -140.8  40.098  119.3  0.0159   50.6  0.4890  -81.9
 0.100  0.6451 -145.8  36.115  113.9  0.0168   49.8  0.4589  -89.8
 0.110  0.6504 -148.3  33.962  112.6  0.0174   49.5  0.4360  -92.7
 0.120  0.6569 -150.8  31.830  111.0  0.0181   49.2  0.4143  -95.9
 0.130  0.6647 -153.2  29.724  109.3  0.0187   49.0  0.3940  -99.4
 0.140  0.6735 -155.5  27.649  107.3  0.0194   48.7  0.3754 -103.3
 0.150  0.6835 -157.8  25.613  105.0  0.0200   48.5  0.3587 -107.6
 0.200  0.6918 -164.7  19.583   99.7  0.0223   52.1  0.3134 -120.0
 0.250  0.6997 -169.2  15.839   96.0  0.0253   53.4  0.2865 -128.2
 0.300  0.7039 -172.6  13.276   93.3  0.0282   57.6  0.2683 -135.2
 0.350  0.7053 -175.0  11.657   91.4  0.0312   59.9  0.2600 -139.5
 0.400  0.7078 -177.3  10.055   89.0  0.0343   61.8  0.2533 -144.1
 0.450  0.7086 -179.1   9.056   87.6  0.0377   63.4  0.2500 -147.3
 0.500  0.7101  179.2   8.063   85.8  0.0412   64.8  0.2474 -150.5
 0.600  0.7099  176.2   6.736   82.9  0.0480   66.3  0.2440 -155.0
 0.700  0.7115  173.9   5.767   80.5  0.0543   67.4  0.2406 -158.1
 0.800  0.7137  171.5   5.052   78.0  0.0616   68.1  0.2414 -160.2
 0.900  0.7132  169.3   4.486   75.7  0.0685   68.0  0.2429 -162.1
 1.000  0.7161  167.3   4.049   73.6  0.0749   68.5  0.2443 -164.1
 1.100  0.7185  165.5   3.684   71.7  0.0820   68.4  0.2450 -165.4
 1.200  0.7192  163.7   3.380   69.6  0.0887   68.3  0.2465 -166.3
 1.300  0.7195  161.8   3.126   67.8  0.0958   67.9  0.2506 -166.9
 1.400  0.7216  160.1   2.917   65.8  0.1027   67.5  0.2547 -168.4
 1.500  0.7245  158.6   2.723   63.9  0.1091   67.0  0.2560 -169.3
 1.600  0.7269  156.9   2.564   62.1  0.1163   66.9  0.2590 -169.4
 1.700  0.7288  155.1   2.427   60.2  0.1230   66.3  0.2654 -170.2
 1.800  0.7302  153.6   2.306   58.3  0.1299   65.5  0.2697 -170.9
 1.900  0.7295  152.1   2.186   56.7  0.1363   65.1  0.2727 -171.5
 2.000  0.7329  150.5   2.088   54.7  0.1433   64.3  0.2771 -171.5
 2.100  0.7321  149.0   1.998   53.0  0.1498   63.7  0.2825 -172.0
 2.200  0.7318  147.5   1.910   51.2  0.1564   63.1  0.2879 -172.5
 2.300  0.7345  145.9   1.836   49.5  0.1631   62.3  0.2913 -172.7
 2.400  0.7377  144.4   1.763   47.7  0.1699   61.6  0.2948 -172.8
 2.500  0.7378  142.8   1.700   46.1  0.1764   60.8  0.3009 -173.3
 2.600  0.7384  141.3   1.639   44.4  0.1829   60.0  0.3071 -173.7
 2.700  0.7399  139.9   1.584   43.0  0.1891   59.3  0.3097 -173.8
 2.800  0.7419  138.5   1.531   41.4  0.1953   58.6  0.3123 -173.9
 2.900  0.7427  137.0   1.485   39.8  0.2017   57.8  0.3181 -174.8
 3.000  0.7440  135.5   1.441   38.2  0.2081   57.0  0.3239 -175.6
 3.100  0.7454  134.0   1.404   36.9  0.2142   56.1  0.3270 -176.3
 3.200  0.7472  132.6   1.369   35.4  0.2203   55.3  0.3302 -177.0
 3.300  0.7496  131.1   1.334   33.9  0.2265   54.5  0.3334 -177.7
 3.400  0.7524  129.6   1.300   32.4  0.2327   53.7  0.3367 -178.3
 3.500  0.7557  128.2   1.267   30.7  0.2389   53.0  0.3400 -179.0
 3.600  0.7571  126.7   1.237   29.4  0.2444   52.1  0.3446  179.8
 3.700  0.7591  125.3   1.208   28.0  0.2500   51.2  0.3494  178.7
 3.800  0.7615  123.9   1.180   26.5  0.2557   50.3  0.3544  177.5
 3.900  0.7643  122.4   1.153   25.0  0.2614   49.5  0.3594  176.5
 4.000  0.7677  121.0   1.126   23.4  0.2672   48.7  0.3646  175.4
 4.100  0.7691  119.7   1.101   22.2  0.2720   47.8  0.3706  173.9
 4.200  0.7709  118.5   1.076   21.0  0.2769   47.0  0.3769  172.4
 4.300  0.7730  117.2   1.052   19.7  0.2818   46.2  0.3834  170.9
 4.400  0.7755  115.9   1.029   18.4  0.2868   45.4  0.3902  169.5
 4.500  0.7784  114.7   1.006   17.0  0.2918   44.6  0.3972  168.2
 4.600  0.7795  113.7   0.985   16.1  0.2961   43.8  0.4041  167.1
 4.700  0.7808  112.7   0.964   15.1  0.3005   43.1  0.4112  166.0
 4.800  0.7823  111.7   0.944   14.1  0.3050   42.3  0.4184  165.0
 4.900  0.7841  110.7   0.924   13.0  0.3095   41.6  0.4257  164.0
 5.000  0.7861  109.7   0.904   11.9  0.3140   40.9  0.4332  163.0
 5.100  0.7884  108.9   0.891   11.1  0.3188   40.3  0.4415  162.5
 5.200  0.7908  108.1   0.878   10.2  0.3237   39.7  0.4498  161.9
 5.300  0.7934  107.3   0.866    9.3  0.3285   39.1  0.4581  161.4
 5.400  0.7962  106.5   0.853    8.4  0.3335   38.5  0.4665  161.0
 5.500  0.7991  105.7   0.841    7.5  0.3384   38.0  0.4749  160.5
 5.600  0.8007  104.8   0.828    6.9  0.3439   37.2  0.4808  160.3
 5.700  0.8026  103.8   0.815    6.4  0.3495   36.4  0.4868  160.1
 5.800  0.8047  102.9   0.802    5.8  0.3552   35.7  0.4927  159.9
 5.900  0.8070  101.9   0.790    5.1  0.3609   35.0  0.4987  159.8
 6.000  0.8095  101.0   0.777    4.5  0.3667   34.3  0.5046  159.6
!
!  f       NFmin   Gammaopt  rn/50
! GHz       dB    MAG  ANG    -
 0.450      1.34  0.54 -177   0.05
 0.900      1.44  0.57 -170   0.06
 1.900      2.36  0.69 -147   0.17
 2.400      3.11  0.70 -140   0.29
!
! (c) 2017  Infineon Technologies AG, Munich