! Infineon Technologies  Discrete & RF Semiconductors
! BFP196WN
! VCE =  8.0 V,  IC =  20 mA
! Common Emitter S-Parameters:                            Jan 2017
# GHz  S  MA  R  50
!  f         S11            S21            S12            S22
! GHz     MAG   ANG      MAG   ANG      MAG   ANG      MAG   ANG
 0.010  0.5599  -17.3  49.736  172.8  0.0040   81.9  0.9731   -8.6
 0.020  0.5548  -35.6  47.189  164.4  0.0076   76.6  0.9440  -17.3
 0.030  0.5423  -49.9  44.676  158.5  0.0111   67.7  0.8869  -24.1
 0.040  0.5639  -64.0  42.691  152.0  0.0146   63.2  0.8437  -31.7
 0.050  0.6160  -76.3  41.309  144.9  0.0183   60.4  0.8168  -39.9
 0.060  0.6003  -84.3  38.621  141.9  0.0199   57.1  0.7635  -43.7
 0.070  0.5968  -92.6  36.059  138.4  0.0216   54.3  0.7140  -48.0
 0.080  0.6057 -100.7  33.650  134.4  0.0233   51.9  0.6692  -52.9
 0.090  0.6265 -108.5  31.431  129.8  0.0250   49.9  0.6299  -58.5
 0.100  0.6580 -115.7  29.444  124.5  0.0268   48.1  0.5973  -64.7
 0.110  0.6578 -119.9  27.898  122.7  0.0276   46.5  0.5665  -67.1
 0.120  0.6611 -124.1  26.382  120.7  0.0285   45.0  0.5368  -69.8
 0.130  0.6679 -128.2  24.901  118.5  0.0293   43.7  0.5085  -72.8
 0.140  0.6781 -132.2  23.462  116.0  0.0302   42.3  0.4817  -76.2
 0.150  0.6915 -136.1  22.074  113.2  0.0311   41.1  0.4568  -79.9
 0.200  0.7005 -147.4  17.291  106.1  0.0329   41.1  0.3747  -90.8
 0.250  0.7083 -155.2  14.162  101.1  0.0356   40.5  0.3224  -98.6
 0.300  0.7122 -160.8  11.970   97.5  0.0372   41.6  0.2843 -105.2
 0.350  0.7131 -164.7  10.534   95.1  0.0393   43.3  0.2636 -109.7
 0.400  0.7172 -168.5   9.123   91.9  0.0414   44.8  0.2447 -114.9
 0.450  0.7174 -171.1   8.225   90.1  0.0436   46.3  0.2334 -118.7
 0.500  0.7190 -173.6   7.336   87.9  0.0458   47.7  0.2232 -122.8
 0.600  0.7200 -177.8   6.138   84.5  0.0511   50.9  0.2106 -128.5
 0.700  0.7211  179.0   5.260   81.6  0.0553   53.2  0.2024 -132.6
 0.800  0.7254  175.9   4.615   78.6  0.0618   56.0  0.2000 -135.6
 0.900  0.7244  173.2   4.099   76.0  0.0669   57.1  0.1994 -138.4
 1.000  0.7256  171.1   3.700   73.7  0.0720   58.3  0.1994 -141.0
 1.100  0.7306  168.9   3.366   71.4  0.0778   59.3  0.2002 -142.7
 1.200  0.7286  166.7   3.087   69.1  0.0834   59.6  0.2022 -144.1
 1.300  0.7302  164.8   2.855   67.1  0.0892   60.6  0.2074 -145.0
 1.400  0.7319  162.9   2.665   64.9  0.0948   60.8  0.2113 -147.0
 1.500  0.7355  161.2   2.488   62.8  0.1009   61.6  0.2146 -148.2
 1.600  0.7388  159.2   2.341   60.8  0.1071   61.7  0.2199 -148.7
 1.700  0.7392  157.3   2.216   58.8  0.1137   61.8  0.2274 -149.9
 1.800  0.7409  155.9   2.106   56.7  0.1193   61.6  0.2328 -151.0
 1.900  0.7430  154.3   1.995   54.9  0.1246   61.7  0.2380 -151.8
 2.000  0.7458  152.5   1.904   52.8  0.1316   61.3  0.2451 -152.3
 2.100  0.7460  150.9   1.822   51.0  0.1376   61.1  0.2524 -153.1
 2.200  0.7468  149.3   1.741   49.1  0.1437   61.0  0.2598 -153.9
 2.300  0.7491  147.7   1.674   47.3  0.1501   60.7  0.2664 -154.3
 2.400  0.7520  146.1   1.608   45.4  0.1566   60.5  0.2730 -154.7
 2.500  0.7524  144.5   1.549   43.7  0.1630   60.0  0.2812 -155.6
 2.600  0.7534  142.9   1.492   41.9  0.1694   59.5  0.2894 -156.5
 2.700  0.7550  141.4   1.441   40.4  0.1755   59.1  0.2950 -156.9
 2.800  0.7570  140.0   1.392   38.7  0.1817   58.7  0.3007 -157.2
 2.900  0.7582  138.4   1.350   37.1  0.1880   58.0  0.3079 -158.4
 3.000  0.7600  136.8   1.309   35.4  0.1944   57.3  0.3152 -159.5
 3.100  0.7617  135.3   1.275   34.1  0.2008   56.6  0.3204 -160.5
 3.200  0.7640  133.8   1.241   32.6  0.2072   56.0  0.3257 -161.5
 3.300  0.7668  132.3   1.209   31.1  0.2137   55.5  0.3310 -162.4
 3.400  0.7701  130.8   1.177   29.6  0.2201   54.9  0.3365 -163.3
 3.500  0.7739  129.3   1.146   27.9  0.2266   54.4  0.3420 -164.2
 3.600  0.7755  127.8   1.118   26.6  0.2325   53.6  0.3478 -165.7
 3.700  0.7777  126.3   1.091   25.2  0.2384   52.8  0.3539 -167.2
 3.800  0.7803  124.8   1.065   23.7  0.2443   52.0  0.3601 -168.6
 3.900  0.7836  123.3   1.039   22.1  0.2503   51.3  0.3666 -170.0
 4.000  0.7873  121.8   1.014   20.5  0.2563   50.6  0.3733 -171.3
 4.100  0.7882  120.5   0.991   19.4  0.2618   49.8  0.3801 -173.2
 4.200  0.7896  119.1   0.968   18.2  0.2673   48.9  0.3873 -175.0
 4.300  0.7914  117.8   0.945   16.9  0.2729   48.2  0.3948 -176.7
 4.400  0.7936  116.5   0.923   15.6  0.2785   47.4  0.4028 -178.4
 4.500  0.7962  115.2   0.902   14.2  0.2842   46.7  0.4110  180.0
 4.600  0.7975  114.2   0.882   13.3  0.2891   45.9  0.4190  178.5
 4.700  0.7990  113.1   0.862   12.4  0.2941   45.1  0.4273  177.0
 4.800  0.8007  112.1   0.843   11.5  0.2991   44.4  0.4359  175.6
 4.900  0.8027  111.1   0.824   10.4  0.3042   43.7  0.4447  174.3
 5.000  0.8050  110.1   0.805    9.4  0.3093   43.0  0.4538  173.0
 5.100  0.8068  109.2   0.793    8.6  0.3146   42.4  0.4634  172.1
 5.200  0.8088  108.3   0.781    7.9  0.3199   41.7  0.4731  171.2
 5.300  0.8110  107.4   0.769    7.1  0.3253   41.1  0.4829  170.3
 5.400  0.8133  106.6   0.757    6.2  0.3307   40.6  0.4928  169.5
 5.500  0.8159  105.7   0.746    5.4  0.3361   40.0  0.5028  168.7
 5.600  0.8175  104.8   0.734    5.0  0.3421   39.2  0.5103  168.2
 5.700  0.8193  103.8   0.722    4.5  0.3482   38.4  0.5179  167.7
 5.800  0.8213  102.9   0.710    4.1  0.3543   37.6  0.5255  167.3
 5.900  0.8235  101.9   0.699    3.6  0.3605   36.9  0.5331  166.8
 6.000  0.8260  101.0   0.687    3.1  0.3668   36.2  0.5408  166.4
!
!  f       NFmin   Gammaopt  rn/50
! GHz       dB    MAG  ANG    -
 0.450      0.96  0.40  169   0.05
 0.900      1.10  0.50  179   0.05
 1.900      2.10  0.69  210   0.12
 2.400      2.86  0.70  216   0.23
!
! (c) 2017  Infineon Technologies AG, Munich