! Infineon Technologies  Discrete & RF Semiconductors
! BFP196WN
! VCE =  2.0 V,  IC =  75 mA
! Common Emitter S-Parameters:                            Jan 2017
# GHz  S  MA  R  50
!  f         S11            S21            S12            S22
! GHz     MAG   ANG      MAG   ANG      MAG   ANG      MAG   ANG
 0.010  0.2285 -111.3  91.539  163.7  0.0033   77.4  0.8815  -22.8
 0.020  0.3964 -124.3  79.958  148.5  0.0064   67.6  0.7986  -44.0
 0.030  0.4706 -135.2  69.406  142.1  0.0079   59.7  0.6872  -55.1
 0.040  0.5570 -143.0  60.001  133.7  0.0096   54.5  0.6102  -69.6
 0.050  0.6509 -148.6  52.364  122.4  0.0113   50.8  0.5815  -86.9
 0.060  0.6624 -152.0  47.609  120.4  0.0119   50.9  0.5406  -92.1
 0.070  0.6761 -155.3  42.921  118.1  0.0125   51.1  0.5048  -98.0
 0.080  0.6919 -158.5  38.326  115.1  0.0130   51.2  0.4751 -104.8
 0.090  0.7098 -161.5  33.860  111.4  0.0136   51.3  0.4530 -112.3
 0.100  0.7295 -164.3  29.583  106.5  0.0142   51.4  0.4394 -120.5
 0.110  0.7344 -165.6  27.724  105.5  0.0149   52.2  0.4270 -123.6
 0.120  0.7397 -166.8  25.874  104.3  0.0157   52.9  0.4159 -126.9
 0.130  0.7453 -168.1  24.037  103.0  0.0164   53.5  0.4063 -130.4
 0.140  0.7512 -169.3  22.216  101.4  0.0172   54.1  0.3982 -134.0
 0.150  0.7575 -170.5  20.413   99.6  0.0179   54.6  0.3918 -137.7
 0.200  0.7619 -174.4  15.452   95.4  0.0207   60.1  0.3785 -147.4
 0.250  0.7679 -177.0  12.411   92.4  0.0250   62.4  0.3689 -153.3
 0.300  0.7713 -179.2  10.393   90.2  0.0281   64.6  0.3627 -158.2
 0.350  0.7721  179.1   9.112   88.6  0.0320   66.3  0.3606 -160.9
 0.400  0.7735  177.5   7.840   86.4  0.0360   67.7  0.3594 -163.7
 0.450  0.7722  176.2   7.056   85.1  0.0396   68.7  0.3597 -165.7
 0.500  0.7712  174.9   6.276   83.5  0.0433   69.6  0.3604 -167.6
 0.600  0.7731  172.6   5.243   80.9  0.0515   70.4  0.3608 -170.6
 0.700  0.7752  170.6   4.495   78.6  0.0591   71.0  0.3598 -172.6
 0.800  0.7761  168.7   3.934   76.1  0.0672   71.2  0.3604 -174.1
 0.900  0.7755  166.6   3.492   74.0  0.0746   70.8  0.3623 -175.4
 1.000  0.7775  164.8   3.156   71.9  0.0824   70.8  0.3639 -177.0
 1.100  0.7781  163.1   2.874   69.9  0.0899   70.3  0.3650 -178.0
 1.200  0.7775  161.4   2.639   67.8  0.0976   69.2  0.3655 -178.8
 1.300  0.7775  159.6   2.443   66.1  0.1049   69.2  0.3691 -179.3
 1.400  0.7795  158.0   2.284   64.0  0.1134   68.4  0.3728  179.4
 1.500  0.7830  156.5   2.134   62.2  0.1205   67.7  0.3735  178.5
 1.600  0.7835  154.8   2.012   60.3  0.1280   66.9  0.3756  178.2
 1.700  0.7857  153.0   1.909   58.4  0.1353   66.2  0.3809  177.5
 1.800  0.7869  151.6   1.818   56.5  0.1429   65.4  0.3848  176.7
 1.900  0.7857  150.1   1.724   54.9  0.1502   64.7  0.3861  176.0
 2.000  0.7882  148.6   1.650   52.9  0.1578   63.8  0.3893  175.8
 2.100  0.7874  147.0   1.582   51.2  0.1648   63.0  0.3935  175.2
 2.200  0.7872  145.4   1.515   49.4  0.1719   62.2  0.3977  174.7
 2.300  0.7884  143.9   1.459   47.8  0.1791   61.3  0.3997  174.3
 2.400  0.7902  142.5   1.405   46.0  0.1863   60.4  0.4018  174.0
 2.500  0.7892  141.0   1.357   44.4  0.1933   59.4  0.4062  173.5
 2.600  0.7888  139.4   1.310   42.7  0.2004   58.4  0.4107  173.0
 2.700  0.7897  137.9   1.269   41.3  0.2068   57.6  0.4118  172.7
 2.800  0.7912  136.5   1.228   39.8  0.2133   56.8  0.4130  172.5
 2.900  0.7914  135.0   1.194   38.3  0.2198   55.8  0.4178  171.6
 3.000  0.7921  133.5   1.161   36.7  0.2263   54.9  0.4226  170.8
 3.100  0.7927  132.1   1.134   35.4  0.2325   53.9  0.4244  170.0
 3.200  0.7938  130.6   1.107   34.0  0.2388   53.0  0.4262  169.3
 3.300  0.7953  129.2   1.082   32.6  0.2452   52.1  0.4281  168.6
 3.400  0.7974  127.7   1.056   31.1  0.2516   51.2  0.4301  167.8
 3.500  0.8000  126.3   1.032   29.5  0.2581   50.4  0.4322  167.1
 3.600  0.8004  124.8   1.010   28.2  0.2635   49.4  0.4358  166.0
 3.700  0.8014  123.4   0.988   26.8  0.2689   48.4  0.4395  165.0
 3.800  0.8029  121.9   0.967   25.4  0.2745   47.4  0.4434  164.0
 3.900  0.8049  120.4   0.946   23.9  0.2801   46.5  0.4474  163.0
 4.000  0.8074  119.0   0.926   22.4  0.2858   45.6  0.4516  162.0
 4.100  0.8077  117.8   0.907   21.3  0.2904   44.7  0.4569  160.7
 4.200  0.8084  116.5   0.889   20.2  0.2951   43.8  0.4625  159.5
 4.300  0.8095  115.3   0.871   19.1  0.2998   42.9  0.4683  158.2
 4.400  0.8110  114.0   0.853   17.9  0.3046   42.1  0.4743  157.1
 4.500  0.8128  112.8   0.836   16.6  0.3095   41.3  0.4805  155.9
 4.600  0.8129  111.8   0.820   15.7  0.3136   40.5  0.4861  155.0
 4.700  0.8132  110.8   0.805   14.9  0.3178   39.7  0.4919  154.1
 4.800  0.8137  109.9   0.790   13.9  0.3220   39.0  0.4977  153.2
 4.900  0.8145  108.9   0.775   13.0  0.3263   38.2  0.5037  152.3
 5.000  0.8155  107.9   0.760   12.0  0.3306   37.5  0.5098  151.5
 5.100  0.8166  107.1   0.751   11.2  0.3352   36.8  0.5164  151.1
 5.200  0.8179  106.3   0.743   10.5  0.3398   36.2  0.5230  150.8
 5.300  0.8194  105.4   0.734    9.7  0.3444   35.6  0.5297  150.4
 5.400  0.8210  104.6   0.726    8.8  0.3491   35.0  0.5363  150.0
 5.500  0.8228  103.8   0.718    8.0  0.3538   34.4  0.5430  149.7
 5.600  0.8240  102.9   0.709    7.6  0.3591   33.6  0.5469  149.6
 5.700  0.8254  102.0   0.699    7.1  0.3645   32.9  0.5508  149.5
 5.800  0.8270  101.1   0.690    6.7  0.3700   32.2  0.5546  149.3
 5.900  0.8288  100.2   0.681    6.2  0.3755   31.5  0.5585  149.2
 6.000  0.8308   99.3   0.672    5.7  0.3811   30.8  0.5624  149.1
!
!  f       NFmin   Gammaopt  rn/50
! GHz       dB    MAG  ANG    -
 0.450      1.53  0.57 -176   0.05
 0.900      1.66  0.59 -169   0.06
 1.900      2.60  0.70 -147   0.20
 2.400      3.41  0.71 -138   0.33
!
! (c) 2017  Infineon Technologies AG, Munich