! Infineon Technologies  Discrete & RF Semiconductors
! BFP196WN
! VCE =  2.0 V,  IC =  25 mA
! Common Emitter S-Parameters:                            Jan 2017
# GHz  S  MA  R  50
!  f         S11            S21            S12            S22
! GHz     MAG   ANG      MAG   ANG      MAG   ANG      MAG   ANG
 0.010  0.4289  -29.2  58.073  170.1  0.0051   82.8  0.9609  -13.5
 0.020  0.4587  -56.4  54.231  159.2  0.0098   73.0  0.9138  -26.6
 0.030  0.4651  -75.0  49.686  152.7  0.0128   63.0  0.8284  -35.6
 0.040  0.5167  -91.5  45.911  144.9  0.0160   56.9  0.7677  -46.3
 0.050  0.6019 -104.1  43.110  136.0  0.0194   52.9  0.7378  -58.4
 0.060  0.6009 -111.4  39.751  133.3  0.0205   50.3  0.6819  -63.0
 0.070  0.6096 -118.6  36.495  130.1  0.0217   48.0  0.6312  -68.4
 0.080  0.6276 -125.5  33.374  126.3  0.0229   45.9  0.5870  -74.7
 0.090  0.6541 -131.9  30.428  121.8  0.0241   44.0  0.5511  -81.9
 0.100  0.6882 -137.8  27.715  116.3  0.0254   42.3  0.5249  -90.0
 0.110  0.6929 -140.8  26.097  114.8  0.0261   41.7  0.5006  -93.2
 0.120  0.6994 -143.8  24.498  113.2  0.0268   41.1  0.4780  -96.7
 0.130  0.7078 -146.6  22.921  111.3  0.0276   40.6  0.4573 -100.6
 0.140  0.7179 -149.5  21.373  109.2  0.0283   40.1  0.4389 -104.8
 0.150  0.7297 -152.2  19.860  106.7  0.0290   39.6  0.4231 -109.3
 0.200  0.7391 -160.5  15.251  100.8  0.0306   40.7  0.3757 -122.1
 0.250  0.7485 -165.8  12.371   96.7  0.0334   43.1  0.3485 -130.7
 0.300  0.7510 -169.7  10.397   93.7  0.0359   44.5  0.3299 -137.9
 0.350  0.7518 -172.5   9.126   91.7  0.0387   47.3  0.3209 -142.2
 0.400  0.7544 -175.3   7.871   89.0  0.0415   49.7  0.3138 -146.8
 0.450  0.7548 -177.3   7.090   87.4  0.0445   51.5  0.3103 -149.9
 0.500  0.7562 -179.3   6.316   85.4  0.0475   53.1  0.3078 -153.1
 0.600  0.7585  177.6   5.278   82.3  0.0538   56.0  0.3051 -157.6
 0.700  0.7601  174.8   4.521   79.7  0.0592   58.0  0.3014 -160.7
 0.800  0.7619  172.2   3.963   76.9  0.0664   59.7  0.3022 -162.8
 0.900  0.7595  169.9   3.520   74.4  0.0734   60.4  0.3042 -164.8
 1.000  0.7616  167.8   3.179   72.2  0.0792   61.3  0.3052 -166.7
 1.100  0.7636  165.9   2.894   70.0  0.0865   61.7  0.3064 -167.9
 1.200  0.7641  163.9   2.658   67.8  0.0929   61.9  0.3075 -169.0
 1.300  0.7638  162.3   2.460   65.9  0.0996   62.3  0.3120 -169.6
 1.400  0.7657  160.3   2.299   63.7  0.1070   62.2  0.3159 -171.1
 1.500  0.7694  158.8   2.146   61.7  0.1132   62.1  0.3183 -172.0
 1.600  0.7699  157.1   2.024   59.8  0.1203   61.9  0.3218 -172.3
 1.700  0.7726  155.1   1.919   57.8  0.1272   61.9  0.3277 -173.1
 1.800  0.7726  153.6   1.824   55.7  0.1338   61.3  0.3326 -174.0
 1.900  0.7741  152.2   1.731   54.0  0.1404   61.1  0.3357 -174.5
 2.000  0.7758  150.3   1.654   52.0  0.1480   60.5  0.3404 -174.9
 2.100  0.7761  148.7   1.585   50.2  0.1546   60.1  0.3458 -175.4
 2.200  0.7769  147.2   1.517   48.3  0.1613   59.7  0.3513 -175.9
 2.300  0.7789  145.6   1.461   46.6  0.1681   59.1  0.3551 -176.3
 2.400  0.7814  144.1   1.406   44.7  0.1749   58.5  0.3590 -176.6
 2.500  0.7809  142.6   1.356   43.1  0.1816   57.8  0.3651 -177.2
 2.600  0.7810  141.0   1.308   41.4  0.1883   57.1  0.3713 -177.7
 2.700  0.7820  139.5   1.266   39.9  0.1947   56.4  0.3744 -178.0
 2.800  0.7836  138.1   1.225   38.2  0.2011   55.8  0.3775 -178.3
 2.900  0.7843  136.5   1.189   36.7  0.2076   55.0  0.3833 -179.1
 3.000  0.7856  135.0   1.154   35.1  0.2142   54.3  0.3891 -179.9
 3.100  0.7866  133.5   1.126   33.8  0.2206   53.5  0.3925  179.3
 3.200  0.7882  132.0   1.099   32.4  0.2270   52.7  0.3959  178.5
 3.300  0.7903  130.5   1.072   30.9  0.2334   51.9  0.3994  177.7
 3.400  0.7929  129.0   1.046   29.3  0.2399   51.2  0.4030  177.0
 3.500  0.7961  127.5   1.021   27.7  0.2464   50.5  0.4067  176.2
 3.600  0.7968  126.0   0.998   26.4  0.2520   49.6  0.4114  175.0
 3.700  0.7981  124.5   0.976   25.1  0.2576   48.7  0.4163  173.8
 3.800  0.7999  123.0   0.954   23.7  0.2633   47.9  0.4213  172.7
 3.900  0.8022  121.6   0.933   22.2  0.2691   47.1  0.4265  171.6
 4.000  0.8051  120.1   0.912   20.7  0.2749   46.3  0.4319  170.5
 4.100  0.8057  118.8   0.892   19.6  0.2798   45.4  0.4381  169.1
 4.200  0.8067  117.5   0.873   18.5  0.2848   44.6  0.4447  167.7
 4.300  0.8081  116.2   0.854   17.3  0.2899   43.8  0.4514  166.3
 4.400  0.8099  115.0   0.836   16.0  0.2950   43.0  0.4584  165.0
 4.500  0.8121  113.7   0.818   14.7  0.3001   42.3  0.4657  163.7
 4.600  0.8126  112.7   0.802   13.9  0.3046   41.5  0.4727  162.6
 4.700  0.8134  111.7   0.786   13.0  0.3091   40.8  0.4798  161.5
 4.800  0.8144  110.6   0.770   12.2  0.3136   40.1  0.4871  160.5
 4.900  0.8157  109.6   0.754   11.3  0.3182   39.4  0.4945  159.5
 5.000  0.8172  108.6   0.739   10.3  0.3229   38.7  0.5021  158.5
 5.100  0.8184  107.8   0.730    9.6  0.3278   38.1  0.5100  157.9
 5.200  0.8199  107.0   0.721    8.8  0.3327   37.4  0.5179  157.4
 5.300  0.8214  106.1   0.712    8.1  0.3376   36.8  0.5259  156.8
 5.400  0.8232  105.3   0.704    7.3  0.3426   36.3  0.5339  156.3
 5.500  0.8251  104.5   0.695    6.5  0.3476   35.7  0.5420  155.8
 5.600  0.8260  103.6   0.686    6.1  0.3533   34.9  0.5473  155.6
 5.700  0.8272  102.6   0.676    5.7  0.3591   34.2  0.5526  155.3
 5.800  0.8285  101.7   0.667    5.3  0.3649   33.5  0.5579  155.1
 5.900  0.8301  100.7   0.657    4.9  0.3708   32.8  0.5632  154.8
 6.000  0.8319   99.8   0.648    4.5  0.3767   32.1  0.5685  154.6
!
!  f       NFmin   Gammaopt  rn/50
! GHz       dB    MAG  ANG    -
 0.450      1.00  0.43  174   0.05
 0.900      1.15  0.51  182   0.05
 1.900      2.08  0.68  210   0.13
 2.400      2.83  0.69  217   0.23
!
! (c) 2017  Infineon Technologies AG, Munich