! Infineon Technologies  Discrete & RF Semiconductors
! BFP196WN
! VCE =  8.0 V,  IC =  85 mA
! Common Emitter S-Parameters:                            Jan 2017
# GHz  S  MA  R  50
!  f         S11            S21            S12            S22
! GHz     MAG   ANG      MAG   ANG      MAG   ANG      MAG   ANG
 0.010  0.2197  -64.3  94.936  166.5  0.0032   81.4  0.9044  -16.5
 0.020  0.3367  -95.7  85.755  153.3  0.0058   73.9  0.8408  -32.7
 0.030  0.3934 -112.5  76.136  146.7  0.0074   63.0  0.7377  -41.9
 0.040  0.4745 -124.3  67.787  138.4  0.0091   56.0  0.6594  -53.7
 0.050  0.5696 -132.4  61.232  128.1  0.0110   51.4  0.6155  -67.9
 0.060  0.5800 -137.4  55.938  125.9  0.0117   51.5  0.5651  -72.2
 0.070  0.5946 -142.2  50.747  123.1  0.0124   51.5  0.5185  -77.3
 0.080  0.6132 -146.8  45.696  119.8  0.0130   51.6  0.4768  -83.4
 0.090  0.6355 -151.0  40.835  115.7  0.0137   51.7  0.4415  -90.6
 0.100  0.6610 -155.0  36.242  110.5  0.0144   51.7  0.4142  -98.8
 0.110  0.6669 -156.9  34.027  109.3  0.0150   52.0  0.3951 -101.8
 0.120  0.6735 -158.8  31.828  108.0  0.0155   52.2  0.3771 -105.0
 0.130  0.6809 -160.6  29.649  106.4  0.0161   52.4  0.3605 -108.6
 0.140  0.6889 -162.4  27.496  104.6  0.0166   52.6  0.3454 -112.5
 0.150  0.6976 -164.2  25.375  102.5  0.0172   52.8  0.3321 -116.8
 0.200  0.7027 -169.5  19.290   97.7  0.0199   58.9  0.2986 -128.6
 0.250  0.7105 -173.1  15.553   94.3  0.0235   59.7  0.2791 -136.3
 0.300  0.7134 -175.8  13.022   91.9  0.0261   63.3  0.2660 -142.8
 0.350  0.7141 -177.8  11.427   90.2  0.0297   64.9  0.2602 -146.6
 0.400  0.7157 -179.7   9.846   87.9  0.0334   66.1  0.2555 -150.5
 0.450  0.7164  178.7   8.863   86.6  0.0371   67.4  0.2538 -153.2
 0.500  0.7176  177.2   7.887   84.9  0.0409   68.4  0.2527 -155.9
 0.600  0.7188  174.6   6.591   82.2  0.0474   69.3  0.2515 -159.9
 0.700  0.7201  172.4   5.645   79.9  0.0545   70.7  0.2488 -162.6
 0.800  0.7247  170.2   4.944   77.4  0.0619   71.3  0.2506 -164.3
 0.900  0.7211  168.2   4.389   75.2  0.0690   70.6  0.2527 -165.9
 1.000  0.7245  166.1   3.961   73.1  0.0766   70.6  0.2540 -167.7
 1.100  0.7270  164.5   3.604   71.2  0.0834   70.5  0.2553 -168.8
 1.200  0.7274  162.7   3.308   69.2  0.0901   69.9  0.2560 -169.5
 1.300  0.7277  161.1   3.059   67.4  0.0969   69.7  0.2603 -170.0
 1.400  0.7290  159.4   2.855   65.3  0.1043   69.1  0.2641 -171.3
 1.500  0.7328  157.9   2.665   63.5  0.1110   68.4  0.2659 -172.2
 1.600  0.7342  156.2   2.512   61.7  0.1182   67.9  0.2688 -172.2
 1.700  0.7364  154.4   2.379   59.8  0.1254   67.3  0.2751 -172.9
 1.800  0.7373  153.0   2.259   57.9  0.1320   66.6  0.2792 -173.8
 1.900  0.7367  151.5   2.142   56.3  0.1387   66.1  0.2816 -174.2
 2.000  0.7394  149.8   2.045   54.3  0.1460   65.1  0.2857 -174.2
 2.100  0.7396  148.4   1.957   52.7  0.1525   64.4  0.2911 -174.7
 2.200  0.7403  147.0   1.871   50.9  0.1591   63.7  0.2965 -175.2
 2.300  0.7416  145.4   1.800   49.2  0.1659   62.9  0.2997 -175.3
 2.400  0.7435  143.9   1.730   47.4  0.1728   62.1  0.3029 -175.4
 2.500  0.7436  142.4   1.668   45.8  0.1794   61.2  0.3089 -175.9
 2.600  0.7442  140.9   1.608   44.1  0.1860   60.4  0.3149 -176.4
 2.700  0.7461  139.5   1.555   42.6  0.1921   59.6  0.3172 -176.4
 2.800  0.7484  138.1   1.503   41.0  0.1983   58.9  0.3195 -176.4
 2.900  0.7487  136.6   1.459   39.5  0.2048   58.0  0.3251 -177.3
 3.000  0.7495  135.1   1.416   37.9  0.2113   57.1  0.3308 -178.2
 3.100  0.7510  133.6   1.380   36.6  0.2174   56.2  0.3336 -178.9
 3.200  0.7530  132.2   1.345   35.1  0.2236   55.3  0.3365 -179.6
 3.300  0.7555  130.8   1.311   33.6  0.2299   54.5  0.3394  179.8
 3.400  0.7585  129.3   1.277   32.1  0.2362   53.7  0.3424  179.1
 3.500  0.7619  127.9   1.245   30.4  0.2425   53.0  0.3454  178.5
 3.600  0.7631  126.4   1.216   29.1  0.2479   52.0  0.3501  177.4
 3.700  0.7649  125.0   1.188   27.7  0.2533   51.1  0.3549  176.3
 3.800  0.7671  123.6   1.160   26.2  0.2588   50.2  0.3598  175.2
 3.900  0.7698  122.1   1.133   24.7  0.2644   49.3  0.3649  174.1
 4.000  0.7730  120.7   1.107   23.1  0.2700   48.5  0.3701  173.1
 4.100  0.7745  119.4   1.083   21.9  0.2749   47.6  0.3761  171.6
 4.200  0.7765  118.2   1.059   20.7  0.2798   46.7  0.3823  170.1
 4.300  0.7787  117.0   1.036   19.4  0.2848   45.9  0.3888  168.7
 4.400  0.7814  115.7   1.013   18.1  0.2898   45.1  0.3956  167.3
 4.500  0.7844  114.5   0.991   16.7  0.2949   44.3  0.4025  166.0
 4.600  0.7853  113.5   0.970   15.8  0.2992   43.5  0.4092  164.9
 4.700  0.7865  112.5   0.950   14.8  0.3036   42.8  0.4160  163.9
 4.800  0.7879  111.5   0.929   13.8  0.3081   42.0  0.4229  162.8
 4.900  0.7896  110.5   0.910   12.7  0.3126   41.3  0.4300  161.9
 5.000  0.7915  109.5   0.890   11.6  0.3171   40.6  0.4372  160.9
 5.100  0.7932  108.7   0.878   10.7  0.3217   39.9  0.4453  160.4
 5.200  0.7951  107.8   0.865    9.9  0.3264   39.3  0.4535  159.9
 5.300  0.7972  107.0   0.853    9.0  0.3311   38.7  0.4617  159.5
 5.400  0.7994  106.1   0.842    8.1  0.3359   38.1  0.4699  159.0
 5.500  0.8018  105.3   0.830    7.1  0.3407   37.5  0.4781  158.6
 5.600  0.8032  104.4   0.817    6.6  0.3462   36.7  0.4837  158.4
 5.700  0.8048  103.5   0.805    6.0  0.3517   35.9  0.4893  158.3
 5.800  0.8067  102.6   0.793    5.4  0.3573   35.2  0.4949  158.1
 5.900  0.8087  101.7   0.780    4.8  0.3630   34.5  0.5006  158.0
 6.000  0.8109  100.8   0.768    4.2  0.3687   33.8  0.5062  157.8
!
!  f       NFmin   Gammaopt  rn/50
! GHz       dB    MAG  ANG    -
 0.450      1.64  0.59 -175   0.05
 0.900      1.77  0.60 -168   0.07
 1.900      2.75  0.70 -146   0.22
 2.400      3.53  0.72 -138   0.37
!
! (c) 2017  Infineon Technologies AG, Munich