! Infineon Technologies  Discrete & RF Semiconductors
! BFP196WN
! VCE =  6.0 V,  IC =  40 mA
! Common Emitter S-Parameters:                            Jan 2017
# GHz  S  MA  R  50
!  f         S11            S21            S12            S22
! GHz     MAG   ANG      MAG   ANG      MAG   ANG      MAG   ANG
 0.010  0.3328  -35.2  73.961  169.4  0.0036   81.9  0.9503  -13.4
 0.020  0.3828  -65.3  68.617  158.1  0.0069   79.7  0.8997  -26.5
 0.030  0.4050  -84.6  62.520  151.6  0.0092   66.4  0.8114  -35.2
 0.040  0.4662 -100.3  57.404  143.7  0.0117   58.6  0.7459  -45.7
 0.050  0.5537 -111.8  53.549  134.6  0.0144   53.6  0.7095  -57.7
 0.060  0.5587 -118.6  49.285  132.0  0.0153   52.2  0.6540  -62.0
 0.070  0.5715 -125.2  45.143  128.9  0.0161   51.0  0.6028  -67.0
 0.080  0.5915 -131.5  41.158  125.2  0.0170   50.0  0.5571  -72.9
 0.090  0.6180 -137.3  37.381  120.7  0.0179   49.0  0.5183  -79.8
 0.100  0.6502 -142.5  33.881  115.3  0.0188   48.1  0.4882  -87.7
 0.110  0.6557 -145.2  31.885  113.9  0.0194   47.6  0.4639  -90.6
 0.120  0.6626 -147.9  29.911  112.3  0.0200   47.2  0.4410  -93.9
 0.130  0.6710 -150.5  27.962  110.5  0.0207   46.8  0.4197  -97.5
 0.140  0.6807 -153.0  26.045  108.5  0.0213   46.5  0.4002 -101.5
 0.150  0.6917 -155.5  24.167  106.1  0.0219   46.1  0.3828 -105.8
 0.200  0.7015 -162.9  18.535  100.5  0.0240   49.3  0.3332 -118.3
 0.250  0.7117 -167.7  15.008   96.6  0.0270   51.7  0.3050 -126.8
 0.300  0.7155 -171.4  12.598   93.8  0.0301   54.2  0.2846 -133.9
 0.350  0.7164 -174.0  11.061   91.9  0.0329   56.7  0.2752 -138.4
 0.400  0.7188 -176.5   9.540   89.3  0.0357   58.8  0.2675 -143.1
 0.450  0.7191 -178.4   8.591   87.8  0.0389   60.0  0.2638 -146.4
 0.500  0.7202  179.8   7.650   85.9  0.0422   61.1  0.2610 -149.7
 0.600  0.7213  176.9   6.394   83.0  0.0487   63.1  0.2571 -154.4
 0.700  0.7237  174.3   5.477   80.5  0.0553   64.9  0.2532 -157.5
 0.800  0.7254  171.8   4.797   77.9  0.0623   66.2  0.2534 -159.7
 0.900  0.7243  169.5   4.260   75.6  0.0687   66.2  0.2553 -161.8
 1.000  0.7262  167.7   3.844   73.5  0.0756   66.4  0.2562 -163.8
 1.100  0.7294  165.6   3.498   71.4  0.0825   66.7  0.2574 -165.1
 1.200  0.7311  163.8   3.211   69.3  0.0896   66.7  0.2587 -166.1
 1.300  0.7301  162.0   2.969   67.5  0.0955   66.8  0.2627 -166.7
 1.400  0.7329  160.3   2.772   65.4  0.1027   66.5  0.2670 -168.2
 1.500  0.7360  158.7   2.587   63.6  0.1096   65.9  0.2687 -169.1
 1.600  0.7369  157.1   2.437   61.7  0.1164   65.6  0.2720 -169.4
 1.700  0.7381  155.3   2.308   59.8  0.1233   65.1  0.2782 -170.2
 1.800  0.7404  153.7   2.192   57.8  0.1302   64.6  0.2825 -170.9
 1.900  0.7400  152.3   2.079   56.2  0.1363   64.2  0.2854 -171.5
 2.000  0.7438  150.6   1.985   54.2  0.1438   63.6  0.2900 -171.6
 2.100  0.7433  149.1   1.900   52.5  0.1504   62.9  0.2953 -172.1
 2.200  0.7433  147.5   1.817   50.7  0.1570   62.3  0.3006 -172.6
 2.300  0.7453  145.9   1.747   49.0  0.1636   61.7  0.3046 -172.8
 2.400  0.7478  144.3   1.679   47.1  0.1703   61.1  0.3086 -173.0
 2.500  0.7478  142.8   1.619   45.5  0.1771   60.3  0.3144 -173.5
 2.600  0.7484  141.3   1.561   43.8  0.1839   59.5  0.3203 -174.0
 2.700  0.7501  139.9   1.508   42.3  0.1900   58.8  0.3232 -174.2
 2.800  0.7523  138.5   1.457   40.7  0.1961   58.2  0.3262 -174.4
 2.900  0.7530  136.9   1.415   39.2  0.2025   57.3  0.3322 -175.2
 3.000  0.7542  135.4   1.374   37.6  0.2089   56.5  0.3382 -176.0
 3.100  0.7554  133.9   1.339   36.3  0.2151   55.7  0.3414 -176.7
 3.200  0.7572  132.5   1.305   34.9  0.2213   54.9  0.3448 -177.5
 3.300  0.7594  131.0   1.272   33.4  0.2276   54.1  0.3481 -178.2
 3.400  0.7621  129.5   1.239   31.8  0.2339   53.4  0.3515 -178.9
 3.500  0.7653  128.1   1.208   30.2  0.2402   52.7  0.3550 -179.6
 3.600  0.7668  126.6   1.180   28.9  0.2457   51.7  0.3597  179.2
 3.700  0.7688  125.2   1.153   27.5  0.2512   50.8  0.3645  178.0
 3.800  0.7712  123.7   1.126   26.0  0.2568   49.9  0.3695  176.9
 3.900  0.7742  122.2   1.100   24.5  0.2625   49.1  0.3746  175.8
 4.000  0.7777  120.8   1.075   22.9  0.2682   48.3  0.3799  174.7
 4.100  0.7789  119.5   1.051   21.8  0.2732   47.4  0.3861  173.2
 4.200  0.7804  118.3   1.028   20.5  0.2782   46.6  0.3925  171.7
 4.300  0.7824  117.1   1.005   19.3  0.2833   45.8  0.3992  170.3
 4.400  0.7847  115.8   0.983   18.0  0.2884   45.0  0.4061  168.9
 4.500  0.7873  114.6   0.961   16.6  0.2936   44.3  0.4132  167.6
 4.600  0.7883  113.6   0.941   15.7  0.2980   43.5  0.4201  166.5
 4.700  0.7896  112.5   0.921   14.7  0.3024   42.8  0.4273  165.4
 4.800  0.7911  111.5   0.902   13.7  0.3069   42.0  0.4345  164.4
 4.900  0.7929  110.5   0.883   12.7  0.3114   41.3  0.4419  163.4
 5.000  0.7949  109.5   0.864   11.6  0.3160   40.6  0.4494  162.4
 5.100  0.7968  108.7   0.852   10.8  0.3208   40.0  0.4576  161.8
 5.200  0.7989  107.9   0.840   10.0  0.3256   39.3  0.4659  161.3
 5.300  0.8011  107.1   0.828    9.1  0.3305   38.7  0.4742  160.8
 5.400  0.8035  106.3   0.816    8.2  0.3354   38.2  0.4826  160.3
 5.500  0.8060  105.5   0.805    7.3  0.3403   37.6  0.4910  159.8
 5.600  0.8074  104.5   0.793    6.8  0.3460   36.8  0.4969  159.6
 5.700  0.8090  103.6   0.781    6.2  0.3517   36.1  0.5029  159.4
 5.800  0.8108  102.6   0.769    5.6  0.3575   35.4  0.5089  159.2
 5.900  0.8129  101.7   0.757    5.0  0.3634   34.7  0.5148  159.0
 6.000  0.8152  100.7   0.745    4.4  0.3693   34.0  0.5208  158.8
!
!  f       NFmin   Gammaopt  rn/50
! GHz       dB    MAG  ANG    -
 0.450      1.16  0.50 -179   0.04
 0.900      1.29  0.54 -173   0.05
 1.900      2.21  0.68 -148   0.13
 2.400      2.95  0.69 -141   0.26
!
! (c) 2017  Infineon Technologies AG, Munich