! Infineon Technologies  Discrete & RF Semiconductors
! BFP196WN
! VCE =  5.0 V,  IC =  25 mA
! Common Emitter S-Parameters:                            Jan 2017
# GHz  S  MA  R  50
!  f         S11            S21            S12            S22
! GHz     MAG   ANG      MAG   ANG      MAG   ANG      MAG   ANG
 0.010  0.4618  -23.4  57.757  171.4  0.0044   84.1  0.9667  -10.9
 0.020  0.4735  -47.0  54.570  161.6  0.0081   76.8  0.9324  -21.8
 0.030  0.4721  -64.1  50.730  155.3  0.0112   66.6  0.8586  -29.6
 0.040  0.5108  -79.8  47.595  148.1  0.0144   61.0  0.8035  -38.7
 0.050  0.5816  -92.6  45.314  140.0  0.0178   57.4  0.7712  -48.8
 0.060  0.5762 -100.4  42.024  137.1  0.0190   54.5  0.7150  -52.9
 0.070  0.5816 -108.3  38.858  133.8  0.0203   52.0  0.6631  -57.6
 0.080  0.5976 -115.8  35.847  129.9  0.0216   49.8  0.6165  -63.2
 0.090  0.6234 -122.9  33.035  125.2  0.0229   47.8  0.5764  -69.5
 0.100  0.6578 -129.3  30.476  119.8  0.0243   46.1  0.5445  -76.7
 0.110  0.6611 -132.8  28.767  118.2  0.0250   45.2  0.5164  -79.5
 0.120  0.6669 -136.3  27.083  116.4  0.0257   44.4  0.4897  -82.6
 0.130  0.6751 -139.7  25.430  114.4  0.0264   43.6  0.4645  -86.0
 0.140  0.6857 -143.0  23.812  112.0  0.0272   42.8  0.4412  -89.8
 0.150  0.6984 -146.2  22.240  109.4  0.0279   42.1  0.4201  -94.0
 0.200  0.7085 -155.6  17.195  103.1  0.0293   42.6  0.3542 -106.3
 0.250  0.7190 -161.9  13.997   98.7  0.0321   43.4  0.3159 -114.9
 0.300  0.7218 -166.5  11.796   95.4  0.0341   44.7  0.2871 -122.3
 0.350  0.7234 -169.6  10.364   93.2  0.0367   47.6  0.2728 -127.1
 0.400  0.7272 -172.7   8.952   90.4  0.0394   50.1  0.2607 -132.4
 0.450  0.7268 -175.0   8.066   88.8  0.0422   51.8  0.2542 -136.1
 0.500  0.7275 -177.3   7.188   86.7  0.0451   53.3  0.2488 -139.9
 0.600  0.7290  179.4   6.012   83.5  0.0508   55.6  0.2412 -145.3
 0.700  0.7317  176.4   5.149   80.8  0.0562   58.8  0.2361 -148.8
 0.800  0.7330  173.7   4.513   78.0  0.0624   60.0  0.2353 -151.5
 0.900  0.7339  171.1   4.008   75.5  0.0681   60.6  0.2368 -153.9
 1.000  0.7346  169.1   3.619   73.2  0.0743   61.7  0.2372 -156.1
 1.100  0.7371  167.1   3.293   71.1  0.0809   62.5  0.2383 -157.4
 1.200  0.7377  165.2   3.022   68.8  0.0872   62.5  0.2401 -158.6
 1.300  0.7387  163.2   2.795   66.9  0.0936   63.0  0.2451 -159.4
 1.400  0.7399  161.4   2.609   64.7  0.1003   63.3  0.2491 -161.0
 1.500  0.7442  159.8   2.436   62.8  0.1066   63.0  0.2519 -162.0
 1.600  0.7454  158.1   2.295   60.8  0.1131   63.2  0.2556 -162.2
 1.700  0.7471  156.2   2.173   58.8  0.1198   63.0  0.2627 -163.1
 1.800  0.7492  154.7   2.063   56.8  0.1261   62.6  0.2676 -164.0
 1.900  0.7506  153.1   1.958   55.1  0.1324   62.4  0.2719 -164.6
 2.000  0.7535  151.5   1.869   53.0  0.1392   61.9  0.2770 -164.9
 2.100  0.7528  149.9   1.789   51.3  0.1456   61.6  0.2836 -165.5
 2.200  0.7528  148.2   1.710   49.4  0.1520   61.4  0.2902 -166.1
 2.300  0.7554  146.6   1.645   47.6  0.1586   60.7  0.2953 -166.4
 2.400  0.7585  145.0   1.581   45.7  0.1653   60.1  0.3005 -166.6
 2.500  0.7583  143.5   1.524   44.1  0.1719   59.5  0.3075 -167.2
 2.600  0.7586  142.0   1.468   42.3  0.1786   59.0  0.3145 -167.8
 2.700  0.7605  140.5   1.419   40.8  0.1847   58.4  0.3186 -168.0
 2.800  0.7629  139.1   1.371   39.2  0.1908   57.9  0.3228 -168.2
 2.900  0.7635  137.5   1.330   37.6  0.1972   57.1  0.3291 -169.2
 3.000  0.7647  135.9   1.291   35.9  0.2037   56.3  0.3355 -170.1
 3.100  0.7663  134.4   1.258   34.6  0.2100   55.5  0.3397 -170.9
 3.200  0.7684  133.0   1.226   33.2  0.2163   54.8  0.3441 -171.8
 3.300  0.7709  131.5   1.194   31.7  0.2226   54.1  0.3484 -172.6
 3.400  0.7740  130.0   1.164   30.1  0.2290   53.5  0.3529 -173.3
 3.500  0.7776  128.6   1.134   28.5  0.2354   52.9  0.3574 -174.1
 3.600  0.7788  127.1   1.107   27.2  0.2411   52.0  0.3627 -175.4
 3.700  0.7805  125.6   1.081   25.8  0.2469   51.1  0.3683 -176.7
 3.800  0.7828  124.1   1.056   24.3  0.2527   50.3  0.3739 -177.9
 3.900  0.7856  122.6   1.031   22.8  0.2586   49.5  0.3798 -179.1
 4.000  0.7889  121.1   1.007   21.2  0.2645   48.8  0.3858  179.8
 4.100  0.7900  119.8   0.985   20.1  0.2696   48.0  0.3923  178.1
 4.200  0.7916  118.5   0.963   18.9  0.2748   47.2  0.3991  176.5
 4.300  0.7935  117.2   0.941   17.6  0.2801   46.4  0.4063  175.0
 4.400  0.7958  116.0   0.920   16.4  0.2854   45.6  0.4137  173.5
 4.500  0.7985  114.7   0.900   15.0  0.2907   44.9  0.4214  172.0
 4.600  0.7994  113.7   0.881   14.1  0.2954   44.1  0.4290  170.8
 4.700  0.8005  112.6   0.862   13.2  0.3001   43.3  0.4368  169.6
 4.800  0.8018  111.6   0.843   12.2  0.3049   42.6  0.4448  168.4
 4.900  0.8035  110.5   0.825   11.2  0.3097   41.9  0.4530  167.3
 5.000  0.8054  109.5   0.807   10.2  0.3146   41.2  0.4613  166.2
 5.100  0.8071  108.7   0.795    9.4  0.3196   40.6  0.4702  165.5
 5.200  0.8089  107.8   0.784    8.6  0.3247   39.9  0.4792  164.8
 5.300  0.8110  107.0   0.773    7.8  0.3298   39.3  0.4882  164.1
 5.400  0.8131  106.2   0.762    7.0  0.3349   38.8  0.4973  163.5
 5.500  0.8155  105.4   0.751    6.1  0.3401   38.2  0.5065  162.9
 5.600  0.8169  104.5   0.740    5.7  0.3459   37.4  0.5130  162.5
 5.700  0.8186  103.5   0.728    5.2  0.3517   36.7  0.5194  162.2
 5.800  0.8204  102.6   0.717    4.8  0.3576   36.0  0.5259  161.9
 5.900  0.8225  101.6   0.705    4.3  0.3636   35.3  0.5325  161.5
 6.000  0.8248  100.7   0.694    3.8  0.3696   34.6  0.5390  161.2
!
!  f       NFmin   Gammaopt  rn/50
! GHz       dB    MAG  ANG    -
 0.450      1.00  0.43  174   0.05
 0.900      1.15  0.51  182   0.05
 1.900      2.08  0.68  210   0.13
 2.400      2.83  0.69  217   0.23
!
! (c) 2017  Infineon Technologies AG, Munich