! Infineon Technologies  Discrete & RF Semiconductors
! BFP196WN
! VCE =  6.0 V,  IC =  25 mA
! Common Emitter S-Parameters:                            Jan 2017
# GHz  S  MA  R  50
!  f         S11            S21            S12            S22
! GHz     MAG   ANG      MAG   ANG      MAG   ANG      MAG   ANG
 0.010  0.4732  -22.2  57.552  171.6  0.0040   82.2  0.9678  -10.5
 0.020  0.4833  -45.3  54.527  162.0  0.0077   78.4  0.9305  -20.9
 0.030  0.4787  -61.9  50.802  155.8  0.0109   67.8  0.8605  -28.5
 0.040  0.5133  -77.6  47.767  148.6  0.0142   62.0  0.8084  -37.3
 0.050  0.5801  -90.4  45.562  140.7  0.0177   58.5  0.7776  -47.1
 0.060  0.5737  -98.3  42.301  137.8  0.0188   55.5  0.7217  -51.1
 0.070  0.5783 -106.2  39.166  134.4  0.0200   52.9  0.6699  -55.8
 0.080  0.5936 -113.8  36.189  130.5  0.0212   50.5  0.6232  -61.2
 0.090  0.6188 -120.9  33.412  125.9  0.0224   48.5  0.5829  -67.4
 0.100  0.6527 -127.4  30.889  120.5  0.0237   46.6  0.5504  -74.4
 0.110  0.6556 -131.0  29.170  118.9  0.0244   45.7  0.5216  -77.1
 0.120  0.6611 -134.6  27.478  117.1  0.0252   44.9  0.4942  -80.1
 0.130  0.6691 -138.1  25.817  115.0  0.0260   44.1  0.4682  -83.4
 0.140  0.6795 -141.5  24.193  112.7  0.0267   43.3  0.4440  -87.2
 0.150  0.6923 -144.8  22.616  110.0  0.0275   42.6  0.4219  -91.3
 0.200  0.7030 -154.6  17.528  103.5  0.0293   42.6  0.3537 -103.4
 0.250  0.7135 -161.0  14.283   99.1  0.0325   43.5  0.3121 -111.8
 0.300  0.7170 -165.7  12.023   95.8  0.0343   45.5  0.2820 -119.2
 0.350  0.7175 -168.9  10.572   93.6  0.0366   47.9  0.2668 -124.0
 0.400  0.7203 -172.1   9.142   90.7  0.0389   50.0  0.2537 -129.4
 0.450  0.7214 -174.4   8.237   89.1  0.0417   51.5  0.2463 -133.1
 0.500  0.7237 -176.7   7.340   87.0  0.0445   52.9  0.2399 -137.0
 0.600  0.7243  179.8   6.141   83.7  0.0503   55.0  0.2314 -142.4
 0.700  0.7264  176.9   5.260   81.0  0.0550   57.7  0.2260 -146.1
 0.800  0.7291  174.0   4.610   78.1  0.0621   60.1  0.2256 -148.6
 0.900  0.7282  171.4   4.092   75.7  0.0682   60.8  0.2263 -151.4
 1.000  0.7301  169.5   3.697   73.4  0.0741   61.9  0.2267 -153.5
 1.100  0.7325  167.4   3.361   71.3  0.0803   62.1  0.2280 -155.1
 1.200  0.7330  165.4   3.086   69.0  0.0867   62.5  0.2296 -156.2
 1.300  0.7336  163.5   2.852   67.1  0.0925   63.3  0.2343 -157.1
 1.400  0.7356  161.6   2.664   64.9  0.0994   63.1  0.2383 -158.7
 1.500  0.7389  160.0   2.487   62.9  0.1054   63.1  0.2409 -159.7
 1.600  0.7414  158.2   2.341   61.0  0.1116   63.2  0.2454 -160.0
 1.700  0.7437  156.4   2.217   59.0  0.1185   63.0  0.2521 -161.0
 1.800  0.7432  154.8   2.106   57.0  0.1246   62.8  0.2576 -161.8
 1.900  0.7452  153.3   1.996   55.3  0.1306   62.5  0.2617 -162.5
 2.000  0.7474  151.6   1.906   53.2  0.1380   62.0  0.2674 -162.7
 2.100  0.7478  150.0   1.824   51.5  0.1443   61.7  0.2739 -163.3
 2.200  0.7488  148.4   1.743   49.6  0.1506   61.5  0.2805 -163.9
 2.300  0.7510  146.8   1.676   47.8  0.1571   60.9  0.2857 -164.2
 2.400  0.7537  145.3   1.611   45.9  0.1637   60.3  0.2909 -164.5
 2.500  0.7537  143.7   1.553   44.3  0.1700   59.7  0.2980 -165.1
 2.600  0.7542  142.2   1.496   42.5  0.1764   59.2  0.3051 -165.7
 2.700  0.7560  140.7   1.446   41.0  0.1826   58.6  0.3097 -166.0
 2.800  0.7583  139.2   1.398   39.4  0.1888   58.1  0.3143 -166.2
 2.900  0.7596  137.7   1.356   37.8  0.1951   57.4  0.3208 -167.2
 3.000  0.7614  136.2   1.315   36.1  0.2015   56.7  0.3274 -168.1
 3.100  0.7626  134.7   1.281   34.8  0.2078   55.9  0.3318 -168.9
 3.200  0.7643  133.2   1.248   33.3  0.2141   55.2  0.3362 -169.8
 3.300  0.7665  131.7   1.216   31.8  0.2205   54.5  0.3407 -170.6
 3.400  0.7692  130.3   1.184   30.3  0.2269   53.9  0.3453 -171.3
 3.500  0.7724  128.8   1.154   28.6  0.2333   53.3  0.3499 -172.1
 3.600  0.7738  127.3   1.127   27.3  0.2390   52.4  0.3553 -173.4
 3.700  0.7757  125.7   1.100   25.8  0.2447   51.5  0.3609 -174.7
 3.800  0.7782  124.2   1.074   24.4  0.2505   50.7  0.3667 -176.0
 3.900  0.7812  122.7   1.049   22.8  0.2563   49.9  0.3726 -177.2
 4.000  0.7848  121.2   1.025   21.2  0.2622   49.2  0.3787 -178.4
 4.100  0.7861  119.9   1.002   20.1  0.2675   48.4  0.3852  179.9
 4.200  0.7879  118.6   0.979   18.9  0.2728   47.6  0.3921  178.2
 4.300  0.7900  117.3   0.956   17.7  0.2782   46.8  0.3993  176.6
 4.400  0.7925  116.1   0.934   16.4  0.2836   46.1  0.4067  175.1
 4.500  0.7954  114.8   0.913   15.1  0.2891   45.4  0.4145  173.6
 4.600  0.7965  113.8   0.894   14.2  0.2938   44.6  0.4221  172.3
 4.700  0.7979  112.7   0.875   13.3  0.2985   43.8  0.4299  171.1
 4.800  0.7996  111.7   0.856   12.3  0.3032   43.1  0.4379  169.9
 4.900  0.8015  110.7   0.837   11.3  0.3080   42.4  0.4461  168.7
 5.000  0.8036  109.7   0.819   10.2  0.3129   41.7  0.4545  167.6
 5.100  0.8050  108.9   0.807    9.4  0.3179   41.1  0.4636  166.9
 5.200  0.8066  108.0   0.795    8.6  0.3230   40.4  0.4728  166.2
 5.300  0.8083  107.2   0.784    7.8  0.3280   39.8  0.4820  165.5
 5.400  0.8102  106.4   0.772    7.0  0.3332   39.3  0.4913  164.8
 5.500  0.8123  105.6   0.761    6.1  0.3383   38.7  0.5007  164.2
 5.600  0.8140  104.7   0.749    5.6  0.3442   37.9  0.5074  163.8
 5.700  0.8158  103.7   0.738    5.1  0.3501   37.1  0.5142  163.5
 5.800  0.8179  102.8   0.726    4.6  0.3561   36.4  0.5210  163.1
 5.900  0.8203  101.8   0.714    4.1  0.3621   35.7  0.5278  162.7
 6.000  0.8228  100.9   0.703    3.6  0.3682   35.0  0.5346  162.4
!
!  f       NFmin   Gammaopt  rn/50
! GHz       dB    MAG  ANG    -
 0.450      1.00  0.43  174   0.05
 0.900      1.15  0.51  182   0.05
 1.900      2.08  0.68  210   0.13
 2.400      2.83  0.69  217   0.23
!
! (c) 2017  Infineon Technologies AG, Munich