! Infineon Technologies  Discrete & RF Semiconductors
! BFP196WN
! VCE =  2.0 V,  IC =  10 mA
! Common Emitter S-Parameters:                            Jan 2017
# GHz  S  MA  R  50
!  f         S11            S21            S12            S22
! GHz     MAG   ANG      MAG   ANG      MAG   ANG      MAG   ANG
 0.010  0.7081  -12.9  30.539  174.4  0.0062   84.2  0.9840   -7.2
 0.020  0.6923  -27.5  29.259  167.1  0.0122   78.1  0.9638  -14.6
 0.030  0.6743  -39.0  28.156  161.7  0.0173   69.7  0.9199  -20.7
 0.040  0.6844  -50.7  27.325  155.8  0.0226   65.2  0.8876  -27.4
 0.050  0.7214  -61.6  26.794  149.7  0.0280   62.4  0.8681  -34.5
 0.060  0.6963  -69.2  25.297  146.5  0.0307   58.3  0.8195  -38.3
 0.070  0.6841  -77.1  23.888  142.9  0.0334   54.9  0.7749  -42.5
 0.080  0.6855  -85.2  22.583  138.9  0.0363   52.0  0.7349  -47.1
 0.090  0.7004  -93.2  21.402  134.5  0.0393   49.6  0.7003  -52.3
 0.100  0.7279 -100.6  20.366  129.5  0.0423   47.5  0.6721  -58.0
 0.110  0.7223 -105.3  19.386  127.5  0.0436   45.3  0.6402  -60.5
 0.120  0.7215 -110.0  18.432  125.3  0.0450   43.3  0.6096  -63.4
 0.130  0.7255 -114.6  17.508  122.9  0.0465   41.4  0.5807  -66.4
 0.140  0.7344 -119.2  16.619  120.2  0.0480   39.6  0.5537  -69.9
 0.150  0.7478 -123.7  15.771  117.2  0.0495   37.9  0.5288  -73.6
 0.200  0.7516 -137.4  12.556  109.1  0.0528   33.9  0.4377  -84.6
 0.250  0.7567 -147.1  10.391  103.4  0.0558   31.5  0.3782  -92.6
 0.300  0.7585 -153.7   8.817   99.2  0.0569   30.5  0.3336  -99.2
 0.350  0.7571 -158.4   7.773   96.3  0.0585   30.7  0.3085 -103.7
 0.400  0.7608 -163.0   6.754   92.6  0.0601   30.9  0.2856 -109.0
 0.450  0.7601 -166.2   6.096   90.5  0.0615   31.9  0.2720 -112.7
 0.500  0.7617 -169.4   5.448   87.9  0.0629   32.8  0.2596 -116.8
 0.600  0.7642 -174.1   4.563   83.9  0.0661   34.5  0.2436 -122.4
 0.700  0.7642 -177.9   3.916   80.4  0.0678   37.2  0.2346 -126.5
 0.800  0.7668  178.6   3.436   77.1  0.0719   39.4  0.2325 -129.7
 0.900  0.7653  175.6   3.053   74.1  0.0756   41.4  0.2322 -132.6
 1.000  0.7678  173.1   2.759   71.4  0.0791   43.3  0.2329 -135.1
 1.100  0.7698  170.7   2.511   68.8  0.0834   45.4  0.2351 -136.9
 1.200  0.7715  168.4   2.306   66.2  0.0872   46.7  0.2388 -138.3
 1.300  0.7709  166.3   2.134   63.9  0.0918   48.2  0.2451 -139.6
 1.400  0.7733  164.3   1.992   61.4  0.0964   49.8  0.2514 -141.6
 1.500  0.7772  162.5   1.860   59.1  0.1013   50.8  0.2563 -143.1
 1.600  0.7803  160.7   1.752   56.8  0.1063   51.8  0.2641 -143.8
 1.700  0.7824  158.6   1.659   54.6  0.1119   53.0  0.2732 -145.2
 1.800  0.7841  156.7   1.577   52.4  0.1169   53.5  0.2812 -146.7
 1.900  0.7854  155.1   1.493   50.4  0.1222   54.2  0.2888 -147.7
 2.000  0.7883  153.3   1.427   48.2  0.1287   54.7  0.2978 -148.5
 2.100  0.7888  151.6   1.365   46.2  0.1343   55.1  0.3071 -149.7
 2.200  0.7900  150.0   1.305   44.1  0.1399   55.5  0.3165 -150.8
 2.300  0.7928  148.3   1.255   42.3  0.1462   55.7  0.3254 -151.6
 2.400  0.7963  146.6   1.206   40.3  0.1525   55.9  0.3344 -152.3
 2.500  0.7965  144.9   1.162   38.6  0.1590   55.8  0.3446 -153.5
 2.600  0.7974  143.3   1.119   36.7  0.1655   55.7  0.3550 -154.6
 2.700  0.7989  141.7   1.082   35.2  0.1716   55.6  0.3625 -155.3
 2.800  0.8010  140.2   1.045   33.5  0.1778   55.6  0.3700 -156.0
 2.900  0.8017  138.6   1.013   31.9  0.1845   55.2  0.3786 -157.4
 3.000  0.8030  137.0   0.982   30.2  0.1913   54.9  0.3874 -158.8
 3.100  0.8046  135.4   0.956   28.9  0.1982   54.4  0.3940 -160.1
 3.200  0.8068  133.8   0.931   27.5  0.2052   53.9  0.4009 -161.4
 3.300  0.8097  132.2   0.906   26.1  0.2121   53.5  0.4079 -162.6
 3.400  0.8132  130.6   0.882   24.6  0.2191   53.1  0.4151 -163.8
 3.500  0.8173  129.0   0.859   23.0  0.2261   52.7  0.4225 -164.9
 3.600  0.8181  127.4   0.839   21.8  0.2325   51.9  0.4292 -166.6
 3.700  0.8195  125.8   0.819   20.6  0.2390   51.2  0.4362 -168.3
 3.800  0.8215  124.2   0.799   19.2  0.2456   50.5  0.4436 -169.9
 3.900  0.8241  122.7   0.780   17.9  0.2521   49.8  0.4513 -171.4
 4.000  0.8274  121.1   0.761   16.4  0.2587   49.2  0.4593 -172.9
 4.100  0.8277  119.7   0.744   15.5  0.2647   48.4  0.4666 -174.9
 4.200  0.8285  118.4   0.727   14.5  0.2708   47.6  0.4745 -176.8
 4.300  0.8297  117.0   0.711   13.4  0.2769   46.8  0.4829 -178.6
 4.400  0.8314  115.7   0.695   12.3  0.2831   46.1  0.4917  179.6
 4.500  0.8336  114.3   0.679   11.2  0.2893   45.4  0.5010  177.9
 4.600  0.8336  113.2   0.665   10.6  0.2947   44.6  0.5090  176.3
 4.700  0.8340  112.2   0.651    9.9  0.3001   43.8  0.5174  174.7
 4.800  0.8346  111.1   0.637    9.2  0.3056   43.0  0.5262  173.2
 4.900  0.8355  110.1   0.623    8.5  0.3111   42.3  0.5353  171.7
 5.000  0.8367  109.0   0.609    7.7  0.3167   41.6  0.5448  170.3
 5.100  0.8376  108.1   0.602    7.2  0.3223   40.9  0.5541  169.2
 5.200  0.8387  107.3   0.594    6.8  0.3280   40.3  0.5635  168.2
 5.300  0.8400  106.4   0.587    6.3  0.3337   39.6  0.5731  167.1
 5.400  0.8414  105.6   0.580    5.8  0.3394   39.0  0.5829  166.2
 5.500  0.8431  104.7   0.573    5.3  0.3452   38.4  0.5929  165.2
 5.600  0.8441  103.7   0.565    5.2  0.3514   37.5  0.5995  164.5
 5.700  0.8454  102.7   0.557    5.1  0.3577   36.7  0.6062  163.9
 5.800  0.8470  101.7   0.550    5.0  0.3641   35.9  0.6130  163.2
 5.900  0.8488  100.8   0.542    4.8  0.3706   35.1  0.6199  162.6
 6.000  0.8508   99.8   0.534    4.7  0.3771   34.4  0.6268  162.0
!
!  f       NFmin   Gammaopt  rn/50
! GHz       dB    MAG  ANG    -
 0.450      0.92  0.37  146   0.05
 0.900      1.09  0.52  167   0.05
 1.900      2.29  0.71  206   0.13
 2.400      3.04  0.72  213   0.24
!
! (c) 2017  Infineon Technologies AG, Munich