! Infineon Technologies  Discrete & RF Semiconductors
! BFP196WN
! VCE =  6.0 V,  IC =  65 mA
! Common Emitter S-Parameters:                            Jan 2017
# GHz  S  MA  R  50
!  f         S11            S21            S12            S22
! GHz     MAG   ANG      MAG   ANG      MAG   ANG      MAG   ANG
 0.010  0.2269  -59.7  89.610  167.0  0.0030   82.5  0.9244  -16.3
 0.020  0.3359  -91.5  81.466  154.2  0.0061   73.0  0.8603  -32.1
 0.030  0.3896 -108.9  72.678  147.6  0.0079   64.2  0.7588  -41.5
 0.040  0.4697 -121.3  65.094  139.4  0.0098   58.7  0.6834  -53.4
 0.050  0.5650 -129.8  59.176  129.3  0.0118   55.0  0.6434  -67.4
 0.060  0.5757 -135.1  54.129  127.0  0.0124   54.3  0.5917  -71.9
 0.070  0.5911 -140.2  49.188  124.2  0.0130   53.6  0.5443  -77.2
 0.080  0.6109 -145.0  44.390  120.8  0.0137   53.0  0.5024  -83.4
 0.090  0.6348 -149.5  39.786  116.6  0.0143   52.5  0.4674  -90.7
 0.100  0.6622 -153.6  35.452  111.3  0.0149   52.0  0.4412  -99.0
 0.110  0.6679 -155.6  33.292  110.1  0.0156   51.9  0.4213 -102.1
 0.120  0.6745 -157.5  31.149  108.7  0.0164   51.8  0.4026 -105.4
 0.130  0.6818 -159.4  29.028  107.1  0.0171   51.7  0.3855 -109.1
 0.140  0.6898 -161.3  26.932  105.3  0.0179   51.6  0.3701 -113.1
 0.150  0.6985 -163.1  24.869  103.1  0.0186   51.5  0.3567 -117.4
 0.200  0.7071 -168.8  18.933   98.2  0.0203   56.3  0.3223 -129.4
 0.250  0.7140 -172.4  15.280   94.8  0.0246   58.8  0.3026 -137.2
 0.300  0.7181 -175.2  12.806   92.3  0.0271   61.5  0.2891 -143.7
 0.350  0.7194 -177.3  11.237   90.5  0.0306   63.7  0.2832 -147.5
 0.400  0.7216 -179.4   9.682   88.2  0.0342   65.4  0.2786 -151.4
 0.450  0.7220  179.0   8.716   86.8  0.0377   66.2  0.2769 -154.2
 0.500  0.7229  177.5   7.757   85.1  0.0413   66.8  0.2759 -157.0
 0.600  0.7241  174.8   6.481   82.4  0.0484   68.1  0.2739 -161.1
 0.700  0.7240  172.6   5.547   80.1  0.0554   69.3  0.2713 -163.8
 0.800  0.7276  170.4   4.861   77.6  0.0631   70.1  0.2722 -165.6
 0.900  0.7285  168.2   4.315   75.3  0.0700   70.0  0.2747 -167.3
 1.000  0.7303  166.6   3.894   73.3  0.0771   69.7  0.2759 -169.1
 1.100  0.7316  164.6   3.543   71.4  0.0843   69.7  0.2768 -170.2
 1.200  0.7322  162.7   3.252   69.3  0.0911   69.5  0.2776 -171.2
 1.300  0.7319  161.1   3.009   67.5  0.0982   68.8  0.2818 -171.7
 1.400  0.7339  159.4   2.808   65.5  0.1056   68.2  0.2862 -173.1
 1.500  0.7366  157.8   2.622   63.7  0.1125   67.6  0.2876 -174.0
 1.600  0.7392  156.2   2.470   61.8  0.1200   67.3  0.2899 -174.2
 1.700  0.7396  154.5   2.339   60.0  0.1272   66.7  0.2961 -174.9
 1.800  0.7423  152.9   2.224   58.1  0.1338   65.9  0.2997 -175.6
 1.900  0.7425  151.6   2.109   56.5  0.1401   65.2  0.3028 -176.2
 2.000  0.7447  149.9   2.012   54.5  0.1478   64.5  0.3069 -176.4
 2.100  0.7441  148.4   1.926   52.8  0.1542   63.8  0.3118 -176.9
 2.200  0.7441  146.9   1.841   51.0  0.1607   63.1  0.3167 -177.4
 2.300  0.7463  145.3   1.772   49.4  0.1676   62.3  0.3194 -177.6
 2.400  0.7491  143.8   1.704   47.6  0.1746   61.5  0.3221 -177.7
 2.500  0.7484  142.3   1.644   46.0  0.1814   60.6  0.3277 -178.2
 2.600  0.7482  140.8   1.585   44.3  0.1882   59.7  0.3334 -178.7
 2.700  0.7494  139.4   1.532   42.9  0.1944   58.9  0.3354 -178.9
 2.800  0.7511  138.0   1.481   41.3  0.2007   58.2  0.3374 -179.0
 2.900  0.7521  136.5   1.437   39.7  0.2071   57.3  0.3430 -179.8
 3.000  0.7536  135.0   1.394   38.1  0.2136   56.5  0.3486  179.4
 3.100  0.7549  133.5   1.359   36.8  0.2197   55.6  0.3513  178.7
 3.200  0.7568  132.1   1.325   35.4  0.2259   54.7  0.3540  178.0
 3.300  0.7591  130.7   1.292   33.9  0.2321   53.8  0.3568  177.3
 3.400  0.7618  129.2   1.259   32.4  0.2384   53.1  0.3596  176.6
 3.500  0.7651  127.8   1.228   30.8  0.2447   52.3  0.3625  175.9
 3.600  0.7665  126.3   1.200   29.5  0.2501   51.3  0.3669  174.8
 3.700  0.7683  124.9   1.173   28.1  0.2555   50.4  0.3714  173.7
 3.800  0.7707  123.4   1.146   26.6  0.2611   49.5  0.3760  172.6
 3.900  0.7735  121.9   1.120   25.1  0.2667   48.6  0.3808  171.5
 4.000  0.7769  120.5   1.095   23.5  0.2723   47.8  0.3857  170.5
 4.100  0.7779  119.3   1.071   22.3  0.2771   46.9  0.3916  169.1
 4.200  0.7792  118.0   1.048   21.1  0.2819   46.1  0.3977  167.7
 4.300  0.7809  116.8   1.024   19.9  0.2868   45.3  0.4040  166.3
 4.400  0.7830  115.6   1.002   18.6  0.2918   44.5  0.4106  165.0
 4.500  0.7854  114.4   0.980   17.2  0.2968   43.7  0.4174  163.7
 4.600  0.7865  113.4   0.960   16.3  0.3011   42.9  0.4240  162.7
 4.700  0.7878  112.3   0.940   15.3  0.3055   42.1  0.4307  161.6
 4.800  0.7894  111.3   0.921   14.3  0.3099   41.4  0.4375  160.7
 4.900  0.7912  110.3   0.902   13.3  0.3144   40.6  0.4445  159.7
 5.000  0.7933  109.3   0.883   12.2  0.3189   39.9  0.4516  158.8
 5.100  0.7949  108.5   0.871   11.3  0.3235   39.3  0.4593  158.3
 5.200  0.7967  107.6   0.859   10.5  0.3282   38.6  0.4670  157.9
 5.300  0.7987  106.8   0.848    9.6  0.3328   38.0  0.4747  157.4
 5.400  0.8008  106.0   0.836    8.6  0.3375   37.5  0.4824  157.0
 5.500  0.8031  105.2   0.825    7.7  0.3423   36.9  0.4902  156.6
 5.600  0.8046  104.3   0.813    7.2  0.3479   36.1  0.4955  156.5
 5.700  0.8063  103.4   0.801    6.6  0.3535   35.3  0.5008  156.3
 5.800  0.8081  102.5   0.789    6.0  0.3592   34.6  0.5060  156.2
 5.900  0.8102  101.6   0.777    5.4  0.3649   33.9  0.5113  156.0
 6.000  0.8125  100.7   0.765    4.8  0.3707   33.2  0.5166  155.9
!
!  f       NFmin   Gammaopt  rn/50
! GHz       dB    MAG  ANG    -
 0.450      1.43  0.56 -176   0.05
 0.900      1.55  0.58 -169   0.06
 1.900      2.48  0.69 -147   0.18
 2.400      3.26  0.70 -139   0.31
!
! (c) 2017  Infineon Technologies AG, Munich