! Infineon Technologies  Discrete & RF Semiconductors
! BFP196WN
! VCE =  6.0 V,  IC =  10 mA
! Common Emitter S-Parameters:                            Jan 2017
# GHz  S  MA  R  50
!  f         S11            S21            S12            S22
! GHz     MAG   ANG      MAG   ANG      MAG   ANG      MAG   ANG
 0.010  0.7256  -10.7  30.298  175.3  0.0047   84.9  0.9867   -5.6
 0.020  0.7073  -23.6  29.307  168.6  0.0099   80.9  0.9695  -11.5
 0.030  0.6932  -33.6  28.406  163.7  0.0142   73.0  0.9362  -16.6
 0.040  0.7008  -43.7  27.727  158.5  0.0186   68.8  0.9107  -22.0
 0.050  0.7293  -53.3  27.285  153.1  0.0231   66.2  0.8937  -27.6
 0.060  0.7036  -60.5  25.967  149.9  0.0258   61.9  0.8516  -30.9
 0.070  0.6897  -68.1  24.737  146.4  0.0285   58.4  0.8124  -34.4
 0.080  0.6884  -75.8  23.611  142.5  0.0314   55.6  0.7768  -38.4
 0.090  0.6995  -83.5  22.602  138.3  0.0343   53.2  0.7452  -42.7
 0.100  0.7227  -90.8  21.727  133.7  0.0373   51.2  0.7181  -47.3
 0.110  0.7149  -95.6  20.767  131.6  0.0386   49.0  0.6867  -49.4
 0.120  0.7121 -100.5  19.837  129.3  0.0400   46.9  0.6562  -51.7
 0.130  0.7145 -105.3  18.942  126.8  0.0415   45.0  0.6270  -54.2
 0.140  0.7220 -110.1  18.086  124.1  0.0430   43.2  0.5990  -56.9
 0.150  0.7345 -114.8  17.275  121.1  0.0445   41.5  0.5725  -59.9
 0.200  0.7340 -129.8  13.969  112.6  0.0478   36.8  0.4715  -68.7
 0.250  0.7379 -140.4  11.635  106.4  0.0506   34.0  0.4039  -74.6
 0.300  0.7384 -148.2   9.948  101.9  0.0522   32.6  0.3500  -79.3
 0.350  0.7367 -153.4   8.789   98.9  0.0536   32.7  0.3189  -82.4
 0.400  0.7410 -158.6   7.662   94.9  0.0550   32.7  0.2889  -86.2
 0.450  0.7395 -162.1   6.923   92.7  0.0564   33.3  0.2701  -88.9
 0.500  0.7409 -165.7   6.197   90.0  0.0578   33.8  0.2519  -92.0
 0.600  0.7414 -171.1   5.199   85.8  0.0603   35.7  0.2289  -96.2
 0.700  0.7424 -175.2   4.459   82.3  0.0626   38.1  0.2150  -99.2
 0.800  0.7453 -179.0   3.920   78.8  0.0658   40.5  0.2095 -102.2
 0.900  0.7441  177.7   3.481   75.8  0.0690   42.6  0.2057 -105.4
 1.000  0.7478  175.0   3.145   73.0  0.0722   44.8  0.2035 -108.0
 1.100  0.7495  172.5   2.862   70.4  0.0760   46.6  0.2047 -110.3
 1.200  0.7503  170.1   2.627   67.8  0.0796   48.1  0.2075 -112.2
 1.300  0.7511  168.1   2.427   65.5  0.0835   49.8  0.2130 -114.4
 1.400  0.7541  165.8   2.266   63.0  0.0882   51.5  0.2171 -117.0
 1.500  0.7578  163.9   2.115   60.7  0.0927   52.6  0.2222 -118.9
 1.600  0.7599  162.0   1.991   58.5  0.0971   54.0  0.2300 -120.5
 1.700  0.7624  159.9   1.882   56.2  0.1024   55.2  0.2385 -122.7
 1.800  0.7661  158.2   1.786   54.0  0.1072   55.8  0.2454 -124.8
 1.900  0.7666  156.4   1.692   52.1  0.1122   56.8  0.2530 -126.5
 2.000  0.7692  154.6   1.617   49.8  0.1180   57.2  0.2625 -128.0
 2.100  0.7703  152.9   1.546   47.9  0.1235   57.8  0.2718 -129.8
 2.200  0.7721  151.2   1.476   45.8  0.1290   58.4  0.2814 -131.5
 2.300  0.7747  149.4   1.418   43.9  0.1351   58.7  0.2910 -132.8
 2.400  0.7781  147.7   1.361   41.8  0.1412   58.9  0.3008 -134.0
 2.500  0.7787  146.0   1.310   40.1  0.1475   59.0  0.3111 -135.8
 2.600  0.7799  144.4   1.260   38.2  0.1539   59.0  0.3217 -137.4
 2.700  0.7820  142.8   1.216   36.6  0.1602   59.0  0.3302 -138.5
 2.800  0.7846  141.3   1.174   34.9  0.1665   59.0  0.3389 -139.5
 2.900  0.7854  139.6   1.137   33.2  0.1729   58.7  0.3473 -141.3
 3.000  0.7868  138.0   1.101   31.4  0.1794   58.4  0.3560 -143.1
 3.100  0.7887  136.4   1.071   30.1  0.1863   58.0  0.3630 -144.7
 3.200  0.7913  134.8   1.042   28.7  0.1933   57.6  0.3703 -146.2
 3.300  0.7944  133.2   1.013   27.2  0.2002   57.2  0.3779 -147.7
 3.400  0.7982  131.6   0.985   25.6  0.2071   56.8  0.3857 -149.1
 3.500  0.8026  130.0   0.958   24.0  0.2141   56.5  0.3937 -150.4
 3.600  0.8036  128.4   0.934   22.7  0.2208   55.7  0.4003 -152.4
 3.700  0.8052  126.8   0.910   21.4  0.2276   55.0  0.4073 -154.4
 3.800  0.8075  125.2   0.887   20.0  0.2344   54.3  0.4149 -156.3
 3.900  0.8103  123.7   0.864   18.5  0.2412   53.7  0.4228 -158.1
 4.000  0.8138  122.1   0.842   17.0  0.2481   53.1  0.4312 -159.9
 4.100  0.8146  120.7   0.822   16.0  0.2544   52.2  0.4379 -162.2
 4.200  0.8159  119.3   0.803   14.9  0.2608   51.4  0.4453 -164.4
 4.300  0.8177  117.9   0.783   13.8  0.2672   50.6  0.4534 -166.6
 4.400  0.8200  116.6   0.765   12.6  0.2737   49.9  0.4620 -168.7
 4.500  0.8227  115.2   0.746   11.4  0.2802   49.2  0.4713 -170.7
 4.600  0.8232  114.1   0.729   10.7  0.2859   48.4  0.4794 -172.6
 4.700  0.8239  113.0   0.713    9.9  0.2917   47.5  0.4881 -174.4
 4.800  0.8249  112.0   0.696    9.2  0.2975   46.8  0.4972 -176.2
 4.900  0.8263  110.9   0.680    8.4  0.3034   46.0  0.5068 -177.9
 5.000  0.8279  109.8   0.664    7.5  0.3093   45.3  0.5168 -179.5
 5.100  0.8294  108.9   0.654    7.0  0.3152   44.6  0.5267  179.1
 5.200  0.8311  108.0   0.645    6.4  0.3211   43.9  0.5368  177.8
 5.300  0.8330  107.1   0.636    5.8  0.3270   43.2  0.5473  176.6
 5.400  0.8350  106.3   0.626    5.2  0.3331   42.5  0.5580  175.4
 5.500  0.8373  105.4   0.617    4.6  0.3391   41.9  0.5689  174.2
 5.600  0.8385  104.4   0.607    4.5  0.3457   41.0  0.5767  173.3
 5.700  0.8400  103.4   0.597    4.3  0.3523   40.1  0.5845  172.5
 5.800  0.8417  102.4   0.588    4.1  0.3591   39.3  0.5925  171.7
 5.900  0.8437  101.4   0.578    4.0  0.3659   38.5  0.6007  170.9
 6.000  0.8459  100.4   0.568    3.8  0.3728   37.7  0.6089  170.1
!
!  f       NFmin   Gammaopt  rn/50
! GHz       dB    MAG  ANG    -
 0.450      0.92  0.37  146   0.05
 0.900      1.09  0.52  167   0.05
 1.900      2.29  0.71  206   0.13
 2.400      3.04  0.72  213   0.24
!
! (c) 2017  Infineon Technologies AG, Munich