! Infineon Technologies  Discrete & RF Semiconductors
! BFP196WN
! VCE =  4.0 V,  IC =  45 mA
! Common Emitter S-Parameters:                            Jan 2017
# GHz  S  MA  R  50
!  f         S11            S21            S12            S22
! GHz     MAG   ANG      MAG   ANG      MAG   ANG      MAG   ANG
 0.010  0.2692  -47.7  78.352  168.1  0.0035   79.3  0.9416  -15.5
 0.020  0.3511  -79.5  71.772  156.0  0.0066   75.4  0.8828  -30.4
 0.030  0.3936  -98.7  64.633  149.4  0.0090   64.2  0.7857  -39.8
 0.040  0.4701 -113.0  58.561  141.3  0.0117   57.9  0.7150  -51.4
 0.050  0.5671 -122.8  53.917  131.5  0.0144   53.9  0.6789  -64.8
 0.060  0.5766 -128.7  49.433  129.1  0.0151   52.6  0.6254  -69.4
 0.070  0.5920 -134.3  45.057  126.1  0.0158   51.5  0.5767  -74.7
 0.080  0.6128 -139.7  40.822  122.6  0.0165   50.4  0.5339  -81.1
 0.090  0.6385 -144.6  36.779  118.3  0.0172   49.4  0.4986  -88.4
 0.100  0.6685 -149.1  32.997  112.9  0.0179   48.5  0.4726  -96.6
 0.110  0.6747 -151.5  31.016  111.6  0.0185   48.2  0.4511  -99.7
 0.120  0.6820 -153.8  29.054  110.1  0.0191   48.0  0.4311 -103.2
 0.130  0.6904 -156.0  27.113  108.4  0.0198   47.7  0.4128 -106.9
 0.140  0.6999 -158.3  25.200  106.5  0.0204   47.5  0.3964 -111.0
 0.150  0.7104 -160.4  23.321  104.2  0.0210   47.3  0.3822 -115.4
 0.200  0.7176 -166.6  17.792   99.0  0.0231   51.5  0.3443 -127.7
 0.250  0.7264 -170.7  14.373   95.4  0.0264   53.8  0.3225 -135.8
 0.300  0.7286 -173.8  12.045   92.7  0.0294   57.1  0.3073 -142.4
 0.350  0.7297 -176.2  10.576   90.9  0.0327   59.4  0.3008 -146.4
 0.400  0.7320 -178.5   9.121   88.5  0.0360   61.2  0.2958 -150.6
 0.450  0.7326  179.9   8.211   87.1  0.0394   62.5  0.2937 -153.5
 0.500  0.7338  178.3   7.308   85.3  0.0428   63.6  0.2923 -156.4
 0.600  0.7356  175.6   6.105   82.5  0.0501   64.6  0.2897 -160.5
 0.700  0.7356  173.1   5.227   80.0  0.0561   66.7  0.2872 -163.4
 0.800  0.7390  170.8   4.581   77.4  0.0644   67.5  0.2880 -165.3
 0.900  0.7386  168.6   4.066   75.2  0.0708   67.5  0.2901 -167.0
 1.000  0.7406  166.7   3.673   73.1  0.0779   67.6  0.2909 -168.8
 1.100  0.7421  164.9   3.342   71.1  0.0849   67.8  0.2923 -170.1
 1.200  0.7439  163.1   3.069   69.0  0.0923   67.3  0.2931 -171.1
 1.300  0.7437  161.4   2.837   67.2  0.0990   67.1  0.2967 -171.7
 1.400  0.7449  159.6   2.650   65.2  0.1068   66.9  0.3009 -173.1
 1.500  0.7485  158.1   2.473   63.2  0.1135   66.3  0.3026 -174.0
 1.600  0.7494  156.4   2.331   61.4  0.1204   65.9  0.3051 -174.3
 1.700  0.7497  154.5   2.208   59.6  0.1277   65.5  0.3109 -175.1
 1.800  0.7529  153.2   2.100   57.6  0.1346   64.8  0.3153 -175.8
 1.900  0.7527  151.7   1.991   55.9  0.1411   64.2  0.3176 -176.4
 2.000  0.7549  149.9   1.902   53.9  0.1483   63.4  0.3218 -176.7
 2.100  0.7544  148.4   1.821   52.3  0.1552   62.8  0.3266 -177.2
 2.200  0.7545  146.8   1.741   50.5  0.1621   62.3  0.3315 -177.6
 2.300  0.7568  145.3   1.675   48.8  0.1689   61.5  0.3346 -177.9
 2.400  0.7597  143.8   1.611   46.9  0.1758   60.8  0.3377 -178.1
 2.500  0.7591  142.3   1.554   45.4  0.1824   59.9  0.3431 -178.6
 2.600  0.7591  140.8   1.498   43.7  0.1891   59.1  0.3486 -179.1
 2.700  0.7601  139.3   1.449   42.2  0.1955   58.3  0.3508 -179.3
 2.800  0.7615  137.9   1.401   40.6  0.2020   57.6  0.3531 -179.5
 2.900  0.7629  136.4   1.361   39.1  0.2082   56.7  0.3585  179.7
 3.000  0.7648  134.9   1.321   37.5  0.2145   55.8  0.3640  178.9
 3.100  0.7658  133.4   1.288   36.2  0.2207   54.9  0.3667  178.2
 3.200  0.7672  132.0   1.256   34.8  0.2269   54.1  0.3696  177.5
 3.300  0.7692  130.5   1.225   33.3  0.2332   53.3  0.3724  176.8
 3.400  0.7716  129.0   1.195   31.8  0.2395   52.5  0.3753  176.1
 3.500  0.7746  127.6   1.165   30.2  0.2459   51.8  0.3783  175.4
 3.600  0.7757  126.1   1.138   28.9  0.2513   50.8  0.3826  174.2
 3.700  0.7773  124.7   1.112   27.5  0.2567   49.8  0.3871  173.1
 3.800  0.7794  123.2   1.087   26.0  0.2622   48.9  0.3917  172.0
 3.900  0.7820  121.7   1.062   24.5  0.2678   48.0  0.3964  170.9
 4.000  0.7851  120.3   1.038   22.9  0.2734   47.2  0.4013  169.9
 4.100  0.7861  119.1   1.016   21.8  0.2783   46.3  0.4073  168.5
 4.200  0.7874  117.8   0.994   20.6  0.2832   45.5  0.4136  167.1
 4.300  0.7891  116.6   0.972   19.3  0.2882   44.7  0.4201  165.8
 4.400  0.7911  115.4   0.951   18.1  0.2932   43.9  0.4268  164.5
 4.500  0.7935  114.2   0.931   16.7  0.2983   43.2  0.4337  163.2
 4.600  0.7943  113.2   0.912   15.8  0.3027   42.4  0.4402  162.2
 4.700  0.7953  112.1   0.894   14.9  0.3071   41.7  0.4468  161.2
 4.800  0.7966  111.1   0.876   13.9  0.3116   40.9  0.4536  160.2
 4.900  0.7982  110.0   0.858   12.9  0.3162   40.2  0.4605  159.2
 5.000  0.8000  109.0   0.840   11.8  0.3208   39.5  0.4675  158.3
 5.100  0.8018  108.2   0.829   11.0  0.3255   38.9  0.4752  157.8
 5.200  0.8037  107.3   0.818   10.2  0.3302   38.2  0.4829  157.4
 5.300  0.8058  106.5   0.807    9.4  0.3350   37.6  0.4907  156.9
 5.400  0.8081  105.7   0.796    8.6  0.3398   37.1  0.4985  156.5
 5.500  0.8105  104.9   0.786    7.7  0.3446   36.5  0.5063  156.1
 5.600  0.8117  104.0   0.774    7.2  0.3500   35.7  0.5114  155.9
 5.700  0.8132  103.0   0.763    6.7  0.3554   35.0  0.5164  155.8
 5.800  0.8149  102.1   0.752    6.1  0.3609   34.2  0.5215  155.6
 5.900  0.8167  101.2   0.740    5.6  0.3665   33.5  0.5266  155.5
 6.000  0.8188  100.3   0.729    5.0  0.3721   32.8  0.5317  155.3
!
!  f       NFmin   Gammaopt  rn/50
! GHz       dB    MAG  ANG    -
 0.450      1.22  0.52 -178   0.05
 0.900      1.34  0.55 -172   0.05
 1.900      2.26  0.68 -148   0.14
 2.400      2.99  0.69 -141   0.27
!
! (c) 2017  Infineon Technologies AG, Munich