! Infineon Technologies  Discrete & RF Semiconductors
! BFP196WN
! VCE =  1.0 V,  IC =  95 mA
! Common Emitter S-Parameters:                            Jan 2017
# GHz  S  MA  R  50
!  f         S11            S21            S12            S22
! GHz     MAG   ANG      MAG   ANG      MAG   ANG      MAG   ANG
 0.010  0.4303 -137.8  73.064  153.3  0.0051   62.4  0.6035  -47.8
 0.020  0.6389 -147.8  56.175  134.1  0.0082   55.3  0.5554  -83.5
 0.030  0.6915 -154.2  46.567  129.2  0.0092   49.4  0.4965  -98.0
 0.040  0.7514 -159.6  37.465  121.9  0.0102   44.6  0.4758 -114.9
 0.050  0.8170 -164.2  29.343  110.3  0.0113   40.8  0.4982 -131.8
 0.060  0.8219 -166.1  26.496  109.0  0.0119   42.6  0.4887 -136.1
 0.070  0.8277 -168.0  23.667  107.4  0.0125   44.2  0.4821 -140.6
 0.080  0.8344 -169.8  20.862  105.3  0.0131   45.7  0.4785 -145.2
 0.090  0.8419 -171.6  18.092  102.6  0.0138   47.1  0.4780 -149.8
 0.100  0.8503 -173.4  15.378   98.9  0.0144   48.3  0.4806 -154.4
 0.110  0.8534 -174.1  14.380   98.2  0.0152   50.1  0.4785 -156.2
 0.120  0.8566 -174.8  13.384   97.4  0.0160   51.7  0.4769 -158.0
 0.130  0.8599 -175.5  12.391   96.4  0.0168   53.2  0.4758 -159.8
 0.140  0.8633 -176.2  11.403   95.3  0.0177   54.5  0.4752 -161.6
 0.150  0.8669 -176.9  10.419   94.0  0.0185   55.7  0.4750 -163.4
 0.200  0.8667 -179.5   7.838   90.8  0.0215   60.0  0.4787 -167.8
 0.250  0.8680  178.8   6.283   88.3  0.0258   63.5  0.4772 -170.5
 0.300  0.8674  177.2   5.243   86.5  0.0296   66.1  0.4763 -172.9
 0.350  0.8676  175.9   4.596   85.0  0.0340   67.9  0.4764 -174.2
 0.400  0.8682  174.7   3.954   82.9  0.0384   69.2  0.4768 -175.5
 0.450  0.8672  173.6   3.559   81.6  0.0428   69.6  0.4782 -176.6
 0.500  0.8666  172.4   3.166   80.0  0.0472   69.9  0.4797 -177.6
 0.600  0.8665  170.3   2.653   77.3  0.0560   70.8  0.4817 -179.3
 0.700  0.8667  168.5   2.277   75.0  0.0639   71.5  0.4794  179.4
 0.800  0.8687  166.5   1.999   72.3  0.0730   71.6  0.4808  178.4
 0.900  0.8645  164.6   1.782   69.9  0.0812   70.7  0.4833  177.4
 1.000  0.8653  162.9   1.616   67.7  0.0895   70.4  0.4845  176.3
 1.100  0.8640  161.2   1.478   65.6  0.0981   69.8  0.4854  175.4
 1.200  0.8658  159.5   1.366   63.4  0.1063   69.2  0.4853  174.7
 1.300  0.8644  157.8   1.271   61.6  0.1140   68.6  0.4883  174.2
 1.400  0.8660  156.2   1.196   59.4  0.1230   67.9  0.4919  173.1
 1.500  0.8651  154.7   1.121   57.4  0.1309   66.9  0.4926  172.2
 1.600  0.8691  153.0   1.066   55.5  0.1389   66.2  0.4939  171.7
 1.700  0.8682  151.2   1.016   53.6  0.1477   65.3  0.4990  171.1
 1.800  0.8703  149.7   0.973   51.6  0.1550   64.3  0.5026  170.3
 1.900  0.8682  148.1   0.929   50.0  0.1629   63.5  0.5033  169.5
 2.000  0.8691  146.5   0.894   47.9  0.1713   62.4  0.5060  169.1
 2.100  0.8678  145.0   0.863   46.3  0.1786   61.5  0.5097  168.5
 2.200  0.8671  143.4   0.833   44.6  0.1859   60.7  0.5134  167.9
 2.300  0.8669  141.8   0.808   43.0  0.1937   59.7  0.5144  167.4
 2.400  0.8674  140.2   0.783   41.3  0.2016   58.7  0.5154  166.9
 2.500  0.8653  138.6   0.761   39.8  0.2091   57.6  0.5197  166.2
 2.600  0.8639  137.0   0.739   38.3  0.2167   56.5  0.5241  165.6
 2.700  0.8638  135.6   0.721   37.0  0.2233   55.6  0.5240  165.2
 2.800  0.8643  134.2   0.703   35.6  0.2300   54.8  0.5239  164.7
 2.900  0.8632  132.7   0.688   34.3  0.2368   53.7  0.5281  163.8
 3.000  0.8628  131.1   0.674   33.0  0.2437   52.6  0.5325  163.0
 3.100  0.8620  129.6   0.663   31.9  0.2501   51.5  0.5333  162.2
 3.200  0.8618  128.1   0.652   30.7  0.2566   50.5  0.5342  161.3
 3.300  0.8622  126.6   0.641   29.5  0.2632   49.5  0.5352  160.5
 3.400  0.8632  125.1   0.630   28.2  0.2698   48.6  0.5363  159.6
 3.500  0.8648  123.6   0.620   26.9  0.2765   47.7  0.5375  158.8
 3.600  0.8635  122.1   0.610   25.8  0.2818   46.6  0.5402  157.8
 3.700  0.8628  120.6   0.600   24.7  0.2871   45.6  0.5431  156.7
 3.800  0.8626  119.2   0.591   23.6  0.2926   44.6  0.5462  155.7
 3.900  0.8630  117.7   0.582   22.4  0.2981   43.6  0.5495  154.7
 4.000  0.8640  116.2   0.573   21.2  0.3037   42.7  0.5529  153.7
 4.100  0.8626  115.0   0.565   20.4  0.3082   41.7  0.5575  152.5
 4.200  0.8616  113.7   0.558   19.5  0.3127   40.8  0.5623  151.3
 4.300  0.8610  112.5   0.550   18.7  0.3174   39.9  0.5674  150.1
 4.400  0.8608  111.2   0.543   17.8  0.3221   39.0  0.5727  148.9
 4.500  0.8610  110.0   0.536   16.9  0.3269   38.2  0.5783  147.8
 4.600  0.8597  109.0   0.529   16.3  0.3308   37.4  0.5829  146.9
 4.700  0.8587  108.1   0.523   15.8  0.3348   36.6  0.5876  146.1
 4.800  0.8579  107.1   0.517   15.2  0.3389   35.8  0.5924  145.2
 4.900  0.8574  106.2   0.510   14.6  0.3430   35.0  0.5973  144.4
 5.000  0.8571  105.2   0.504   14.0  0.3472   34.3  0.6024  143.6
 5.100  0.8573  104.4   0.502   13.4  0.3515   33.6  0.6076  143.2
 5.200  0.8576  103.6   0.501   12.9  0.3559   33.0  0.6128  142.9
 5.300  0.8581  102.9   0.499   12.3  0.3604   32.3  0.6180  142.5
 5.400  0.8588  102.1   0.497   11.7  0.3649   31.7  0.6233  142.1
 5.500  0.8596  101.3   0.496   11.1  0.3694   31.1  0.6286  141.8
 5.600  0.8597  100.4   0.493   10.9  0.3746   30.3  0.6309  141.6
 5.700  0.8601   99.4   0.490   10.7  0.3800   29.6  0.6332  141.5
 5.800  0.8606   98.5   0.488   10.5  0.3854   28.8  0.6355  141.3
 5.900  0.8615   97.5   0.485   10.3  0.3908   28.1  0.6379  141.2
 6.000  0.8625   96.6   0.482   10.1  0.3963   27.4  0.6402  141.0
!
!  f       NFmin   Gammaopt  rn/50
! GHz       dB    MAG  ANG    -
!
! noise parameter not available yet for this operation point!
!
! (c) 2017  Infineon Technologies AG, Munich