! Infineon Technologies  Discrete & RF Semiconductors
! BFP196WN
! VCE =  2.0 V,  IC =  20 mA
! Common Emitter S-Parameters:                            Jan 2017
# GHz  S  MA  R  50
!  f         S11            S21            S12            S22
! GHz     MAG   ANG      MAG   ANG      MAG   ANG      MAG   ANG
 0.010  0.5043  -23.4  50.561  171.3  0.0053   84.1  0.9686  -11.7
 0.020  0.5138  -46.8  47.660  161.3  0.0100   74.9  0.9329  -23.4
 0.030  0.5084  -63.7  44.224  154.9  0.0138   64.2  0.8561  -31.7
 0.040  0.5461  -79.6  41.424  147.6  0.0178   58.2  0.8008  -41.5
 0.050  0.6191  -92.6  39.397  139.3  0.0220   54.5  0.7715  -52.3
 0.060  0.6114 -100.4  36.493  136.5  0.0234   51.5  0.7150  -56.8
 0.070  0.6151 -108.2  33.695  133.1  0.0249   48.9  0.6636  -62.0
 0.080  0.6301 -115.8  31.031  129.2  0.0265   46.6  0.6186  -68.0
 0.090  0.6554 -122.9  28.538  124.6  0.0281   44.5  0.5813  -74.8
 0.100  0.6901 -129.4  26.267  119.1  0.0297   42.7  0.5534  -82.5
 0.110  0.6930 -133.0  24.786  117.5  0.0305   41.7  0.5264  -85.5
 0.120  0.6985 -136.5  23.326  115.7  0.0312   40.7  0.5010  -88.9
 0.130  0.7066 -139.9  21.891  113.7  0.0320   39.7  0.4775  -92.5
 0.140  0.7171 -143.3  20.488  111.4  0.0328   38.9  0.4562  -96.6
 0.150  0.7301 -146.5  19.122  108.8  0.0336   38.0  0.4373 -101.0
 0.200  0.7399 -155.9  14.769  102.4  0.0350   38.0  0.3796 -114.1
 0.250  0.7477 -162.0  12.022   98.0  0.0375   39.2  0.3458 -123.0
 0.300  0.7500 -166.5  10.116   94.8  0.0397   40.4  0.3220 -130.5
 0.350  0.7512 -169.7   8.886   92.6  0.0420   42.9  0.3103 -135.2
 0.400  0.7548 -172.9   7.674   89.7  0.0443   45.1  0.3009 -140.2
 0.450  0.7542 -175.1   6.914   88.0  0.0471   46.7  0.2957 -143.6
 0.500  0.7547 -177.4   6.161   85.9  0.0499   48.2  0.2916 -147.1
 0.600  0.7573  179.1   5.151   82.6  0.0553   51.0  0.2867 -152.1
 0.700  0.7586  176.2   4.413   79.9  0.0601   53.3  0.2822 -155.4
 0.800  0.7617  173.4   3.871   76.9  0.0668   55.3  0.2825 -157.8
 0.900  0.7606  170.8   3.437   74.4  0.0728   56.7  0.2843 -160.0
 1.000  0.7620  168.8   3.104   72.0  0.0790   57.9  0.2854 -162.0
 1.100  0.7632  166.8   2.825   69.8  0.0848   58.8  0.2866 -163.3
 1.200  0.7653  164.9   2.596   67.5  0.0915   59.2  0.2889 -164.4
 1.300  0.7656  163.0   2.401   65.6  0.0976   60.0  0.2931 -165.1
 1.400  0.7674  161.2   2.243   63.3  0.1047   60.0  0.2977 -166.6
 1.500  0.7703  159.5   2.096   61.2  0.1107   60.1  0.3002 -167.5
 1.600  0.7714  157.7   1.975   59.2  0.1172   60.3  0.3043 -167.9
 1.700  0.7726  155.8   1.872   57.2  0.1243   60.3  0.3111 -168.7
 1.800  0.7742  154.2   1.780   55.1  0.1308   60.0  0.3162 -169.6
 1.900  0.7762  152.7   1.689   53.4  0.1367   59.8  0.3203 -170.2
 2.000  0.7777  150.9   1.615   51.2  0.1442   59.3  0.3256 -170.6
 2.100  0.7776  149.3   1.546   49.5  0.1506   59.1  0.3320 -171.1
 2.200  0.7781  147.8   1.479   47.6  0.1571   59.0  0.3384 -171.6
 2.300  0.7804  146.2   1.424   45.8  0.1639   58.5  0.3431 -172.0
 2.400  0.7834  144.6   1.371   43.9  0.1707   58.0  0.3478 -172.4
 2.500  0.7830  143.1   1.322   42.3  0.1773   57.3  0.3546 -173.0
 2.600  0.7831  141.5   1.275   40.5  0.1839   56.7  0.3615 -173.5
 2.700  0.7841  140.0   1.234   39.0  0.1904   56.2  0.3653 -173.9
 2.800  0.7857  138.5   1.193   37.3  0.1969   55.8  0.3692 -174.2
 2.900  0.7867  136.9   1.159   35.7  0.2033   55.0  0.3756 -175.1
 3.000  0.7883  135.4   1.125   34.1  0.2097   54.3  0.3820 -176.0
 3.100  0.7893  133.9   1.097   32.8  0.2161   53.5  0.3861 -176.8
 3.200  0.7909  132.4   1.070   31.4  0.2226   52.8  0.3903 -177.7
 3.300  0.7931  130.9   1.043   29.9  0.2290   52.1  0.3946 -178.5
 3.400  0.7958  129.4   1.017   28.4  0.2356   51.5  0.3989 -179.2
 3.500  0.7990  127.9   0.992   26.8  0.2421   50.9  0.4033  180.0
 3.600  0.7999  126.4   0.969   25.5  0.2478   50.0  0.4084  178.7
 3.700  0.8014  124.8   0.947   24.2  0.2536   49.1  0.4137  177.5
 3.800  0.8035  123.3   0.925   22.7  0.2594   48.3  0.4192  176.2
 3.900  0.8061  121.8   0.904   21.3  0.2653   47.5  0.4249  175.1
 4.000  0.8093  120.3   0.884   19.7  0.2712   46.8  0.4308  173.9
 4.100  0.8098  119.0   0.865   18.6  0.2764   46.0  0.4374  172.4
 4.200  0.8107  117.7   0.847   17.5  0.2817   45.2  0.4444  170.9
 4.300  0.8120  116.4   0.828   16.4  0.2870   44.4  0.4516  169.4
 4.400  0.8137  115.2   0.810   15.2  0.2924   43.6  0.4591  168.0
 4.500  0.8158  113.9   0.793   13.9  0.2978   42.9  0.4669  166.7
 4.600  0.8163  112.9   0.777   13.1  0.3024   42.1  0.4742  165.5
 4.700  0.8171  111.9   0.761   12.3  0.3070   41.4  0.4817  164.4
 4.800  0.8181  110.8   0.746   11.4  0.3117   40.6  0.4894  163.2
 4.900  0.8194  109.8   0.730   10.5  0.3164   39.9  0.4973  162.1
 5.000  0.8209  108.8   0.715    9.6  0.3212   39.2  0.5054  161.1
 5.100  0.8222  108.0   0.706    8.9  0.3262   38.6  0.5138  160.5
 5.200  0.8237  107.2   0.697    8.2  0.3313   38.0  0.5222  159.8
 5.300  0.8254  106.3   0.688    7.5  0.3363   37.4  0.5307  159.2
 5.400  0.8272  105.5   0.680    6.8  0.3415   36.8  0.5393  158.7
 5.500  0.8292  104.7   0.671    6.0  0.3466   36.3  0.5479  158.1
 5.600  0.8302  103.8   0.662    5.6  0.3523   35.5  0.5535  157.8
 5.700  0.8314  102.8   0.653    5.3  0.3581   34.7  0.5592  157.4
 5.800  0.8328  101.9   0.643    4.9  0.3640   34.0  0.5649  157.1
 5.900  0.8344  100.9   0.634    4.5  0.3699   33.3  0.5706  156.8
 6.000  0.8363  100.0   0.625    4.1  0.3759   32.6  0.5763  156.5
!
!  f       NFmin   Gammaopt  rn/50
! GHz       dB    MAG  ANG    -
 0.450      0.96  0.40  169   0.05
 0.900      1.10  0.50  179   0.05
 1.900      2.10  0.69  210   0.12
 2.400      2.86  0.70  216   0.23
!
! (c) 2017  Infineon Technologies AG, Munich