! Infineon Technologies  Discrete & RF Semiconductors
! BFP196WN
! VCE =  5.0 V,  IC =  65 mA
! Common Emitter S-Parameters:                            Jan 2017
# GHz  S  MA  R  50
!  f         S11            S21            S12            S22
! GHz     MAG   ANG      MAG   ANG      MAG   ANG      MAG   ANG
 0.010  0.2129  -66.8  89.946  166.7  0.0033   78.4  0.9216  -17.0
 0.020  0.3325  -96.3  81.256  153.7  0.0062   69.6  0.8579  -33.5
 0.030  0.3921 -113.3  72.300  147.1  0.0079   62.3  0.7539  -43.1
 0.040  0.4762 -125.0  64.560  138.8  0.0096   57.6  0.6770  -55.3
 0.050  0.5740 -133.0  58.521  128.5  0.0114   54.3  0.6373  -69.7
 0.060  0.5857 -138.0  53.484  126.2  0.0122   53.3  0.5865  -74.3
 0.070  0.6016 -142.7  48.550  123.5  0.0130   52.4  0.5401  -79.7
 0.080  0.6213 -147.2  43.752  120.1  0.0137   51.6  0.4995  -86.1
 0.090  0.6446 -151.3  39.141  115.9  0.0145   50.9  0.4661  -93.5
 0.100  0.6711 -155.2  34.791  110.7  0.0153   50.3  0.4416 -101.9
 0.110  0.6771 -157.1  32.661  109.5  0.0159   50.8  0.4226 -105.0
 0.120  0.6838 -159.0  30.548  108.1  0.0165   51.2  0.4050 -108.4
 0.130  0.6912 -160.8  28.455  106.6  0.0171   51.6  0.3889 -112.1
 0.140  0.6993 -162.6  26.387  104.7  0.0177   52.0  0.3745 -116.0
 0.150  0.7080 -164.3  24.350  102.6  0.0183   52.4  0.3621 -120.3
 0.200  0.7144 -169.7  18.527   97.8  0.0209   56.0  0.3308 -132.2
 0.250  0.7220 -173.2  14.942   94.5  0.0247   58.8  0.3130 -139.8
 0.300  0.7248 -175.9  12.510   92.0  0.0274   61.4  0.3000 -146.1
 0.350  0.7264 -177.9  10.979   90.3  0.0310   63.6  0.2947 -149.8
 0.400  0.7289 -179.8   9.461   88.0  0.0346   65.3  0.2907 -153.6
 0.450  0.7286  178.6   8.517   86.6  0.0379   66.4  0.2897 -156.2
 0.500  0.7289  177.0   7.579   84.9  0.0413   67.3  0.2893 -158.9
 0.600  0.7296  174.5   6.331   82.2  0.0493   68.4  0.2876 -162.8
 0.700  0.7289  172.2   5.421   79.9  0.0556   69.7  0.2852 -165.4
 0.800  0.7347  170.0   4.752   77.4  0.0638   70.5  0.2862 -167.1
 0.900  0.7337  168.0   4.218   75.2  0.0708   69.7  0.2888 -168.8
 1.000  0.7331  166.2   3.805   73.2  0.0779   69.6  0.2893 -170.6
 1.100  0.7368  164.3   3.462   71.2  0.0855   69.8  0.2904 -171.7
 1.200  0.7387  162.7   3.180   69.2  0.0921   69.1  0.2918 -172.6
 1.300  0.7366  160.7   2.940   67.4  0.0991   68.8  0.2957 -173.2
 1.400  0.7400  159.1   2.745   65.4  0.1066   68.2  0.2993 -174.5
 1.500  0.7432  157.7   2.563   63.5  0.1138   67.7  0.3007 -175.4
 1.600  0.7437  156.1   2.415   61.7  0.1206   67.2  0.3031 -175.6
 1.700  0.7460  154.3   2.289   59.9  0.1285   66.7  0.3093 -176.4
 1.800  0.7473  152.8   2.174   58.0  0.1352   65.9  0.3128 -177.2
 1.900  0.7480  151.4   2.060   56.4  0.1417   65.2  0.3154 -177.7
 2.000  0.7502  149.7   1.970   54.4  0.1493   64.3  0.3194 -177.9
 2.100  0.7500  148.1   1.886   52.8  0.1559   63.6  0.3241 -178.4
 2.200  0.7504  146.6   1.803   51.0  0.1625   63.0  0.3289 -178.9
 2.300  0.7521  145.1   1.735   49.3  0.1693   62.2  0.3314 -179.1
 2.400  0.7544  143.6   1.669   47.5  0.1762   61.4  0.3339 -179.3
 2.500  0.7539  142.1   1.609   45.9  0.1831   60.5  0.3395 -179.8
 2.600  0.7540  140.6   1.551   44.2  0.1900   59.6  0.3451  179.7
 2.700  0.7550  139.2   1.500   42.7  0.1963   58.8  0.3469  179.5
 2.800  0.7564  137.8   1.451   41.2  0.2027   58.0  0.3488  179.4
 2.900  0.7568  136.2   1.409   39.6  0.2091   57.0  0.3542  178.5
 3.000  0.7577  134.7   1.368   38.0  0.2155   56.1  0.3596  177.7
 3.100  0.7591  133.2   1.334   36.7  0.2216   55.2  0.3621  177.0
 3.200  0.7609  131.8   1.301   35.3  0.2278   54.3  0.3646  176.3
 3.300  0.7632  130.4   1.268   33.8  0.2341   53.5  0.3672  175.6
 3.400  0.7660  128.9   1.237   32.3  0.2404   52.7  0.3698  174.9
 3.500  0.7693  127.5   1.206   30.7  0.2467   52.0  0.3725  174.2
 3.600  0.7705  126.0   1.178   29.4  0.2521   51.0  0.3767  173.1
 3.700  0.7721  124.6   1.151   28.0  0.2576   50.1  0.3811  172.0
 3.800  0.7743  123.2   1.125   26.5  0.2632   49.2  0.3856  170.9
 3.900  0.7769  121.7   1.099   25.0  0.2688   48.3  0.3902  169.9
 4.000  0.7800  120.3   1.074   23.4  0.2745   47.5  0.3950  168.9
 4.100  0.7811  119.1   1.051   22.3  0.2792   46.6  0.4008  167.5
 4.200  0.7825  117.8   1.028   21.1  0.2839   45.7  0.4068  166.1
 4.300  0.7843  116.6   1.006   19.8  0.2888   44.8  0.4131  164.8
 4.400  0.7865  115.4   0.984   18.6  0.2937   44.0  0.4196  163.5
 4.500  0.7890  114.2   0.963   17.2  0.2986   43.2  0.4263  162.2
 4.600  0.7898  113.2   0.943   16.3  0.3029   42.4  0.4327  161.2
 4.700  0.7908  112.2   0.924   15.3  0.3072   41.7  0.4393  160.2
 4.800  0.7920  111.2   0.905   14.3  0.3116   40.9  0.4459  159.3
 4.900  0.7935  110.2   0.886   13.3  0.3160   40.2  0.4527  158.4
 5.000  0.7952  109.2   0.868   12.2  0.3205   39.5  0.4596  157.5
 5.100  0.7970  108.4   0.856   11.4  0.3251   38.9  0.4671  157.1
 5.200  0.7990  107.5   0.845   10.5  0.3298   38.2  0.4746  156.6
 5.300  0.8012  106.7   0.833    9.7  0.3344   37.6  0.4822  156.2
 5.400  0.8035  105.9   0.822    8.8  0.3391   37.1  0.4898  155.8
 5.500  0.8060  105.1   0.811    7.9  0.3439   36.5  0.4974  155.4
 5.600  0.8074  104.2   0.799    7.4  0.3494   35.7  0.5025  155.3
 5.700  0.8091  103.2   0.788    6.8  0.3549   35.0  0.5076  155.2
 5.800  0.8110  102.3   0.777    6.2  0.3605   34.2  0.5126  155.0
 5.900  0.8130  101.4   0.765    5.6  0.3661   33.5  0.5177  154.9
 6.000  0.8153  100.5   0.754    5.0  0.3718   32.8  0.5228  154.8
!
!  f       NFmin   Gammaopt  rn/50
! GHz       dB    MAG  ANG    -
 0.450      1.43  0.56 -176   0.05
 0.900      1.55  0.58 -169   0.06
 1.900      2.48  0.69 -147   0.18
 2.400      3.26  0.70 -139   0.31
!
! (c) 2017  Infineon Technologies AG, Munich