! Infineon Technologies  Discrete & RF Semiconductors
! BFP196WN
! VCE =  7.0 V,  IC =  80 mA
! Common Emitter S-Parameters:                            Jan 2017
# GHz  S  MA  R  50
!  f         S11            S21            S12            S22
! GHz     MAG   ANG      MAG   ANG      MAG   ANG      MAG   ANG
 0.010  0.2129  -67.2  94.476  166.4  0.0029   80.1  0.9094  -16.8
 0.020  0.3345  -97.3  85.420  153.2  0.0054   69.6  0.8446  -33.2
 0.030  0.3929 -113.9  75.805  146.7  0.0071   62.3  0.7405  -42.6
 0.040  0.4750 -125.5  67.453  138.4  0.0089   57.8  0.6622  -54.6
 0.050  0.5707 -133.5  60.887  128.0  0.0107   54.9  0.6196  -69.0
 0.060  0.5819 -138.4  55.621  125.8  0.0115   54.3  0.5694  -73.4
 0.070  0.5971 -143.0  50.459  123.0  0.0124   53.8  0.5233  -78.7
 0.080  0.6160 -147.5  45.434  119.7  0.0132   53.3  0.4825  -84.9
 0.090  0.6384 -151.6  40.599  115.6  0.0141   53.0  0.4483  -92.2
 0.100  0.6638 -155.4  36.031  110.4  0.0149   52.6  0.4224 -100.5
 0.110  0.6695 -157.3  33.828  109.2  0.0154   52.9  0.4034 -103.5
 0.120  0.6760 -159.2  31.641  107.9  0.0158   53.1  0.3856 -106.7
 0.130  0.6831 -161.0  29.474  106.3  0.0163   53.4  0.3692 -110.3
 0.140  0.6910 -162.8  27.333  104.5  0.0167   53.6  0.3544 -114.2
 0.150  0.6995 -164.6  25.223  102.4  0.0172   53.8  0.3413 -118.4
 0.200  0.7044 -169.9  19.163   97.7  0.0193   57.7  0.3086 -130.3
 0.250  0.7128 -173.2  15.453   94.4  0.0231   59.7  0.2903 -137.8
 0.300  0.7177 -176.1  12.946   91.9  0.0269   63.3  0.2768 -144.4
 0.350  0.7185 -178.0  11.357   90.2  0.0303   65.7  0.2718 -148.1
 0.400  0.7200 -179.9   9.782   87.9  0.0337   67.7  0.2680 -152.0
 0.450  0.7201  178.5   8.809   86.6  0.0373   68.2  0.2663 -154.6
 0.500  0.7208  177.0   7.841   84.9  0.0410   68.7  0.2652 -157.3
 0.600  0.7212  174.5   6.548   82.2  0.0481   69.5  0.2644 -161.2
 0.700  0.7230  172.3   5.606   79.9  0.0545   70.4  0.2618 -163.7
 0.800  0.7266  169.9   4.912   77.4  0.0626   70.7  0.2630 -165.5
 0.900  0.7246  168.0   4.359   75.2  0.0695   70.5  0.2651 -167.2
 1.000  0.7267  166.2   3.936   73.2  0.0766   70.7  0.2663 -169.0
 1.100  0.7293  164.4   3.580   71.3  0.0838   70.1  0.2670 -170.0
 1.200  0.7292  162.5   3.285   69.2  0.0908   69.6  0.2683 -170.8
 1.300  0.7301  161.0   3.040   67.5  0.0979   69.7  0.2725 -171.3
 1.400  0.7315  159.1   2.837   65.5  0.1053   69.0  0.2766 -172.7
 1.500  0.7340  157.8   2.648   63.6  0.1120   68.5  0.2782 -173.6
 1.600  0.7370  156.2   2.496   61.8  0.1190   67.8  0.2805 -173.8
 1.700  0.7377  154.3   2.363   59.9  0.1263   67.1  0.2866 -174.4
 1.800  0.7408  152.9   2.244   58.1  0.1329   66.5  0.2910 -175.2
 1.900  0.7409  151.4   2.128   56.5  0.1397   65.6  0.2934 -175.6
 2.000  0.7421  149.7   2.033   54.4  0.1471   64.9  0.2970 -175.8
 2.100  0.7421  148.2   1.946   52.8  0.1536   64.2  0.3021 -176.3
 2.200  0.7426  146.8   1.861   51.0  0.1602   63.6  0.3072 -176.7
 2.300  0.7444  145.2   1.790   49.3  0.1672   62.7  0.3101 -176.9
 2.400  0.7468  143.7   1.720   47.5  0.1742   61.9  0.3130 -177.0
 2.500  0.7464  142.3   1.659   46.0  0.1810   61.0  0.3187 -177.5
 2.600  0.7464  140.8   1.599   44.3  0.1878   60.2  0.3244 -178.0
 2.700  0.7475  139.4   1.546   42.8  0.1939   59.4  0.3265 -178.1
 2.800  0.7491  138.0   1.495   41.2  0.2001   58.6  0.3287 -178.1
 2.900  0.7503  136.4   1.451   39.7  0.2063   57.7  0.3342 -179.0
 3.000  0.7521  134.9   1.408   38.1  0.2125   56.8  0.3397 -179.8
 3.100  0.7534  133.5   1.373   36.8  0.2187   55.9  0.3424  179.5
 3.200  0.7552  132.0   1.338   35.4  0.2250   55.0  0.3452  178.8
 3.300  0.7574  130.6   1.304   33.9  0.2313   54.2  0.3481  178.2
 3.400  0.7601  129.2   1.271   32.3  0.2376   53.4  0.3510  177.5
 3.500  0.7633  127.8   1.239   30.7  0.2440   52.7  0.3539  176.9
 3.600  0.7645  126.3   1.211   29.4  0.2494   51.7  0.3584  175.8
 3.700  0.7661  124.9   1.183   28.0  0.2548   50.7  0.3629  174.7
 3.800  0.7683  123.4   1.156   26.5  0.2603   49.8  0.3677  173.6
 3.900  0.7709  121.9   1.129   25.0  0.2659   48.9  0.3725  172.5
 4.000  0.7741  120.5   1.104   23.4  0.2715   48.1  0.3775  171.5
 4.100  0.7755  119.3   1.080   22.2  0.2763   47.2  0.3834  170.0
 4.200  0.7772  118.0   1.056   21.0  0.2811   46.4  0.3896  168.6
 4.300  0.7792  116.8   1.033   19.8  0.2860   45.6  0.3960  167.2
 4.400  0.7816  115.6   1.010   18.5  0.2910   44.8  0.4027  165.9
 4.500  0.7844  114.4   0.988   17.1  0.2960   44.0  0.4095  164.6
 4.600  0.7853  113.4   0.967   16.1  0.3003   43.2  0.4161  163.5
 4.700  0.7865  112.3   0.947   15.2  0.3046   42.4  0.4227  162.5
 4.800  0.7879  111.3   0.927   14.1  0.3090   41.7  0.4296  161.5
 4.900  0.7896  110.3   0.907   13.0  0.3135   40.9  0.4365  160.5
 5.000  0.7915  109.3   0.888   11.9  0.3180   40.2  0.4436  159.6
 5.100  0.7934  108.5   0.876   11.1  0.3227   39.6  0.4514  159.1
 5.200  0.7955  107.7   0.864   10.3  0.3274   38.9  0.4592  158.7
 5.300  0.7978  106.9   0.852    9.4  0.3321   38.3  0.4670  158.2
 5.400  0.8002  106.2   0.840    8.5  0.3369   37.8  0.4749  157.8
 5.500  0.8027  105.4   0.829    7.6  0.3417   37.2  0.4828  157.4
 5.600  0.8041  104.5   0.816    7.0  0.3471   36.4  0.4882  157.3
 5.700  0.8057  103.5   0.804    6.5  0.3527   35.7  0.4936  157.2
 5.800  0.8075  102.6   0.792    5.9  0.3582   35.0  0.4990  157.0
 5.900  0.8096  101.7   0.779    5.2  0.3638   34.3  0.5044  156.9
 6.000  0.8118  100.8   0.767    4.6  0.3695   33.6  0.5098  156.8
!
!  f       NFmin   Gammaopt  rn/50
! GHz       dB    MAG  ANG    -
 0.450      1.58  0.58 -175   0.05
 0.900      1.71  0.59 -168   0.07
 1.900      2.67  0.70 -146   0.21
 2.400      3.48  0.71 -138   0.35
!
! (c) 2017  Infineon Technologies AG, Munich