! Infineon Technologies  Discrete & RF Semiconductors
! BFP196WN
! VCE =  1.0 V,  IC =  25 mA
! Common Emitter S-Parameters:                            Jan 2017
# GHz  S  MA  R  50
!  f         S11            S21            S12            S22
! GHz     MAG   ANG      MAG   ANG      MAG   ANG      MAG   ANG
 0.010  0.4223  -34.8  57.658  168.6  0.0060   78.2  0.9475  -16.7
 0.020  0.4659  -65.2  52.905  156.4  0.0112   71.9  0.8934  -32.5
 0.030  0.4796  -84.5  47.726  149.7  0.0146   60.8  0.7966  -42.8
 0.040  0.5420 -101.1  43.347  141.6  0.0184   54.0  0.7317  -55.4
 0.050  0.6389 -113.4  40.029  131.8  0.0223   49.6  0.7077  -69.6
 0.060  0.6397 -120.0  36.714  129.3  0.0235   47.2  0.6552  -74.8
 0.070  0.6490 -126.5  33.482  126.3  0.0246   45.0  0.6091  -80.9
 0.080  0.6664 -132.8  30.359  122.7  0.0259   43.0  0.5708  -87.8
 0.090  0.6914 -138.7  27.384  118.3  0.0271   41.2  0.5421  -95.7
 0.100  0.7230 -144.1  24.608  112.9  0.0284   39.5  0.5245 -104.2
 0.110  0.7277 -146.8  23.130  111.6  0.0289   39.2  0.5049 -107.6
 0.120  0.7340 -149.4  21.666  110.1  0.0294   39.0  0.4872 -111.2
 0.130  0.7417 -151.9  20.219  108.4  0.0300   38.7  0.4716 -115.2
 0.140  0.7510 -154.5  18.792  106.4  0.0305   38.4  0.4584 -119.3
 0.150  0.7616 -156.9  17.392  104.1  0.0310   38.2  0.4477 -123.7
 0.200  0.7678 -164.1  13.285   98.7  0.0327   39.2  0.4182 -135.6
 0.250  0.7754 -168.8  10.738   95.0  0.0361   41.4  0.4008 -143.3
 0.300  0.7785 -172.3   9.007   92.2  0.0384   44.7  0.3886 -149.4
 0.350  0.7779 -174.8   7.902   90.3  0.0413   46.7  0.3837 -153.1
 0.400  0.7788 -177.3   6.808   87.7  0.0442   48.5  0.3805 -156.8
 0.450  0.7806 -179.1   6.130   86.2  0.0473   50.6  0.3791 -159.3
 0.500  0.7832  179.1   5.458   84.3  0.0504   52.5  0.3784 -161.9
 0.600  0.7839  176.0   4.562   81.3  0.0570   54.8  0.3773 -165.7
 0.700  0.7840  173.6   3.910   78.7  0.0631   57.0  0.3744 -168.3
 0.800  0.7869  171.1   3.428   75.9  0.0704   58.9  0.3756 -170.1
 0.900  0.7845  168.8   3.045   73.5  0.0782   59.6  0.3778 -171.9
 1.000  0.7855  166.8   2.753   71.3  0.0843   60.3  0.3788 -173.5
 1.100  0.7883  164.9   2.507   69.1  0.0919   60.9  0.3803 -174.7
 1.200  0.7873  163.0   2.305   66.9  0.0991   60.9  0.3812 -175.8
 1.300  0.7869  161.3   2.135   65.0  0.1054   61.0  0.3850 -176.4
 1.400  0.7887  159.4   1.996   62.8  0.1134   61.1  0.3882 -177.8
 1.500  0.7923  157.9   1.866   60.8  0.1201   61.0  0.3901 -178.8
 1.600  0.7939  156.2   1.763   58.9  0.1273   60.8  0.3929 -179.2
 1.700  0.7953  154.3   1.673   56.9  0.1347   60.4  0.3984  179.9
 1.800  0.7956  152.7   1.592   54.8  0.1419   59.8  0.4028  179.1
 1.900  0.7959  151.2   1.513   53.2  0.1484   59.7  0.4050  178.4
 2.000  0.7986  149.6   1.448   51.1  0.1561   58.9  0.4085  178.1
 2.100  0.7976  148.0   1.389   49.4  0.1629   58.4  0.4133  177.5
 2.200  0.7973  146.3   1.331   47.5  0.1698   57.9  0.4182  176.9
 2.300  0.7991  144.7   1.283   45.8  0.1770   57.2  0.4209  176.4
 2.400  0.8015  143.2   1.237   43.9  0.1843   56.6  0.4236  176.0
 2.500  0.8005  141.7   1.196   42.3  0.1911   55.9  0.4289  175.4
 2.600  0.8000  140.2   1.155   40.6  0.1980   55.2  0.4342  174.9
 2.700  0.8007  138.7   1.119   39.1  0.2044   54.5  0.4358  174.5
 2.800  0.8019  137.2   1.084   37.6  0.2109   53.8  0.4375  174.1
 2.900  0.8022  135.6   1.054   36.0  0.2176   53.0  0.4428  173.2
 3.000  0.8030  134.1   1.025   34.4  0.2243   52.2  0.4482  172.4
 3.100  0.8038  132.6   1.002   33.1  0.2306   51.3  0.4506  171.6
 3.200  0.8051  131.1   0.979   31.8  0.2370   50.5  0.4531  170.8
 3.300  0.8069  129.6   0.957   30.3  0.2434   49.7  0.4557  170.0
 3.400  0.8093  128.2   0.935   28.9  0.2499   48.9  0.4584  169.2
 3.500  0.8122  126.7   0.914   27.3  0.2564   48.2  0.4612  168.4
 3.600  0.8124  125.2   0.894   26.1  0.2619   47.3  0.4651  167.3
 3.700  0.8131  123.7   0.875   24.8  0.2674   46.4  0.4693  166.2
 3.800  0.8144  122.2   0.857   23.4  0.2730   45.5  0.4735  165.1
 3.900  0.8162  120.7   0.839   22.0  0.2786   44.7  0.4780  164.0
 4.000  0.8186  119.2   0.821   20.5  0.2843   43.9  0.4826  163.0
 4.100  0.8187  118.0   0.805   19.5  0.2890   43.0  0.4882  161.7
 4.200  0.8192  116.7   0.789   18.4  0.2938   42.2  0.4941  160.4
 4.300  0.8201  115.5   0.774   17.3  0.2987   41.4  0.5002  159.1
 4.400  0.8214  114.2   0.759   16.1  0.3036   40.6  0.5066  157.9
 4.500  0.8230  113.0   0.744   14.9  0.3086   39.8  0.5132  156.7
 4.600  0.8229  112.0   0.731   14.1  0.3129   39.0  0.5193  155.7
 4.700  0.8231  110.9   0.717   13.3  0.3172   38.3  0.5256  154.8
 4.800  0.8236  109.9   0.704   12.5  0.3215   37.6  0.5320  153.8
 4.900  0.8244  108.8   0.691   11.6  0.3259   36.9  0.5386  152.9
 5.000  0.8254  107.8   0.678   10.7  0.3304   36.2  0.5453  152.0
 5.100  0.8266  107.0   0.671   10.0  0.3350   35.6  0.5520  151.5
 5.200  0.8280  106.2   0.664    9.3  0.3396   35.0  0.5587  151.0
 5.300  0.8295  105.4   0.657    8.6  0.3443   34.4  0.5655  150.6
 5.400  0.8312  104.6   0.651    7.9  0.3490   33.8  0.5723  150.1
 5.500  0.8330  103.8   0.644    7.2  0.3537   33.2  0.5791  149.7
 5.600  0.8338  102.9   0.636    6.8  0.3593   32.4  0.5832  149.5
 5.700  0.8349  102.0   0.629    6.5  0.3650   31.7  0.5873  149.3
 5.800  0.8361  101.0   0.621    6.1  0.3707   31.0  0.5914  149.1
 5.900  0.8376  100.1   0.614    5.7  0.3765   30.3  0.5956  148.9
 6.000  0.8393   99.2   0.606    5.3  0.3823   29.6  0.5997  148.7
!
!  f       NFmin   Gammaopt  rn/50
! GHz       dB    MAG  ANG    -
 0.450      1.00  0.43  174   0.05
 0.900      1.15  0.51  182   0.05
 1.900      2.08  0.68  210   0.13
 2.400      2.83  0.69  217   0.23
!
! (c) 2017  Infineon Technologies AG, Munich