! Infineon Technologies  Discrete & RF Semiconductors
! BFP196WN
! VCE =  2.0 V,  IC = 0.13 A
! Common Emitter S-Parameters:                            Jan 2017
# GHz  S  MA  R  50
!  f         S11            S21            S12            S22
! GHz     MAG   ANG      MAG   ANG      MAG   ANG      MAG   ANG
 0.010  0.3984 -145.1  82.489  157.4  0.0036   68.9  0.6414  -35.2
 0.020  0.5786 -149.5  66.901  139.1  0.0058   61.8  0.5676  -64.9
 0.030  0.6393 -155.0  56.144  133.7  0.0070   55.9  0.4863  -78.1
 0.040  0.7049 -159.5  46.124  125.8  0.0082   51.8  0.4397  -95.3
 0.050  0.7740 -163.2  37.438  113.9  0.0095   48.8  0.4389 -114.4
 0.060  0.7806 -165.2  33.859  112.4  0.0102   50.1  0.4212 -119.4
 0.070  0.7881 -167.1  30.309  110.6  0.0108   51.2  0.4070 -124.9
 0.080  0.7965 -169.0  26.798  108.3  0.0115   52.1  0.3967 -130.6
 0.090  0.8058 -170.8  23.344  105.2  0.0121   53.0  0.3907 -136.7
 0.100  0.8158 -172.6  19.977  101.2  0.0128   53.8  0.3890 -142.8
 0.110  0.8195 -173.4  18.684  100.4  0.0135   54.9  0.3845 -145.2
 0.120  0.8234 -174.1  17.396   99.5  0.0141   55.9  0.3807 -147.6
 0.130  0.8274 -174.9  16.112   98.4  0.0148   56.7  0.3776 -150.0
 0.140  0.8315 -175.7  14.836   97.1  0.0154   57.6  0.3752 -152.5
 0.150  0.8358 -176.4  13.568   95.6  0.0161   58.3  0.3735 -155.0
 0.200  0.8342 -179.0  10.240   92.1  0.0193   65.3  0.3745 -161.1
 0.250  0.8364  179.3   8.206   89.5  0.0233   67.3  0.3713 -164.6
 0.300  0.8389  177.6   6.857   87.6  0.0270   69.4  0.3695 -167.8
 0.350  0.8389  176.2   6.008   86.1  0.0312   70.8  0.3695 -169.4
 0.400  0.8394  174.9   5.164   84.0  0.0355   71.9  0.3698 -170.9
 0.450  0.8387  173.9   4.648   82.7  0.0394   72.5  0.3714 -172.1
 0.500  0.8382  172.8   4.134   81.1  0.0434   73.0  0.3731 -173.3
 0.600  0.8380  170.6   3.458   78.4  0.0515   72.8  0.3751 -175.2
 0.700  0.8368  168.9   2.964   76.1  0.0591   74.1  0.3739 -176.6
 0.800  0.8406  166.9   2.601   73.4  0.0680   73.8  0.3751 -177.4
 0.900  0.8380  165.0   2.312   71.1  0.0756   72.7  0.3784 -178.2
 1.000  0.8387  163.4   2.094   68.9  0.0829   72.3  0.3806 -179.4
 1.100  0.8393  161.7   1.910   66.8  0.0918   71.9  0.3821  179.8
 1.200  0.8396  160.0   1.759   64.6  0.0994   71.4  0.3830  179.3
 1.300  0.8395  158.4   1.632   62.8  0.1071   70.5  0.3872  179.0
 1.400  0.8410  156.6   1.529   60.6  0.1150   69.8  0.3916  177.9
 1.500  0.8419  155.1   1.433   58.6  0.1222   68.9  0.3929  177.2
 1.600  0.8436  153.6   1.355   56.7  0.1304   68.2  0.3950  177.0
 1.700  0.8443  151.8   1.289   54.8  0.1384   67.6  0.4020  176.5
 1.800  0.8454  150.2   1.230   52.8  0.1459   66.6  0.4064  175.7
 1.900  0.8445  148.8   1.171   51.1  0.1527   65.8  0.4075  175.1
 2.000  0.8464  147.0   1.124   49.0  0.1611   64.8  0.4113  175.0
 2.100  0.8446  145.5   1.080   47.3  0.1683   63.9  0.4167  174.5
 2.200  0.8433  144.0   1.037   45.5  0.1755   63.1  0.4221  174.0
 2.300  0.8449  142.5   1.002   43.8  0.1831   62.1  0.4242  173.7
 2.400  0.8470  141.0   0.968   42.0  0.1908   61.2  0.4264  173.4
 2.500  0.8451  139.4   0.938   40.5  0.1980   60.1  0.4319  172.8
 2.600  0.8438  137.8   0.908   38.9  0.2052   59.1  0.4375  172.2
 2.700  0.8439  136.4   0.882   37.5  0.2118   58.3  0.4385  172.0
 2.800  0.8445  135.0   0.856   36.0  0.2184   57.5  0.4396  171.8
 2.900  0.8437  133.4   0.835   34.6  0.2251   56.4  0.4455  170.9
 3.000  0.8436  131.8   0.814   33.1  0.2319   55.3  0.4516  170.0
 3.100  0.8434  130.3   0.797   31.9  0.2383   54.3  0.4536  169.2
 3.200  0.8439  128.8   0.781   30.7  0.2448   53.3  0.4556  168.5
 3.300  0.8448  127.3   0.765   29.4  0.2514   52.3  0.4577  167.7
 3.400  0.8464  125.9   0.749   28.0  0.2580   51.4  0.4599  166.9
 3.500  0.8485  124.4   0.734   26.6  0.2647   50.6  0.4622  166.2
 3.600  0.8481  122.9   0.720   25.4  0.2702   49.5  0.4663  165.1
 3.700  0.8483  121.4   0.706   24.2  0.2757   48.5  0.4705  164.1
 3.800  0.8491  120.0   0.692   23.0  0.2813   47.5  0.4750  163.1
 3.900  0.8504  118.5   0.679   21.7  0.2870   46.6  0.4795  162.1
 4.000  0.8523  117.0   0.666   20.3  0.2928   45.7  0.4842  161.1
 4.100  0.8511  115.8   0.655   19.4  0.2976   44.7  0.4900  159.8
 4.200  0.8503  114.5   0.643   18.5  0.3024   43.8  0.4961  158.5
 4.300  0.8500  113.3   0.632   17.5  0.3073   42.9  0.5024  157.2
 4.400  0.8500  112.0   0.622   16.5  0.3123   42.0  0.5089  156.0
 4.500  0.8504  110.8   0.611   15.5  0.3174   41.2  0.5157  154.8
 4.600  0.8497  109.8   0.601   14.8  0.3216   40.4  0.5213  153.9
 4.700  0.8493  108.8   0.592   14.2  0.3258   39.5  0.5270  152.9
 4.800  0.8491  107.9   0.583   13.5  0.3302   38.7  0.5328  152.0
 4.900  0.8492  106.9   0.573   12.7  0.3346   38.0  0.5388  151.2
 5.000  0.8495  105.9   0.564   12.0  0.3390   37.2  0.5449  150.3
 5.100  0.8499  105.1   0.560   11.4  0.3436   36.5  0.5516  149.9
 5.200  0.8504  104.3   0.557   10.9  0.3483   35.9  0.5584  149.4
 5.300  0.8512  103.5   0.553   10.3  0.3530   35.2  0.5652  149.0
 5.400  0.8520  102.7   0.549    9.7  0.3577   34.6  0.5720  148.6
 5.500  0.8531  101.9   0.546    9.1  0.3625   34.0  0.5789  148.2
 5.600  0.8535  101.0   0.541    8.9  0.3679   33.2  0.5827  148.0
 5.700  0.8542  100.1   0.535    8.7  0.3733   32.5  0.5864  147.8
 5.800  0.8550   99.2   0.530    8.5  0.3788   31.7  0.5902  147.7
 5.900  0.8561   98.3   0.524    8.2  0.3844   31.0  0.5940  147.5
 6.000  0.8574   97.4   0.519    8.0  0.3900   30.3  0.5978  147.3
!
!  f       NFmin   Gammaopt  rn/50
! GHz       dB    MAG  ANG    -
!
! noise parameter not available yet for this operation point!
!
! (c) 2017  Infineon Technologies AG, Munich