! Infineon Technologies  Discrete & RF Semiconductors
! BFP196WN
! VCE =  5.0 V,  IC = 0.14 A
! Common Emitter S-Parameters:                            Jan 2017
# GHz  S  MA  R  50
!  f         S11            S21            S12            S22
! GHz     MAG   ANG      MAG   ANG      MAG   ANG      MAG   ANG
 0.010  0.2600 -128.4  96.181  162.7  0.0027   73.2  0.7872  -21.9
 0.020  0.4287 -135.0  83.159  146.9  0.0047   71.8  0.7046  -42.9
 0.030  0.5011 -143.2  71.642  140.7  0.0059   60.8  0.6007  -53.0
 0.040  0.5810 -149.2  61.282  132.2  0.0073   53.8  0.5225  -66.6
 0.050  0.6657 -153.7  52.764  120.7  0.0088   49.1  0.4825  -83.7
 0.060  0.6764 -156.6  47.905  118.8  0.0096   50.7  0.4453  -88.3
 0.070  0.6887 -159.4  43.109  116.5  0.0103   52.1  0.4115  -93.8
 0.080  0.7027 -162.1  38.398  113.7  0.0111   53.3  0.3820 -100.1
 0.090  0.7181 -164.7  33.809  110.1  0.0119   54.3  0.3580 -107.4
 0.100  0.7350 -167.2  29.398  105.3  0.0127   55.2  0.3405 -115.6
 0.110  0.7399 -168.3  27.542  104.3  0.0133   55.7  0.3285 -118.5
 0.120  0.7450 -169.4  25.694  103.3  0.0138   56.2  0.3173 -121.6
 0.130  0.7504 -170.4  23.857  102.0  0.0144   56.7  0.3072 -125.0
 0.140  0.7560 -171.5  22.033  100.5  0.0149   57.1  0.2982 -128.5
 0.150  0.7619 -172.5  20.227   98.8  0.0155   57.5  0.2904 -132.3
 0.200  0.7632 -175.9  15.263   94.8  0.0178   65.5  0.2765 -142.4
 0.250  0.7680 -178.2  12.286   91.9  0.0219   65.3  0.2668 -148.1
 0.300  0.7719  179.7  10.274   89.7  0.0248   69.3  0.2599 -153.3
 0.350  0.7716  178.3   9.003   88.2  0.0286   70.8  0.2582 -155.9
 0.400  0.7717  176.9   7.741   86.1  0.0325   72.0  0.2571 -158.6
 0.450  0.7710  175.6   6.968   84.8  0.0363   72.6  0.2579 -160.5
 0.500  0.7707  174.3   6.199   83.2  0.0401   73.0  0.2589 -162.4
 0.600  0.7717  172.2   5.184   80.6  0.0475   73.1  0.2596 -165.2
 0.700  0.7734  170.2   4.436   78.3  0.0547   74.2  0.2590 -166.8
 0.800  0.7766  168.1   3.890   75.8  0.0626   74.2  0.2610 -167.7
 0.900  0.7744  166.2   3.456   73.6  0.0697   73.0  0.2649 -168.8
 1.000  0.7755  164.6   3.123   71.5  0.0764   73.3  0.2682 -170.1
 1.100  0.7774  162.9   2.845   69.5  0.0842   72.8  0.2697 -170.9
 1.200  0.7775  161.1   2.613   67.4  0.0915   72.0  0.2718 -171.3
 1.300  0.7778  159.5   2.420   65.6  0.0986   71.7  0.2774 -171.4
 1.400  0.7788  157.8   2.262   63.5  0.1060   71.0  0.2828 -172.8
 1.500  0.7818  156.5   2.114   61.6  0.1135   70.2  0.2848 -173.4
 1.600  0.7824  154.8   1.994   59.7  0.1205   69.6  0.2880 -173.3
 1.700  0.7845  153.0   1.890   57.8  0.1282   68.8  0.2961 -173.8
 1.800  0.7865  151.7   1.799   55.8  0.1351   67.9  0.3007 -174.6
 1.900  0.7845  150.2   1.709   54.1  0.1416   67.4  0.3045 -175.1
 2.000  0.7888  148.4   1.634   52.1  0.1494   66.4  0.3090 -175.2
 2.100  0.7876  146.9   1.566   50.4  0.1561   65.6  0.3154 -175.6
 2.200  0.7870  145.4   1.499   48.6  0.1629   64.9  0.3219 -176.0
 2.300  0.7885  143.8   1.444   46.9  0.1701   64.0  0.3252 -176.2
 2.400  0.7905  142.3   1.391   45.0  0.1774   63.1  0.3286 -176.3
 2.500  0.7900  140.8   1.343   43.4  0.1843   62.2  0.3356 -176.9
 2.600  0.7901  139.3   1.296   41.7  0.1913   61.3  0.3426 -177.5
 2.700  0.7906  138.0   1.255   40.2  0.1977   60.5  0.3451 -177.6
 2.800  0.7916  136.7   1.214   38.7  0.2042   59.7  0.3476 -177.6
 2.900  0.7922  135.1   1.180   37.1  0.2108   58.7  0.3540 -178.6
 3.000  0.7934  133.5   1.146   35.4  0.2174   57.7  0.3606 -179.6
 3.100  0.7941  132.0   1.118   34.1  0.2237   56.7  0.3638  179.7
 3.200  0.7953  130.6   1.092   32.7  0.2301   55.8  0.3670  178.9
 3.300  0.7971  129.2   1.065   31.3  0.2366   54.9  0.3703  178.2
 3.400  0.7993  127.7   1.040   29.8  0.2431   54.1  0.3736  177.5
 3.500  0.8020  126.3   1.015   28.2  0.2496   53.3  0.3770  176.8
 3.600  0.8027  124.8   0.993   26.9  0.2551   52.3  0.3820  175.6
 3.700  0.8038  123.4   0.971   25.5  0.2607   51.3  0.3872  174.5
 3.800  0.8055  121.9   0.950   24.1  0.2663   50.3  0.3925  173.4
 3.900  0.8078  120.4   0.929   22.6  0.2720   49.4  0.3979  172.3
 4.000  0.8105  119.0   0.909   21.0  0.2778   48.5  0.4035  171.3
 4.100  0.8107  117.8   0.890   19.9  0.2827   47.6  0.4098  169.8
 4.200  0.8113  116.5   0.871   18.8  0.2877   46.7  0.4163  168.3
 4.300  0.8122  115.3   0.853   17.6  0.2928   45.9  0.4231  166.8
 4.400  0.8136  114.0   0.835   16.3  0.2979   45.1  0.4302  165.4
 4.500  0.8153  112.8   0.817   15.0  0.3031   44.3  0.4375  164.1
 4.600  0.8156  111.8   0.801   14.2  0.3074   43.5  0.4441  163.0
 4.700  0.8162  110.8   0.785   13.3  0.3117   42.6  0.4508  162.0
 4.800  0.8170  109.9   0.769   12.4  0.3161   41.8  0.4577  160.9
 4.900  0.8181  108.9   0.753   11.5  0.3206   41.1  0.4647  160.0
 5.000  0.8194  107.9   0.738   10.5  0.3251   40.3  0.4719  159.0
 5.100  0.8209  107.1   0.729    9.8  0.3299   39.6  0.4799  158.5
 5.200  0.8226  106.3   0.720    9.0  0.3348   38.9  0.4880  158.0
 5.300  0.8245  105.5   0.712    8.2  0.3398   38.3  0.4960  157.5
 5.400  0.8265  104.7   0.703    7.4  0.3448   37.6  0.5042  157.0
 5.500  0.8287  103.9   0.695    6.6  0.3498   37.0  0.5123  156.6
 5.600  0.8299  103.0   0.685    6.2  0.3554   36.2  0.5176  156.4
 5.700  0.8313  102.0   0.675    5.8  0.3610   35.5  0.5230  156.1
 5.800  0.8330  101.1   0.665    5.3  0.3667   34.7  0.5284  155.9
 5.900  0.8349  100.1   0.656    4.9  0.3724   34.0  0.5337  155.7
 6.000  0.8370   99.2   0.646    4.4  0.3782   33.3  0.5391  155.5
!
!  f       NFmin   Gammaopt  rn/50
! GHz       dB    MAG  ANG    -
!
! noise parameter not available yet for this operation point!
!
! (c) 2017  Infineon Technologies AG, Munich