! Infineon Technologies  Discrete & RF Semiconductors
! BFP196WN
! VCE =  8.0 V,  IC =  40 mA
! Common Emitter S-Parameters:                            Jan 2017
# GHz  S  MA  R  50
!  f         S11            S21            S12            S22
! GHz     MAG   ANG      MAG   ANG      MAG   ANG      MAG   ANG
 0.010  0.3641  -31.2  73.249  169.6  0.0037   79.3  0.9493  -12.7
 0.020  0.4002  -59.2  67.942  158.9  0.0065   74.7  0.9020  -25.0
 0.030  0.4140  -78.4  62.256  152.4  0.0090   65.8  0.8180  -33.4
 0.040  0.4688  -94.7  57.527  144.7  0.0116   60.9  0.7551  -43.4
 0.050  0.5525 -106.8  54.007  135.8  0.0143   57.8  0.7189  -54.8
 0.060  0.5551 -113.9  49.780  133.1  0.0152   55.0  0.6633  -59.0
 0.070  0.5663 -120.9  45.680  130.0  0.0162   52.5  0.6117  -63.8
 0.080  0.5854 -127.5  41.743  126.2  0.0172   50.2  0.5655  -69.6
 0.090  0.6118 -133.6  38.023  121.7  0.0182   48.3  0.5258  -76.3
 0.100  0.6445 -139.2  34.587  116.3  0.0192   46.5  0.4944  -83.9
 0.110  0.6493 -142.1  32.574  114.9  0.0198   46.5  0.4688  -86.7
 0.120  0.6558 -145.0  30.585  113.2  0.0204   46.6  0.4445  -89.9
 0.130  0.6639 -147.9  28.624  111.4  0.0209   46.6  0.4217  -93.3
 0.140  0.6736 -150.6  26.697  109.3  0.0215   46.7  0.4006  -97.2
 0.150  0.6848 -153.3  24.813  106.8  0.0221   46.7  0.3816 -101.5
 0.200  0.6934 -161.0  19.058  101.1  0.0244   48.1  0.3273 -113.8
 0.250  0.7017 -166.2  15.446   97.1  0.0272   50.5  0.2954 -122.3
 0.300  0.7060 -170.1  12.969   94.2  0.0300   53.3  0.2731 -129.6
 0.350  0.7064 -172.8  11.393   92.2  0.0328   55.7  0.2623 -134.1
 0.400  0.7083 -175.5   9.835   89.6  0.0357   57.7  0.2532 -139.0
 0.450  0.7097 -177.4   8.858   88.1  0.0388   59.2  0.2483 -142.4
 0.500  0.7118 -179.3   7.889   86.3  0.0420   60.5  0.2443 -145.9
 0.600  0.7138  177.5   6.595   83.3  0.0482   62.2  0.2399 -150.8
 0.700  0.7150  175.0   5.647   80.8  0.0548   64.2  0.2362 -154.3
 0.800  0.7175  172.4   4.948   78.1  0.0619   65.6  0.2359 -156.6
 0.900  0.7160  169.9   4.394   75.8  0.0680   65.9  0.2375 -158.7
 1.000  0.7188  168.0   3.966   73.7  0.0742   66.3  0.2385 -160.8
 1.100  0.7218  166.2   3.607   71.6  0.0817   66.5  0.2392 -162.2
 1.200  0.7237  164.3   3.311   69.5  0.0877   66.5  0.2404 -163.3
 1.300  0.7228  162.5   3.060   67.7  0.0944   66.5  0.2448 -163.8
 1.400  0.7248  160.7   2.857   65.6  0.1014   66.3  0.2491 -165.4
 1.500  0.7288  159.1   2.666   63.8  0.1082   65.9  0.2510 -166.3
 1.600  0.7311  157.5   2.511   61.8  0.1148   65.6  0.2544 -166.6
 1.700  0.7324  155.5   2.377   60.0  0.1218   65.4  0.2603 -167.3
 1.800  0.7327  154.1   2.258   58.0  0.1280   64.5  0.2652 -168.1
 1.900  0.7337  152.6   2.140   56.4  0.1345   64.4  0.2685 -168.7
 2.000  0.7353  150.9   2.044   54.3  0.1415   63.6  0.2733 -168.9
 2.100  0.7366  149.3   1.956   52.7  0.1479   63.1  0.2790 -169.4
 2.200  0.7384  147.8   1.870   50.9  0.1543   62.6  0.2848 -169.9
 2.300  0.7401  146.3   1.799   49.2  0.1610   61.9  0.2887 -170.1
 2.400  0.7423  144.8   1.729   47.3  0.1678   61.3  0.2927 -170.2
 2.500  0.7421  143.2   1.667   45.7  0.1744   60.5  0.2992 -170.8
 2.600  0.7424  141.7   1.606   44.0  0.1811   59.8  0.3057 -171.4
 2.700  0.7443  140.2   1.551   42.5  0.1871   59.1  0.3087 -171.5
 2.800  0.7468  138.7   1.498   40.8  0.1932   58.4  0.3118 -171.6
 2.900  0.7467  137.2   1.454   39.3  0.1997   57.6  0.3178 -172.5
 3.000  0.7470  135.8   1.411   37.7  0.2062   56.9  0.3239 -173.3
 3.100  0.7486  134.3   1.375   36.4  0.2123   56.1  0.3275 -174.1
 3.200  0.7508  132.9   1.340   34.9  0.2184   55.3  0.3311 -174.8
 3.300  0.7534  131.4   1.306   33.4  0.2246   54.5  0.3347 -175.5
 3.400  0.7565  129.9   1.272   31.9  0.2308   53.8  0.3384 -176.2
 3.500  0.7601  128.5   1.240   30.2  0.2370   53.1  0.3422 -176.9
 3.600  0.7617  127.0   1.211   28.9  0.2425   52.2  0.3470 -178.1
 3.700  0.7638  125.6   1.183   27.5  0.2481   51.3  0.3520 -179.4
 3.800  0.7664  124.1   1.155   26.0  0.2538   50.4  0.3572  179.5
 3.900  0.7695  122.6   1.128   24.5  0.2595   49.6  0.3625  178.3
 4.000  0.7731  121.2   1.102   22.9  0.2653   48.8  0.3679  177.2
 4.100  0.7744  119.9   1.077   21.7  0.2703   47.9  0.3742  175.6
 4.200  0.7761  118.7   1.053   20.5  0.2753   47.1  0.3807  174.1
 4.300  0.7782  117.4   1.030   19.2  0.2804   46.3  0.3876  172.7
 4.400  0.7806  116.1   1.007   17.9  0.2855   45.5  0.3946  171.3
 4.500  0.7834  114.9   0.984   16.5  0.2907   44.8  0.4019  169.9
 4.600  0.7845  113.9   0.963   15.6  0.2952   44.0  0.4090  168.7
 4.700  0.7858  112.8   0.943   14.6  0.2997   43.3  0.4163  167.5
 4.800  0.7873  111.8   0.923   13.6  0.3042   42.5  0.4237  166.4
 4.900  0.7891  110.8   0.903   12.6  0.3088   41.8  0.4313  165.3
 5.000  0.7912  109.8   0.884   11.5  0.3135   41.1  0.4390  164.3
 5.100  0.7931  109.0   0.871   10.7  0.3184   40.5  0.4476  163.7
 5.200  0.7951  108.1   0.859    9.8  0.3233   39.8  0.4562  163.2
 5.300  0.7974  107.3   0.846    8.9  0.3283   39.2  0.4648  162.6
 5.400  0.7998  106.5   0.834    8.0  0.3333   38.7  0.4735  162.1
 5.500  0.8023  105.7   0.822    7.0  0.3383   38.1  0.4822  161.6
 5.600  0.8036  104.7   0.809    6.5  0.3439   37.3  0.4883  161.3
 5.700  0.8051  103.8   0.796    5.9  0.3495   36.6  0.4945  161.1
 5.800  0.8068  102.8   0.783    5.3  0.3552   35.9  0.5006  160.9
 5.900  0.8087  101.9   0.771    4.7  0.3609   35.2  0.5067  160.6
 6.000  0.8109  100.9   0.758    4.1  0.3667   34.5  0.5129  160.4
!
!  f       NFmin   Gammaopt  rn/50
! GHz       dB    MAG  ANG    -
 0.450      1.16  0.50 -179   0.04
 0.900      1.29  0.54 -173   0.05
 1.900      2.21  0.68 -148   0.13
 2.400      2.95  0.69 -141   0.26
!
! (c) 2017  Infineon Technologies AG, Munich