! Infineon Technologies  Discrete & RF Semiconductors
! BFP196WN
! VCE =  1.0 V,  IC = 0.12 A
! Common Emitter S-Parameters:                            Jan 2017
# GHz  S  MA  R  50
!  f         S11            S21            S12            S22
! GHz     MAG   ANG      MAG   ANG      MAG   ANG      MAG   ANG
 0.010  0.5367 -148.2  60.514  148.6  0.0054   55.9  0.4550  -68.8
 0.020  0.7236 -156.2  43.636  128.6  0.0074   46.8  0.4849 -108.2
 0.030  0.7662 -160.9  35.804  124.3  0.0087   44.2  0.4681 -121.8
 0.040  0.8134 -165.1  28.281  117.7  0.0099   42.2  0.4784 -135.5
 0.050  0.8644 -168.8  21.398  106.6  0.0112   40.7  0.5144 -148.0
 0.060  0.8677 -170.3  19.299  105.5  0.0118   43.4  0.5122 -151.1
 0.070  0.8717 -171.7  17.209  104.1  0.0123   45.9  0.5114 -154.1
 0.080  0.8761 -173.2  15.132  102.3  0.0129   48.1  0.5121 -157.2
 0.090  0.8811 -174.6  13.074   99.9  0.0136   50.1  0.5143 -160.3
 0.100  0.8867 -176.0  11.047   96.7  0.0142   52.0  0.5179 -163.3
 0.110  0.8888 -176.5  10.324   96.1  0.0149   53.3  0.5174 -164.6
 0.120  0.8910 -177.0   9.603   95.3  0.0157   54.6  0.5171 -165.9
 0.130  0.8933 -177.6   8.884   94.4  0.0164   55.7  0.5171 -167.1
 0.140  0.8956 -178.1   8.167   93.4  0.0171   56.7  0.5174 -168.4
 0.150  0.8980 -178.6   7.453   92.2  0.0179   57.6  0.5179 -169.7
 0.200  0.8959  179.2   5.604   89.3  0.0216   63.2  0.5238 -172.5
 0.250  0.8979  177.8   4.489   86.9  0.0260   65.0  0.5233 -174.4
 0.300  0.8962  176.2   3.750   85.0  0.0302   68.1  0.5227 -176.2
 0.350  0.8962  175.0   3.287   83.5  0.0346   69.3  0.5231 -177.2
 0.400  0.8965  173.8   2.827   81.4  0.0390   70.3  0.5237 -178.1
 0.450  0.8951  172.8   2.547   80.1  0.0434   71.0  0.5252 -179.0
 0.500  0.8940  171.7   2.269   78.4  0.0479   71.6  0.5269 -179.8
 0.600  0.8945  169.8   1.905   75.5  0.0574   72.1  0.5287  178.8
 0.700  0.8916  167.9   1.641   73.0  0.0657   72.4  0.5264  177.6
 0.800  0.8939  166.0   1.443   70.2  0.0749   71.9  0.5275  176.7
 0.900  0.8918  164.0   1.290   67.7  0.0836   71.2  0.5300  175.8
 1.000  0.8914  162.5   1.175   65.4  0.0922   70.9  0.5316  174.7
 1.100  0.8916  160.7   1.077   63.2  0.1015   70.1  0.5318  173.9
 1.200  0.8928  159.1   0.998   60.9  0.1091   69.4  0.5321  173.1
 1.300  0.8908  157.4   0.933   59.0  0.1180   68.8  0.5350  172.7
 1.400  0.8919  155.6   0.880   56.8  0.1263   67.8  0.5393  171.5
 1.500  0.8917  154.1   0.830   54.8  0.1350   66.8  0.5396  170.6
 1.600  0.8930  152.5   0.790   52.8  0.1433   66.1  0.5408  170.2
 1.700  0.8935  150.7   0.759   51.0  0.1518   65.4  0.5464  169.5
 1.800  0.8946  149.0   0.729   49.0  0.1598   64.2  0.5497  168.7
 1.900  0.8931  147.6   0.700   47.5  0.1673   63.3  0.5502  167.9
 2.000  0.8933  145.9   0.676   45.5  0.1764   62.2  0.5532  167.4
 2.100  0.8909  144.3   0.655   43.9  0.1841   61.2  0.5569  166.7
 2.200  0.8892  142.7   0.634   42.2  0.1919   60.3  0.5606  166.1
 2.300  0.8902  141.1   0.618   40.8  0.1997   59.2  0.5614  165.5
 2.400  0.8918  139.6   0.602   39.3  0.2076   58.2  0.5623  164.9
 2.500  0.8890  138.0   0.588   37.9  0.2152   57.1  0.5666  164.2
 2.600  0.8869  136.4   0.574   36.5  0.2228   56.1  0.5710  163.6
 2.700  0.8861  135.0   0.562   35.4  0.2298   55.1  0.5703  163.1
 2.800  0.8858  133.5   0.550   34.2  0.2368   54.1  0.5697  162.5
 2.900  0.8841  131.9   0.540   33.1  0.2436   53.0  0.5741  161.5
 3.000  0.8830  130.3   0.530   31.9  0.2504   51.9  0.5787  160.6
 3.100  0.8819  128.8   0.523   30.9  0.2569   50.8  0.5791  159.7
 3.200  0.8813  127.3   0.517   29.9  0.2634   49.7  0.5796  158.8
 3.300  0.8814  125.8   0.511   28.9  0.2701   48.7  0.5802  157.9
 3.400  0.8821  124.3   0.505   27.9  0.2768   47.7  0.5810  157.0
 3.500  0.8834  122.8   0.499   26.8  0.2836   46.8  0.5819  156.1
 3.600  0.8815  121.3   0.493   25.9  0.2888   45.7  0.5842  155.0
 3.700  0.8801  119.8   0.488   25.0  0.2942   44.6  0.5867  154.0
 3.800  0.8794  118.3   0.482   24.1  0.2996   43.6  0.5894  153.0
 3.900  0.8793  116.8   0.477   23.2  0.3052   42.6  0.5923  151.9
 4.000  0.8798  115.3   0.472   22.2  0.3108   41.6  0.5954  150.9
 4.100  0.8778  114.1   0.468   21.5  0.3153   40.6  0.5996  149.7
 4.200  0.8762  112.9   0.464   20.9  0.3198   39.7  0.6040  148.5
 4.300  0.8750  111.6   0.460   20.2  0.3244   38.8  0.6087  147.3
 4.400  0.8742  110.4   0.456   19.5  0.3291   37.9  0.6137  146.1
 4.500  0.8738  109.2   0.452   18.8  0.3339   37.1  0.6189  145.0
 4.600  0.8722  108.2   0.449   18.3  0.3377   36.3  0.6228  144.1
 4.700  0.8709  107.2   0.445   17.9  0.3415   35.4  0.6268  143.2
 4.800  0.8699  106.3   0.442   17.4  0.3454   34.6  0.6310  142.4
 4.900  0.8690  105.3   0.438   16.9  0.3494   33.9  0.6353  141.5
 5.000  0.8685  104.3   0.435   16.4  0.3534   33.1  0.6398  140.7
 5.100  0.8682  103.5   0.436   15.9  0.3576   32.4  0.6443  140.3
 5.200  0.8681  102.7   0.437   15.4  0.3619   31.7  0.6489  139.9
 5.300  0.8681  102.0   0.438   15.0  0.3663   31.1  0.6535  139.5
 5.400  0.8683  101.2   0.439   14.5  0.3707   30.4  0.6581  139.1
 5.500  0.8686  100.4   0.440   14.0  0.3751   29.8  0.6628  138.7
 5.600  0.8685   99.5   0.439   13.9  0.3802   29.0  0.6643  138.5
 5.700  0.8686   98.6   0.438   13.9  0.3855   28.3  0.6658  138.3
 5.800  0.8690   97.7   0.438   13.8  0.3907   27.5  0.6673  138.2
 5.900  0.8695   96.8   0.437   13.8  0.3961   26.8  0.6688  138.0
 6.000  0.8703   95.9   0.436   13.7  0.4015   26.1  0.6703  137.8
!
!  f       NFmin   Gammaopt  rn/50
! GHz       dB    MAG  ANG    -
!
! noise parameter not available yet for this operation point!
!
! (c) 2017  Infineon Technologies AG, Munich