! Infineon Technologies  Discrete & RF Semiconductors
! BFP196WN
! VCE =  9.0 V,  IC =  35 mA
! Common Emitter S-Parameters:                            Jan 2017
# GHz  S  MA  R  50
!  f         S11            S21            S12            S22
! GHz     MAG   ANG      MAG   ANG      MAG   ANG      MAG   ANG
 0.010  0.4138  -26.4  68.207  170.4  0.0038   82.1  0.9519  -11.6
 0.020  0.4337  -52.1  63.951  160.2  0.0068   72.5  0.9142  -23.1
 0.030  0.4385  -70.2  58.993  153.8  0.0094   64.1  0.8353  -31.1
 0.040  0.4840  -86.4  54.894  146.4  0.0122   59.4  0.7757  -40.5
 0.050  0.5603  -99.0  51.858  137.9  0.0150   56.5  0.7400  -51.1
 0.060  0.5584 -106.5  47.949  135.1  0.0161   54.3  0.6843  -55.1
 0.070  0.5662 -114.0  44.171  131.9  0.0172   52.4  0.6325  -59.9
 0.080  0.5831 -121.1  40.560  128.1  0.0183   50.8  0.5858  -65.4
 0.090  0.6086 -127.8  37.165  123.5  0.0194   49.3  0.5454  -71.8
 0.100  0.6415 -133.8  34.050  118.1  0.0205   48.0  0.5128  -79.1
 0.110  0.6454 -137.1  32.098  116.6  0.0212   47.4  0.4858  -81.8
 0.120  0.6514 -140.3  30.172  114.9  0.0219   46.9  0.4599  -84.8
 0.130  0.6594 -143.5  28.276  113.0  0.0225   46.4  0.4355  -88.2
 0.140  0.6693 -146.5  26.417  110.7  0.0232   45.9  0.4128  -91.9
 0.150  0.6811 -149.5  24.603  108.2  0.0239   45.5  0.3920  -96.1
 0.200  0.6913 -158.2  18.971  102.2  0.0260   46.8  0.3322 -108.3
 0.250  0.7004 -164.0  15.410   98.0  0.0287   47.8  0.2952 -116.8
 0.300  0.7039 -168.2  12.948   94.9  0.0308   49.8  0.2695 -124.1
 0.350  0.7056 -171.2  11.379   92.8  0.0338   52.5  0.2566 -128.8
 0.400  0.7091 -174.1   9.829   90.1  0.0368   54.8  0.2456 -133.9
 0.450  0.7090 -176.2   8.855   88.6  0.0395   56.5  0.2398 -137.5
 0.500  0.7099 -178.2   7.888   86.7  0.0423   58.0  0.2349 -141.2
 0.600  0.7119  178.5   6.596   83.6  0.0487   60.5  0.2280 -146.4
 0.700  0.7133  175.8   5.649   81.0  0.0546   62.9  0.2235 -150.1
 0.800  0.7154  173.1   4.948   78.3  0.0610   64.3  0.2230 -152.5
 0.900  0.7139  170.7   4.396   76.0  0.0676   64.3  0.2249 -154.8
 1.000  0.7178  168.7   3.966   73.8  0.0736   65.0  0.2254 -157.0
 1.100  0.7186  166.7   3.609   71.7  0.0807   65.5  0.2263 -158.5
 1.200  0.7214  164.7   3.311   69.6  0.0868   65.4  0.2278 -159.4
 1.300  0.7209  163.0   3.061   67.7  0.0934   65.4  0.2317 -160.3
 1.400  0.7232  161.1   2.859   65.6  0.0998   65.4  0.2357 -161.9
 1.500  0.7256  159.5   2.667   63.7  0.1064   65.3  0.2381 -162.8
 1.600  0.7288  158.0   2.512   61.8  0.1130   65.0  0.2419 -163.0
 1.700  0.7298  156.0   2.378   59.9  0.1200   64.8  0.2484 -163.9
 1.800  0.7303  154.4   2.257   57.9  0.1260   64.2  0.2530 -164.8
 1.900  0.7321  152.9   2.141   56.2  0.1323   63.9  0.2564 -165.3
 2.000  0.7340  151.3   2.043   54.2  0.1391   63.3  0.2619 -165.5
 2.100  0.7346  149.7   1.955   52.5  0.1455   62.9  0.2680 -166.0
 2.200  0.7357  148.1   1.869   50.7  0.1520   62.5  0.2742 -166.5
 2.300  0.7374  146.5   1.797   49.0  0.1586   61.8  0.2787 -166.7
 2.400  0.7396  145.0   1.727   47.1  0.1653   61.2  0.2833 -166.9
 2.500  0.7398  143.5   1.664   45.5  0.1717   60.5  0.2898 -167.5
 2.600  0.7405  142.0   1.603   43.8  0.1782   59.8  0.2963 -168.0
 2.700  0.7416  140.5   1.549   42.3  0.1844   59.2  0.3000 -168.2
 2.800  0.7432  139.0   1.496   40.7  0.1906   58.6  0.3037 -168.4
 2.900  0.7448  137.5   1.452   39.1  0.1966   57.7  0.3100 -169.3
 3.000  0.7469  136.0   1.410   37.4  0.2026   56.9  0.3163 -170.2
 3.100  0.7485  134.5   1.374   36.1  0.2088   56.1  0.3201 -171.0
 3.200  0.7505  133.1   1.338   34.7  0.2151   55.4  0.3239 -171.7
 3.300  0.7531  131.6   1.304   33.2  0.2214   54.7  0.3278 -172.5
 3.400  0.7561  130.1   1.270   31.6  0.2277   54.0  0.3318 -173.2
 3.500  0.7596  128.7   1.237   30.0  0.2341   53.4  0.3358 -173.9
 3.600  0.7611  127.2   1.208   28.6  0.2397   52.5  0.3409 -175.2
 3.700  0.7631  125.8   1.179   27.2  0.2454   51.6  0.3461 -176.4
 3.800  0.7656  124.3   1.151   25.7  0.2511   50.8  0.3515 -177.6
 3.900  0.7686  122.8   1.124   24.1  0.2569   50.0  0.3571 -178.8
 4.000  0.7721  121.4   1.098   22.5  0.2627   49.3  0.3628 -179.9
 4.100  0.7736  120.1   1.073   21.4  0.2678   48.4  0.3691  178.4
 4.200  0.7754  118.9   1.049   20.2  0.2730   47.6  0.3757  176.9
 4.300  0.7776  117.6   1.025   18.9  0.2782   46.8  0.3826  175.3
 4.400  0.7802  116.3   1.002   17.6  0.2835   46.0  0.3898  173.8
 4.500  0.7832  115.1   0.979   16.2  0.2888   45.3  0.3972  172.4
 4.600  0.7844  114.1   0.958   15.3  0.2932   44.5  0.4046  171.2
 4.700  0.7859  113.0   0.938   14.3  0.2977   43.8  0.4122  170.0
 4.800  0.7877  112.0   0.918   13.3  0.3023   43.1  0.4200  168.9
 4.900  0.7897  110.9   0.898   12.2  0.3069   42.4  0.4279  167.8
 5.000  0.7920  109.9   0.878   11.1  0.3115   41.7  0.4360  166.7
 5.100  0.7938  109.1   0.865   10.3  0.3165   41.1  0.4448  166.0
 5.200  0.7958  108.2   0.853    9.5  0.3215   40.4  0.4536  165.4
 5.300  0.7980  107.4   0.840    8.6  0.3266   39.8  0.4625  164.8
 5.400  0.8003  106.6   0.828    7.7  0.3317   39.3  0.4715  164.2
 5.500  0.8028  105.8   0.816    6.8  0.3368   38.7  0.4805  163.6
 5.600  0.8044  104.9   0.803    6.3  0.3426   37.9  0.4870  163.3
 5.700  0.8063  103.9   0.791    5.7  0.3484   37.1  0.4936  163.1
 5.800  0.8084  103.0   0.778    5.2  0.3543   36.4  0.5001  162.8
 5.900  0.8107  102.0   0.765    4.6  0.3602   35.7  0.5067  162.5
 6.000  0.8132  101.1   0.753    4.0  0.3662   35.0  0.5133  162.3
!
!  f       NFmin   Gammaopt  rn/50
! GHz       dB    MAG  ANG    -
 0.450      1.11  0.47  179   0.05
 0.900      1.24  0.53  186   0.05
 1.900      2.17  0.68  212   0.13
 2.400      2.91  0.69  219   0.25
!
! (c) 2017  Infineon Technologies AG, Munich