! Infineon Technologies  Discrete & RF Semiconductors
! BFP196WN
! VCE =  10. V,  IC =  55 mA
! Common Emitter S-Parameters:                            Jan 2017
# GHz  S  MA  R  50
!  f         S11            S21            S12            S22
! GHz     MAG   ANG      MAG   ANG      MAG   ANG      MAG   ANG
 0.010  0.3169  -37.2  82.256  168.5  0.0034   79.5  0.9228  -13.8
 0.020  0.3726  -68.6  76.117  157.0  0.0060   73.3  0.8718  -27.3
 0.030  0.3978  -88.0  68.911  150.5  0.0080   62.9  0.7817  -36.0
 0.040  0.4612 -103.6  62.792  142.6  0.0101   56.8  0.7138  -46.6
 0.050  0.5496 -114.8  58.105  133.2  0.0123   52.8  0.6748  -58.9
 0.060  0.5549 -121.4  53.386  130.7  0.0133   51.7  0.6212  -63.1
 0.070  0.5674 -127.8  48.789  127.7  0.0142   50.8  0.5715  -68.0
 0.080  0.5866 -133.8  44.354  124.1  0.0152   50.0  0.5268  -73.8
 0.090  0.6118 -139.4  40.134  119.7  0.0161   49.3  0.4886  -80.7
 0.100  0.6424 -144.5  36.203  114.3  0.0171   48.7  0.4583  -88.5
 0.110  0.6475 -147.1  34.053  112.9  0.0177   48.4  0.4351  -91.4
 0.120  0.6539 -149.6  31.924  111.4  0.0183   48.1  0.4132  -94.5
 0.130  0.6616 -152.1  29.821  109.7  0.0188   47.8  0.3926  -98.0
 0.140  0.6705 -154.5  27.751  107.6  0.0194   47.5  0.3736 -101.9
 0.150  0.6805 -156.9  25.720  105.3  0.0200   47.3  0.3566 -106.2
 0.200  0.6879 -164.0  19.676   99.9  0.0221   50.7  0.3100 -118.6
 0.250  0.6976 -168.6  15.924   96.2  0.0253   53.7  0.2834 -126.9
 0.300  0.7017 -172.0  13.356   93.5  0.0282   57.0  0.2639 -134.0
 0.350  0.7025 -174.5  11.727   91.6  0.0313   59.3  0.2553 -138.4
 0.400  0.7046 -176.9  10.114   89.1  0.0344   61.1  0.2482 -143.0
 0.450  0.7047 -178.7   9.107   87.7  0.0375   62.6  0.2450 -146.2
 0.500  0.7055  179.5   8.108   85.9  0.0407   63.8  0.2425 -149.4
 0.600  0.7077  176.5   6.774   83.0  0.0480   65.5  0.2383 -154.1
 0.700  0.7093  174.0   5.803   80.6  0.0540   67.2  0.2349 -157.2
 0.800  0.7115  171.5   5.082   78.0  0.0613   68.0  0.2353 -159.2
 0.900  0.7112  169.4   4.512   75.8  0.0683   67.6  0.2375 -161.2
 1.000  0.7126  167.5   4.070   73.7  0.0748   68.0  0.2386 -163.2
 1.100  0.7154  165.5   3.705   71.7  0.0820   68.3  0.2396 -164.4
 1.200  0.7175  163.8   3.400   69.6  0.0884   67.8  0.2408 -165.4
 1.300  0.7174  162.0   3.141   67.8  0.0953   67.6  0.2450 -166.0
 1.400  0.7184  160.2   2.933   65.8  0.1023   67.2  0.2489 -167.5
 1.500  0.7230  158.7   2.739   63.9  0.1087   66.8  0.2502 -168.4
 1.600  0.7240  157.0   2.579   62.0  0.1157   66.7  0.2539 -168.5
 1.700  0.7255  155.1   2.440   60.2  0.1226   66.1  0.2596 -169.3
 1.800  0.7278  153.7   2.318   58.3  0.1288   65.4  0.2639 -170.0
 1.900  0.7271  152.2   2.199   56.7  0.1355   65.0  0.2671 -170.6
 2.000  0.7301  150.6   2.099   54.7  0.1428   64.3  0.2714 -170.6
 2.100  0.7304  149.0   2.008   53.0  0.1493   63.7  0.2769 -171.1
 2.200  0.7312  147.5   1.919   51.2  0.1559   63.1  0.2825 -171.6
 2.300  0.7334  146.0   1.846   49.5  0.1625   62.4  0.2860 -171.8
 2.400  0.7361  144.5   1.774   47.7  0.1691   61.7  0.2896 -171.9
 2.500  0.7356  143.0   1.710   46.1  0.1757   60.9  0.2958 -172.4
 2.600  0.7356  141.5   1.647   44.4  0.1823   60.1  0.3021 -172.8
 2.700  0.7376  140.0   1.591   42.9  0.1882   59.4  0.3049 -172.9
 2.800  0.7401  138.6   1.537   41.3  0.1942   58.7  0.3077 -173.0
 2.900  0.7407  137.1   1.492   39.8  0.2007   57.8  0.3135 -173.9
 3.000  0.7419  135.6   1.448   38.2  0.2072   57.0  0.3194 -174.7
 3.100  0.7434  134.1   1.411   36.9  0.2133   56.1  0.3226 -175.4
 3.200  0.7454  132.7   1.375   35.4  0.2194   55.3  0.3257 -176.1
 3.300  0.7478  131.2   1.340   33.9  0.2255   54.5  0.3290 -176.7
 3.400  0.7508  129.7   1.305   32.4  0.2317   53.8  0.3323 -177.4
 3.500  0.7542  128.3   1.272   30.7  0.2379   53.1  0.3356 -178.0
 3.600  0.7557  126.8   1.242   29.4  0.2434   52.2  0.3403 -179.2
 3.700  0.7576  125.4   1.213   28.0  0.2489   51.3  0.3451  179.6
 3.800  0.7601  124.0   1.184   26.5  0.2545   50.4  0.3501  178.5
 3.900  0.7630  122.5   1.157   25.0  0.2601   49.6  0.3552  177.4
 4.000  0.7664  121.1   1.130   23.4  0.2658   48.8  0.3604  176.3
 4.100  0.7678  119.8   1.105   22.2  0.2707   48.0  0.3665  174.7
 4.200  0.7695  118.6   1.080   21.0  0.2756   47.2  0.3729  173.2
 4.300  0.7716  117.3   1.056   19.7  0.2806   46.4  0.3795  171.8
 4.400  0.7741  116.0   1.033   18.4  0.2856   45.6  0.3863  170.4
 4.500  0.7769  114.8   1.010   17.0  0.2907   44.9  0.3934  169.0
 4.600  0.7783  113.8   0.989   16.0  0.2951   44.1  0.4004  167.9
 4.700  0.7799  112.8   0.968   15.1  0.2995   43.4  0.4076  166.8
 4.800  0.7818  111.8   0.947   14.0  0.3041   42.6  0.4149  165.8
 4.900  0.7839  110.8   0.927   12.9  0.3086   41.9  0.4223  164.8
 5.000  0.7863  109.8   0.907   11.8  0.3132   41.2  0.4299  163.8
 5.100  0.7882  109.0   0.894   11.0  0.3180   40.6  0.4382  163.2
 5.200  0.7902  108.1   0.881   10.1  0.3229   39.9  0.4466  162.7
 5.300  0.7924  107.3   0.868    9.2  0.3279   39.3  0.4550  162.2
 5.400  0.7948  106.5   0.855    8.3  0.3328   38.8  0.4634  161.7
 5.500  0.7973  105.7   0.843    7.3  0.3378   38.2  0.4719  161.2
 5.600  0.7989  104.8   0.830    6.8  0.3433   37.4  0.4779  161.0
 5.700  0.8007  103.8   0.817    6.2  0.3489   36.6  0.4840  160.8
 5.800  0.8028  102.9   0.804    5.6  0.3545   35.9  0.4900  160.6
 5.900  0.8050  101.9   0.791    5.0  0.3602   35.2  0.4961  160.5
 6.000  0.8075  101.0   0.778    4.4  0.3660   34.5  0.5021  160.3
!
!  f       NFmin   Gammaopt  rn/50
! GHz       dB    MAG  ANG    -
 0.450      1.34  0.54 -177   0.05
 0.900      1.44  0.57 -170   0.06
 1.900      2.36  0.69 -147   0.17
 2.400      3.11  0.70 -140   0.29
!
! (c) 2017  Infineon Technologies AG, Munich