! Infineon Technologies  Discrete & RF Semiconductors
! BFP196WN
! VCE =  7.0 V,  IC =  45 mA
! Common Emitter S-Parameters:                            Jan 2017
# GHz  S  MA  R  50
!  f         S11            S21            S12            S22
! GHz     MAG   ANG      MAG   ANG      MAG   ANG      MAG   ANG
 0.010  0.3189  -37.0  77.673  168.9  0.0036   75.5  0.9438  -13.7
 0.020  0.3730  -68.1  72.147  157.5  0.0069   78.9  0.8923  -27.0
 0.030  0.3993  -87.4  65.481  151.0  0.0088   66.4  0.8026  -35.7
 0.040  0.4631 -102.8  59.837  143.2  0.0111   58.7  0.7358  -46.4
 0.050  0.5517 -113.9  55.530  133.9  0.0134   53.6  0.6987  -58.6
 0.060  0.5574 -120.6  51.066  131.3  0.0144   52.4  0.6437  -62.9
 0.070  0.5705 -127.0  46.726  128.3  0.0154   51.3  0.5929  -67.9
 0.080  0.5903 -133.1  42.545  124.6  0.0164   50.4  0.5475  -73.8
 0.090  0.6164 -138.7  38.578  120.1  0.0175   49.5  0.5089  -80.7
 0.100  0.6478 -143.8  34.895  114.7  0.0185   48.8  0.4788  -88.6
 0.110  0.6530 -146.5  32.826  113.3  0.0190   48.7  0.4547  -91.5
 0.120  0.6596 -149.1  30.778  111.8  0.0196   48.6  0.4319  -94.7
 0.130  0.6676 -151.7  28.755  110.1  0.0201   48.5  0.4107  -98.3
 0.140  0.6769 -154.2  26.763  108.0  0.0207   48.4  0.3912 -102.3
 0.150  0.6874 -156.6  24.809  105.7  0.0212   48.3  0.3737 -106.6
 0.200  0.6976 -163.7  18.995  100.2  0.0232   50.3  0.3261 -119.0
 0.250  0.7055 -168.3  15.379   96.4  0.0263   53.3  0.2984 -127.4
 0.300  0.7112 -171.8  12.905   93.6  0.0289   54.8  0.2790 -134.5
 0.350  0.7121 -174.4  11.331   91.7  0.0321   57.7  0.2699 -138.9
 0.400  0.7144 -176.9   9.773   89.2  0.0353   60.1  0.2625 -143.6
 0.450  0.7143 -178.7   8.799   87.7  0.0385   61.3  0.2587 -146.8
 0.500  0.7150  179.5   7.832   85.9  0.0418   62.4  0.2558 -150.0
 0.600  0.7161  176.6   6.545   83.0  0.0483   64.1  0.2527 -154.7
 0.700  0.7187  174.1   5.609   80.5  0.0547   66.0  0.2487 -157.9
 0.800  0.7210  171.6   4.912   77.9  0.0621   67.0  0.2494 -160.0
 0.900  0.7207  169.4   4.360   75.7  0.0686   67.1  0.2513 -162.0
 1.000  0.7225  167.5   3.936   73.6  0.0756   67.1  0.2522 -164.1
 1.100  0.7245  165.5   3.582   71.6  0.0824   67.4  0.2533 -165.3
 1.200  0.7267  163.6   3.287   69.4  0.0890   67.2  0.2547 -166.2
 1.300  0.7247  162.0   3.037   67.7  0.0958   67.2  0.2588 -166.8
 1.400  0.7275  160.3   2.836   65.6  0.1033   66.8  0.2625 -168.4
 1.500  0.7309  158.7   2.649   63.7  0.1093   66.4  0.2643 -169.2
 1.600  0.7321  157.0   2.494   61.8  0.1164   66.0  0.2675 -169.5
 1.700  0.7343  155.2   2.363   60.0  0.1234   65.7  0.2738 -170.3
 1.800  0.7351  153.7   2.243   58.0  0.1302   65.0  0.2780 -171.1
 1.900  0.7353  152.2   2.128   56.4  0.1363   64.6  0.2813 -171.7
 2.000  0.7385  150.6   2.029   54.4  0.1438   63.8  0.2855 -171.7
 2.100  0.7385  149.0   1.943   52.7  0.1502   63.2  0.2910 -172.2
 2.200  0.7390  147.5   1.858   50.9  0.1567   62.7  0.2965 -172.7
 2.300  0.7412  145.9   1.787   49.2  0.1636   62.0  0.3002 -172.9
 2.400  0.7440  144.4   1.717   47.4  0.1705   61.3  0.3039 -173.1
 2.500  0.7437  142.9   1.656   45.8  0.1770   60.5  0.3097 -173.6
 2.600  0.7440  141.3   1.596   44.1  0.1836   59.7  0.3156 -174.1
 2.700  0.7458  139.9   1.543   42.7  0.1898   59.0  0.3186 -174.3
 2.800  0.7480  138.5   1.492   41.1  0.1960   58.3  0.3216 -174.4
 2.900  0.7483  137.0   1.447   39.5  0.2023   57.4  0.3274 -175.3
 3.000  0.7490  135.6   1.404   37.9  0.2086   56.6  0.3332 -176.1
 3.100  0.7504  134.1   1.369   36.6  0.2148   55.7  0.3363 -176.8
 3.200  0.7524  132.6   1.334   35.2  0.2210   54.9  0.3395 -177.6
 3.300  0.7548  131.1   1.300   33.7  0.2273   54.1  0.3427 -178.3
 3.400  0.7578  129.7   1.267   32.1  0.2336   53.4  0.3460 -179.0
 3.500  0.7612  128.2   1.235   30.5  0.2399   52.7  0.3493 -179.7
 3.600  0.7627  126.7   1.206   29.2  0.2453   51.8  0.3540  179.1
 3.700  0.7647  125.3   1.178   27.7  0.2508   50.9  0.3589  178.0
 3.800  0.7672  123.9   1.150   26.3  0.2563   50.0  0.3639  176.8
 3.900  0.7702  122.4   1.123   24.7  0.2619   49.2  0.3691  175.8
 4.000  0.7737  121.0   1.097   23.1  0.2675   48.4  0.3744  174.7
 4.100  0.7749  119.7   1.073   21.9  0.2725   47.5  0.3805  173.2
 4.200  0.7764  118.5   1.050   20.7  0.2775   46.7  0.3868  171.7
 4.300  0.7783  117.2   1.026   19.5  0.2826   45.9  0.3933  170.2
 4.400  0.7806  115.9   1.004   18.2  0.2878   45.1  0.4002  168.8
 4.500  0.7833  114.7   0.982   16.8  0.2930   44.3  0.4072  167.5
 4.600  0.7844  113.7   0.961   15.9  0.2974   43.5  0.4142  166.4
 4.700  0.7858  112.6   0.941   14.9  0.3018   42.8  0.4213  165.3
 4.800  0.7874  111.6   0.921   13.9  0.3063   42.0  0.4286  164.3
 4.900  0.7893  110.6   0.901   12.8  0.3109   41.3  0.4360  163.3
 5.000  0.7914  109.6   0.882   11.7  0.3155   40.6  0.4436  162.3
 5.100  0.7934  108.8   0.870   10.9  0.3202   40.0  0.4518  161.8
 5.200  0.7956  108.0   0.857   10.1  0.3250   39.3  0.4601  161.2
 5.300  0.7979  107.2   0.845    9.2  0.3298   38.7  0.4685  160.7
 5.400  0.8004  106.4   0.834    8.3  0.3346   38.2  0.4768  160.3
 5.500  0.8030  105.6   0.822    7.4  0.3395   37.6  0.4852  159.8
 5.600  0.8046  104.7   0.809    6.8  0.3451   36.9  0.4910  159.6
 5.700  0.8064  103.7   0.797    6.3  0.3508   36.1  0.4969  159.4
 5.800  0.8084  102.8   0.785    5.7  0.3565   35.4  0.5027  159.2
 5.900  0.8106  101.8   0.772    5.0  0.3623   34.8  0.5085  159.0
 6.000  0.8131  100.9   0.760    4.4  0.3681   34.1  0.5144  158.8
!
!  f       NFmin   Gammaopt  rn/50
! GHz       dB    MAG  ANG    -
 0.450      1.22  0.52 -178   0.05
 0.900      1.34  0.55 -172   0.05
 1.900      2.26  0.68 -148   0.14
 2.400      2.99  0.69 -141   0.27
!
! (c) 2017  Infineon Technologies AG, Munich