! Infineon Technologies  Discrete & RF Semiconductors
! BFP196WN
! VCE =  2.0 V,  IC = 0.14 A
! Common Emitter S-Parameters:                            Jan 2017
# GHz  S  MA  R  50
!  f         S11            S21            S12            S22
! GHz     MAG   ANG      MAG   ANG      MAG   ANG      MAG   ANG
 0.010  0.4318 -147.9  77.747  156.2  0.0036   67.0  0.5819  -38.8
 0.020  0.6121 -151.8  62.057  137.5  0.0056   56.5  0.5192  -70.7
 0.030  0.6682 -157.0  51.846  132.3  0.0067   51.8  0.4501  -84.6
 0.040  0.7289 -161.3  42.278  124.5  0.0079   48.5  0.4154 -102.1
 0.050  0.7931 -165.0  33.900  112.7  0.0091   46.0  0.4237 -120.7
 0.060  0.7995 -166.8  30.641  111.3  0.0098   48.2  0.4102 -125.5
 0.070  0.8067 -168.5  27.405  109.5  0.0104   50.2  0.3998 -130.7
 0.080  0.8146 -170.3  24.204  107.2  0.0111   51.9  0.3928 -136.0
 0.090  0.8233 -171.9  21.051  104.3  0.0118   53.4  0.3893 -141.5
 0.100  0.8326 -173.6  17.974  100.3  0.0125   54.8  0.3895 -147.1
 0.110  0.8360 -174.3  16.810   99.5  0.0131   56.4  0.3863 -149.2
 0.120  0.8394 -175.0  15.650   98.6  0.0138   57.8  0.3836 -151.4
 0.130  0.8430 -175.7  14.494   97.6  0.0145   59.1  0.3815 -153.6
 0.140  0.8468 -176.3  13.344   96.4  0.0151   60.3  0.3800 -155.9
 0.150  0.8506 -177.0  12.200   95.0  0.0158   61.4  0.3790 -158.1
 0.200  0.8482 -179.5   9.190   91.7  0.0190   66.8  0.3813 -163.4
 0.250  0.8512  178.8   7.368   89.1  0.0234   68.3  0.3794 -166.5
 0.300  0.8522  177.2   6.156   87.1  0.0267   70.2  0.3780 -169.5
 0.350  0.8522  175.9   5.394   85.6  0.0310   71.7  0.3781 -170.9
 0.400  0.8527  174.7   4.637   83.5  0.0353   72.8  0.3785 -172.3
 0.450  0.8520  173.7   4.175   82.2  0.0394   73.2  0.3799 -173.3
 0.500  0.8516  172.6   3.715   80.6  0.0435   73.6  0.3815 -174.3
 0.600  0.8498  170.5   3.105   77.9  0.0516   73.4  0.3839 -176.1
 0.700  0.8519  168.5   2.664   75.5  0.0592   74.0  0.3825 -177.4
 0.800  0.8516  166.7   2.337   72.8  0.0684   73.7  0.3843 -178.1
 0.900  0.8497  164.8   2.081   70.5  0.0758   72.4  0.3880 -179.0
 1.000  0.8510  163.1   1.885   68.3  0.0842   72.5  0.3902 -180.0
 1.100  0.8514  161.5   1.721   66.2  0.0923   71.8  0.3913  179.2
 1.200  0.8520  159.8   1.586   64.0  0.0997   71.2  0.3920  178.7
 1.300  0.8511  158.1   1.473   62.1  0.1076   70.8  0.3966  178.6
 1.400  0.8522  156.3   1.381   59.9  0.1158   69.9  0.4012  177.5
 1.500  0.8539  154.9   1.296   57.8  0.1233   69.0  0.4022  176.7
 1.600  0.8551  153.3   1.224   55.9  0.1314   68.2  0.4049  176.6
 1.700  0.8574  151.5   1.167   53.9  0.1393   67.4  0.4116  176.0
 1.800  0.8578  149.9   1.115   51.9  0.1471   66.6  0.4157  175.3
 1.900  0.8564  148.6   1.062   50.3  0.1540   65.8  0.4178  174.7
 2.000  0.8573  146.8   1.020   48.2  0.1621   64.8  0.4215  174.5
 2.100  0.8565  145.3   0.982   46.5  0.1695   63.9  0.4268  174.0
 2.200  0.8563  143.7   0.944   44.7  0.1769   63.0  0.4321  173.5
 2.300  0.8564  142.1   0.913   43.1  0.1843   62.0  0.4341  173.1
 2.400  0.8572  140.6   0.882   41.3  0.1918   61.1  0.4362  172.8
 2.500  0.8549  139.1   0.855   39.8  0.1991   60.0  0.4420  172.2
 2.600  0.8532  137.5   0.829   38.2  0.2065   59.0  0.4479  171.7
 2.700  0.8538  136.0   0.806   36.8  0.2132   58.1  0.4490  171.4
 2.800  0.8549  134.6   0.783   35.3  0.2199   57.3  0.4501  171.2
 2.900  0.8536  133.1   0.764   33.9  0.2267   56.2  0.4558  170.3
 3.000  0.8529  131.5   0.745   32.5  0.2336   55.2  0.4617  169.4
 3.100  0.8527  130.0   0.730   31.3  0.2401   54.1  0.4637  168.6
 3.200  0.8531  128.5   0.716   30.1  0.2466   53.1  0.4658  167.8
 3.300  0.8541  127.0   0.702   28.9  0.2532   52.2  0.4680  167.0
 3.400  0.8557  125.5   0.688   27.6  0.2599   51.3  0.4703  166.3
 3.500  0.8578  124.0   0.675   26.2  0.2666   50.4  0.4727  165.5
 3.600  0.8569  122.5   0.663   25.1  0.2721   49.3  0.4768  164.4
 3.700  0.8565  121.0   0.651   24.0  0.2777   48.3  0.4812  163.4
 3.800  0.8567  119.6   0.639   22.8  0.2833   47.3  0.4856  162.4
 3.900  0.8575  118.1   0.628   21.6  0.2891   46.3  0.4902  161.4
 4.000  0.8588  116.6   0.617   20.3  0.2949   45.4  0.4950  160.4
 4.100  0.8577  115.4   0.607   19.5  0.2996   44.4  0.5007  159.1
 4.200  0.8570  114.1   0.598   18.6  0.3044   43.5  0.5067  157.8
 4.300  0.8567  112.9   0.588   17.7  0.3093   42.6  0.5130  156.5
 4.400  0.8568  111.6   0.579   16.8  0.3142   41.7  0.5195  155.3
 4.500  0.8573  110.4   0.570   15.8  0.3192   40.9  0.5262  154.1
 4.600  0.8562  109.4   0.561   15.2  0.3234   40.1  0.5316  153.1
 4.700  0.8553  108.4   0.553   14.6  0.3278   39.2  0.5372  152.2
 4.800  0.8547  107.5   0.545   14.0  0.3321   38.4  0.5430  151.2
 4.900  0.8544  106.5   0.536   13.4  0.3366   37.7  0.5489  150.3
 5.000  0.8543  105.5   0.528   12.7  0.3411   36.9  0.5549  149.4
 5.100  0.8548  104.7   0.525   12.2  0.3457   36.2  0.5615  149.0
 5.200  0.8555  103.9   0.523   11.6  0.3502   35.6  0.5682  148.6
 5.300  0.8563  103.2   0.520   11.0  0.3549   34.9  0.5749  148.2
 5.400  0.8573  102.4   0.517   10.5  0.3596   34.3  0.5816  147.8
 5.500  0.8585  101.6   0.515    9.9  0.3643   33.7  0.5883  147.4
 5.600  0.8586  100.7   0.511    9.8  0.3696   32.9  0.5920  147.2
 5.700  0.8589   99.8   0.506    9.6  0.3750   32.1  0.5958  147.0
 5.800  0.8595   98.8   0.502    9.5  0.3805   31.3  0.5995  146.8
 5.900  0.8602   97.9   0.497    9.3  0.3861   30.5  0.6032  146.6
 6.000  0.8612   97.0   0.493    9.2  0.3917   29.8  0.6070  146.4
!
!  f       NFmin   Gammaopt  rn/50
! GHz       dB    MAG  ANG    -
!
! noise parameter not available yet for this operation point!
!
! (c) 2017  Infineon Technologies AG, Munich