! Infineon Technologies  Discrete & RF Semiconductors
! BFP196WN
! VCE =  3.0 V,  IC = 0.11 A
! Common Emitter S-Parameters:                            Jan 2017
# GHz  S  MA  R  50
!  f         S11            S21            S12            S22
! GHz     MAG   ANG      MAG   ANG      MAG   ANG      MAG   ANG
 0.010  0.2677 -131.3  97.379  162.6  0.0031   77.2  0.8316  -23.6
 0.020  0.4339 -136.9  84.056  146.7  0.0057   69.3  0.7490  -45.6
 0.030  0.5063 -144.6  72.415  140.5  0.0068   62.4  0.6392  -56.5
 0.040  0.5854 -150.2  61.933  132.1  0.0079   57.5  0.5609  -71.1
 0.050  0.6688 -154.5  53.299  120.6  0.0091   53.8  0.5284  -88.8
 0.060  0.6792 -157.2  48.389  118.7  0.0098   54.1  0.4909  -93.8
 0.070  0.6911 -159.9  43.541  116.5  0.0105   54.4  0.4578  -99.6
 0.080  0.7045 -162.5  38.779  113.6  0.0112   54.6  0.4301 -106.2
 0.090  0.7192 -164.9  34.137  110.0  0.0119   54.8  0.4088 -113.6
 0.100  0.7352 -167.3  29.674  105.3  0.0126   55.0  0.3950 -121.7
 0.110  0.7401 -168.4  27.798  104.3  0.0133   56.2  0.3837 -124.7
 0.120  0.7454 -169.5  25.930  103.2  0.0140   57.3  0.3734 -127.9
 0.130  0.7508 -170.6  24.074  101.9  0.0147   58.2  0.3644 -131.2
 0.140  0.7566 -171.7  22.232  100.5  0.0154   59.1  0.3567 -134.7
 0.150  0.7626 -172.7  20.408   98.7  0.0161   59.9  0.3503 -138.3
 0.200  0.7651 -176.1  15.423   94.7  0.0187   62.9  0.3387 -147.8
 0.250  0.7706 -178.4  12.395   91.9  0.0230   65.4  0.3303 -153.3
 0.300  0.7726  179.7  10.371   89.7  0.0267   68.3  0.3247 -158.2
 0.350  0.7728  178.2   9.092   88.1  0.0306   70.2  0.3232 -160.8
 0.400  0.7735  176.8   7.823   86.0  0.0345   71.7  0.3223 -163.4
 0.450  0.7733  175.5   7.038   84.8  0.0383   71.8  0.3226 -165.2
 0.500  0.7735  174.2   6.258   83.2  0.0421   71.9  0.3232 -167.0
 0.600  0.7734  172.1   5.229   80.5  0.0502   72.8  0.3244 -169.9
 0.700  0.7761  170.2   4.479   78.3  0.0569   73.8  0.3225 -171.7
 0.800  0.7786  168.2   3.924   75.8  0.0661   73.5  0.3240 -172.9
 0.900  0.7775  166.2   3.483   73.6  0.0725   72.9  0.3271 -174.2
 1.000  0.7779  164.5   3.148   71.5  0.0803   72.4  0.3288 -175.5
 1.100  0.7786  162.9   2.865   69.5  0.0881   71.9  0.3294 -176.5
 1.200  0.7800  161.1   2.633   67.5  0.0948   71.1  0.3306 -177.2
 1.300  0.7781  159.5   2.435   65.7  0.1028   70.5  0.3345 -177.5
 1.400  0.7822  157.8   2.276   63.6  0.1105   69.9  0.3389 -178.8
 1.500  0.7837  156.4   2.126   61.8  0.1178   69.1  0.3403 -179.6
 1.600  0.7856  154.8   2.006   59.9  0.1252   68.5  0.3417 -179.8
 1.700  0.7865  152.9   1.902   58.0  0.1331   67.7  0.3484  179.6
 1.800  0.7880  151.5   1.809   56.1  0.1401   66.8  0.3525  178.8
 1.900  0.7873  150.0   1.719   54.4  0.1470   66.0  0.3543  178.3
 2.000  0.7891  148.5   1.643   52.4  0.1550   65.1  0.3581  178.1
 2.100  0.7884  147.0   1.575   50.7  0.1620   64.3  0.3629  177.6
 2.200  0.7883  145.4   1.509   48.9  0.1690   63.5  0.3677  177.2
 2.300  0.7903  143.9   1.453   47.2  0.1760   62.6  0.3698  176.9
 2.400  0.7928  142.4   1.399   45.4  0.1831   61.7  0.3719  176.7
 2.500  0.7917  140.9   1.351   43.8  0.1902   60.7  0.3774  176.2
 2.600  0.7912  139.3   1.304   42.1  0.1973   59.8  0.3829  175.7
 2.700  0.7921  137.9   1.262   40.6  0.2035   58.9  0.3844  175.5
 2.800  0.7934  136.5   1.221   39.1  0.2098   58.1  0.3859  175.3
 2.900  0.7929  135.0   1.187   37.5  0.2165   57.1  0.3913  174.5
 3.000  0.7930  133.5   1.153   35.9  0.2232   56.1  0.3968  173.7
 3.100  0.7939  132.0   1.126   34.6  0.2295   55.1  0.3990  173.0
 3.200  0.7953  130.6   1.099   33.3  0.2358   54.2  0.4012  172.2
 3.300  0.7973  129.1   1.073   31.8  0.2422   53.3  0.4034  171.5
 3.400  0.7997  127.6   1.048   30.4  0.2486   52.4  0.4058  170.8
 3.500  0.8027  126.2   1.023   28.8  0.2551   51.6  0.4082  170.1
 3.600  0.8032  124.7   1.001   27.5  0.2604   50.6  0.4123  169.0
 3.700  0.8042  123.3   0.979   26.2  0.2658   49.6  0.4166  168.0
 3.800  0.8058  121.8   0.958   24.8  0.2713   48.7  0.4210  167.0
 3.900  0.8078  120.3   0.937   23.3  0.2769   47.8  0.4255  166.0
 4.000  0.8104  118.9   0.917   21.8  0.2825   46.9  0.4302  165.0
 4.100  0.8105  117.7   0.898   20.7  0.2873   46.0  0.4360  163.6
 4.200  0.8109  116.4   0.880   19.6  0.2921   45.1  0.4421  162.3
 4.300  0.8117  115.2   0.862   18.4  0.2971   44.2  0.4484  161.1
 4.400  0.8129  113.9   0.844   17.2  0.3020   43.3  0.4549  159.8
 4.500  0.8145  112.7   0.827   15.9  0.3071   42.5  0.4616  158.6
 4.600  0.8148  111.7   0.811   15.1  0.3113   41.7  0.4675  157.6
 4.700  0.8154  110.7   0.795   14.2  0.3156   40.9  0.4735  156.7
 4.800  0.8162  109.8   0.780   13.3  0.3199   40.2  0.4797  155.8
 4.900  0.8172  108.8   0.764   12.4  0.3243   39.4  0.4860  154.9
 5.000  0.8185  107.8   0.749   11.4  0.3287   38.7  0.4924  154.0
 5.100  0.8199  107.0   0.740   10.6  0.3333   38.0  0.4996  153.6
 5.200  0.8215  106.2   0.732    9.9  0.3379   37.4  0.5068  153.2
 5.300  0.8232  105.4   0.723    9.1  0.3425   36.7  0.5140  152.8
 5.400  0.8251  104.6   0.715    8.2  0.3472   36.1  0.5212  152.5
 5.500  0.8271  103.8   0.707    7.4  0.3519   35.5  0.5285  152.1
 5.600  0.8281  102.9   0.697    6.9  0.3574   34.7  0.5330  152.0
 5.700  0.8293  102.0   0.688    6.4  0.3629   34.0  0.5374  151.8
 5.800  0.8307  101.0   0.679    5.9  0.3685   33.2  0.5419  151.7
 5.900  0.8324  100.1   0.669    5.4  0.3742   32.5  0.5463  151.5
 6.000  0.8342   99.2   0.660    4.9  0.3799   31.8  0.5508  151.4
!
!  f       NFmin   Gammaopt  rn/50
! GHz       dB    MAG  ANG    -
!
! noise parameter not available yet for this operation point!
!
! (c) 2017  Infineon Technologies AG, Munich