! Infineon Technologies  Discrete & RF Semiconductors
! BFP196WN
! VCE =  11. V,  IC =  10 mA
! Common Emitter S-Parameters:                            Jan 2017
# GHz  S  MA  R  50
!  f         S11            S21            S12            S22
! GHz     MAG   ANG      MAG   ANG      MAG   ANG      MAG   ANG
 0.010  0.7515   -9.8  29.973  175.5  0.0045   80.6  0.9809   -5.1
 0.020  0.7318  -21.8  29.021  169.2  0.0085   81.3  0.9665  -10.5
 0.030  0.7186  -31.1  28.219  164.5  0.0129   72.3  0.9371  -15.2
 0.040  0.7246  -40.4  27.618  159.5  0.0174   68.0  0.9142  -20.1
 0.050  0.7493  -49.4  27.232  154.4  0.0220   65.4  0.8984  -25.2
 0.060  0.7224  -56.3  25.991  151.2  0.0246   61.7  0.8592  -28.3
 0.070  0.7068  -63.6  24.837  147.8  0.0273   58.7  0.8227  -31.6
 0.080  0.7031  -71.1  23.783  144.0  0.0301   56.3  0.7893  -35.3
 0.090  0.7115  -78.6  22.843  139.9  0.0329   54.3  0.7593  -39.2
 0.100  0.7316  -85.8  22.030  135.4  0.0358   52.6  0.7333  -43.5
 0.110  0.7220  -90.6  21.102  133.3  0.0371   50.2  0.7029  -45.5
 0.120  0.7177  -95.5  20.204  131.0  0.0385   48.1  0.6735  -47.6
 0.130  0.7187 -100.5  19.342  128.5  0.0400   46.0  0.6451  -50.0
 0.140  0.7249 -105.3  18.520  125.8  0.0415   44.2  0.6178  -52.5
 0.150  0.7363 -110.1  17.744  122.8  0.0430   42.4  0.5919  -55.3
 0.200  0.7308 -125.9  14.447  114.0  0.0465   37.5  0.4894  -63.3
 0.250  0.7326 -136.9  12.099  107.8  0.0499   35.5  0.4195  -68.5
 0.300  0.7323 -145.1  10.355  103.0  0.0513   33.2  0.3648  -72.6
 0.350  0.7284 -150.6   9.159   99.9  0.0524   33.0  0.3319  -75.2
 0.400  0.7313 -156.1   7.998   95.9  0.0536   32.9  0.2999  -78.3
 0.450  0.7304 -159.9   7.227   93.6  0.0550   33.4  0.2799  -80.3
 0.500  0.7327 -163.7   6.471   90.8  0.0565   33.9  0.2603  -82.7
 0.600  0.7334 -169.4   5.438   86.6  0.0595   36.0  0.2349  -86.3
 0.700  0.7336 -173.7   4.669   83.0  0.0609   37.9  0.2199  -89.0
 0.800  0.7370 -177.8   4.099   79.5  0.0641   40.6  0.2124  -91.6
 0.900  0.7350  178.8   3.646   76.5  0.0676   42.4  0.2083  -94.5
 1.000  0.7372  176.3   3.290   73.7  0.0703   44.5  0.2049  -97.1
 1.100  0.7404  173.5   2.994   71.1  0.0736   46.4  0.2054  -99.2
 1.200  0.7415  171.0   2.749   68.5  0.0770   48.0  0.2072 -101.4
 1.300  0.7412  168.7   2.539   66.2  0.0811   49.7  0.2118 -103.8
 1.400  0.7444  166.6   2.369   63.6  0.0854   51.4  0.2148 -106.7
 1.500  0.7478  164.7   2.210   61.4  0.0894   52.9  0.2198 -108.7
 1.600  0.7516  162.6   2.081   59.2  0.0939   54.0  0.2266 -110.5
 1.700  0.7533  160.6   1.968   57.0  0.0989   55.6  0.2346 -113.3
 1.800  0.7565  158.8   1.867   54.7  0.1039   56.2  0.2406 -115.7
 1.900  0.7583  157.1   1.769   52.8  0.1079   57.2  0.2483 -117.5
 2.000  0.7606  155.2   1.688   50.5  0.1142   57.8  0.2572 -119.2
 2.100  0.7613  153.4   1.613   48.6  0.1195   58.5  0.2662 -121.3
 2.200  0.7628  151.7   1.540   46.5  0.1248   59.2  0.2756 -123.3
 2.300  0.7655  149.9   1.479   44.6  0.1308   59.5  0.2849 -124.9
 2.400  0.7690  148.2   1.420   42.6  0.1369   59.8  0.2944 -126.4
 2.500  0.7697  146.5   1.366   40.8  0.1429   59.9  0.3044 -128.4
 2.600  0.7710  144.9   1.313   38.9  0.1490   59.9  0.3148 -130.2
 2.700  0.7733  143.3   1.267   37.3  0.1552   60.0  0.3234 -131.4
 2.800  0.7763  141.7   1.222   35.5  0.1614   60.1  0.3321 -132.6
 2.900  0.7779  140.1   1.183   33.9  0.1677   59.8  0.3403 -134.6
 3.000  0.7802  138.5   1.146   32.1  0.1740   59.5  0.3489 -136.5
 3.100  0.7818  136.9   1.115   30.8  0.1810   59.1  0.3559 -138.2
 3.200  0.7841  135.3   1.084   29.3  0.1881   58.7  0.3632 -139.9
 3.300  0.7870  133.7   1.054   27.9  0.1951   58.4  0.3708 -141.4
 3.400  0.7905  132.1   1.024   26.3  0.2021   58.1  0.3786 -142.9
 3.500  0.7946  130.5   0.996   24.6  0.2092   57.8  0.3867 -144.4
 3.600  0.7960  128.9   0.971   23.3  0.2159   57.0  0.3930 -146.5
 3.700  0.7981  127.2   0.946   22.0  0.2227   56.3  0.3998 -148.6
 3.800  0.8008  125.6   0.922   20.6  0.2294   55.6  0.4071 -150.6
 3.900  0.8042  124.0   0.898   19.1  0.2363   55.0  0.4149 -152.5
 4.000  0.8082  122.4   0.875   17.5  0.2431   54.4  0.4232 -154.4
 4.100  0.8090  121.0   0.854   16.5  0.2496   53.6  0.4295 -156.8
 4.200  0.8102  119.7   0.834   15.3  0.2561   52.8  0.4366 -159.2
 4.300  0.8119  118.3   0.813   14.2  0.2627   52.1  0.4444 -161.5
 4.400  0.8140  116.9   0.794   13.0  0.2693   51.4  0.4529 -163.7
 4.500  0.8166  115.6   0.774   11.7  0.2759   50.7  0.4620 -165.8
 4.600  0.8173  114.5   0.756   10.9  0.2817   49.9  0.4700 -167.8
 4.700  0.8184  113.4   0.738   10.1  0.2875   49.0  0.4786 -169.8
 4.800  0.8197  112.3   0.721    9.3  0.2934   48.3  0.4878 -171.7
 4.900  0.8214  111.2   0.703    8.4  0.2994   47.5  0.4974 -173.5
 5.000  0.8233  110.1   0.686    7.5  0.3054   46.8  0.5075 -175.2
 5.100  0.8247  109.2   0.676    7.0  0.3114   46.0  0.5175 -176.7
 5.200  0.8263  108.3   0.665    6.4  0.3174   45.3  0.5278 -178.1
 5.300  0.8281  107.4   0.655    5.8  0.3235   44.6  0.5384 -179.4
 5.400  0.8300  106.6   0.645    5.2  0.3296   43.9  0.5493  179.3
 5.500  0.8322  105.7   0.635    4.6  0.3358   43.3  0.5605  178.0
 5.600  0.8335  104.7   0.624    4.4  0.3425   42.4  0.5685  177.1
 5.700  0.8352  103.6   0.614    4.2  0.3493   41.6  0.5767  176.2
 5.800  0.8370  102.6   0.603    4.0  0.3562   40.7  0.5851  175.3
 5.900  0.8392  101.6   0.593    3.8  0.3632   40.0  0.5935  174.4
 6.000  0.8416  100.6   0.582    3.6  0.3702   39.2  0.6021  173.6
!
!  f       NFmin   Gammaopt  rn/50
! GHz       dB    MAG  ANG    -
 0.450      0.92  0.37  146   0.05
 0.900      1.09  0.52  167   0.05
 1.900      2.29  0.71  206   0.13
 2.400      3.04  0.72  213   0.24
!
! (c) 2017  Infineon Technologies AG, Munich