! Infineon Technologies  Discrete & RF Semiconductors
! BFP196WN
! VCE =  7.0 V,  IC =  90 mA
! Common Emitter S-Parameters:                            Jan 2017
# GHz  S  MA  R  50
!  f         S11            S21            S12            S22
! GHz     MAG   ANG      MAG   ANG      MAG   ANG      MAG   ANG
 0.010  0.2025  -76.2  97.012  166.0  0.0029   75.4  0.8978  -17.3
 0.020  0.3376 -103.6  87.196  152.4  0.0056   67.0  0.8319  -34.3
 0.030  0.4006 -118.8  77.041  145.9  0.0072   61.4  0.7261  -43.7
 0.040  0.4837 -129.4  68.183  137.5  0.0088   57.9  0.6462  -55.9
 0.050  0.5783 -136.7  61.186  126.9  0.0104   55.4  0.6026  -70.7
 0.060  0.5897 -141.4  55.838  124.7  0.0112   54.4  0.5536  -75.1
 0.070  0.6049 -145.8  50.589  122.1  0.0120   53.5  0.5086  -80.4
 0.080  0.6236 -150.1  45.472  118.8  0.0127   52.7  0.4686  -86.6
 0.090  0.6454 -154.0  40.539  114.8  0.0135   52.0  0.4351  -93.9
 0.100  0.6701 -157.7  35.865  109.6  0.0143   51.4  0.4097 -102.2
 0.110  0.6757 -159.4  33.657  108.5  0.0149   52.4  0.3916 -105.2
 0.120  0.6819 -161.1  31.463  107.2  0.0154   53.3  0.3747 -108.5
 0.130  0.6886 -162.7  29.289  105.7  0.0160   54.1  0.3591 -112.0
 0.140  0.6960 -164.3  27.137  103.9  0.0166   54.9  0.3450 -115.9
 0.150  0.7038 -165.9  25.015  101.9  0.0172   55.6  0.3326 -120.1
 0.200  0.7091 -170.9  18.997   97.3  0.0196   59.6  0.3028 -131.7
 0.250  0.7173 -174.0  15.309   94.0  0.0237   61.6  0.2853 -139.2
 0.300  0.7195 -176.7  12.813   91.6  0.0260   63.4  0.2731 -145.4
 0.350  0.7200 -178.6  11.243   89.9  0.0298   65.9  0.2682 -149.0
 0.400  0.7213  179.6   9.686   87.7  0.0337   67.8  0.2644 -152.7
 0.450  0.7226  178.1   8.721   86.4  0.0372   68.7  0.2634 -155.3
 0.500  0.7243  176.6   7.762   84.7  0.0407   69.4  0.2629 -158.0
 0.600  0.7244  174.2   6.483   82.0  0.0480   70.1  0.2616 -161.8
 0.700  0.7265  172.1   5.549   79.8  0.0543   71.4  0.2593 -164.2
 0.800  0.7294  169.8   4.862   77.2  0.0628   71.6  0.2602 -165.9
 0.900  0.7281  167.8   4.315   75.1  0.0693   70.9  0.2631 -167.5
 1.000  0.7292  166.0   3.897   73.0  0.0764   71.4  0.2644 -169.2
 1.100  0.7317  164.3   3.544   71.1  0.0839   70.7  0.2652 -170.3
 1.200  0.7322  162.5   3.254   69.0  0.0907   70.1  0.2667 -171.0
 1.300  0.7313  160.8   3.007   67.3  0.0977   69.8  0.2710 -171.4
 1.400  0.7339  159.1   2.808   65.3  0.1051   69.4  0.2752 -172.9
 1.500  0.7379  157.6   2.621   63.4  0.1120   68.8  0.2765 -173.7
 1.600  0.7391  156.0   2.469   61.6  0.1191   68.1  0.2791 -173.7
 1.700  0.7414  154.2   2.339   59.8  0.1263   67.4  0.2853 -174.4
 1.800  0.7408  152.8   2.223   57.9  0.1334   66.7  0.2898 -175.2
 1.900  0.7423  151.4   2.107   56.2  0.1399   66.2  0.2920 -175.8
 2.000  0.7458  149.7   2.013   54.2  0.1472   65.1  0.2955 -175.8
 2.100  0.7452  148.2   1.927   52.6  0.1539   64.4  0.3009 -176.2
 2.200  0.7452  146.7   1.842   50.8  0.1606   63.8  0.3063 -176.6
 2.300  0.7470  145.2   1.772   49.1  0.1674   63.0  0.3090 -176.8
 2.400  0.7493  143.7   1.704   47.3  0.1743   62.2  0.3118 -176.9
 2.500  0.7487  142.2   1.643   45.7  0.1812   61.2  0.3177 -177.4
 2.600  0.7486  140.7   1.584   44.0  0.1881   60.3  0.3237 -177.8
 2.700  0.7501  139.3   1.532   42.6  0.1941   59.6  0.3257 -177.9
 2.800  0.7521  137.9   1.481   41.0  0.2002   58.9  0.3278 -178.0
 2.900  0.7530  136.4   1.437   39.4  0.2065   57.8  0.3333 -178.9
 3.000  0.7544  135.0   1.394   37.8  0.2129   56.8  0.3389 -179.7
 3.100  0.7555  133.5   1.359   36.5  0.2190   55.9  0.3416  179.6
 3.200  0.7570  132.1   1.325   35.1  0.2252   55.1  0.3444  178.9
 3.300  0.7591  130.6   1.292   33.6  0.2315   54.3  0.3473  178.3
 3.400  0.7617  129.1   1.259   32.0  0.2378   53.5  0.3502  177.6
 3.500  0.7647  127.7   1.228   30.4  0.2441   52.8  0.3531  177.0
 3.600  0.7661  126.2   1.200   29.1  0.2495   51.8  0.3576  175.9
 3.700  0.7680  124.8   1.172   27.7  0.2551   50.9  0.3623  174.8
 3.800  0.7703  123.3   1.145   26.2  0.2607   50.0  0.3671  173.7
 3.900  0.7732  121.8   1.118   24.7  0.2663   49.1  0.3720  172.6
 4.000  0.7766  120.4   1.093   23.1  0.2720   48.3  0.3771  171.6
 4.100  0.7778  119.2   1.069   21.9  0.2768   47.4  0.3830  170.1
 4.200  0.7795  117.9   1.046   20.7  0.2816   46.5  0.3892  168.7
 4.300  0.7814  116.7   1.022   19.5  0.2865   45.7  0.3956  167.3
 4.400  0.7837  115.5   1.000   18.2  0.2914   44.9  0.4022  165.9
 4.500  0.7864  114.3   0.978   16.8  0.2964   44.1  0.4091  164.6
 4.600  0.7875  113.3   0.958   15.9  0.3007   43.3  0.4156  163.6
 4.700  0.7887  112.3   0.938   14.9  0.3050   42.5  0.4223  162.5
 4.800  0.7903  111.3   0.919   13.9  0.3094   41.8  0.4291  161.6
 4.900  0.7920  110.4   0.900   12.9  0.3139   41.0  0.4361  160.6
 5.000  0.7940  109.4   0.881   11.8  0.3184   40.3  0.4431  159.7
 5.100  0.7956  108.6   0.869   11.0  0.3230   39.7  0.4510  159.2
 5.200  0.7974  107.7   0.856   10.1  0.3277   39.0  0.4589  158.8
 5.300  0.7994  106.9   0.844    9.2  0.3324   38.4  0.4669  158.3
 5.400  0.8016  106.0   0.833    8.3  0.3371   37.9  0.4749  157.9
 5.500  0.8039  105.2   0.821    7.3  0.3419   37.3  0.4829  157.5
 5.600  0.8054  104.3   0.809    6.8  0.3474   36.5  0.4883  157.4
 5.700  0.8071  103.3   0.797    6.2  0.3530   35.7  0.4937  157.2
 5.800  0.8090  102.4   0.785    5.7  0.3586   35.0  0.4992  157.1
 5.900  0.8112  101.5   0.774    5.1  0.3643   34.3  0.5046  156.9
 6.000  0.8135  100.6   0.762    4.5  0.3700   33.6  0.5100  156.8
!
!  f       NFmin   Gammaopt  rn/50
! GHz       dB    MAG  ANG    -
 0.450      1.69  0.59 -175   0.05
 0.900      1.82  0.60 -168   0.07
 1.900      2.82  0.71 -146   0.23
 2.400      3.60  0.72 -138   0.39
!
! (c) 2017  Infineon Technologies AG, Munich