! Infineon Technologies  Discrete & RF Semiconductors
! BFP196WN
! VCE =  6.0 V,  IC =  70 mA
! Common Emitter S-Parameters:                            Jan 2017
# GHz  S  MA  R  50
!  f         S11            S21            S12            S22
! GHz     MAG   ANG      MAG   ANG      MAG   ANG      MAG   ANG
 0.010  0.2154  -65.3  91.730  166.7  0.0032   78.0  0.9177  -16.7
 0.020  0.3350  -95.2  82.994  153.7  0.0055   72.9  0.8523  -32.9
 0.030  0.3920 -112.2  73.835  147.1  0.0072   62.4  0.7496  -42.4
 0.040  0.4738 -124.1  65.907  138.9  0.0091   56.1  0.6735  -54.5
 0.050  0.5699 -132.3  59.702  128.6  0.0111   52.0  0.6337  -68.8
 0.060  0.5811 -137.4  54.573  126.3  0.0118   51.8  0.5826  -73.3
 0.070  0.5966 -142.2  49.550  123.5  0.0126   51.7  0.5358  -78.6
 0.080  0.6161 -146.7  44.668  120.2  0.0133   51.5  0.4944  -84.9
 0.090  0.6393 -151.0  39.979  116.0  0.0141   51.4  0.4600  -92.2
 0.100  0.6657 -154.9  35.560  110.7  0.0148   51.3  0.4341 -100.5
 0.110  0.6715 -156.8  33.382  109.5  0.0155   51.7  0.4149 -103.6
 0.120  0.6781 -158.7  31.219  108.2  0.0161   52.1  0.3970 -106.9
 0.130  0.6855 -160.6  29.077  106.6  0.0168   52.5  0.3806 -110.6
 0.140  0.6935 -162.4  26.960  104.8  0.0174   52.8  0.3659 -114.5
 0.150  0.7022 -164.2  24.874  102.7  0.0181   53.1  0.3531 -118.8
 0.200  0.7085 -169.4  18.931   97.9  0.0203   58.5  0.3207 -130.6
 0.250  0.7157 -173.1  15.255   94.5  0.0240   60.1  0.3019 -138.3
 0.300  0.7190 -175.8  12.783   92.0  0.0273   62.4  0.2883 -144.7
 0.350  0.7203 -177.8  11.219   90.3  0.0306   64.3  0.2833 -148.5
 0.400  0.7225 -179.8   9.668   88.0  0.0339   65.9  0.2795 -152.4
 0.450  0.7229  178.7   8.705   86.7  0.0377   67.1  0.2779 -155.1
 0.500  0.7237  177.2   7.747   85.0  0.0415   68.0  0.2769 -157.8
 0.600  0.7238  174.7   6.472   82.3  0.0485   68.7  0.2751 -161.8
 0.700  0.7264  172.3   5.540   80.0  0.0554   70.3  0.2722 -164.4
 0.800  0.7290  170.2   4.854   77.5  0.0632   70.3  0.2741 -166.2
 0.900  0.7266  168.1   4.308   75.3  0.0702   70.1  0.2763 -167.9
 1.000  0.7309  166.2   3.889   73.2  0.0774   69.9  0.2776 -169.6
 1.100  0.7318  164.4   3.538   71.3  0.0847   69.9  0.2784 -170.8
 1.200  0.7337  162.7   3.246   69.3  0.0915   69.4  0.2794 -171.6
 1.300  0.7323  160.9   3.003   67.5  0.0983   69.1  0.2835 -172.1
 1.400  0.7354  159.2   2.805   65.5  0.1060   68.6  0.2874 -173.6
 1.500  0.7369  157.9   2.617   63.7  0.1133   68.1  0.2888 -174.4
 1.600  0.7392  156.2   2.466   61.8  0.1199   67.4  0.2914 -174.5
 1.700  0.7405  154.3   2.335   60.0  0.1274   66.7  0.2970 -175.3
 1.800  0.7415  152.9   2.219   58.1  0.1340   66.1  0.3013 -176.1
 1.900  0.7429  151.4   2.105   56.5  0.1408   65.5  0.3038 -176.7
 2.000  0.7454  149.8   2.010   54.5  0.1479   64.7  0.3075 -176.8
 2.100  0.7452  148.3   1.925   52.8  0.1544   63.9  0.3125 -177.3
 2.200  0.7455  146.8   1.841   51.0  0.1610   63.2  0.3175 -177.7
 2.300  0.7470  145.3   1.771   49.4  0.1681   62.4  0.3204 -177.9
 2.400  0.7491  143.8   1.702   47.6  0.1753   61.6  0.3233 -178.1
 2.500  0.7493  142.2   1.641   46.0  0.1818   60.7  0.3288 -178.6
 2.600  0.7500  140.7   1.582   44.3  0.1884   59.9  0.3343 -179.1
 2.700  0.7504  139.3   1.530   42.9  0.1947   59.1  0.3362 -179.2
 2.800  0.7513  137.9   1.479   41.3  0.2011   58.3  0.3382 -179.3
 2.900  0.7522  136.4   1.436   39.7  0.2074   57.3  0.3435  179.8
 3.000  0.7536  135.0   1.394   38.1  0.2138   56.4  0.3489  179.0
 3.100  0.7549  133.5   1.359   36.8  0.2200   55.5  0.3516  178.3
 3.200  0.7567  132.1   1.325   35.4  0.2263   54.6  0.3543  177.6
 3.300  0.7590  130.6   1.292   33.9  0.2326   53.8  0.3571  176.9
 3.400  0.7618  129.1   1.259   32.4  0.2390   53.0  0.3599  176.3
 3.500  0.7651  127.7   1.228   30.8  0.2454   52.3  0.3628  175.6
 3.600  0.7662  126.2   1.200   29.5  0.2507   51.3  0.3671  174.5
 3.700  0.7678  124.8   1.172   28.1  0.2560   50.4  0.3716  173.4
 3.800  0.7700  123.3   1.145   26.6  0.2615   49.5  0.3763  172.3
 3.900  0.7726  121.8   1.119   25.1  0.2670   48.6  0.3810  171.2
 4.000  0.7757  120.4   1.094   23.5  0.2725   47.8  0.3859  170.2
 4.100  0.7770  119.2   1.070   22.3  0.2773   46.9  0.3918  168.8
 4.200  0.7788  117.9   1.047   21.1  0.2822   46.0  0.3980  167.4
 4.300  0.7808  116.7   1.023   19.9  0.2872   45.2  0.4044  166.1
 4.400  0.7832  115.5   1.001   18.6  0.2922   44.4  0.4110  164.8
 4.500  0.7860  114.3   0.979   17.2  0.2973   43.6  0.4178  163.5
 4.600  0.7869  113.3   0.959   16.3  0.3015   42.8  0.4243  162.5
 4.700  0.7881  112.3   0.939   15.3  0.3057   42.1  0.4309  161.4
 4.800  0.7895  111.3   0.920   14.3  0.3100   41.3  0.4376  160.5
 4.900  0.7912  110.3   0.901   13.3  0.3144   40.6  0.4444  159.5
 5.000  0.7931  109.3   0.882   12.2  0.3188   39.9  0.4514  158.6
 5.100  0.7951  108.5   0.870   11.4  0.3235   39.2  0.4591  158.1
 5.200  0.7973  107.6   0.859   10.5  0.3282   38.6  0.4669  157.7
 5.300  0.7996  106.8   0.847    9.6  0.3330   38.0  0.4747  157.2
 5.400  0.8021  106.0   0.836    8.7  0.3378   37.4  0.4825  156.8
 5.500  0.8048  105.2   0.825    7.8  0.3426   36.8  0.4903  156.4
 5.600  0.8061  104.3   0.813    7.2  0.3482   36.0  0.4955  156.3
 5.700  0.8076  103.3   0.801    6.7  0.3539   35.3  0.5007  156.2
 5.800  0.8093  102.4   0.789    6.1  0.3596   34.6  0.5058  156.0
 5.900  0.8112  101.5   0.777    5.4  0.3654   33.9  0.5110  155.9
 6.000  0.8133  100.6   0.765    4.8  0.3712   33.2  0.5162  155.8
!
!  f       NFmin   Gammaopt  rn/50
! GHz       dB    MAG  ANG    -
 0.450      1.47  0.57 -176   0.05
 0.900      1.60  0.58 -169   0.06
 1.900      2.54  0.70 -147   0.19
 2.400      3.34  0.71 -139   0.32
!
! (c) 2017  Infineon Technologies AG, Munich