! Infineon Technologies  Discrete & RF Semiconductors
! BFP196WN
! VCE =  4.0 V,  IC = 0.10 A
! Common Emitter S-Parameters:                            Jan 2017
# GHz  S  MA  R  50
!  f         S11            S21            S12            S22
! GHz     MAG   ANG      MAG   ANG      MAG   ANG      MAG   ANG
 0.010  0.2162 -115.9  99.034  164.3  0.0028   76.6  0.8735  -20.6
 0.020  0.3777 -126.0  87.110  149.4  0.0053   68.5  0.7979  -40.4
 0.030  0.4516 -136.2  75.917  143.0  0.0067   60.7  0.6868  -50.6
 0.040  0.5356 -143.3  65.987  134.5  0.0082   55.6  0.6053  -64.2
 0.050  0.6257 -148.5  57.975  123.4  0.0098   52.2  0.5663  -80.7
 0.060  0.6373 -151.9  52.741  121.4  0.0105   52.9  0.5229  -85.5
 0.070  0.6511 -155.1  47.584  119.0  0.0111   53.5  0.4839  -91.2
 0.080  0.6669 -158.2  42.535  115.9  0.0118   54.1  0.4503  -97.7
 0.090  0.6845 -161.2  37.635  112.1  0.0124   54.6  0.4236 -105.2
 0.100  0.7039 -164.0  32.951  107.2  0.0131   55.0  0.4050 -113.6
 0.110  0.7093 -165.3  30.891  106.2  0.0137   55.7  0.3908 -116.7
 0.120  0.7150 -166.6  28.842  105.0  0.0143   56.3  0.3778 -120.0
 0.130  0.7211 -167.9  26.808  103.6  0.0148   56.9  0.3661 -123.5
 0.140  0.7276 -169.2  24.791  102.0  0.0154   57.5  0.3560 -127.3
 0.150  0.7344 -170.4  22.798  100.1  0.0160   58.0  0.3474 -131.2
 0.200  0.7375 -174.3  17.252   95.9  0.0192   63.2  0.3289 -141.8
 0.250  0.7439 -176.8  13.885   92.8  0.0230   64.5  0.3167 -148.3
 0.300  0.7466 -179.1  11.627   90.6  0.0265   67.3  0.3089 -153.7
 0.350  0.7480  179.2  10.193   89.0  0.0301   68.9  0.3060 -156.6
 0.400  0.7501  177.6   8.769   86.8  0.0338   70.1  0.3040 -159.6
 0.450  0.7495  176.4   7.892   85.5  0.0377   70.8  0.3041 -161.8
 0.500  0.7492  175.1   7.019   83.9  0.0417   71.3  0.3046 -164.0
 0.600  0.7500  172.8   5.865   81.3  0.0494   71.9  0.3044 -167.2
 0.700  0.7501  170.8   5.023   79.1  0.0561   73.0  0.3031 -169.5
 0.800  0.7537  168.8   4.397   76.6  0.0644   72.7  0.3038 -170.8
 0.900  0.7526  166.8   3.905   74.4  0.0719   72.4  0.3066 -172.2
 1.000  0.7544  165.1   3.526   72.4  0.0790   71.8  0.3086 -173.7
 1.100  0.7572  163.4   3.209   70.4  0.0869   71.5  0.3092 -174.8
 1.200  0.7575  161.6   2.946   68.4  0.0939   70.8  0.3100 -175.5
 1.300  0.7582  160.0   2.728   66.6  0.1014   70.5  0.3142 -176.0
 1.400  0.7576  158.3   2.546   64.6  0.1089   69.5  0.3181 -177.3
 1.500  0.7605  156.9   2.377   62.8  0.1162   69.0  0.3193 -178.1
 1.600  0.7645  155.3   2.242   60.9  0.1233   68.2  0.3213 -178.2
 1.700  0.7632  153.4   2.126   59.1  0.1307   67.5  0.3280 -178.9
 1.800  0.7651  152.0   2.021   57.1  0.1381   66.7  0.3310 -179.7
 1.900  0.7650  150.5   1.915   55.5  0.1443   65.9  0.3335  179.8
 2.000  0.7678  148.9   1.831   53.5  0.1520   65.0  0.3365  179.6
 2.100  0.7672  147.4   1.754   51.9  0.1589   64.2  0.3415  179.1
 2.200  0.7671  145.9   1.678   50.1  0.1658   63.5  0.3466  178.7
 2.300  0.7691  144.4   1.615   48.4  0.1729   62.6  0.3487  178.5
 2.400  0.7717  142.9   1.554   46.6  0.1801   61.8  0.3509  178.3
 2.500  0.7708  141.4   1.500   45.0  0.1871   60.8  0.3565  177.8
 2.600  0.7704  139.9   1.447   43.3  0.1941   59.8  0.3622  177.3
 2.700  0.7714  138.5   1.401   41.8  0.2003   59.0  0.3636  177.1
 2.800  0.7729  137.1   1.355   40.3  0.2066   58.3  0.3650  177.0
 2.900  0.7734  135.6   1.316   38.8  0.2131   57.3  0.3704  176.1
 3.000  0.7745  134.1   1.277   37.2  0.2197   56.3  0.3758  175.3
 3.100  0.7754  132.6   1.246   35.9  0.2259   55.3  0.3780  174.6
 3.200  0.7769  131.2   1.215   34.5  0.2321   54.4  0.3803  173.9
 3.300  0.7789  129.7   1.185   33.0  0.2384   53.5  0.3827  173.2
 3.400  0.7813  128.2   1.156   31.5  0.2447   52.7  0.3851  172.5
 3.500  0.7843  126.8   1.128   29.9  0.2511   51.9  0.3876  171.8
 3.600  0.7851  125.3   1.103   28.6  0.2565   50.9  0.3918  170.7
 3.700  0.7863  123.9   1.078   27.2  0.2619   49.9  0.3961  169.7
 3.800  0.7881  122.5   1.054   25.8  0.2674   49.0  0.4005  168.7
 3.900  0.7903  121.0   1.031   24.3  0.2730   48.1  0.4050  167.7
 4.000  0.7931  119.6   1.008   22.7  0.2786   47.2  0.4097  166.7
 4.100  0.7938  118.4   0.987   21.6  0.2833   46.3  0.4154  165.3
 4.200  0.7949  117.1   0.966   20.4  0.2881   45.4  0.4214  163.9
 4.300  0.7964  115.9   0.945   19.2  0.2929   44.6  0.4276  162.6
 4.400  0.7982  114.7   0.925   17.9  0.2978   43.8  0.4340  161.3
 4.500  0.8004  113.5   0.905   16.6  0.3027   43.0  0.4406  160.1
 4.600  0.8011  112.5   0.887   15.7  0.3069   42.2  0.4467  159.1
 4.700  0.8020  111.5   0.869   14.8  0.3112   41.4  0.4529  158.2
 4.800  0.8032  110.4   0.852   13.8  0.3156   40.7  0.4592  157.3
 4.900  0.8047  109.4   0.835   12.8  0.3200   39.9  0.4656  156.4
 5.000  0.8064  108.4   0.818   11.8  0.3244   39.2  0.4722  155.5
 5.100  0.8079  107.6   0.808   11.0  0.3290   38.5  0.4795  155.1
 5.200  0.8096  106.8   0.798   10.1  0.3336   37.9  0.4869  154.7
 5.300  0.8114  106.0   0.788    9.3  0.3382   37.3  0.4943  154.3
 5.400  0.8134  105.2   0.778    8.4  0.3429   36.7  0.5017  154.0
 5.500  0.8155  104.4   0.769    7.5  0.3476   36.1  0.5091  153.6
 5.600  0.8164  103.5   0.758    7.0  0.3530   35.3  0.5137  153.5
 5.700  0.8174  102.6   0.747    6.6  0.3585   34.6  0.5184  153.4
 5.800  0.8187  101.7   0.736    6.1  0.3640   33.8  0.5230  153.2
 5.900  0.8201  100.8   0.726    5.6  0.3696   33.1  0.5277  153.1
 6.000  0.8218   99.9   0.715    5.1  0.3753   32.4  0.5323  153.0
!
!  f       NFmin   Gammaopt  rn/50
! GHz       dB    MAG  ANG    -
 0.450      1.80  0.60 -174   0.06
 0.900      1.96  0.61 -167   0.08
 1.900      2.98  0.71 -146   0.26
 2.400      3.72  0.72 -137   0.44
!
! (c) 2017  Infineon Technologies AG, Munich