! Infineon Technologies  Discrete & RF Semiconductors
! BFP196WN
! VCE =  9.0 V,  IC =  65 mA
! Common Emitter S-Parameters:                            Jan 2017
# GHz  S  MA  R  50
!  f         S11            S21            S12            S22
! GHz     MAG   ANG      MAG   ANG      MAG   ANG      MAG   ANG
 0.010  0.2716  -45.8  87.842  167.7  0.0033   82.9  0.9211  -14.9
 0.020  0.3524  -78.4  80.408  155.5  0.0060   74.4  0.8630  -29.5
 0.030  0.3899  -97.5  72.248  148.9  0.0080   63.4  0.7672  -38.4
 0.040  0.4615 -112.0  65.262  140.9  0.0101   56.8  0.6950  -49.5
 0.050  0.5540 -122.1  59.860  131.1  0.0123   52.6  0.6540  -62.6
 0.060  0.5622 -128.1  54.863  128.7  0.0131   52.0  0.6013  -66.9
 0.070  0.5764 -133.9  49.984  125.8  0.0138   51.5  0.5525  -71.9
 0.080  0.5961 -139.3  45.260  122.3  0.0146   51.0  0.5089  -77.9
 0.090  0.6208 -144.4  40.746  117.9  0.0153   50.6  0.4718  -84.9
 0.100  0.6500 -149.0  36.519  112.6  0.0161   50.2  0.4429  -93.0
 0.110  0.6553 -151.3  34.318  111.3  0.0167   50.3  0.4212  -95.9
 0.120  0.6616 -153.6  32.137  109.9  0.0172   50.3  0.4006  -99.1
 0.130  0.6690 -155.8  29.979  108.2  0.0178   50.4  0.3815 -102.6
 0.140  0.6773 -158.0  27.849  106.3  0.0183   50.4  0.3639 -106.5
 0.150  0.6866 -160.1  25.756  104.1  0.0189   50.5  0.3482 -110.8
 0.200  0.6946 -166.4  19.647   99.0  0.0208   54.8  0.3067 -123.0
 0.250  0.7040 -170.4  15.867   95.4  0.0249   57.5  0.2834 -131.2
 0.300  0.7060 -173.6  13.298   92.8  0.0272   59.8  0.2668 -138.1
 0.350  0.7065 -176.0  11.675   91.0  0.0307   61.8  0.2596 -142.2
 0.400  0.7081 -178.3  10.067   88.6  0.0342   63.4  0.2537 -146.5
 0.450  0.7097 -179.9   9.063   87.2  0.0375   64.8  0.2509 -149.5
 0.500  0.7118  178.5   8.065   85.5  0.0408   65.9  0.2487 -152.5
 0.600  0.7098  175.7   6.740   82.7  0.0479   67.0  0.2464 -157.0
 0.700  0.7116  173.3   5.772   80.3  0.0543   68.4  0.2430 -159.8
 0.800  0.7171  171.0   5.056   77.8  0.0622   69.4  0.2440 -161.7
 0.900  0.7168  168.8   4.488   75.6  0.0687   68.9  0.2464 -163.7
 1.000  0.7174  167.0   4.051   73.5  0.0752   69.2  0.2476 -165.5
 1.100  0.7197  165.2   3.685   71.6  0.0823   69.2  0.2482 -166.7
 1.200  0.7210  163.3   3.384   69.5  0.0893   69.0  0.2495 -167.6
 1.300  0.7201  161.6   3.127   67.8  0.0958   68.6  0.2539 -168.1
 1.400  0.7228  159.8   2.920   65.7  0.1034   68.2  0.2577 -169.6
 1.500  0.7244  158.4   2.724   63.8  0.1103   67.6  0.2591 -170.5
 1.600  0.7272  156.7   2.565   62.0  0.1169   67.2  0.2623 -170.5
 1.700  0.7284  155.0   2.431   60.2  0.1240   66.7  0.2680 -171.3
 1.800  0.7304  153.4   2.308   58.2  0.1305   65.9  0.2727 -172.1
 1.900  0.7314  152.0   2.188   56.6  0.1372   65.4  0.2751 -172.7
 2.000  0.7329  150.4   2.089   54.6  0.1444   64.6  0.2795 -172.7
 2.100  0.7330  148.8   1.999   53.0  0.1508   64.0  0.2848 -173.2
 2.200  0.7336  147.3   1.911   51.2  0.1572   63.5  0.2902 -173.6
 2.300  0.7358  145.7   1.838   49.5  0.1642   62.6  0.2935 -173.7
 2.400  0.7385  144.2   1.767   47.7  0.1712   61.8  0.2969 -173.8
 2.500  0.7390  142.7   1.703   46.1  0.1777   61.0  0.3029 -174.3
 2.600  0.7400  141.2   1.641   44.4  0.1842   60.2  0.3090 -174.8
 2.700  0.7411  139.8   1.586   42.9  0.1904   59.4  0.3114 -174.9
 2.800  0.7426  138.4   1.533   41.3  0.1966   58.7  0.3138 -174.9
 2.900  0.7433  136.9   1.488   39.8  0.2029   57.8  0.3195 -175.8
 3.000  0.7444  135.5   1.444   38.2  0.2092   57.0  0.3252 -176.7
 3.100  0.7458  134.0   1.407   36.9  0.2153   56.1  0.3283 -177.4
 3.200  0.7478  132.6   1.372   35.4  0.2215   55.3  0.3314 -178.1
 3.300  0.7502  131.1   1.337   33.9  0.2278   54.5  0.3345 -178.8
 3.400  0.7531  129.6   1.303   32.4  0.2341   53.7  0.3377 -179.4
 3.500  0.7565  128.2   1.270   30.7  0.2404   53.0  0.3410  179.9
 3.600  0.7580  126.7   1.240   29.4  0.2457   52.0  0.3456  178.7
 3.700  0.7599  125.3   1.211   27.9  0.2511   51.1  0.3503  177.6
 3.800  0.7624  123.8   1.182   26.5  0.2566   50.2  0.3552  176.5
 3.900  0.7654  122.3   1.155   24.9  0.2621   49.4  0.3602  175.4
 4.000  0.7688  120.9   1.128   23.3  0.2677   48.6  0.3653  174.4
 4.100  0.7702  119.7   1.103   22.2  0.2726   47.7  0.3713  172.9
 4.200  0.7719  118.4   1.078   20.9  0.2777   46.9  0.3777  171.4
 4.300  0.7739  117.2   1.054   19.7  0.2827   46.1  0.3842  169.9
 4.400  0.7763  116.0   1.031   18.4  0.2878   45.3  0.3910  168.5
 4.500  0.7791  114.8   1.008   17.0  0.2930   44.6  0.3980  167.2
 4.600  0.7804  113.8   0.987   16.0  0.2972   43.8  0.4048  166.1
 4.700  0.7820  112.7   0.966   15.1  0.3015   43.0  0.4118  165.1
 4.800  0.7838  111.7   0.946   14.0  0.3059   42.3  0.4189  164.0
 4.900  0.7859  110.7   0.926   12.9  0.3103   41.5  0.4261  163.1
 5.000  0.7882  109.7   0.906   11.8  0.3147   40.8  0.4335  162.1
 5.100  0.7902  108.9   0.893   11.0  0.3195   40.1  0.4416  161.6
 5.200  0.7924  108.0   0.881   10.1  0.3244   39.5  0.4498  161.1
 5.300  0.7947  107.2   0.868    9.2  0.3293   38.9  0.4580  160.6
 5.400  0.7972  106.4   0.856    8.3  0.3342   38.3  0.4662  160.1
 5.500  0.7999  105.6   0.844    7.4  0.3392   37.7  0.4745  159.7
 5.600  0.8010  104.7   0.831    6.8  0.3447   36.9  0.4803  159.5
 5.700  0.8024  103.7   0.819    6.2  0.3503   36.2  0.4860  159.4
 5.800  0.8040  102.8   0.806    5.6  0.3559   35.5  0.4918  159.2
 5.900  0.8057  101.9   0.793    5.0  0.3616   34.8  0.4975  159.1
 6.000  0.8077  101.0   0.781    4.3  0.3673   34.1  0.5033  158.9
!
!  f       NFmin   Gammaopt  rn/50
! GHz       dB    MAG  ANG    -
 0.450      1.43  0.56 -176   0.05
 0.900      1.55  0.58 -169   0.06
 1.900      2.48  0.69 -147   0.18
 2.400      3.26  0.70 -139   0.31
!
! (c) 2017  Infineon Technologies AG, Munich