! Infineon Technologies  Discrete & RF Semiconductors
! BFP196WN
! VCE =  4.0 V,  IC =  95 mA
! Common Emitter S-Parameters:                            Jan 2017
# GHz  S  MA  R  50
!  f         S11            S21            S12            S22
! GHz     MAG   ANG      MAG   ANG      MAG   ANG      MAG   ANG
 0.010  0.2094 -111.7  98.391  164.6  0.0030   79.4  0.8816  -20.3
 0.020  0.3709 -124.2  86.834  149.9  0.0056   66.8  0.8059  -39.7
 0.030  0.4439 -134.7  75.809  143.5  0.0069   62.0  0.6951  -49.9
 0.040  0.5275 -142.0  66.055  135.0  0.0082   58.7  0.6140  -63.4
 0.050  0.6173 -147.3  58.215  123.9  0.0096   56.3  0.5755  -79.8
 0.060  0.6297 -150.8  52.985  121.9  0.0104   55.6  0.5312  -84.6
 0.070  0.6444 -154.2  47.836  119.4  0.0112   55.0  0.4913  -90.3
 0.080  0.6612 -157.4  42.797  116.3  0.0120   54.5  0.4570  -96.9
 0.090  0.6800 -160.4  37.913  112.5  0.0128   54.0  0.4296 -104.4
 0.100  0.7006 -163.3  33.251  107.5  0.0136   53.6  0.4106 -112.8
 0.110  0.7061 -164.7  31.176  106.4  0.0142   54.4  0.3959 -115.9
 0.120  0.7119 -166.0  29.113  105.2  0.0148   55.2  0.3823 -119.2
 0.130  0.7182 -167.3  27.065  103.8  0.0154   55.9  0.3702 -122.7
 0.140  0.7248 -168.6  25.036  102.2  0.0160   56.6  0.3596 -126.5
 0.150  0.7318 -169.9  23.030  100.3  0.0166   57.2  0.3506 -130.5
 0.200  0.7362 -174.1  17.433   96.0  0.0190   62.3  0.3314 -141.1
 0.250  0.7417 -176.6  14.027   93.0  0.0234   64.3  0.3188 -147.6
 0.300  0.7456 -178.8  11.756   90.7  0.0265   66.1  0.3107 -153.1
 0.350  0.7456  179.5  10.304   89.1  0.0303   68.1  0.3077 -156.2
 0.400  0.7462  177.8   8.863   86.9  0.0342   69.6  0.3056 -159.4
 0.450  0.7457  176.6   7.978   85.6  0.0379   70.2  0.3053 -161.6
 0.500  0.7455  175.3   7.099   84.0  0.0417   70.7  0.3054 -163.9
 0.600  0.7478  173.0   5.933   81.4  0.0493   71.8  0.3058 -167.0
 0.700  0.7494  171.0   5.076   79.2  0.0560   72.5  0.3039 -169.2
 0.800  0.7527  168.8   4.448   76.7  0.0644   72.6  0.3050 -170.7
 0.900  0.7504  167.0   3.948   74.5  0.0718   71.6  0.3077 -172.2
 1.000  0.7519  165.1   3.565   72.5  0.0790   71.8  0.3094 -173.6
 1.100  0.7536  163.5   3.244   70.5  0.0869   71.5  0.3103 -174.8
 1.200  0.7559  161.6   2.977   68.5  0.0938   70.6  0.3109 -175.5
 1.300  0.7545  160.0   2.754   66.8  0.1014   70.1  0.3151 -176.0
 1.400  0.7568  158.3   2.573   64.7  0.1090   69.5  0.3191 -177.3
 1.500  0.7591  156.9   2.404   62.9  0.1158   68.6  0.3201 -178.2
 1.600  0.7607  155.3   2.266   61.1  0.1231   68.2  0.3226 -178.2
 1.700  0.7635  153.5   2.147   59.2  0.1309   67.2  0.3284 -178.9
 1.800  0.7620  152.1   2.040   57.3  0.1380   66.6  0.3321 -179.7
 1.900  0.7622  150.7   1.936   55.7  0.1445   65.9  0.3342  179.7
 2.000  0.7653  148.9   1.850   53.7  0.1524   64.9  0.3378  179.5
 2.100  0.7650  147.5   1.773   52.1  0.1589   64.1  0.3424  179.0
 2.200  0.7652  146.0   1.697   50.3  0.1655   63.4  0.3471  178.6
 2.300  0.7671  144.5   1.633   48.6  0.1729   62.5  0.3493  178.4
 2.400  0.7695  143.0   1.570   46.8  0.1803   61.6  0.3516  178.2
 2.500  0.7686  141.5   1.515   45.2  0.1869   60.6  0.3570  177.7
 2.600  0.7683  139.9   1.461   43.5  0.1936   59.7  0.3624  177.2
 2.700  0.7694  138.5   1.414   42.0  0.2001   58.9  0.3638  177.0
 2.800  0.7709  137.1   1.368   40.5  0.2066   58.1  0.3653  176.8
 2.900  0.7715  135.6   1.329   39.0  0.2130   57.1  0.3706  176.0
 3.000  0.7726  134.1   1.290   37.4  0.2194   56.2  0.3759  175.2
 3.100  0.7736  132.6   1.258   36.1  0.2256   55.2  0.3781  174.5
 3.200  0.7750  131.2   1.228   34.7  0.2318   54.3  0.3803  173.8
 3.300  0.7769  129.8   1.198   33.2  0.2381   53.4  0.3826  173.1
 3.400  0.7794  128.3   1.168   31.7  0.2445   52.6  0.3850  172.4
 3.500  0.7823  126.9   1.140   30.1  0.2509   51.8  0.3874  171.7
 3.600  0.7831  125.4   1.114   28.8  0.2563   50.8  0.3916  170.6
 3.700  0.7843  124.0   1.089   27.4  0.2617   49.8  0.3959  169.6
 3.800  0.7861  122.6   1.065   26.0  0.2673   48.9  0.4003  168.6
 3.900  0.7884  121.1   1.041   24.5  0.2728   48.0  0.4049  167.6
 4.000  0.7911  119.7   1.018   22.9  0.2785   47.2  0.4096  166.6
 4.100  0.7917  118.5   0.996   21.8  0.2832   46.3  0.4153  165.2
 4.200  0.7927  117.2   0.975   20.6  0.2880   45.4  0.4212  163.9
 4.300  0.7940  116.0   0.954   19.3  0.2928   44.5  0.4273  162.6
 4.400  0.7957  114.7   0.934   18.0  0.2977   43.7  0.4337  161.3
 4.500  0.7978  113.5   0.914   16.7  0.3027   42.9  0.4402  160.1
 4.600  0.7987  112.5   0.896   15.8  0.3069   42.1  0.4463  159.1
 4.700  0.7997  111.5   0.878   14.9  0.3112   41.3  0.4525  158.1
 4.800  0.8011  110.6   0.860   14.0  0.3155   40.6  0.4589  157.2
 4.900  0.8026  109.6   0.843   13.0  0.3199   39.8  0.4653  156.3
 5.000  0.8044  108.6   0.826   12.0  0.3243   39.1  0.4719  155.4
 5.100  0.8059  107.8   0.816   11.2  0.3288   38.4  0.4792  155.0
 5.200  0.8076  107.0   0.806   10.3  0.3334   37.8  0.4864  154.6
 5.300  0.8095  106.2   0.796    9.5  0.3380   37.2  0.4937  154.2
 5.400  0.8115  105.4   0.786    8.6  0.3426   36.6  0.5011  153.9
 5.500  0.8137  104.6   0.777    7.7  0.3473   36.0  0.5084  153.5
 5.600  0.8148  103.7   0.766    7.2  0.3527   35.3  0.5131  153.4
 5.700  0.8161  102.7   0.755    6.7  0.3582   34.5  0.5178  153.3
 5.800  0.8176  101.8   0.744    6.1  0.3638   33.8  0.5224  153.1
 5.900  0.8193  100.8   0.733    5.6  0.3694   33.2  0.5271  153.0
 6.000  0.8213   99.9   0.722    5.0  0.3750   32.5  0.5318  152.9
!
!  f       NFmin   Gammaopt  rn/50
! GHz       dB    MAG  ANG    -
!
! noise parameter not available yet for this operation point!
!
! (c) 2017  Infineon Technologies AG, Munich