! Infineon Technologies  Discrete & RF Semiconductors
! BFP196WN
! VCE =  3.0 V,  IC =  5.0 mA
! Common Emitter S-Parameters:                            Jan 2017
# GHz  S  MA  R  50
!  f         S11            S21            S12            S22
! GHz     MAG   ANG      MAG   ANG      MAG   ANG      MAG   ANG
 0.010  0.8480   -7.3  16.897  176.8  0.0058   88.4  0.9923   -3.7
 0.020  0.8253  -17.0  16.386  171.5  0.0120   82.0  0.9795   -7.9
 0.030  0.8174  -24.3  16.141  167.5  0.0180   76.1  0.9621  -11.6
 0.040  0.8228  -31.6  15.977  163.4  0.0241   73.2  0.9488  -15.3
 0.050  0.8414  -38.7  15.897  159.2  0.0302   71.5  0.9397  -19.2
 0.060  0.8157  -44.7  15.350  156.1  0.0341   66.7  0.9104  -21.9
 0.070  0.7995  -51.1  14.849  152.9  0.0381   62.9  0.8833  -24.8
 0.080  0.7934  -57.6  14.401  149.4  0.0423   59.8  0.8586  -27.9
 0.090  0.7977  -64.1  14.009  145.7  0.0466   57.3  0.8365  -31.1
 0.100  0.8122  -70.5  13.678  141.8  0.0510   55.2  0.8172  -34.5
 0.110  0.7992  -75.3  13.211  139.6  0.0537   52.6  0.7905  -36.4
 0.120  0.7918  -80.1  12.767  137.2  0.0564   50.3  0.7648  -38.4
 0.130  0.7902  -85.1  12.346  134.6  0.0592   48.2  0.7400  -40.6
 0.140  0.7945  -90.0  11.952  131.8  0.0621   46.3  0.7164  -42.8
 0.150  0.8045  -94.8  11.587  128.9  0.0651   44.6  0.6940  -45.3
 0.200  0.7922 -111.6   9.741  119.2  0.0720   37.5  0.5933  -52.7
 0.250  0.7877 -124.5   8.320  112.0  0.0770   32.2  0.5201  -57.7
 0.300  0.7839 -134.0   7.209  106.4  0.0796   28.6  0.4607  -61.4
 0.350  0.7760 -140.6   6.413  102.7  0.0811   26.6  0.4236  -63.8
 0.400  0.7786 -147.3   5.652   97.9  0.0826   24.6  0.3873  -66.6
 0.450  0.7760 -151.8   5.123   95.1  0.0831   23.7  0.3643  -68.5
 0.500  0.7781 -156.3   4.608   91.7  0.0837   22.8  0.3418  -70.7
 0.600  0.7771 -163.2   3.881   86.6  0.0846   21.6  0.3150  -73.5
 0.700  0.7759 -168.4   3.340   82.2  0.0843   21.9  0.2987  -76.2
 0.800  0.7796 -173.1   2.941   78.0  0.0844   23.0  0.2904  -79.0
 0.900  0.7779 -176.9   2.616   74.4  0.0848   23.5  0.2865  -82.0
 1.000  0.7807  180.0   2.366   71.1  0.0843   25.3  0.2848  -84.8
 1.100  0.7818  176.8   2.153   68.0  0.0842   27.3  0.2861  -87.7
 1.200  0.7835  174.2   1.974   64.9  0.0848   28.8  0.2898  -90.4
 1.300  0.7842  171.7   1.824   62.2  0.0852   31.2  0.2961  -93.3
 1.400  0.7887  169.3   1.702   59.4  0.0868   33.7  0.3011  -96.6
 1.500  0.7912  167.2   1.590   56.7  0.0881   35.9  0.3067  -99.4
 1.600  0.7934  165.0   1.493   54.2  0.0895   38.4  0.3164 -101.9
 1.700  0.7979  162.8   1.411   51.7  0.0920   41.5  0.3258 -105.0
 1.800  0.8011  160.8   1.340   49.3  0.0953   43.6  0.3338 -107.9
 1.900  0.8019  158.8   1.268   47.1  0.0981   46.1  0.3433 -110.6
 2.000  0.8067  156.8   1.209   44.7  0.1024   48.3  0.3546 -112.8
 2.100  0.8081  155.0   1.154   42.7  0.1070   50.3  0.3653 -115.5
 2.200  0.8102  153.2   1.101   40.4  0.1117   52.1  0.3768 -118.1
 2.300  0.8127  151.3   1.056   38.4  0.1172   53.7  0.3883 -120.3
 2.400  0.8160  149.4   1.013   36.3  0.1228   55.2  0.4004 -122.4
 2.500  0.8178  147.6   0.973   34.5  0.1292   56.2  0.4119 -124.9
 2.600  0.8205  145.8   0.934   32.6  0.1357   57.2  0.4242 -127.3
 2.700  0.8216  144.1   0.900   31.1  0.1424   58.0  0.4344 -129.1
 2.800  0.8234  142.5   0.867   29.4  0.1492   58.7  0.4451 -130.9
 2.900  0.8250  140.7   0.839   27.9  0.1564   58.9  0.4547 -133.3
 3.000  0.8275  138.9   0.811   26.2  0.1637   59.0  0.4650 -135.5
 3.100  0.8288  137.2   0.788   25.1  0.1719   58.9  0.4723 -137.7
 3.200  0.8309  135.4   0.765   23.9  0.1800   58.8  0.4803 -139.8
 3.300  0.8338  133.7   0.743   22.6  0.1882   58.7  0.4889 -141.8
 3.400  0.8374  132.0   0.721   21.2  0.1963   58.6  0.4980 -143.8
 3.500  0.8417  130.3   0.700   19.8  0.2045   58.5  0.5078 -145.7
 3.600  0.8421  128.6   0.682   18.9  0.2125   57.7  0.5137 -148.1
 3.700  0.8433  126.9   0.665   17.9  0.2206   56.9  0.5205 -150.5
 3.800  0.8452  125.2   0.647   16.8  0.2286   56.3  0.5282 -152.8
 3.900  0.8479  123.6   0.630   15.8  0.2368   55.6  0.5367 -155.0
 4.000  0.8512  121.9   0.613   14.6  0.2449   55.0  0.5460 -157.2
 4.100  0.8505  120.5   0.600   14.0  0.2523   54.0  0.5513 -159.8
 4.200  0.8503  119.0   0.586   13.3  0.2597   53.1  0.5577 -162.3
 4.300  0.8507  117.6   0.573   12.6  0.2672   52.3  0.5652 -164.7
 4.400  0.8516  116.1   0.560   11.9  0.2748   51.5  0.5736 -167.1
 4.500  0.8531  114.7   0.547   11.1  0.2824   50.7  0.5830 -169.4
 4.600  0.8528  113.6   0.536   10.8  0.2888   49.7  0.5895 -171.5
 4.700  0.8528  112.4   0.526   10.5  0.2953   48.8  0.5968 -173.6
 4.800  0.8531  111.3   0.515   10.2  0.3019   47.9  0.6048 -175.6
 4.900  0.8538  110.1   0.505    9.8  0.3085   47.0  0.6136 -177.6
 5.000  0.8548  109.0   0.494    9.5  0.3152   46.2  0.6231 -179.5
 5.100  0.8552  108.1   0.490    9.3  0.3216   45.3  0.6312  178.9
 5.200  0.8559  107.2   0.486    9.2  0.3280   44.5  0.6397  177.4
 5.300  0.8567  106.2   0.482    9.0  0.3346   43.7  0.6487  175.9
 5.400  0.8578  105.3   0.478    8.9  0.3412   42.9  0.6582  174.4
 5.500  0.8591  104.4   0.474    8.7  0.3478   42.2  0.6680  173.0
 5.600  0.8596  103.4   0.470    8.9  0.3546   41.2  0.6739  172.0
 5.700  0.8604  102.4   0.465    9.1  0.3616   40.2  0.6801  170.9
 5.800  0.8614  101.4   0.461    9.3  0.3686   39.3  0.6865  169.9
 5.900  0.8627  100.4   0.456    9.6  0.3758   38.4  0.6930  169.0
 6.000  0.8642   99.4   0.452    9.8  0.3830   37.5  0.6998  168.0
!
!  f       NFmin   Gammaopt  rn/50
! GHz       dB    MAG  ANG    -
 0.450      1.08  0.44  121   0.07
 0.900      1.21  0.58  158   0.06
 1.900      2.72  0.75  203   0.15
 2.400      3.62  0.76  211   0.29
!
! (c) 2017  Infineon Technologies AG, Munich