! Infineon Technologies  Discrete & RF Semiconductors
! BFP196WN
! VCE =  3.0 V,  IC =  30 mA
! Common Emitter S-Parameters:                            Jan 2017
# GHz  S  MA  R  50
!  f         S11            S21            S12            S22
! GHz     MAG   ANG      MAG   ANG      MAG   ANG      MAG   ANG
 0.010  0.3776  -32.1  64.382  169.8  0.0042   78.6  0.9567  -13.5
 0.020  0.4141  -60.7  59.864  158.8  0.0083   72.5  0.9087  -26.7
 0.030  0.4309  -80.0  54.737  152.2  0.0111   62.8  0.8216  -35.6
 0.040  0.4905  -96.2  50.477  144.4  0.0142   57.1  0.7587  -46.3
 0.050  0.5798 -108.2  47.319  135.3  0.0173   53.5  0.7261  -58.4
 0.060  0.5827 -115.3  43.584  132.7  0.0184   51.5  0.6705  -62.9
 0.070  0.5943 -122.1  39.960  129.5  0.0195   49.7  0.6199  -68.2
 0.080  0.6140 -128.7  36.478  125.8  0.0206   48.0  0.5754  -74.4
 0.090  0.6411 -134.7  33.185  121.3  0.0218   46.6  0.5387  -81.5
 0.100  0.6748 -140.2  30.142  115.8  0.0229   45.3  0.5114  -89.5
 0.110  0.6796 -143.1  28.376  114.4  0.0235   44.8  0.4867  -92.6
 0.120  0.6861 -145.9  26.630  112.7  0.0241   44.4  0.4636  -95.9
 0.130  0.6942 -148.7  24.909  110.9  0.0248   43.9  0.4423  -99.7
 0.140  0.7040 -151.5  23.217  108.8  0.0254   43.5  0.4230 -103.8
 0.150  0.7153 -154.1  21.563  106.3  0.0260   43.1  0.4061 -108.2
 0.200  0.7245 -161.8  16.550  100.6  0.0280   44.1  0.3590 -121.0
 0.250  0.7334 -166.8  13.412   96.6  0.0305   46.9  0.3313 -129.6
 0.300  0.7370 -170.5  11.269   93.7  0.0332   49.8  0.3122 -136.7
 0.350  0.7384 -173.3   9.891   91.7  0.0359   51.8  0.3033 -141.0
 0.400  0.7416 -176.0   8.528   89.1  0.0386   53.5  0.2962 -145.6
 0.450  0.7423 -177.9   7.681   87.5  0.0418   55.3  0.2927 -148.8
 0.500  0.7438 -179.8   6.842   85.6  0.0450   56.9  0.2901 -152.0
 0.600  0.7444  177.1   5.720   82.6  0.0512   59.1  0.2859 -156.5
 0.700  0.7441  174.6   4.898   80.0  0.0573   61.5  0.2829 -159.6
 0.800  0.7483  172.0   4.290   77.3  0.0649   62.9  0.2835 -161.9
 0.900  0.7475  169.6   3.811   74.9  0.0711   63.0  0.2851 -163.9
 1.000  0.7503  167.8   3.442   72.8  0.0778   64.2  0.2862 -165.7
 1.100  0.7510  165.8   3.133   70.7  0.0850   64.2  0.2874 -167.1
 1.200  0.7527  163.8   2.875   68.5  0.0915   64.3  0.2886 -168.2
 1.300  0.7529  162.2   2.661   66.6  0.0980   64.5  0.2928 -168.7
 1.400  0.7537  160.2   2.486   64.4  0.1053   64.1  0.2968 -170.2
 1.500  0.7562  158.7   2.320   62.5  0.1119   63.9  0.2990 -171.1
 1.600  0.7581  157.0   2.186   60.6  0.1189   63.7  0.3020 -171.4
 1.700  0.7584  155.1   2.074   58.6  0.1258   63.4  0.3086 -172.2
 1.800  0.7620  153.6   1.969   56.7  0.1329   62.9  0.3128 -173.0
 1.900  0.7627  152.1   1.869   55.0  0.1389   62.5  0.3160 -173.6
 2.000  0.7650  150.4   1.785   52.9  0.1466   61.9  0.3205 -173.9
 2.100  0.7645  148.8   1.709   51.2  0.1532   61.4  0.3259 -174.4
 2.200  0.7646  147.2   1.635   49.3  0.1599   61.0  0.3314 -174.9
 2.300  0.7666  145.7   1.573   47.6  0.1666   60.3  0.3352 -175.2
 2.400  0.7691  144.2   1.513   45.8  0.1734   59.7  0.3390 -175.4
 2.500  0.7685  142.7   1.460   44.2  0.1801   58.9  0.3450 -176.0
 2.600  0.7684  141.1   1.408   42.4  0.1868   58.1  0.3510 -176.5
 2.700  0.7699  139.7   1.362   40.9  0.1932   57.4  0.3539 -176.7
 2.800  0.7718  138.3   1.317   39.3  0.1996   56.8  0.3568 -176.9
 2.900  0.7727  136.7   1.279   37.7  0.2058   56.0  0.3626 -177.8
 3.000  0.7742  135.1   1.242   36.1  0.2121   55.2  0.3685 -178.7
 3.100  0.7753  133.6   1.211   34.8  0.2185   54.4  0.3719 -179.5
 3.200  0.7769  132.2   1.181   33.4  0.2249   53.6  0.3753  179.8
 3.300  0.7790  130.7   1.152   31.9  0.2313   52.9  0.3788  179.0
 3.400  0.7817  129.2   1.123   30.4  0.2378   52.2  0.3823  178.3
 3.500  0.7848  127.8   1.095   28.8  0.2443   51.5  0.3859  177.6
 3.600  0.7857  126.3   1.070   27.5  0.2498   50.6  0.3906  176.4
 3.700  0.7872  124.8   1.045   26.1  0.2554   49.7  0.3954  175.3
 3.800  0.7892  123.3   1.021   24.7  0.2610   48.8  0.4004  174.2
 3.900  0.7917  121.9   0.998   23.2  0.2667   48.0  0.4055  173.1
 4.000  0.7947  120.4   0.975   21.6  0.2724   47.2  0.4108  172.0
 4.100  0.7955  119.1   0.954   20.5  0.2774   46.3  0.4169  170.5
 4.200  0.7967  117.8   0.934   19.3  0.2824   45.5  0.4233  169.1
 4.300  0.7983  116.5   0.914   18.1  0.2875   44.7  0.4300  167.7
 4.400  0.8003  115.3   0.894   16.8  0.2926   43.9  0.4369  166.4
 4.500  0.8027  114.0   0.875   15.5  0.2978   43.2  0.4440  165.1
 4.600  0.8034  113.0   0.857   14.6  0.3022   42.4  0.4510  164.0
 4.700  0.8044  112.0   0.840   13.7  0.3067   41.7  0.4581  162.9
 4.800  0.8056  111.0   0.822   12.8  0.3113   40.9  0.4654  161.9
 4.900  0.8071  110.0   0.805   11.8  0.3159   40.2  0.4728  160.9
 5.000  0.8088  109.0   0.788   10.8  0.3205   39.5  0.4804  159.9
 5.100  0.8102  108.2   0.778   10.0  0.3253   38.9  0.4884  159.3
 5.200  0.8119  107.3   0.768    9.3  0.3302   38.2  0.4965  158.8
 5.300  0.8136  106.5   0.758    8.5  0.3351   37.6  0.5046  158.3
 5.400  0.8156  105.7   0.748    7.6  0.3400   37.1  0.5128  157.8
 5.500  0.8177  104.9   0.738    6.8  0.3450   36.5  0.5210  157.3
 5.600  0.8189  104.0   0.727    6.3  0.3506   35.7  0.5265  157.1
 5.700  0.8203  103.0   0.717    5.9  0.3562   35.0  0.5320  156.8
 5.800  0.8219  102.1   0.706    5.4  0.3619   34.3  0.5375  156.6
 5.900  0.8237  101.1   0.695    4.9  0.3677   33.6  0.5431  156.4
 6.000  0.8258  100.2   0.685    4.4  0.3735   32.9  0.5486  156.2
!
!  f       NFmin   Gammaopt  rn/50
! GHz       dB    MAG  ANG    -
 0.450      1.06  0.46  178   0.04
 0.900      1.19  0.52  184   0.05
 1.900      2.13  0.68  211   0.13
 2.400      2.86  0.69  218   0.24
!
! (c) 2017  Infineon Technologies AG, Munich