! Infineon Technologies  Discrete & RF Semiconductors
! BFP196WN
! VCE =  9.0 V,  IC =  60 mA
! Common Emitter S-Parameters:                            Jan 2017
# GHz  S  MA  R  50
!  f         S11            S21            S12            S22
! GHz     MAG   ANG      MAG   ANG      MAG   ANG      MAG   ANG
 0.010  0.2917  -41.9  85.394  168.0  0.0032   75.9  0.9250  -14.4
 0.020  0.3588  -73.7  78.105  156.1  0.0064   71.8  0.8734  -28.8
 0.030  0.3914  -93.4  70.475  149.5  0.0083   62.8  0.7784  -37.6
 0.040  0.4609 -108.5  63.986  141.5  0.0104   57.3  0.7064  -48.5
 0.050  0.5537 -119.2  59.014  131.9  0.0125   53.6  0.6650  -61.3
 0.060  0.5604 -125.4  54.133  129.5  0.0133   52.8  0.6115  -65.5
 0.070  0.5734 -131.4  49.371  126.5  0.0140   52.0  0.5621  -70.6
 0.080  0.5925 -137.1  44.765  123.0  0.0148   51.4  0.5177  -76.5
 0.090  0.6169 -142.4  40.369  118.7  0.0155   50.7  0.4800  -83.5
 0.100  0.6462 -147.2  36.258  113.3  0.0163   50.2  0.4504  -91.5
 0.110  0.6520 -149.6  34.093  112.0  0.0169   50.2  0.4281  -94.4
 0.120  0.6590 -152.0  31.947  110.5  0.0176   50.1  0.4070  -97.6
 0.130  0.6671 -154.3  29.826  108.8  0.0182   50.1  0.3873 -101.1
 0.140  0.6763 -156.6  27.735  106.9  0.0189   50.0  0.3692 -105.0
 0.150  0.6865 -158.8  25.682  104.6  0.0195   50.0  0.3530 -109.3
 0.200  0.6938 -165.5  19.600   99.4  0.0217   53.4  0.3100 -121.7
 0.250  0.7023 -169.8  15.845   95.7  0.0250   55.6  0.2855 -129.7
 0.300  0.7051 -173.1  13.286   93.0  0.0276   57.7  0.2678 -136.7
 0.350  0.7058 -175.5  11.662   91.2  0.0309   60.1  0.2600 -140.9
 0.400  0.7077 -177.8  10.054   88.8  0.0343   62.0  0.2538 -145.4
 0.450  0.7086 -179.5   9.056   87.4  0.0374   63.5  0.2507 -148.4
 0.500  0.7100  178.9   8.065   85.6  0.0406   64.8  0.2483 -151.5
 0.600  0.7109  176.1   6.737   82.8  0.0478   66.6  0.2458 -156.0
 0.700  0.7139  173.7   5.769   80.4  0.0545   67.9  0.2422 -159.1
 0.800  0.7159  171.2   5.056   77.9  0.0620   69.0  0.2430 -161.1
 0.900  0.7159  169.0   4.487   75.7  0.0685   68.5  0.2450 -163.0
 1.000  0.7178  167.2   4.051   73.6  0.0752   68.8  0.2465 -164.9
 1.100  0.7193  165.3   3.684   71.6  0.0820   68.8  0.2473 -166.0
 1.200  0.7206  163.4   3.382   69.6  0.0891   68.5  0.2483 -167.0
 1.300  0.7202  161.7   3.127   67.8  0.0959   68.2  0.2524 -167.6
 1.400  0.7232  159.9   2.919   65.7  0.1030   67.9  0.2564 -169.1
 1.500  0.7244  158.6   2.724   63.9  0.1099   67.4  0.2578 -170.0
 1.600  0.7271  156.8   2.566   62.0  0.1166   67.0  0.2608 -170.1
 1.700  0.7273  155.1   2.431   60.2  0.1236   66.6  0.2671 -170.8
 1.800  0.7301  153.5   2.307   58.3  0.1305   65.7  0.2713 -171.6
 1.900  0.7314  152.1   2.188   56.6  0.1365   65.2  0.2744 -172.2
 2.000  0.7337  150.5   2.089   54.6  0.1441   64.5  0.2786 -172.2
 2.100  0.7336  148.9   2.000   53.0  0.1506   63.8  0.2841 -172.7
 2.200  0.7340  147.4   1.912   51.2  0.1571   63.2  0.2896 -173.2
 2.300  0.7363  145.9   1.838   49.5  0.1640   62.4  0.2928 -173.3
 2.400  0.7391  144.4   1.766   47.7  0.1709   61.7  0.2961 -173.4
 2.500  0.7383  142.9   1.703   46.1  0.1773   60.9  0.3021 -173.9
 2.600  0.7381  141.3   1.641   44.4  0.1837   60.1  0.3081 -174.4
 2.700  0.7393  139.9   1.586   42.9  0.1898   59.4  0.3109 -174.5
 2.800  0.7410  138.5   1.532   41.3  0.1960   58.7  0.3138 -174.6
 2.900  0.7423  137.0   1.487   39.8  0.2022   57.8  0.3194 -175.5
 3.000  0.7441  135.5   1.443   38.2  0.2085   56.9  0.3250 -176.3
 3.100  0.7457  134.0   1.406   36.9  0.2147   56.0  0.3280 -177.0
 3.200  0.7478  132.6   1.371   35.4  0.2209   55.2  0.3310 -177.7
 3.300  0.7503  131.1   1.336   33.9  0.2271   54.4  0.3340 -178.4
 3.400  0.7533  129.7   1.302   32.4  0.2334   53.7  0.3371 -179.0
 3.500  0.7568  128.3   1.269   30.7  0.2397   53.0  0.3403 -179.7
 3.600  0.7581  126.8   1.240   29.4  0.2451   52.0  0.3450  179.1
 3.700  0.7599  125.4   1.211   28.0  0.2506   51.1  0.3498  178.0
 3.800  0.7622  123.9   1.183   26.5  0.2561   50.2  0.3548  176.8
 3.900  0.7649  122.4   1.155   25.0  0.2617   49.4  0.3599  175.8
 4.000  0.7682  121.0   1.129   23.4  0.2674   48.6  0.3651  174.7
 4.100  0.7697  119.7   1.104   22.2  0.2722   47.7  0.3712  173.2
 4.200  0.7716  118.5   1.079   21.0  0.2771   46.9  0.3775  171.7
 4.300  0.7739  117.3   1.055   19.7  0.2821   46.1  0.3841  170.2
 4.400  0.7765  116.0   1.031   18.4  0.2871   45.3  0.3909  168.8
 4.500  0.7795  114.8   1.008   17.0  0.2922   44.5  0.3979  167.5
 4.600  0.7808  113.8   0.987   16.0  0.2966   43.7  0.4048  166.4
 4.700  0.7823  112.8   0.966   15.1  0.3011   43.0  0.4118  165.3
 4.800  0.7841  111.8   0.945   14.0  0.3057   42.3  0.4189  164.3
 4.900  0.7861  110.8   0.925   12.9  0.3103   41.6  0.4262  163.3
 5.000  0.7883  109.8   0.905   11.8  0.3149   40.9  0.4336  162.3
 5.100  0.7900  109.0   0.892   11.0  0.3196   40.2  0.4418  161.8
 5.200  0.7919  108.1   0.879   10.1  0.3243   39.6  0.4501  161.2
 5.300  0.7939  107.3   0.867    9.2  0.3290   38.9  0.4585  160.7
 5.400  0.7961  106.4   0.854    8.3  0.3338   38.3  0.4668  160.3
 5.500  0.7985  105.6   0.842    7.3  0.3386   37.7  0.4752  159.8
 5.600  0.8003  104.7   0.829    6.8  0.3443   37.0  0.4809  159.6
 5.700  0.8023  103.7   0.817    6.2  0.3500   36.2  0.4866  159.5
 5.800  0.8045  102.8   0.804    5.6  0.3558   35.5  0.4923  159.3
 5.900  0.8069  101.8   0.791    5.0  0.3616   34.9  0.4980  159.2
 6.000  0.8096  100.9   0.779    4.4  0.3675   34.2  0.5037  159.0
!
!  f       NFmin   Gammaopt  rn/50
! GHz       dB    MAG  ANG    -
 0.450      1.38  0.55 -177   0.05
 0.900      1.49  0.57 -169   0.06
 1.900      2.42  0.69 -147   0.18
 2.400      3.19  0.70 -139   0.30
!
! (c) 2017  Infineon Technologies AG, Munich