! Infineon Technologies  Discrete & RF Semiconductors
! BFP196WN
! VCE =  1.0 V,  IC =  65 mA
! Common Emitter S-Parameters:                            Jan 2017
# GHz  S  MA  R  50
!  f         S11            S21            S12            S22
! GHz     MAG   ANG      MAG   ANG      MAG   ANG      MAG   ANG
 0.010  0.2879 -111.0  82.116  160.3  0.0046   67.6  0.8251  -29.8
 0.020  0.4816 -128.2  68.812  143.5  0.0080   62.2  0.7363  -55.7
 0.030  0.5498 -138.6  58.723  137.6  0.0096   53.6  0.6311  -68.4
 0.040  0.6320 -146.6  49.507  129.4  0.0113   47.5  0.5673  -84.9
 0.050  0.7235 -152.6  41.743  117.8  0.0131   43.0  0.5591 -103.6
 0.060  0.7318 -155.7  37.860  116.1  0.0137   43.5  0.5296 -109.0
 0.070  0.7420 -158.6  34.018  114.0  0.0143   44.0  0.5053 -115.0
 0.080  0.7543 -161.5  30.234  111.3  0.0150   44.5  0.4871 -121.5
 0.090  0.7684 -164.3  26.532  108.0  0.0156   44.9  0.4755 -128.4
 0.100  0.7842 -167.0  22.952  103.5  0.0162   45.3  0.4711 -135.5
 0.110  0.7885 -168.1  21.484  102.6  0.0168   46.5  0.4639 -138.2
 0.120  0.7930 -169.2  20.022  101.6  0.0174   47.6  0.4577 -141.0
 0.130  0.7979 -170.3  18.568  100.4  0.0180   48.7  0.4526 -143.8
 0.140  0.8030 -171.3  17.123   99.0  0.0187   49.7  0.4487 -146.7
 0.150  0.8084 -172.4  15.690   97.3  0.0193   50.6  0.4460 -149.7
 0.200  0.8100 -176.0  11.856   93.6  0.0229   57.0  0.4418 -157.2
 0.250  0.8147 -178.2   9.517   90.8  0.0265   58.9  0.4373 -161.7
 0.300  0.8153  179.6   7.953   88.7  0.0299   61.3  0.4336 -165.5
 0.350  0.8147  178.1   6.968   87.1  0.0340   63.7  0.4329 -167.6
 0.400  0.8146  176.6   5.990   85.0  0.0381   65.6  0.4328 -169.7
 0.450  0.8151  175.3   5.393   83.7  0.0421   66.7  0.4336 -171.3
 0.500  0.8160  174.0   4.799   82.1  0.0462   67.6  0.4347 -172.8
 0.600  0.8160  171.8   4.012   79.5  0.0547   68.1  0.4358 -175.2
 0.700  0.8158  169.9   3.438   77.2  0.0624   69.5  0.4336 -177.0
 0.800  0.8177  167.7   3.013   74.6  0.0713   69.9  0.4351 -178.3
 0.900  0.8146  165.9   2.679   72.4  0.0791   69.0  0.4377 -179.5
 1.000  0.8183  164.0   2.424   70.3  0.0870   69.1  0.4387  179.2
 1.100  0.8193  162.3   2.210   68.2  0.0955   68.9  0.4396  178.2
 1.200  0.8200  160.7   2.034   66.1  0.1029   68.1  0.4395  177.3
 1.300  0.8177  159.0   1.886   64.4  0.1106   67.8  0.4429  176.8
 1.400  0.8194  157.3   1.767   62.2  0.1189   66.9  0.4465  175.6
 1.500  0.8213  155.8   1.654   60.3  0.1267   66.2  0.4471  174.7
 1.600  0.8233  154.2   1.563   58.4  0.1344   65.4  0.4486  174.2
 1.700  0.8244  152.3   1.486   56.5  0.1426   64.9  0.4536  173.5
 1.800  0.8244  150.8   1.416   54.5  0.1502   64.1  0.4571  172.7
 1.900  0.8243  149.3   1.349   52.9  0.1576   63.2  0.4576  171.9
 2.000  0.8254  147.7   1.291   50.9  0.1661   62.2  0.4608  171.6
 2.100  0.8243  146.2   1.240   49.2  0.1731   61.4  0.4645  171.0
 2.200  0.8238  144.6   1.191   47.4  0.1801   60.6  0.4682  170.4
 2.300  0.8247  143.0   1.150   45.7  0.1876   59.6  0.4696  169.9
 2.400  0.8262  141.5   1.110   43.9  0.1952   58.7  0.4711  169.5
 2.500  0.8253  140.0   1.075   42.4  0.2025   57.7  0.4751  168.9
 2.600  0.8250  138.4   1.041   40.7  0.2098   56.8  0.4792  168.3
 2.700  0.8249  136.9   1.011   39.3  0.2163   55.9  0.4796  167.9
 2.800  0.8254  135.5   0.981   37.8  0.2229   55.0  0.4801  167.5
 2.900  0.8248  134.0   0.956   36.3  0.2295   54.0  0.4844  166.6
 3.000  0.8248  132.5   0.931   34.7  0.2362   53.0  0.4889  165.8
 3.100  0.8248  131.0   0.911   33.5  0.2425   52.0  0.4900  165.0
 3.200  0.8254  129.5   0.892   32.2  0.2490   51.0  0.4912  164.1
 3.300  0.8265  128.0   0.874   30.8  0.2554   50.0  0.4924  163.3
 3.400  0.8282  126.6   0.856   29.4  0.2620   49.1  0.4938  162.5
 3.500  0.8304  125.1   0.838   27.9  0.2686   48.3  0.4953  161.7
 3.600  0.8300  123.6   0.822   26.7  0.2739   47.3  0.4982  160.7
 3.700  0.8302  122.2   0.806   25.4  0.2792   46.3  0.5013  159.7
 3.800  0.8309  120.7   0.790   24.1  0.2847   45.3  0.5046  158.7
 3.900  0.8322  119.3   0.775   22.7  0.2902   44.4  0.5080  157.7
 4.000  0.8340  117.8   0.760   21.3  0.2958   43.5  0.5115  156.7
 4.100  0.8336  116.6   0.746   20.3  0.3003   42.6  0.5164  155.5
 4.200  0.8336  115.3   0.733   19.3  0.3050   41.7  0.5215  154.3
 4.300  0.8340  114.1   0.720   18.2  0.3096   40.8  0.5269  153.1
 4.400  0.8348  112.8   0.707   17.1  0.3144   40.0  0.5324  151.9
 4.500  0.8360  111.6   0.695   15.9  0.3192   39.2  0.5382  150.8
 4.600  0.8354  110.6   0.683   15.2  0.3232   38.4  0.5433  149.9
 4.700  0.8351  109.6   0.672   14.4  0.3273   37.6  0.5485  149.1
 4.800  0.8350  108.6   0.660   13.6  0.3314   36.8  0.5538  148.2
 4.900  0.8352  107.6   0.649   12.8  0.3356   36.0  0.5592  147.4
 5.000  0.8356  106.6   0.638   12.0  0.3399   35.3  0.5648  146.6
 5.100  0.8363  105.8   0.633   11.3  0.3443   34.7  0.5704  146.2
 5.200  0.8372  105.1   0.628   10.6  0.3488   34.1  0.5761  145.9
 5.300  0.8382  104.3   0.623    9.9  0.3533   33.5  0.5818  145.5
 5.400  0.8394  103.6   0.618    9.2  0.3578   32.9  0.5875  145.1
 5.500  0.8407  102.8   0.613    8.5  0.3624   32.3  0.5932  144.8
 5.600  0.8413  101.8   0.606    8.2  0.3676   31.5  0.5961  144.7
 5.700  0.8421  100.9   0.600    7.8  0.3729   30.8  0.5989  144.5
 5.800  0.8432   99.9   0.593    7.5  0.3782   30.1  0.6018  144.4
 5.900  0.8445   99.0   0.587    7.2  0.3836   29.4  0.6047  144.2
 6.000  0.8461   98.0   0.580    6.8  0.3891   28.7  0.6076  144.1
!
!  f       NFmin   Gammaopt  rn/50
! GHz       dB    MAG  ANG    -
 0.450      1.43  0.56 -176   0.05
 0.900      1.55  0.58 -169   0.06
 1.900      2.48  0.69 -147   0.18
 2.400      3.26  0.70 -139   0.31
!
! (c) 2017  Infineon Technologies AG, Munich