! Infineon Technologies  Discrete & RF Semiconductors
! BFP196WN
! VCE =  5.0 V,  IC =  15 mA
! Common Emitter S-Parameters:                            Jan 2017
# GHz  S  MA  R  50
!  f         S11            S21            S12            S22
! GHz     MAG   ANG      MAG   ANG      MAG   ANG      MAG   ANG
 0.010  0.6164  -15.1  41.287  173.6  0.0046   83.3  0.9797   -7.8
 0.020  0.6070  -31.8  39.284  165.7  0.0092   83.9  0.9541  -15.8
 0.030  0.5917  -44.8  37.518  160.0  0.0130   71.7  0.9037  -22.2
 0.040  0.6075  -57.7  36.158  153.8  0.0171   65.2  0.8660  -29.3
 0.050  0.6520  -69.5  35.250  147.2  0.0214   61.2  0.8425  -36.9
 0.060  0.6326  -77.4  33.112  144.1  0.0233   57.6  0.7913  -40.6
 0.070  0.6259  -85.6  31.086  140.5  0.0253   54.6  0.7439  -44.9
 0.080  0.6322  -93.9  29.196  136.5  0.0274   52.0  0.7010  -49.6
 0.090  0.6511 -101.8  27.470  131.9  0.0295   49.7  0.6636  -55.0
 0.100  0.6816 -109.1  25.940  126.8  0.0316   47.8  0.6327  -60.9
 0.110  0.6795 -113.5  24.626  124.9  0.0325   46.1  0.6010  -63.3
 0.120  0.6815 -117.9  23.341  122.9  0.0334   44.5  0.5705  -66.0
 0.130  0.6875 -122.3  22.090  120.6  0.0344   42.9  0.5414  -69.0
 0.140  0.6974 -126.6  20.880  118.0  0.0354   41.5  0.5138  -72.2
 0.150  0.7110 -130.7  19.716  115.1  0.0364   40.1  0.4882  -75.9
 0.200  0.7173 -143.2  15.540  107.6  0.0389   37.6  0.4005  -86.6
 0.250  0.7263 -151.6  12.778  102.3  0.0417   36.8  0.3443  -94.2
 0.300  0.7290 -157.7  10.828   98.4  0.0429   37.6  0.3024 -100.8
 0.350  0.7289 -161.9   9.534   95.8  0.0447   38.5  0.2790 -105.2
 0.400  0.7328 -166.1   8.266   92.4  0.0466   39.3  0.2576 -110.3
 0.450  0.7334 -168.9   7.458   90.5  0.0484   41.1  0.2447 -114.0
 0.500  0.7358 -171.7   6.660   88.1  0.0503   42.7  0.2329 -118.0
 0.600  0.7373 -176.2   5.576   84.5  0.0549   44.9  0.2185 -123.7
 0.700  0.7389 -179.7   4.779   81.4  0.0587   47.7  0.2089 -127.7
 0.800  0.7409  177.2   4.193   78.2  0.0637   50.4  0.2062 -130.8
 0.900  0.7406  174.3   3.725   75.5  0.0685   51.6  0.2061 -133.7
 1.000  0.7414  171.9   3.363   73.0  0.0729   53.0  0.2052 -136.2
 1.100  0.7445  169.6   3.060   70.6  0.0785   55.0  0.2071 -138.1
 1.200  0.7453  167.5   2.810   68.3  0.0832   55.8  0.2091 -139.5
 1.300  0.7440  165.6   2.596   66.1  0.0887   57.0  0.2150 -140.7
 1.400  0.7473  163.4   2.425   63.8  0.0941   57.6  0.2194 -142.7
 1.500  0.7518  161.7   2.263   61.6  0.0999   58.1  0.2230 -144.0
 1.600  0.7539  159.9   2.131   59.6  0.1057   58.7  0.2295 -144.7
 1.700  0.7555  157.9   2.017   57.5  0.1120   59.5  0.2371 -145.8
 1.800  0.7557  156.3   1.916   55.3  0.1175   59.3  0.2438 -147.2
 1.900  0.7592  154.7   1.816   53.5  0.1229   59.6  0.2498 -148.2
 2.000  0.7624  152.8   1.734   51.3  0.1297   59.6  0.2577 -148.8
 2.100  0.7625  151.2   1.659   49.5  0.1358   59.6  0.2658 -149.8
 2.200  0.7631  149.6   1.586   47.5  0.1419   59.6  0.2740 -150.7
 2.300  0.7658  148.0   1.524   45.7  0.1482   59.4  0.2815 -151.3
 2.400  0.7690  146.4   1.464   43.7  0.1545   59.3  0.2891 -151.8
 2.500  0.7690  144.7   1.411   42.0  0.1609   58.9  0.2980 -152.9
 2.600  0.7697  143.1   1.359   40.2  0.1673   58.6  0.3070 -153.9
 2.700  0.7715  141.6   1.312   38.6  0.1735   58.3  0.3133 -154.4
 2.800  0.7737  140.2   1.267   36.9  0.1797   58.0  0.3197 -154.9
 2.900  0.7749  138.5   1.229   35.3  0.1861   57.4  0.3276 -156.2
 3.000  0.7767  136.9   1.192   33.5  0.1925   56.9  0.3356 -157.4
 3.100  0.7784  135.4   1.161   32.2  0.1991   56.3  0.3415 -158.5
 3.200  0.7807  133.8   1.130   30.7  0.2056   55.8  0.3475 -159.6
 3.300  0.7835  132.3   1.100   29.2  0.2122   55.2  0.3536 -160.7
 3.400  0.7869  130.8   1.071   27.7  0.2189   54.8  0.3598 -161.7
 3.500  0.7908  129.3   1.043   26.0  0.2255   54.3  0.3662 -162.7
 3.600  0.7919  127.7   1.017   24.7  0.2316   53.5  0.3724 -164.3
 3.700  0.7937  126.2   0.992   23.3  0.2377   52.7  0.3789 -165.9
 3.800  0.7960  124.6   0.968   21.9  0.2439   52.0  0.3857 -167.4
 3.900  0.7989  123.0   0.944   20.4  0.2501   51.3  0.3928 -168.9
 4.000  0.8024  121.5   0.921   18.8  0.2563   50.6  0.4001 -170.3
 4.100  0.8034  120.2   0.900   17.7  0.2620   49.8  0.4071 -172.3
 4.200  0.8048  118.9   0.880   16.6  0.2677   48.9  0.4145 -174.1
 4.300  0.8066  117.6   0.859   15.4  0.2735   48.2  0.4224 -176.0
 4.400  0.8088  116.3   0.839   14.2  0.2793   47.4  0.4307 -177.7
 4.500  0.8114  115.0   0.820   12.9  0.2852   46.7  0.4394 -179.4
 4.600  0.8121  113.9   0.802   12.1  0.2903   45.9  0.4476  179.0
 4.700  0.8131  112.9   0.784   11.2  0.2955   45.1  0.4561  177.5
 4.800  0.8144  111.8   0.767   10.3  0.3008   44.4  0.4649  176.1
 4.900  0.8160  110.8   0.749    9.4  0.3061   43.7  0.4740  174.6
 5.000  0.8178  109.7   0.732    8.4  0.3114   43.0  0.4834  173.3
 5.100  0.8196  108.8   0.722    7.7  0.3169   42.3  0.4931  172.3
 5.200  0.8217  108.0   0.711    7.1  0.3224   41.7  0.5030  171.3
 5.300  0.8239  107.1   0.701    6.4  0.3280   41.0  0.5131  170.3
 5.400  0.8263  106.3   0.691    5.6  0.3336   40.4  0.5233  169.4
 5.500  0.8289  105.4   0.681    4.9  0.3393   39.8  0.5336  168.5
 5.600  0.8298  104.4   0.670    4.6  0.3455   39.0  0.5410  167.9
 5.700  0.8308  103.4   0.659    4.3  0.3517   38.2  0.5485  167.4
 5.800  0.8322  102.5   0.649    3.9  0.3580   37.4  0.5560  166.8
 5.900  0.8338  101.5   0.638    3.6  0.3643   36.7  0.5635  166.3
 6.000  0.8356  100.5   0.627    3.2  0.3707   36.0  0.5711  165.8
!
!  f       NFmin   Gammaopt  rn/50
! GHz       dB    MAG  ANG    -
!
! noise parameter not available yet for this operation point!
!
! (c) 2017  Infineon Technologies AG, Munich