! Infineon Technologies  Discrete & RF Semiconductors
! BFP196WN
! VCE =  2.0 V,  IC =  50 mA
! Common Emitter S-Parameters:                            Jan 2017
# GHz  S  MA  R  50
!  f         S11            S21            S12            S22
! GHz     MAG   ANG      MAG   ANG      MAG   ANG      MAG   ANG
 0.010  0.2312  -69.9  81.307  166.2  0.0039   77.0  0.9235  -19.2
 0.020  0.3635  -99.9  73.445  152.5  0.0071   68.4  0.8538  -37.2
 0.030  0.4253 -116.1  64.835  145.9  0.0091   59.0  0.7464  -47.7
 0.040  0.5117 -127.5  57.322  137.5  0.0113   53.1  0.6714  -61.1
 0.050  0.6123 -135.4  51.388  126.9  0.0135   49.1  0.6404  -76.7
 0.060  0.6236 -140.1  46.893  124.7  0.0144   48.7  0.5920  -81.8
 0.070  0.6389 -144.6  42.481  122.0  0.0152   48.4  0.5491  -87.7
 0.080  0.6581 -148.9  38.183  118.8  0.0161   48.1  0.5129  -94.5
 0.090  0.6807 -153.0  34.040  114.7  0.0169   47.8  0.4849 -102.2
 0.100  0.7064 -156.7  30.117  109.5  0.0178   47.6  0.4668 -110.7
 0.110  0.7123 -158.5  28.262  108.3  0.0184   48.1  0.4503 -113.9
 0.120  0.7189 -160.3  26.420  107.0  0.0190   48.6  0.4353 -117.4
 0.130  0.7262 -162.1  24.595  105.5  0.0195   49.1  0.4220 -121.1
 0.140  0.7342 -163.8  22.789  103.8  0.0201   49.5  0.4106 -125.0
 0.150  0.7428 -165.5  21.008  101.7  0.0207   49.9  0.4012 -129.1
 0.200  0.7475 -170.7  15.950   97.1  0.0227   53.2  0.3784 -140.1
 0.250  0.7555 -173.8  12.855   93.7  0.0263   56.4  0.3654 -147.1
 0.300  0.7572 -176.6  10.770   91.3  0.0294   58.5  0.3558 -152.7
 0.350  0.7586 -178.6   9.443   89.6  0.0333   60.6  0.3521 -156.0
 0.400  0.7608  179.5   8.127   87.3  0.0372   62.3  0.3496 -159.3
 0.450  0.7604  178.0   7.317   85.9  0.0406   63.8  0.3493 -161.6
 0.500  0.7606  176.5   6.512   84.2  0.0440   65.0  0.3495 -164.0
 0.600  0.7617  174.0   5.441   81.5  0.0519   66.3  0.3485 -167.4
 0.700  0.7622  171.8   4.660   79.2  0.0589   67.6  0.3465 -169.8
 0.800  0.7662  169.6   4.081   76.6  0.0666   68.4  0.3476 -171.5
 0.900  0.7649  167.5   3.624   74.4  0.0744   68.3  0.3499 -173.1
 1.000  0.7654  165.6   3.274   72.3  0.0816   68.4  0.3509 -174.7
 1.100  0.7669  163.9   2.982   70.3  0.0891   68.0  0.3525 -175.8
 1.200  0.7687  162.1   2.738   68.2  0.0964   67.7  0.3528 -176.8
 1.300  0.7673  160.4   2.535   66.4  0.1040   67.4  0.3559 -177.4
 1.400  0.7692  158.6   2.368   64.4  0.1117   66.8  0.3598 -178.7
 1.500  0.7718  157.2   2.212   62.5  0.1190   66.2  0.3610 -179.6
 1.600  0.7744  155.6   2.086   60.6  0.1265   65.7  0.3634  180.0
 1.700  0.7748  153.7   1.977   58.8  0.1340   65.2  0.3683  179.3
 1.800  0.7766  152.2   1.882   56.8  0.1409   64.3  0.3725  178.5
 1.900  0.7758  150.7   1.786   55.2  0.1479   63.8  0.3741  177.8
 2.000  0.7781  149.1   1.707   53.2  0.1556   62.8  0.3777  177.5
 2.100  0.7779  147.5   1.636   51.5  0.1623   62.1  0.3820  177.0
 2.200  0.7782  146.0   1.567   49.7  0.1691   61.4  0.3863  176.5
 2.300  0.7796  144.5   1.509   48.0  0.1764   60.6  0.3885  176.1
 2.400  0.7816  143.0   1.452   46.2  0.1837   59.8  0.3908  175.7
 2.500  0.7812  141.4   1.402   44.7  0.1906   58.9  0.3957  175.2
 2.600  0.7815  139.8   1.354   43.0  0.1975   58.0  0.4007  174.7
 2.700  0.7817  138.4   1.310   41.5  0.2039   57.2  0.4019  174.4
 2.800  0.7824  137.0   1.267   39.9  0.2103   56.4  0.4032  174.1
 2.900  0.7826  135.5   1.232   38.4  0.2169   55.4  0.4081  173.3
 3.000  0.7833  134.1   1.198   36.9  0.2235   54.5  0.4130  172.5
 3.100  0.7840  132.6   1.169   35.6  0.2297   53.5  0.4150  171.7
 3.200  0.7852  131.1   1.141   34.2  0.2359   52.6  0.4170  171.0
 3.300  0.7870  129.6   1.114   32.7  0.2422   51.8  0.4192  170.3
 3.400  0.7893  128.2   1.088   31.2  0.2485   51.0  0.4213  169.5
 3.500  0.7921  126.7   1.062   29.6  0.2549   50.2  0.4236  168.8
 3.600  0.7928  125.2   1.039   28.3  0.2603   49.2  0.4274  167.7
 3.700  0.7940  123.8   1.016   26.9  0.2659   48.2  0.4312  166.7
 3.800  0.7958  122.3   0.994   25.5  0.2714   47.3  0.4353  165.6
 3.900  0.7980  120.8   0.972   24.0  0.2771   46.4  0.4395  164.6
 4.000  0.8008  119.4   0.951   22.5  0.2828   45.6  0.4438  163.6
 4.100  0.8011  118.2   0.931   21.4  0.2875   44.7  0.4493  162.3
 4.200  0.8018  117.0   0.912   20.3  0.2923   43.8  0.4550  161.0
 4.300  0.8028  115.7   0.893   19.1  0.2971   43.0  0.4609  159.8
 4.400  0.8042  114.5   0.875   17.9  0.3020   42.2  0.4671  158.6
 4.500  0.8060  113.3   0.857   16.6  0.3070   41.4  0.4734  157.4
 4.600  0.8067  112.3   0.841   15.7  0.3111   40.6  0.4794  156.4
 4.700  0.8078  111.3   0.825   14.8  0.3152   39.9  0.4855  155.5
 4.800  0.8090  110.2   0.809   13.9  0.3194   39.1  0.4917  154.6
 4.900  0.8105  109.2   0.793   12.9  0.3237   38.4  0.4980  153.7
 5.000  0.8123  108.2   0.778   11.9  0.3280   37.7  0.5045  152.8
 5.100  0.8136  107.4   0.769   11.1  0.3326   37.0  0.5113  152.4
 5.200  0.8151  106.6   0.759   10.4  0.3372   36.4  0.5181  152.0
 5.300  0.8167  105.8   0.750    9.6  0.3419   35.8  0.5250  151.6
 5.400  0.8185  105.0   0.741    8.7  0.3466   35.2  0.5319  151.2
 5.500  0.8204  104.2   0.732    7.9  0.3514   34.6  0.5388  150.8
 5.600  0.8213  103.3   0.722    7.4  0.3567   33.8  0.5429  150.7
 5.700  0.8223  102.4   0.713    6.9  0.3621   33.1  0.5470  150.6
 5.800  0.8236  101.5   0.703    6.4  0.3676   32.4  0.5512  150.4
 5.900  0.8250  100.6   0.693    5.9  0.3731   31.7  0.5553  150.3
 6.000  0.8267   99.7   0.684    5.4  0.3787   31.0  0.5594  150.2
!
!  f       NFmin   Gammaopt  rn/50
! GHz       dB    MAG  ANG    -
 0.450      1.27  0.53 -177   0.05
 0.900      1.39  0.56 -171   0.05
 1.900      2.33  0.69 -148   0.16
 2.400      3.05  0.70 -140   0.28
!
! (c) 2017  Infineon Technologies AG, Munich