! Infineon Technologies  Discrete & RF Semiconductors
! BFP196WN
! VCE =  5.0 V,  IC = 0.12 A
! Common Emitter S-Parameters:                            Jan 2017
# GHz  S  MA  R  50
!  f         S11            S21            S12            S22
! GHz     MAG   ANG      MAG   ANG      MAG   ANG      MAG   ANG
 0.010  0.2246 -119.2 100.000  163.9  0.0026   78.5  0.8475  -20.5
 0.020  0.3878 -128.6  87.671  148.8  0.0055   66.9  0.7697  -40.3
 0.030  0.4612 -138.1  76.165  142.4  0.0068   59.9  0.6602  -50.3
 0.040  0.5437 -144.9  65.922  133.9  0.0081   55.1  0.5781  -63.7
 0.050  0.6318 -149.8  57.619  122.7  0.0095   51.7  0.5363  -80.3
 0.060  0.6436 -153.1  52.389  120.7  0.0101   52.5  0.4943  -84.9
 0.070  0.6574 -156.3  47.235  118.3  0.0106   53.2  0.4560  -90.4
 0.080  0.6731 -159.3  42.183  115.4  0.0112   53.9  0.4226  -96.8
 0.090  0.6906 -162.2  37.276  111.6  0.0117   54.5  0.3953 -104.1
 0.100  0.7098 -164.9  32.579  106.7  0.0123   55.0  0.3754 -112.4
 0.110  0.7150 -166.1  30.534  105.7  0.0130   55.8  0.3617 -115.4
 0.120  0.7204 -167.4  28.499  104.5  0.0136   56.6  0.3491 -118.7
 0.130  0.7263 -168.6  26.479  103.1  0.0143   57.2  0.3377 -122.2
 0.140  0.7324 -169.7  24.476  101.6  0.0149   57.8  0.3276 -125.9
 0.150  0.7388 -170.9  22.495   99.7  0.0156   58.4  0.3190 -129.8
 0.200  0.7415 -174.7  17.018   95.6  0.0185   63.9  0.3003 -140.5
 0.250  0.7477 -177.1  13.686   92.5  0.0221   66.6  0.2892 -146.8
 0.300  0.7485 -179.2  11.461   90.4  0.0256   67.7  0.2803 -152.3
 0.350  0.7486  179.1  10.047   88.8  0.0293   69.2  0.2776 -155.2
 0.400  0.7494  177.4   8.644   86.6  0.0330   70.4  0.2756 -158.2
 0.450  0.7494  176.2   7.779   85.3  0.0369   71.1  0.2756 -160.4
 0.500  0.7497  175.0   6.918   83.7  0.0408   71.7  0.2760 -162.5
 0.600  0.7518  172.8   5.782   81.1  0.0482   72.5  0.2765 -165.7
 0.700  0.7539  170.8   4.949   78.8  0.0552   73.5  0.2746 -167.7
 0.800  0.7551  168.7   4.336   76.3  0.0632   73.5  0.2762 -169.0
 0.900  0.7540  166.7   3.850   74.2  0.0703   72.6  0.2792 -170.3
 1.000  0.7558  165.0   3.477   72.1  0.0776   72.4  0.2817 -171.8
 1.100  0.7580  163.4   3.163   70.1  0.0854   72.1  0.2826 -172.7
 1.200  0.7594  161.5   2.904   68.0  0.0921   71.6  0.2836 -173.2
 1.300  0.7583  159.9   2.687   66.3  0.0994   70.8  0.2884 -173.6
 1.400  0.7586  158.3   2.510   64.2  0.1069   70.4  0.2931 -174.9
 1.500  0.7632  156.8   2.344   62.4  0.1140   69.5  0.2943 -175.6
 1.600  0.7660  155.2   2.211   60.5  0.1213   68.9  0.2972 -175.7
 1.700  0.7668  153.4   2.096   58.6  0.1285   68.4  0.3036 -176.3
 1.800  0.7674  152.0   1.990   56.7  0.1357   67.5  0.3085 -177.1
 1.900  0.7676  150.6   1.891   55.1  0.1423   66.6  0.3104 -177.5
 2.000  0.7705  148.9   1.805   53.0  0.1497   65.7  0.3146 -177.6
 2.100  0.7700  147.4   1.729   51.4  0.1567   64.9  0.3203 -178.0
 2.200  0.7701  145.9   1.654   49.6  0.1638   64.2  0.3260 -178.4
 2.300  0.7716  144.3   1.592   47.9  0.1708   63.4  0.3287 -178.6
 2.400  0.7737  142.8   1.532   46.0  0.1778   62.6  0.3315 -178.8
 2.500  0.7734  141.4   1.479   44.5  0.1846   61.6  0.3374 -179.3
 2.600  0.7735  139.9   1.427   42.8  0.1915   60.6  0.3433 -179.8
 2.700  0.7744  138.5   1.380   41.3  0.1977   59.8  0.3453 -179.9
 2.800  0.7757  137.1   1.334   39.7  0.2040   59.1  0.3474 -179.9
 2.900  0.7759  135.6   1.296   38.2  0.2104   58.1  0.3534  179.2
 3.000  0.7766  134.1   1.259   36.6  0.2168   57.1  0.3595  178.3
 3.100  0.7776  132.6   1.228   35.3  0.2231   56.1  0.3621  177.6
 3.200  0.7791  131.2   1.198   33.9  0.2294   55.2  0.3648  176.9
 3.300  0.7811  129.7   1.168   32.4  0.2358   54.3  0.3675  176.2
 3.400  0.7836  128.2   1.140   30.8  0.2422   53.5  0.3703  175.6
 3.500  0.7866  126.8   1.112   29.2  0.2487   52.7  0.3731  174.9
 3.600  0.7875  125.3   1.087   27.9  0.2541   51.7  0.3777  173.8
 3.700  0.7889  123.9   1.062   26.5  0.2596   50.7  0.3825  172.7
 3.800  0.7907  122.5   1.038   25.1  0.2651   49.8  0.3874  171.6
 3.900  0.7931  121.0   1.015   23.6  0.2707   48.9  0.3924  170.6
 4.000  0.7960  119.6   0.992   22.0  0.2764   48.1  0.3976  169.6
 4.100  0.7968  118.4   0.971   20.9  0.2812   47.2  0.4036  168.2
 4.200  0.7979  117.1   0.950   19.7  0.2861   46.3  0.4099  166.8
 4.300  0.7994  115.9   0.930   18.5  0.2911   45.4  0.4165  165.4
 4.400  0.8013  114.6   0.910   17.2  0.2961   44.6  0.4232  164.1
 4.500  0.8036  113.4   0.891   15.9  0.3012   43.8  0.4302  162.8
 4.600  0.8042  112.4   0.873   15.0  0.3055   43.0  0.4365  161.8
 4.700  0.8051  111.4   0.855   14.1  0.3098   42.2  0.4430  160.8
 4.800  0.8063  110.4   0.838   13.1  0.3142   41.4  0.4496  159.8
 4.900  0.8077  109.4   0.821   12.1  0.3186   40.6  0.4563  158.8
 5.000  0.8093  108.4   0.804   11.1  0.3231   39.9  0.4632  157.9
 5.100  0.8108  107.6   0.794   10.3  0.3278   39.2  0.4710  157.4
 5.200  0.8125  106.8   0.783    9.4  0.3325   38.6  0.4788  157.0
 5.300  0.8143  106.0   0.773    8.6  0.3373   37.9  0.4867  156.5
 5.400  0.8163  105.2   0.764    7.7  0.3421   37.3  0.4946  156.1
 5.500  0.8184  104.4   0.754    6.8  0.3470   36.7  0.5025  155.7
 5.600  0.8196  103.5   0.743    6.3  0.3525   35.9  0.5076  155.5
 5.700  0.8211  102.5   0.732    5.8  0.3580   35.2  0.5127  155.4
 5.800  0.8227  101.6   0.721    5.3  0.3636   34.4  0.5178  155.2
 5.900  0.8246  100.7   0.711    4.8  0.3693   33.7  0.5230  155.1
 6.000  0.8267   99.8   0.700    4.3  0.3750   33.0  0.5281  154.9
!
!  f       NFmin   Gammaopt  rn/50
! GHz       dB    MAG  ANG    -
!
! noise parameter not available yet for this operation point!
!
! (c) 2017  Infineon Technologies AG, Munich