! Infineon Technologies  Discrete & RF Semiconductors
! BFP196WN
! VCE =  3.0 V,  IC =  65 mA
! Common Emitter S-Parameters:                            Jan 2017
# GHz  S  MA  R  50
!  f         S11            S21            S12            S22
! GHz     MAG   ANG      MAG   ANG      MAG   ANG      MAG   ANG
 0.010  0.2035  -85.5  89.711  165.8  0.0031   79.9  0.9134  -19.2
 0.020  0.3521 -109.0  80.499  151.8  0.0061   72.3  0.8405  -37.4
 0.030  0.4203 -123.2  70.886  145.3  0.0078   62.1  0.7324  -47.7
 0.040  0.5068 -133.1  62.460  136.9  0.0097   55.6  0.6550  -60.9
 0.050  0.6037 -139.9  55.764  126.2  0.0116   51.3  0.6200  -76.5
 0.060  0.6162 -144.2  50.854  124.0  0.0124   51.1  0.5722  -81.4
 0.070  0.6319 -148.3  46.032  121.4  0.0132   50.9  0.5295  -87.2
 0.080  0.6507 -152.2  41.328  118.2  0.0140   50.8  0.4930  -93.9
 0.090  0.6723 -155.8  36.789  114.1  0.0148   50.6  0.4643 -101.6
 0.100  0.6965 -159.2  32.484  109.0  0.0156   50.5  0.4449 -110.1
 0.110  0.7022 -160.8  30.475  107.9  0.0162   51.3  0.4287 -113.3
 0.120  0.7084 -162.4  28.479  106.6  0.0167   52.0  0.4139 -116.7
 0.130  0.7151 -164.0  26.500  105.1  0.0173   52.7  0.4007 -120.3
 0.140  0.7224 -165.5  24.541  103.4  0.0178   53.4  0.3892 -124.2
 0.150  0.7302 -167.0  22.608  101.4  0.0184   54.0  0.3796 -128.3
 0.200  0.7350 -171.9  17.157   96.9  0.0208   57.7  0.3566 -139.4
 0.250  0.7422 -174.9  13.812   93.7  0.0250   60.6  0.3424 -146.4
 0.300  0.7441 -177.3  11.576   91.3  0.0283   62.6  0.3328 -152.1
 0.350  0.7454 -179.2  10.150   89.6  0.0318   64.6  0.3293 -155.3
 0.400  0.7476  178.9   8.737   87.3  0.0354   66.2  0.3268 -158.5
 0.450  0.7482  177.5   7.864   86.0  0.0390   67.3  0.3264 -160.9
 0.500  0.7492  176.1   6.996   84.3  0.0427   68.2  0.3266 -163.3
 0.600  0.7485  173.7   5.847   81.7  0.0503   68.4  0.3257 -166.7
 0.700  0.7519  171.5   5.008   79.4  0.0571   70.1  0.3235 -169.2
 0.800  0.7526  169.4   4.383   76.9  0.0659   70.6  0.3247 -170.7
 0.900  0.7514  167.3   3.893   74.7  0.0729   70.0  0.3273 -172.4
 1.000  0.7540  165.4   3.514   72.7  0.0800   70.0  0.3286 -173.9
 1.100  0.7556  163.7   3.199   70.7  0.0879   69.5  0.3293 -175.1
 1.200  0.7566  162.0   2.939   68.7  0.0948   69.1  0.3299 -176.0
 1.300  0.7561  160.3   2.718   66.9  0.1024   68.8  0.3336 -176.5
 1.400  0.7572  158.6   2.539   64.9  0.1101   68.2  0.3375 -177.9
 1.500  0.7597  157.2   2.371   63.0  0.1173   67.5  0.3384 -178.7
 1.600  0.7632  155.5   2.235   61.2  0.1245   66.9  0.3408 -179.1
 1.700  0.7644  153.7   2.119   59.3  0.1323   66.3  0.3461 -179.7
 1.800  0.7646  152.3   2.015   57.4  0.1392   65.4  0.3501  179.4
 1.900  0.7651  150.8   1.911   55.8  0.1458   64.8  0.3519  178.8
 2.000  0.7664  149.2   1.827   53.8  0.1537   63.8  0.3556  178.6
 2.100  0.7667  147.6   1.750   52.2  0.1605   63.1  0.3601  178.0
 2.200  0.7676  146.1   1.675   50.4  0.1673   62.5  0.3647  177.5
 2.300  0.7685  144.6   1.612   48.7  0.1744   61.6  0.3667  177.2
 2.400  0.7700  143.1   1.550   46.9  0.1816   60.7  0.3687  177.0
 2.500  0.7700  141.6   1.496   45.4  0.1885   59.8  0.3737  176.5
 2.600  0.7705  140.1   1.444   43.7  0.1954   58.9  0.3788  176.0
 2.700  0.7707  138.6   1.398   42.2  0.2016   58.1  0.3803  175.7
 2.800  0.7713  137.2   1.352   40.7  0.2079   57.3  0.3818  175.5
 2.900  0.7717  135.7   1.313   39.1  0.2143   56.3  0.3867  174.7
 3.000  0.7727  134.2   1.276   37.5  0.2208   55.4  0.3916  173.9
 3.100  0.7736  132.7   1.245   36.2  0.2270   54.4  0.3936  173.1
 3.200  0.7749  131.3   1.215   34.8  0.2333   53.5  0.3957  172.4
 3.300  0.7768  129.8   1.186   33.4  0.2396   52.6  0.3979  171.7
 3.400  0.7792  128.3   1.157   31.9  0.2460   51.8  0.4001  170.9
 3.500  0.7821  126.9   1.129   30.3  0.2524   51.0  0.4024  170.2
 3.600  0.7832  125.4   1.103   29.0  0.2577   50.0  0.4063  169.1
 3.700  0.7848  124.0   1.079   27.6  0.2631   49.0  0.4104  168.1
 3.800  0.7870  122.6   1.054   26.2  0.2686   48.1  0.4146  167.1
 3.900  0.7896  121.1   1.031   24.7  0.2741   47.2  0.4189  166.1
 4.000  0.7927  119.7   1.008   23.1  0.2797   46.4  0.4234  165.1
 4.100  0.7933  118.5   0.987   22.0  0.2844   45.5  0.4289  163.8
 4.200  0.7943  117.2   0.966   20.8  0.2892   44.6  0.4347  162.5
 4.300  0.7956  116.0   0.945   19.6  0.2941   43.8  0.4407  161.2
 4.400  0.7973  114.8   0.926   18.3  0.2990   43.0  0.4469  160.0
 4.500  0.7994  113.6   0.906   17.0  0.3040   42.2  0.4533  158.8
 4.600  0.8000  112.6   0.889   16.1  0.3082   41.4  0.4593  157.8
 4.700  0.8008  111.6   0.871   15.2  0.3124   40.6  0.4654  156.9
 4.800  0.8019  110.6   0.854   14.3  0.3167   39.9  0.4716  156.0
 4.900  0.8032  109.6   0.838   13.3  0.3211   39.1  0.4779  155.1
 5.000  0.8048  108.6   0.821   12.3  0.3255   38.4  0.4844  154.2
 5.100  0.8062  107.8   0.811   11.5  0.3300   37.8  0.4914  153.8
 5.200  0.8077  106.9   0.800   10.7  0.3346   37.2  0.4984  153.4
 5.300  0.8095  106.1   0.790    9.8  0.3392   36.6  0.5054  153.0
 5.400  0.8113  105.3   0.781    9.0  0.3438   36.0  0.5124  152.7
 5.500  0.8134  104.5   0.771    8.1  0.3485   35.4  0.5195  152.3
 5.600  0.8149  103.6   0.761    7.6  0.3539   34.6  0.5239  152.2
 5.700  0.8166  102.6   0.750    7.0  0.3594   33.9  0.5283  152.1
 5.800  0.8185  101.7   0.740    6.5  0.3650   33.2  0.5328  151.9
 5.900  0.8207  100.8   0.730    5.9  0.3706   32.5  0.5372  151.8
 6.000  0.8230   99.9   0.720    5.3  0.3763   31.8  0.5416  151.7
!
!  f       NFmin   Gammaopt  rn/50
! GHz       dB    MAG  ANG    -
 0.450      1.43  0.56 -176   0.05
 0.900      1.55  0.58 -169   0.06
 1.900      2.48  0.69 -147   0.18
 2.400      3.26  0.70 -139   0.31
!
! (c) 2017  Infineon Technologies AG, Munich