! Infineon Technologies  Discrete & RF Semiconductors
! BFP196WN
! VCE =  7.0 V,  IC =  35 mA
! Common Emitter S-Parameters:                            Jan 2017
# GHz  S  MA  R  50
!  f         S11            S21            S12            S22
! GHz     MAG   ANG      MAG   ANG      MAG   ANG      MAG   ANG
 0.010  0.3880  -28.8  69.016  170.1  0.0037   85.0  0.9564  -12.2
 0.020  0.4163  -55.7  64.306  159.7  0.0067   73.7  0.9124  -24.2
 0.030  0.4259  -74.4  59.151  153.2  0.0095   64.3  0.8307  -32.4
 0.040  0.4767  -90.7  54.892  145.6  0.0123   59.2  0.7694  -42.2
 0.050  0.5576 -103.1  51.749  136.9  0.0153   56.0  0.7337  -53.2
 0.060  0.5582 -110.5  47.774  134.2  0.0163   53.6  0.6776  -57.4
 0.070  0.5680 -117.8  43.926  131.0  0.0174   51.5  0.6257  -62.3
 0.080  0.5865 -124.7  40.241  127.2  0.0184   49.6  0.5792  -68.0
 0.090  0.6130 -131.1  36.768  122.6  0.0195   47.9  0.5395  -74.6
 0.100  0.6465 -136.9  33.572  117.2  0.0206   46.4  0.5080  -82.2
 0.110  0.6512 -140.0  31.632  115.7  0.0212   46.2  0.4817  -85.0
 0.120  0.6577 -143.0  29.716  114.1  0.0218   45.9  0.4567  -88.1
 0.130  0.6659 -145.9  27.828  112.2  0.0223   45.7  0.4332  -91.6
 0.140  0.6759 -148.8  25.975  110.0  0.0229   45.5  0.4115  -95.4
 0.150  0.6876 -151.6  24.165  107.5  0.0235   45.3  0.3918  -99.7
 0.200  0.6971 -159.9  18.601  101.6  0.0253   46.6  0.3348 -112.1
 0.250  0.7056 -165.3  15.087   97.5  0.0283   48.9  0.3009 -120.6
 0.300  0.7097 -169.3  12.677   94.5  0.0306   50.6  0.2773 -127.9
 0.350  0.7120 -172.1  11.137   92.5  0.0333   53.3  0.2659 -132.6
 0.400  0.7160 -174.8   9.616   89.8  0.0360   55.6  0.2564 -137.6
 0.450  0.7154 -176.8   8.661   88.3  0.0391   57.5  0.2512 -141.0
 0.500  0.7157 -178.9   7.713   86.4  0.0422   59.2  0.2470 -144.6
 0.600  0.7180  178.0   6.450   83.4  0.0492   60.5  0.2415 -149.6
 0.700  0.7202  175.3   5.524   80.8  0.0546   62.8  0.2365 -153.1
 0.800  0.7222  172.6   4.841   78.1  0.0619   64.2  0.2372 -155.4
 0.900  0.7200  170.3   4.297   75.8  0.0683   65.0  0.2383 -157.7
 1.000  0.7235  168.3   3.880   73.6  0.0744   65.2  0.2391 -159.8
 1.100  0.7260  166.3   3.528   71.6  0.0813   65.6  0.2405 -161.3
 1.200  0.7265  164.4   3.237   69.4  0.0877   65.4  0.2419 -162.3
 1.300  0.7272  162.7   2.995   67.6  0.0940   66.0  0.2460 -163.0
 1.400  0.7287  160.8   2.795   65.4  0.1014   65.6  0.2499 -164.6
 1.500  0.7319  159.3   2.609   63.5  0.1081   65.3  0.2519 -165.4
 1.600  0.7338  157.6   2.458   61.7  0.1140   65.1  0.2560 -165.7
 1.700  0.7359  155.8   2.328   59.7  0.1214   64.8  0.2621 -166.6
 1.800  0.7361  154.1   2.210   57.7  0.1275   64.3  0.2666 -167.4
 1.900  0.7383  152.6   2.094   56.1  0.1338   64.0  0.2703 -168.0
 2.000  0.7405  151.0   2.000   54.1  0.1408   63.2  0.2752 -168.1
 2.100  0.7406  149.4   1.914   52.4  0.1472   62.8  0.2810 -168.7
 2.200  0.7413  147.9   1.830   50.5  0.1537   62.4  0.2868 -169.2
 2.300  0.7434  146.3   1.760   48.8  0.1605   61.7  0.2910 -169.4
 2.400  0.7460  144.8   1.692   47.0  0.1674   61.0  0.2952 -169.6
 2.500  0.7459  143.2   1.631   45.4  0.1740   60.2  0.3017 -170.1
 2.600  0.7463  141.7   1.571   43.6  0.1806   59.5  0.3082 -170.6
 2.700  0.7479  140.3   1.518   42.1  0.1867   58.9  0.3117 -170.8
 2.800  0.7499  138.9   1.467   40.5  0.1928   58.3  0.3153 -171.0
 2.900  0.7504  137.3   1.424   38.9  0.1992   57.5  0.3213 -171.9
 3.000  0.7515  135.8   1.382   37.3  0.2056   56.7  0.3274 -172.7
 3.100  0.7532  134.3   1.346   36.0  0.2117   55.9  0.3310 -173.5
 3.200  0.7554  132.8   1.312   34.5  0.2179   55.1  0.3348 -174.2
 3.300  0.7581  131.4   1.278   33.0  0.2242   54.4  0.3385 -175.0
 3.400  0.7613  129.9   1.245   31.5  0.2304   53.7  0.3423 -175.7
 3.500  0.7650  128.5   1.213   29.8  0.2367   53.0  0.3462 -176.4
 3.600  0.7663  127.0   1.185   28.5  0.2423   52.1  0.3511 -177.6
 3.700  0.7680  125.6   1.157   27.1  0.2479   51.2  0.3563 -178.9
 3.800  0.7703  124.1   1.130   25.6  0.2536   50.4  0.3615  180.0
 3.900  0.7730  122.6   1.103   24.1  0.2593   49.6  0.3669  178.8
 4.000  0.7763  121.2   1.078   22.5  0.2651   48.8  0.3725  177.7
 4.100  0.7775  119.9   1.054   21.3  0.2701   47.9  0.3788  176.1
 4.200  0.7792  118.6   1.030   20.1  0.2751   47.1  0.3855  174.6
 4.300  0.7812  117.3   1.007   18.8  0.2802   46.3  0.3924  173.1
 4.400  0.7836  116.1   0.985   17.5  0.2854   45.5  0.3995  171.7
 4.500  0.7864  114.8   0.963   16.1  0.2906   44.8  0.4069  170.3
 4.600  0.7876  113.8   0.943   15.2  0.2951   44.0  0.4141  169.1
 4.700  0.7891  112.7   0.923   14.3  0.2996   43.3  0.4215  167.9
 4.800  0.7909  111.7   0.903   13.3  0.3042   42.5  0.4290  166.8
 4.900  0.7929  110.7   0.883   12.3  0.3088   41.8  0.4367  165.7
 5.000  0.7951  109.7   0.864   11.2  0.3135   41.1  0.4446  164.6
 5.100  0.7969  108.9   0.852   10.4  0.3184   40.5  0.4533  164.0
 5.200  0.7988  108.0   0.839    9.5  0.3234   39.8  0.4621  163.4
 5.300  0.8010  107.2   0.827    8.6  0.3285   39.2  0.4709  162.9
 5.400  0.8033  106.4   0.816    7.7  0.3335   38.7  0.4797  162.3
 5.500  0.8057  105.6   0.804    6.8  0.3386   38.1  0.4886  161.8
 5.600  0.8069  104.7   0.792    6.3  0.3443   37.3  0.4948  161.5
 5.700  0.8084  103.7   0.779    5.8  0.3500   36.6  0.5010  161.3
 5.800  0.8101  102.8   0.767    5.2  0.3558   35.9  0.5072  161.0
 5.900  0.8119  101.9   0.755    4.7  0.3616   35.2  0.5134  160.7
 6.000  0.8140  101.0   0.743    4.1  0.3675   34.5  0.5196  160.5
!
!  f       NFmin   Gammaopt  rn/50
! GHz       dB    MAG  ANG    -
 0.450      1.11  0.47  179   0.05
 0.900      1.24  0.53  186   0.05
 1.900      2.17  0.68  212   0.13
 2.400      2.91  0.69  219   0.25
!
! (c) 2017  Infineon Technologies AG, Munich