! Infineon Technologies  Discrete & RF Semiconductors
! BFP196WN
! VCE =  8.0 V,  IC =  15 mA
! Common Emitter S-Parameters:                            Jan 2017
# GHz  S  MA  R  50
!  f         S11            S21            S12            S22
! GHz     MAG   ANG      MAG   ANG      MAG   ANG      MAG   ANG
 0.010  0.6382  -13.8  40.903  174.0  0.0042   81.0  0.9789   -7.1
 0.020  0.6256  -29.5  39.213  166.4  0.0087   83.5  0.9561  -14.5
 0.030  0.6107  -41.6  37.560  160.9  0.0124   72.2  0.9108  -20.5
 0.040  0.6235  -53.7  36.281  155.0  0.0164   66.2  0.8762  -27.0
 0.050  0.6626  -64.9  35.415  148.7  0.0205   62.6  0.8538  -33.9
 0.060  0.6410  -72.7  33.366  145.5  0.0225   58.8  0.8045  -37.4
 0.070  0.6318  -80.8  31.430  142.0  0.0246   55.6  0.7587  -41.4
 0.080  0.6356  -89.0  29.631  138.0  0.0267   52.9  0.7171  -45.9
 0.090  0.6521  -97.0  27.994  133.5  0.0289   50.7  0.6803  -50.9
 0.100  0.6805 -104.4  26.550  128.5  0.0311   48.7  0.6492  -56.4
 0.110  0.6767 -109.0  25.249  126.6  0.0321   47.1  0.6176  -58.6
 0.120  0.6773 -113.6  23.979  124.5  0.0331   45.5  0.5870  -61.1
 0.130  0.6821 -118.1  22.745  122.1  0.0342   44.1  0.5576  -63.9
 0.140  0.6912 -122.6  21.553  119.5  0.0352   42.8  0.5297  -66.9
 0.150  0.7044 -126.9  20.412  116.6  0.0363   41.5  0.5034  -70.3
 0.200  0.7107 -139.9  16.174  108.8  0.0379   37.9  0.4110  -80.1
 0.250  0.7161 -148.9  13.336  103.4  0.0408   37.4  0.3509  -87.0
 0.300  0.7182 -155.5  11.323   99.4  0.0423   37.2  0.3051  -92.8
 0.350  0.7192 -159.9   9.981   96.8  0.0441   38.4  0.2791  -96.7
 0.400  0.7243 -164.2   8.667   93.3  0.0459   39.5  0.2547 -101.3
 0.450  0.7236 -167.3   7.819   91.3  0.0475   40.9  0.2398 -104.7
 0.500  0.7250 -170.3   6.983   88.9  0.0491   42.2  0.2258 -108.5
 0.600  0.7243 -174.9   5.845   85.1  0.0532   45.0  0.2077 -113.8
 0.700  0.7266 -178.6   5.015   82.0  0.0568   47.4  0.1967 -117.7
 0.800  0.7312  178.0   4.402   78.8  0.0622   50.1  0.1931 -120.7
 0.900  0.7288  175.1   3.907   76.1  0.0667   51.6  0.1909 -124.0
 1.000  0.7317  172.7   3.530   73.6  0.0712   53.5  0.1899 -126.6
 1.100  0.7340  170.4   3.211   71.2  0.0763   55.3  0.1910 -128.4
 1.200  0.7357  168.2   2.946   68.8  0.0812   55.6  0.1930 -130.0
 1.300  0.7359  166.2   2.724   66.6  0.0863   56.7  0.1987 -131.5
 1.400  0.7371  164.1   2.542   64.3  0.0919   57.8  0.2025 -133.8
 1.500  0.7412  162.3   2.373   62.2  0.0968   58.6  0.2066 -135.2
 1.600  0.7443  160.5   2.235   60.1  0.1027   59.2  0.2126 -136.1
 1.700  0.7457  158.6   2.113   58.0  0.1081   59.8  0.2207 -137.7
 1.800  0.7488  156.8   2.007   55.9  0.1142   59.8  0.2271 -139.2
 1.900  0.7490  155.3   1.901   54.0  0.1194   60.2  0.2332 -140.4
 2.000  0.7516  153.4   1.815   51.9  0.1260   60.1  0.2413 -141.2
 2.100  0.7524  151.7   1.736   50.1  0.1318   60.2  0.2495 -142.4
 2.200  0.7538  150.1   1.659   48.1  0.1377   60.3  0.2578 -143.6
 2.300  0.7566  148.5   1.594   46.3  0.1439   60.1  0.2657 -144.3
 2.400  0.7599  146.9   1.531   44.3  0.1502   60.0  0.2737 -145.0
 2.500  0.7598  145.2   1.474   42.6  0.1563   59.7  0.2829 -146.2
 2.600  0.7603  143.6   1.419   40.7  0.1625   59.4  0.2922 -147.4
 2.700  0.7629  142.0   1.371   39.1  0.1687   59.1  0.2991 -148.0
 2.800  0.7660  140.5   1.324   37.4  0.1749   58.9  0.3061 -148.5
 2.900  0.7670  139.0   1.283   35.8  0.1812   58.3  0.3139 -150.0
 3.000  0.7686  137.5   1.244   34.1  0.1876   57.8  0.3219 -151.4
 3.100  0.7703  135.9   1.211   32.7  0.1942   57.3  0.3280 -152.6
 3.200  0.7726  134.3   1.178   31.3  0.2008   56.7  0.3342 -153.8
 3.300  0.7754  132.8   1.147   29.8  0.2074   56.3  0.3405 -154.9
 3.400  0.7788  131.2   1.116   28.2  0.2141   55.8  0.3470 -156.0
 3.500  0.7828  129.7   1.086   26.5  0.2207   55.4  0.3536 -157.1
 3.600  0.7843  128.1   1.059   25.2  0.2268   54.6  0.3598 -158.8
 3.700  0.7863  126.6   1.033   23.8  0.2330   53.8  0.3663 -160.5
 3.800  0.7889  125.0   1.007   22.3  0.2392   53.1  0.3732 -162.1
 3.900  0.7921  123.5   0.982   20.8  0.2454   52.4  0.3803 -163.7
 4.000  0.7958  122.0   0.958   19.2  0.2517   51.8  0.3877 -165.2
 4.100  0.7970  120.7   0.936   18.1  0.2575   51.0  0.3945 -167.3
 4.200  0.7986  119.3   0.914   16.9  0.2633   50.2  0.4019 -169.3
 4.300  0.8007  118.0   0.893   15.7  0.2692   49.4  0.4097 -171.2
 4.400  0.8032  116.7   0.872   14.4  0.2751   48.7  0.4180 -173.1
 4.500  0.8061  115.4   0.851   13.0  0.2811   48.0  0.4267 -174.9
 4.600  0.8068  114.3   0.832   12.2  0.2863   47.2  0.4349 -176.6
 4.700  0.8078  113.2   0.813   11.3  0.2916   46.4  0.4435 -178.2
 4.800  0.8091  112.1   0.794   10.4  0.2970   45.6  0.4524 -179.8
 4.900  0.8107  111.1   0.775    9.4  0.3024   44.9  0.4617  178.7
 5.000  0.8126  110.0   0.757    8.4  0.3078   44.2  0.4712  177.3
 5.100  0.8144  109.1   0.746    7.7  0.3133   43.5  0.4812  176.1
 5.200  0.8163  108.3   0.735    7.0  0.3189   42.9  0.4915  175.0
 5.300  0.8184  107.4   0.724    6.2  0.3245   42.2  0.5019  174.0
 5.400  0.8207  106.6   0.713    5.5  0.3302   41.6  0.5125  173.0
 5.500  0.8232  105.7   0.702    4.7  0.3359   41.0  0.5232  172.0
 5.600  0.8246  104.7   0.691    4.4  0.3422   40.2  0.5310  171.4
 5.700  0.8262  103.7   0.679    4.1  0.3487   39.4  0.5389  170.7
 5.800  0.8280  102.7   0.668    3.7  0.3551   38.6  0.5468  170.1
 5.900  0.8301  101.8   0.656    3.4  0.3617   37.8  0.5548  169.6
 6.000  0.8324  100.8   0.645    3.0  0.3683   37.1  0.5629  169.0
!
!  f       NFmin   Gammaopt  rn/50
! GHz       dB    MAG  ANG    -
!
! noise parameter not available yet for this operation point!
!
! (c) 2017  Infineon Technologies AG, Munich