! Infineon Technologies  Discrete & RF Semiconductors
! BFP196WN
! VCE =  2.0 V,  IC =  35 mA
! Common Emitter S-Parameters:                            Jan 2017
# GHz  S  MA  R  50
!  f         S11            S21            S12            S22
! GHz     MAG   ANG      MAG   ANG      MAG   ANG      MAG   ANG
 0.010  0.3190  -43.1  69.673  168.2  0.0046   80.9  0.9461  -16.2
 0.020  0.3906  -74.7  63.727  156.0  0.0084   69.1  0.8875  -31.7
 0.030  0.4238  -94.2  57.370  149.3  0.0110   60.4  0.7895  -41.5
 0.040  0.4969 -109.4  51.976  141.1  0.0137   55.1  0.7204  -53.6
 0.050  0.5953 -120.2  47.870  131.3  0.0165   51.6  0.6890  -67.5
 0.060  0.6026 -126.4  43.881  128.8  0.0174   50.0  0.6358  -72.4
 0.070  0.6167 -132.4  39.988  125.9  0.0184   48.5  0.5880  -78.1
 0.080  0.6373 -138.0  36.222  122.4  0.0194   47.2  0.5471  -84.7
 0.090  0.6636 -143.3  32.628  118.0  0.0203   46.0  0.5147  -92.3
 0.100  0.6950 -148.1  29.268  112.6  0.0213   44.9  0.4924 -100.8
 0.110  0.7004 -150.5  27.505  111.3  0.0219   44.7  0.4721 -104.1
 0.120  0.7070 -152.8  25.758  109.9  0.0225   44.6  0.4535 -107.6
 0.130  0.7147 -155.1  24.031  108.2  0.0232   44.4  0.4368 -111.4
 0.140  0.7235 -157.3  22.327  106.2  0.0238   44.2  0.4221 -115.5
 0.150  0.7334 -159.5  20.652  104.0  0.0244   44.1  0.4098 -119.9
 0.200  0.7409 -166.0  15.759   98.8  0.0263   47.3  0.3758 -132.0
 0.250  0.7499 -170.3  12.728   95.1  0.0296   48.6  0.3562 -139.9
 0.300  0.7525 -173.6  10.683   92.5  0.0323   52.0  0.3433 -146.3
 0.350  0.7539 -175.9   9.371   90.6  0.0353   54.5  0.3376 -150.1
 0.400  0.7565 -178.2   8.072   88.1  0.0384   56.6  0.3334 -154.0
 0.450  0.7570 -179.9   7.269   86.6  0.0419   58.1  0.3319 -156.7
 0.500  0.7582  178.4   6.472   84.8  0.0454   59.4  0.3311 -159.5
 0.600  0.7582  175.6   5.406   81.9  0.0522   61.6  0.3294 -163.3
 0.700  0.7587  173.2   4.631   79.5  0.0588   63.3  0.3267 -166.1
 0.800  0.7623  170.8   4.058   76.8  0.0665   64.8  0.3274 -167.9
 0.900  0.7610  168.5   3.604   74.5  0.0732   64.7  0.3297 -169.8
 1.000  0.7639  166.6   3.255   72.3  0.0810   65.4  0.3308 -171.5
 1.100  0.7644  164.7   2.963   70.3  0.0882   65.3  0.3317 -172.7
 1.200  0.7650  163.0   2.722   68.1  0.0949   65.0  0.3328 -173.7
 1.300  0.7652  161.2   2.518   66.3  0.1021   65.1  0.3362 -174.3
 1.400  0.7667  159.3   2.353   64.2  0.1095   64.9  0.3404 -175.7
 1.500  0.7699  157.9   2.198   62.3  0.1163   64.4  0.3422 -176.6
 1.600  0.7714  156.1   2.073   60.3  0.1237   64.1  0.3446 -176.9
 1.700  0.7723  154.3   1.965   58.4  0.1308   63.6  0.3505 -177.7
 1.800  0.7745  152.8   1.869   56.5  0.1385   63.1  0.3542 -178.6
 1.900  0.7743  151.4   1.774   54.8  0.1448   62.5  0.3567 -179.1
 2.000  0.7760  149.6   1.696   52.8  0.1519   61.9  0.3606 -179.5
 2.100  0.7762  148.0   1.625   51.1  0.1588   61.2  0.3654  180.0
 2.200  0.7769  146.5   1.556   49.2  0.1657   60.6  0.3703  179.5
 2.300  0.7783  144.9   1.498   47.5  0.1727   59.8  0.3731  179.1
 2.400  0.7803  143.4   1.441   45.7  0.1798   59.0  0.3760  178.8
 2.500  0.7791  141.9   1.392   44.1  0.1866   58.2  0.3813  178.3
 2.600  0.7785  140.4   1.344   42.4  0.1935   57.5  0.3866  177.8
 2.700  0.7797  139.0   1.301   40.9  0.1999   56.8  0.3886  177.5
 2.800  0.7814  137.6   1.258   39.3  0.2063   56.1  0.3907  177.2
 2.900  0.7817  136.0   1.223   37.8  0.2129   55.2  0.3960  176.4
 3.000  0.7825  134.5   1.188   36.2  0.2195   54.3  0.4013  175.6
 3.100  0.7835  133.0   1.159   34.9  0.2257   53.4  0.4039  174.8
 3.200  0.7850  131.5   1.131   33.5  0.2320   52.6  0.4065  174.0
 3.300  0.7871  130.0   1.104   32.0  0.2383   51.8  0.4092  173.3
 3.400  0.7897  128.6   1.078   30.5  0.2446   51.0  0.4120  172.5
 3.500  0.7928  127.1   1.052   28.9  0.2510   50.3  0.4148  171.8
 3.600  0.7937  125.6   1.028   27.6  0.2565   49.3  0.4190  170.7
 3.700  0.7950  124.1   1.005   26.3  0.2621   48.4  0.4233  169.6
 3.800  0.7970  122.6   0.983   24.8  0.2677   47.5  0.4278  168.5
 3.900  0.7994  121.2   0.961   23.4  0.2734   46.7  0.4324  167.4
 4.000  0.8024  119.7   0.940   21.8  0.2792   45.9  0.4372  166.4
 4.100  0.8027  118.5   0.920   20.7  0.2840   45.0  0.4430  165.0
 4.200  0.8034  117.2   0.901   19.6  0.2889   44.1  0.4490  163.7
 4.300  0.8044  116.0   0.882   18.4  0.2938   43.3  0.4553  162.5
 4.400  0.8059  114.7   0.864   17.1  0.2988   42.5  0.4618  161.2
 4.500  0.8077  113.5   0.846   15.8  0.3038   41.7  0.4685  160.0
 4.600  0.8083  112.5   0.829   15.0  0.3080   40.9  0.4749  159.0
 4.700  0.8092  111.5   0.813   14.1  0.3123   40.2  0.4814  158.0
 4.800  0.8103  110.5   0.796   13.2  0.3167   39.4  0.4880  157.0
 4.900  0.8117  109.5   0.780   12.3  0.3211   38.7  0.4948  156.1
 5.000  0.8133  108.5   0.764   11.3  0.3255   38.0  0.5017  155.2
 5.100  0.8145  107.7   0.755   10.5  0.3302   37.4  0.5089  154.7
 5.200  0.8160  106.9   0.746    9.8  0.3349   36.8  0.5162  154.3
 5.300  0.8175  106.0   0.738    9.0  0.3397   36.2  0.5235  153.8
 5.400  0.8193  105.2   0.729    8.1  0.3445   35.6  0.5308  153.4
 5.500  0.8212  104.4   0.721    7.3  0.3493   35.1  0.5382  153.0
 5.600  0.8221  103.5   0.711    6.8  0.3547   34.3  0.5429  152.8
 5.700  0.8233  102.5   0.702    6.4  0.3602   33.6  0.5475  152.6
 5.800  0.8247  101.6   0.692    5.9  0.3657   32.9  0.5522  152.5
 5.900  0.8263  100.6   0.683    5.4  0.3713   32.2  0.5569  152.3
 6.000  0.8281   99.7   0.673    4.9  0.3770   31.5  0.5616  152.1
!
!  f       NFmin   Gammaopt  rn/50
! GHz       dB    MAG  ANG    -
 0.450      1.11  0.47  179   0.05
 0.900      1.24  0.53  186   0.05
 1.900      2.17  0.68  212   0.13
 2.400      2.91  0.69  219   0.25
!
! (c) 2017  Infineon Technologies AG, Munich