! Infineon Technologies  Discrete & RF Semiconductors
! BFP196WN
! VCE =  4.0 V,  IC =  65 mA
! Common Emitter S-Parameters:                            Jan 2017
# GHz  S  MA  R  50
!  f         S11            S21            S12            S22
! GHz     MAG   ANG      MAG   ANG      MAG   ANG      MAG   ANG
 0.010  0.2056  -75.4  89.994  166.4  0.0033   79.9  0.9186  -17.9
 0.020  0.3419 -102.9  81.391  152.9  0.0061   72.2  0.8494  -35.0
 0.030  0.4057 -118.2  72.035  146.4  0.0080   62.5  0.7437  -44.9
 0.040  0.4900 -128.8  63.889  138.0  0.0100   56.6  0.6669  -57.6
 0.050  0.5859 -136.1  57.468  127.5  0.0121   52.7  0.6297  -72.6
 0.060  0.5977 -140.8  52.470  125.3  0.0128   52.2  0.5801  -77.3
 0.070  0.6132 -145.2  47.568  122.6  0.0134   51.8  0.5351  -82.9
 0.080  0.6323 -149.5  42.794  119.3  0.0141   51.5  0.4962  -89.4
 0.090  0.6547 -153.4  38.197  115.2  0.0147   51.1  0.4647  -97.0
 0.100  0.6799 -157.1  33.848  110.0  0.0154   50.8  0.4422 -105.4
 0.110  0.6860 -158.9  31.772  108.8  0.0160   51.3  0.4244 -108.5
 0.120  0.6928 -160.6  29.711  107.5  0.0167   51.8  0.4080 -112.0
 0.130  0.7002 -162.4  27.668  106.0  0.0173   52.3  0.3932 -115.6
 0.140  0.7083 -164.1  25.649  104.2  0.0180   52.7  0.3801 -119.6
 0.150  0.7169 -165.7  23.658  102.1  0.0186   53.1  0.3689 -123.8
 0.200  0.7234 -170.8  17.960   97.4  0.0210   58.0  0.3415 -135.3
 0.250  0.7315 -173.9  14.486   94.1  0.0246   60.2  0.3255 -142.7
 0.300  0.7335 -176.6  12.122   91.7  0.0277   62.0  0.3140 -148.7
 0.350  0.7350 -178.6  10.639   90.0  0.0312   64.3  0.3097 -152.3
 0.400  0.7374  179.5   9.168   87.7  0.0347   66.2  0.3066 -155.9
 0.450  0.7369  178.0   8.249   86.4  0.0384   67.2  0.3056 -158.4
 0.500  0.7370  176.5   7.336   84.7  0.0421   68.0  0.3052 -160.9
 0.600  0.7381  174.1   6.133   82.0  0.0494   68.6  0.3043 -164.5
 0.700  0.7396  171.9   5.252   79.7  0.0567   70.2  0.3019 -167.0
 0.800  0.7429  169.7   4.602   77.2  0.0644   70.3  0.3031 -168.8
 0.900  0.7414  167.6   4.083   75.0  0.0720   70.0  0.3053 -170.4
 1.000  0.7433  166.1   3.685   73.0  0.0791   70.1  0.3067 -172.2
 1.100  0.7444  164.1   3.355   71.0  0.0864   69.6  0.3074 -173.2
 1.200  0.7460  162.3   3.081   69.0  0.0934   69.0  0.3082 -174.2
 1.300  0.7448  160.6   2.848   67.2  0.1004   69.1  0.3123 -174.7
 1.400  0.7473  158.9   2.661   65.2  0.1083   68.4  0.3160 -176.1
 1.500  0.7513  157.5   2.486   63.4  0.1153   67.7  0.3171 -177.0
 1.600  0.7520  155.9   2.341   61.5  0.1226   67.1  0.3197 -177.3
 1.700  0.7521  154.0   2.219   59.7  0.1298   66.5  0.3252 -178.0
 1.800  0.7538  152.5   2.109   57.7  0.1367   65.7  0.3293 -178.7
 1.900  0.7549  151.0   2.001   56.2  0.1438   64.9  0.3312 -179.3
 2.000  0.7570  149.5   1.911   54.2  0.1514   64.1  0.3350 -179.5
 2.100  0.7562  148.0   1.830   52.5  0.1580   63.4  0.3396  180.0
 2.200  0.7559  146.4   1.751   50.7  0.1646   62.8  0.3443  179.5
 2.300  0.7578  144.9   1.685   49.1  0.1719   61.9  0.3468  179.2
 2.400  0.7602  143.4   1.620   47.3  0.1792   61.1  0.3494  178.9
 2.500  0.7599  141.9   1.563   45.7  0.1858   60.2  0.3546  178.4
 2.600  0.7602  140.4   1.508   44.0  0.1924   59.3  0.3598  177.9
 2.700  0.7615  138.9   1.459   42.6  0.1986   58.5  0.3613  177.7
 2.800  0.7633  137.5   1.410   41.0  0.2049   57.7  0.3629  177.5
 2.900  0.7639  136.0   1.369   39.5  0.2114   56.7  0.3682  176.7
 3.000  0.7651  134.5   1.330   37.9  0.2180   55.8  0.3735  175.9
 3.100  0.7661  133.0   1.297   36.6  0.2241   54.9  0.3758  175.2
 3.200  0.7675  131.6   1.265   35.2  0.2303   54.0  0.3781  174.5
 3.300  0.7695  130.2   1.234   33.7  0.2365   53.1  0.3805  173.8
 3.400  0.7719  128.7   1.204   32.2  0.2428   52.4  0.3830  173.1
 3.500  0.7748  127.3   1.174   30.6  0.2491   51.6  0.3855  172.4
 3.600  0.7759  125.8   1.147   29.3  0.2545   50.6  0.3895  171.3
 3.700  0.7775  124.4   1.121   27.9  0.2599   49.6  0.3937  170.2
 3.800  0.7796  122.9   1.096   26.4  0.2654   48.7  0.3981  169.2
 3.900  0.7823  121.4   1.071   24.9  0.2710   47.8  0.4025  168.1
 4.000  0.7854  120.0   1.047   23.3  0.2766   47.0  0.4071  167.1
 4.100  0.7860  118.8   1.025   22.2  0.2814   46.1  0.4128  165.7
 4.200  0.7870  117.5   1.002   21.0  0.2862   45.2  0.4187  164.4
 4.300  0.7884  116.3   0.981   19.7  0.2911   44.4  0.4249  163.1
 4.400  0.7901  115.1   0.960   18.5  0.2961   43.6  0.4312  161.8
 4.500  0.7922  113.9   0.939   17.1  0.3011   42.8  0.4378  160.6
 4.600  0.7932  112.9   0.921   16.2  0.3053   42.0  0.4440  159.6
 4.700  0.7945  111.9   0.902   15.3  0.3095   41.2  0.4504  158.6
 4.800  0.7960  110.9   0.884   14.4  0.3138   40.5  0.4569  157.7
 4.900  0.7978  109.9   0.867   13.4  0.3181   39.7  0.4635  156.8
 5.000  0.7998  108.9   0.849   12.4  0.3225   39.0  0.4702  155.9
 5.100  0.8012  108.1   0.838   11.6  0.3271   38.3  0.4775  155.5
 5.200  0.8027  107.2   0.827   10.7  0.3317   37.7  0.4848  155.1
 5.300  0.8045  106.4   0.816    9.8  0.3364   37.1  0.4921  154.7
 5.400  0.8064  105.6   0.805    8.9  0.3411   36.5  0.4994  154.3
 5.500  0.8084  104.8   0.795    8.0  0.3458   35.9  0.5068  153.9
 5.600  0.8097  103.9   0.784    7.5  0.3512   35.2  0.5115  153.8
 5.700  0.8112  103.0   0.773    6.9  0.3566   34.4  0.5162  153.7
 5.800  0.8129  102.1   0.762    6.4  0.3621   33.7  0.5209  153.5
 5.900  0.8148  101.2   0.751    5.8  0.3677   33.1  0.5256  153.4
 6.000  0.8169  100.3   0.740    5.2  0.3733   32.4  0.5303  153.3
!
!  f       NFmin   Gammaopt  rn/50
! GHz       dB    MAG  ANG    -
 0.450      1.43  0.56 -176   0.05
 0.900      1.55  0.58 -169   0.06
 1.900      2.48  0.69 -147   0.18
 2.400      3.26  0.70 -139   0.31
!
! (c) 2017  Infineon Technologies AG, Munich