! Infineon Technologies  Discrete & RF Semiconductors
! BFP196WN
! VCE =  3.0 V,  IC =  20 mA
! Common Emitter S-Parameters:                            Jan 2017
# GHz  S  MA  R  50
!  f         S11            S21            S12            S22
! GHz     MAG   ANG      MAG   ANG      MAG   ANG      MAG   ANG
 0.010  0.5132  -21.3  50.523  171.9  0.0048   81.8  0.9711  -10.6
 0.020  0.5170  -43.1  47.689  162.4  0.0095   79.0  0.9339  -21.2
 0.030  0.5097  -59.5  44.577  156.1  0.0129   67.0  0.8647  -29.1
 0.040  0.5433  -75.1  42.077  149.0  0.0167   60.3  0.8143  -38.1
 0.050  0.6112  -88.0  40.302  141.1  0.0206   56.0  0.7863  -48.0
 0.060  0.6016  -95.9  37.432  138.2  0.0221   53.0  0.7304  -52.2
 0.070  0.6038 -103.9  34.675  134.8  0.0236   50.3  0.6790  -57.1
 0.080  0.6174 -111.7  32.060  130.8  0.0252   48.0  0.6334  -62.7
 0.090  0.6419 -119.0  29.624  126.2  0.0268   45.9  0.5947  -69.1
 0.100  0.6760 -125.7  27.415  120.8  0.0284   44.1  0.5644  -76.3
 0.110  0.6785 -129.4  25.900  119.1  0.0291   43.2  0.5357  -79.2
 0.120  0.6839 -133.1  24.410  117.3  0.0297   42.3  0.5084  -82.3
 0.130  0.6920 -136.7  22.949  115.2  0.0304   41.4  0.4829  -85.8
 0.140  0.7028 -140.2  21.522  112.8  0.0311   40.6  0.4594  -89.7
 0.150  0.7161 -143.6  20.138  110.1  0.0318   39.8  0.4382  -94.0
 0.200  0.7262 -153.7  15.623  103.5  0.0340   38.7  0.3711 -106.5
 0.250  0.7355 -160.1  12.723   98.9  0.0364   39.6  0.3318 -115.4
 0.300  0.7382 -165.0  10.728   95.6  0.0386   41.2  0.3031 -122.9
 0.350  0.7386 -168.5   9.430   93.3  0.0408   43.3  0.2888 -127.7
 0.400  0.7416 -171.9   8.152   90.3  0.0431   45.2  0.2768 -133.0
 0.450  0.7426 -174.2   7.346   88.6  0.0456   46.8  0.2698 -136.7
 0.500  0.7448 -176.5   6.548   86.5  0.0482   48.3  0.2640 -140.5
 0.600  0.7454 -180.0   5.474   83.2  0.0539   51.5  0.2573 -145.8
 0.700  0.7475  177.1   4.692   80.4  0.0587   54.1  0.2518 -149.4
 0.800  0.7504  174.0   4.112   77.5  0.0644   56.2  0.2517 -152.1
 0.900  0.7494  171.6   3.651   74.9  0.0709   56.9  0.2526 -154.4
 1.000  0.7507  169.5   3.297   72.5  0.0764   58.3  0.2537 -156.6
 1.100  0.7518  167.5   3.001   70.3  0.0828   59.4  0.2551 -158.0
 1.200  0.7531  165.3   2.756   68.0  0.0887   59.9  0.2570 -159.0
 1.300  0.7535  163.5   2.549   66.0  0.0950   60.4  0.2617 -159.9
 1.400  0.7559  161.6   2.381   63.8  0.1015   60.5  0.2663 -161.5
 1.500  0.7593  160.0   2.224   61.7  0.1076   60.8  0.2693 -162.4
 1.600  0.7622  158.2   2.094   59.7  0.1142   60.8  0.2736 -162.7
 1.700  0.7634  156.3   1.985   57.7  0.1205   61.1  0.2805 -163.7
 1.800  0.7641  154.7   1.886   55.6  0.1268   60.7  0.2859 -164.5
 1.900  0.7661  153.2   1.788   53.9  0.1332   60.6  0.2902 -165.1
 2.000  0.7677  151.4   1.709   51.7  0.1401   60.2  0.2963 -165.5
 2.100  0.7680  149.8   1.636   50.0  0.1463   60.0  0.3029 -166.1
 2.200  0.7688  148.2   1.564   48.1  0.1526   59.8  0.3095 -166.7
 2.300  0.7708  146.6   1.505   46.3  0.1593   59.3  0.3149 -167.0
 2.400  0.7733  145.1   1.448   44.3  0.1660   58.8  0.3203 -167.3
 2.500  0.7730  143.5   1.396   42.7  0.1727   58.3  0.3277 -168.0
 2.600  0.7733  141.9   1.346   40.9  0.1794   57.8  0.3351 -168.6
 2.700  0.7751  140.4   1.301   39.4  0.1856   57.2  0.3395 -168.9
 2.800  0.7773  139.0   1.257   37.8  0.1919   56.7  0.3439 -169.2
 2.900  0.7784  137.4   1.220   36.2  0.1982   56.0  0.3506 -170.2
 3.000  0.7801  135.9   1.184   34.5  0.2046   55.4  0.3573 -171.1
 3.100  0.7814  134.4   1.154   33.2  0.2110   54.6  0.3618 -172.0
 3.200  0.7832  132.8   1.125   31.8  0.2175   53.9  0.3663 -172.8
 3.300  0.7856  131.3   1.096   30.3  0.2240   53.2  0.3709 -173.7
 3.400  0.7886  129.8   1.068   28.7  0.2305   52.6  0.3756 -174.5
 3.500  0.7921  128.3   1.041   27.1  0.2371   52.0  0.3804 -175.3
 3.600  0.7931  126.8   1.017   25.8  0.2429   51.1  0.3859 -176.6
 3.700  0.7946  125.3   0.993   24.4  0.2488   50.3  0.3916 -177.9
 3.800  0.7966  123.8   0.970   23.0  0.2547   49.6  0.3975 -179.1
 3.900  0.7993  122.3   0.948   21.5  0.2607   48.8  0.4036  179.7
 4.000  0.8024  120.8   0.926   19.9  0.2667   48.1  0.4098  178.5
 4.100  0.8032  119.5   0.905   18.8  0.2719   47.3  0.4166  176.9
 4.200  0.8044  118.2   0.885   17.7  0.2771   46.5  0.4237  175.3
 4.300  0.8060  116.9   0.865   16.5  0.2824   45.7  0.4311  173.7
 4.400  0.8080  115.7   0.846   15.3  0.2877   44.9  0.4388  172.2
 4.500  0.8104  114.4   0.827   14.0  0.2931   44.2  0.4468  170.8
 4.600  0.8108  113.3   0.810   13.2  0.2978   43.4  0.4544  169.5
 4.700  0.8116  112.3   0.793   12.3  0.3026   42.7  0.4623  168.3
 4.800  0.8126  111.2   0.776   11.4  0.3075   42.0  0.4703  167.1
 4.900  0.8138  110.2   0.759   10.5  0.3124   41.3  0.4786  166.0
 5.000  0.8154  109.1   0.743    9.5  0.3173   40.6  0.4870  164.9
 5.100  0.8171  108.3   0.733    8.8  0.3224   39.9  0.4958  164.2
 5.200  0.8190  107.4   0.723    8.0  0.3275   39.3  0.5047  163.5
 5.300  0.8210  106.6   0.714    7.3  0.3327   38.7  0.5137  162.8
 5.400  0.8232  105.8   0.704    6.5  0.3379   38.1  0.5227  162.1
 5.500  0.8256  105.0   0.695    5.7  0.3432   37.5  0.5318  161.5
 5.600  0.8265  104.0   0.685    5.3  0.3492   36.7  0.5381  161.1
 5.700  0.8276  103.1   0.675    4.9  0.3552   35.9  0.5445  160.8
 5.800  0.8289  102.1   0.664    4.5  0.3613   35.2  0.5508  160.4
 5.900  0.8305  101.2   0.654    4.1  0.3674   34.5  0.5572  160.0
 6.000  0.8323  100.2   0.644    3.7  0.3736   33.8  0.5636  159.7
!
!  f       NFmin   Gammaopt  rn/50
! GHz       dB    MAG  ANG    -
 0.450      0.96  0.40  169   0.05
 0.900      1.10  0.50  179   0.05
 1.900      2.10  0.69  210   0.12
 2.400      2.86  0.70  216   0.23
!
! (c) 2017  Infineon Technologies AG, Munich