! Coilcraft 0805CS-050 Chip Inductor				
! 11 June 2002			
# MHZ S MA R 50
!Freq             MagS11           AngS11           MagS21           AngS21           MagS12           AngS12           MagS22           AngS22
1                0.00100034653    20.7836681       0.999064812      -0.0203569452    0.999064812      -0.0203569452    0.00100034653    20.7836681       
26.93            0.00967977995    80.5169018       0.998450841      -0.54788847      0.998450841      -0.54788847      0.00967977995    80.5169018       
52.86            0.0188469879     83.4892649       0.998038633      -1.07506004      0.998038633      -1.07506004      0.0188469879     83.4892649       
78.79            0.0280264997     84.3006979       0.997606633      -1.60190445      0.997606633      -1.60190445      0.0280264997     84.3006979       
104.72           0.0372032005     84.5034121       0.997124341      -2.12839374      0.997124341      -2.12839374      0.0372032005     84.5034121       
130.65           0.0463723623     84.4443424       0.996579919      -2.65448481      0.996579919      -2.65448481      0.0463723623     84.4443424       
156.58           0.0555311831     84.2471431       0.995967409      -3.18012798      0.995967409      -3.18012798      0.0555311831     84.2471431       
182.51           0.0646774389     83.9675618       0.995283413      -3.70527008      0.995283413      -3.70527008      0.0646774389     83.9675618       
208.44           0.0738091307     83.6346675       0.994525868      -4.22985588      0.994525868      -4.22985588      0.0738091307     83.6346675       
234.37           0.0829243648     83.2652124       0.99369349       -4.75382902      0.99369349       -4.75382902      0.0829243648     83.2652124       
260.3            0.0920213061     82.8695866       0.992785497      -5.2771324       0.992785497      -5.2771324       0.0920213061     82.8695866       
286.23           0.101098158      82.4546092       0.991801451      -5.79970861      0.991801451      -5.79970861      0.101098158      82.4546092       
312.16           0.110153155      82.0249612       0.990741163      -6.32150015      0.990741163      -6.32150015      0.110153155      82.0249612       
338.09           0.119184555      81.5839769       0.989604634      -6.84244958      0.989604634      -6.84244958      0.119184555      81.5839769       
364.02           0.128190644      81.1341053       0.988392014      -7.36249972      0.988392014      -7.36249972      0.128190644      81.1341053       
389.95           0.13716973       80.6771934       0.987103575      -7.88159371      0.987103575      -7.88159371      0.13716973       80.6771934       
415.88           0.146120149      80.214666        0.985739691      -8.39967517      0.985739691      -8.39967517      0.146120149      80.214666        
441.81           0.155040263      79.7476442       0.984300823      -8.91668821      0.984300823      -8.91668821      0.155040263      79.7476442       
467.74           0.163928459      79.2770264       0.982787508      -9.43257758      0.982787508      -9.43257758      0.163928459      79.2770264       
493.67           0.172783158      78.8035434       0.981200354      -9.94728867      0.981200354      -9.94728867      0.172783158      78.8035434       
519.6            0.181602806      78.3277987       0.979540026      -10.4607676      0.979540026      -10.4607676      0.181602806      78.3277987       
545.53           0.190385883      77.8502968       0.977807245      -10.9729614      0.977807245      -10.9729614      0.190385883      77.8502968       
571.46           0.199130902      77.3714646       0.976002784      -11.4838176      0.976002784      -11.4838176      0.199130902      77.3714646       
597.39           0.207836409      76.8916673       0.974127459      -11.993285       0.974127459      -11.993285       0.207836409      76.8916673       
623.32           0.216500983      76.4112203       0.972182132      -12.5013131      0.972182132      -12.5013131      0.216500983      76.4112203       
649.25           0.225123242      75.9303983       0.970167701      -13.0078524      0.970167701      -13.0078524      0.225123242      75.9303983       
675.18           0.233701836      75.449443        0.968085103      -13.5128542      0.968085103      -13.5128542      0.233701836      75.449443        
701.11           0.242235458      74.9685682       0.965935307      -14.0162712      0.965935307      -14.0162712      0.242235458      74.9685682       
727.04           0.250722833      74.4879646       0.963719313      -14.5180569      0.963719313      -14.5180569      0.250722833      74.4879646       
752.97           0.25916273       74.0078033       0.961438152      -15.0181658      0.961438152      -15.0181658      0.25916273       74.0078033       
778.9            0.267553954      73.5282388       0.95909288       -15.5165536      0.95909288       -15.5165536      0.267553954      73.5282388       
804.83           0.275895351      73.0494112       0.956684578      -16.0131772      0.956684578      -16.0131772      0.275895351      73.0494112       
830.76           0.284185807      72.5714481       0.954214349      -16.5079946      0.954214349      -16.5079946      0.284185807      72.5714481       
856.69           0.292424249      72.0944666       0.951683318      -17.0009647      0.951683318      -17.0009647      0.292424249      72.0944666       
882.62           0.300609645      71.6185739       0.949092627      -17.4920479      0.949092627      -17.4920479      0.300609645      71.6185739       
908.55           0.308741004      71.1438693       0.946443438      -17.9812056      0.946443438      -17.9812056      0.308741004      71.1438693       
934.48           0.316817377      70.6704443       0.943736925      -18.4684005      0.943736925      -18.4684005      0.316817377      70.6704443       
960.41           0.324837854      70.198384        0.940974279      -18.9535963      0.940974279      -18.9535963      0.324837854      70.198384        
986.34           0.332801569      69.7277675       0.938156699      -19.4367581      0.938156699      -19.4367581      0.332801569      69.7277675       
1012.27          0.340707698      69.2586683       0.935285398      -19.9178522      0.935285398      -19.9178522      0.340707698      69.2586683       
1038.2           0.348555454      68.7911553       0.932361596      -20.396846       0.932361596      -20.396846       0.348555454      68.7911553       
1064.13          0.356344097      68.3252926       0.929386521      -20.8737082      0.929386521      -20.8737082      0.356344097      68.3252926       
1090.06          0.364072923      67.8611405       0.926361408      -21.3484086      0.926361408      -21.3484086      0.364072923      67.8611405       
1115.99          0.371741272      67.3987551       0.923287494      -21.8209184      0.923287494      -21.8209184      0.371741272      67.3987551       
1141.92          0.379348521      66.9381895       0.920166021      -22.2912098      0.920166021      -22.2912098      0.379348521      66.9381895       
1167.85          0.386894092      66.4794929       0.916998233      -22.7592565      0.916998233      -22.7592565      0.386894092      66.4794929       
1193.78          0.39437744       66.0227121       0.913785374      -23.225033       0.913785374      -23.225033       0.39437744       66.0227121       
1219.71          0.401798065      65.5678905       0.910528688      -23.6885153      0.910528688      -23.6885153      0.401798065      65.5678905       
1245.64          0.409155503      65.1150691       0.907229415      -24.1496805      0.907229415      -24.1496805      0.409155503      65.1150691       
1271.57          0.416449327      64.6642863       0.903888795      -24.6085069      0.903888795      -24.6085069      0.416449327      64.6642863       
1297.5           0.42367915       64.215578        0.900508063      -25.0649738      0.900508063      -25.0649738      0.42367915       64.215578        
1323.43          0.430844619      63.768978        0.897088449      -25.5190619      0.897088449      -25.5190619      0.430844619      63.768978        
1349.36          0.437945419      63.3245179       0.893631174      -25.9707529      0.893631174      -25.9707529      0.437945419      63.3245179       
1375.29          0.444981272      62.8822271       0.890137457      -26.4200295      0.890137457      -26.4200295      0.444981272      62.8822271       
1401.22          0.45195193       62.4421331       0.886608506      -26.8668759      0.886608506      -26.8668759      0.45195193       62.4421331       
1427.15          0.458857185      62.0042617       0.883045519      -27.311277       0.883045519      -27.311277       0.458857185      62.0042617       
1453.08          0.465696857      61.5686367       0.879449687      -27.7532189      0.879449687      -27.7532189      0.465696857      61.5686367       
1479.01          0.472470803      61.1352803       0.87582219       -28.1926889      0.87582219       -28.1926889      0.472470803      61.1352803       
1504.94          0.479178908      60.704213        0.872164195      -28.6296751      0.872164195      -28.6296751      0.479178908      60.704213        
1530.87          0.485821091      60.2754536       0.868476858      -29.0641668      0.868476858      -29.0641668      0.485821091      60.2754536       
1556.8           0.492397299      59.8490198       0.864761324      -29.4961543      0.864761324      -29.4961543      0.492397299      59.8490198       
1582.73          0.49890751       59.4249273       0.861018723      -29.9256289      0.861018723      -29.9256289      0.49890751       59.4249273       
1608.66          0.505351729      59.0031909       0.857250171      -30.3525827      0.857250171      -30.3525827      0.505351729      59.0031909       
1634.59          0.51172999       58.5838236       0.85345677       -30.7770089      0.85345677       -30.7770089      0.51172999       58.5838236       
1660.52          0.518042352      58.1668374       0.849639609      -31.1989016      0.849639609      -31.1989016      0.518042352      58.1668374       
1686.45          0.524288903      57.752243        0.845799759      -31.6182558      0.845799759      -31.6182558      0.524288903      57.752243        
1712.38          0.530469753      57.3400497       0.841938277      -32.0350673      0.841938277      -32.0350673      0.530469753      57.3400497       
1738.31          0.536585038      56.930266        0.838056203      -32.449333       0.838056203      -32.449333       0.536585038      56.930266        
1764.24          0.542634917      56.522899        0.834154561      -32.8610503      0.834154561      -32.8610503      0.542634917      56.522899        
1790.17          0.548619571      56.1179547       0.830234358      -33.2702177      0.830234358      -33.2702177      0.548619571      56.1179547       
1816.1           0.554539203      55.7154382       0.826296586      -33.6768344      0.826296586      -33.6768344      0.554539203      55.7154382       
1842.03          0.560394039      55.3153535       0.822342215      -34.0809003      0.822342215      -34.0809003      0.560394039      55.3153535       
1867.96          0.566184321      54.9177038       0.818372203      -34.4824162      0.818372203      -34.4824162      0.566184321      54.9177038       
1893.89          0.571910314      54.5224912       0.814387486      -34.8813835      0.814387486      -34.8813835      0.571910314      54.5224912       
1919.82          0.577572299      54.1297169       0.810388985      -35.2778043      0.810388985      -35.2778043      0.577572299      54.1297169       
1945.75          0.583170576      53.7393813       0.806377601      -35.6716816      0.806377601      -35.6716816      0.583170576      53.7393813       
1971.68          0.588705461      53.351484        0.802354218      -36.0630189      0.802354218      -36.0630189      0.588705461      53.351484        
1997.61          0.594177287      52.9660238       0.798319703      -36.4518202      0.798319703      -36.4518202      0.594177287      52.9660238       
2023.54          0.599586401      52.5829985       0.794274901      -36.8380904      0.794274901      -36.8380904      0.599586401      52.5829985       
2049.47          0.604933165      52.2024056       0.790220643      -37.221835       0.790220643      -37.221835       0.604933165      52.2024056       
2075.4           0.610217956      51.8242414       0.786157739      -37.6030597      0.786157739      -37.6030597      0.610217956      51.8242414       
2101.33          0.615441162      51.4485019       0.782086982      -37.9817712      0.782086982      -37.9817712      0.615441162      51.4485019       
2127.26          0.620603186      51.0751823       0.778009147      -38.3579765      0.778009147      -38.3579765      0.620603186      51.0751823       
2153.19          0.62570444       50.7042771       0.77392499       -38.7316833      0.77392499       -38.7316833      0.62570444       50.7042771       
2179.12          0.630745349      50.3357804       0.76983525       -39.1028995      0.76983525       -39.1028995      0.630745349      50.3357804       
2205.05          0.635726346      49.9696854       0.765740646      -39.4716339      0.765740646      -39.4716339      0.635726346      49.9696854       
2230.98          0.640647877      49.6059851       0.761641882      -39.8378952      0.761641882      -39.8378952      0.640647877      49.6059851       
2256.91          0.645510394      49.2446718       0.757539643      -40.2016932      0.757539643      -40.2016932      0.645510394      49.2446718       
2282.84          0.650314359      48.8857372       0.753434595      -40.5630375      0.753434595      -40.5630375      0.650314359      48.8857372       
2308.77          0.655060241      48.5291727       0.749327388      -40.9219386      0.749327388      -40.9219386      0.655060241      48.5291727       
2334.7           0.659748518      48.1749692       0.745218655      -41.278407       0.745218655      -41.278407       0.659748518      48.1749692       
2360.63          0.664379673      47.8231171       0.741109011      -41.6324539      0.741109011      -41.6324539      0.664379673      47.8231171       
2386.56          0.668954195      47.4736063       0.736999055      -41.9840906      0.736999055      -41.9840906      0.668954195      47.4736063       
2412.49          0.67347258       47.1264265       0.732889369      -42.3333289      0.732889369      -42.3333289      0.67347258       47.1264265       
2438.42          0.677935328      46.781567        0.728780517      -42.6801807      0.728780517      -42.6801807      0.677935328      46.781567        
2464.35          0.682342944      46.4390165       0.724673049      -43.0246585      0.724673049      -43.0246585      0.682342944      46.4390165       
2490.28          0.686695938      46.0987636       0.720567498      -43.3667748      0.720567498      -43.3667748      0.686695938      46.0987636       
2516.21          0.690994822      45.7607966       0.716464381      -43.7065426      0.716464381      -43.7065426      0.690994822      45.7607966       
2542.14          0.695240113      45.4251032       0.712364198      -44.043975       0.712364198      -44.043975       0.695240113      45.4251032       
2568.07          0.699432329      45.0916712       0.708267437      -44.3790853      0.708267437      -44.3790853      0.699432329      45.0916712       
2594             0.703571991      44.7604879       0.704174568      -44.7118873      0.704174568      -44.7118873      0.703571991      44.7604879       
2619.93          0.707659624      44.4315403       0.700086047      -45.0423947      0.700086047      -45.0423947      0.707659624      44.4315403       
2645.86          0.711695751      44.1048153       0.696002316      -45.3706216      0.696002316      -45.3706216      0.711695751      44.1048153       
2671.79          0.715680899      43.7802994       0.691923802      -45.6965821      0.691923802      -45.6965821      0.715680899      43.7802994       
2697.72          0.719615595      43.4579792       0.687850917      -46.0202907      0.687850917      -46.0202907      0.719615595      43.4579792       
2723.65          0.723500368      43.1378408       0.683784062      -46.3417618      0.683784062      -46.3417618      0.723500368      43.1378408       
2749.58          0.727335743      42.8198702       0.67972362       -46.6610102      0.67972362       -46.6610102      0.727335743      42.8198702       
2775.51          0.731122251      42.5040533       0.675669966      -46.9780507      0.675669966      -46.9780507      0.731122251      42.5040533       
2801.44          0.734860417      42.1903758       0.671623457      -47.2928982      0.671623457      -47.2928982      0.734860417      42.1903758       
2827.37          0.738550768      41.8788232       0.66758444       -47.6055678      0.66758444       -47.6055678      0.738550768      41.8788232       
2853.3           0.742193832      41.5693809       0.663553249      -47.9160746      0.663553249      -47.9160746      0.742193832      41.5693809       
2879.23          0.745790131      41.2620343       0.659530206      -48.2244339      0.659530206      -48.2244339      0.745790131      41.2620343       
2905.16          0.74934019       40.9567685       0.65551562       -48.530661       0.65551562       -48.530661       0.74934019       40.9567685       
2931.09          0.75284453       40.6535686       0.65150979       -48.8347713      0.65150979       -48.8347713      0.75284453       40.6535686       
2957.02          0.756303671      40.3524195       0.647513001      -49.1367803      0.647513001      -49.1367803      0.756303671      40.3524195       
2982.95          0.75971813       40.0533063       0.643525529      -49.4367034      0.643525529      -49.4367034      0.75971813       40.0533063       
3008.88          0.763088423      39.7562137       0.639547638      -49.7345563      0.639547638      -49.7345563      0.763088423      39.7562137       
3034.81          0.766415062      39.4611265       0.635579582      -50.0303546      0.635579582      -50.0303546      0.766415062      39.4611265       
3060.74          0.769698559      39.1680294       0.631621603      -50.3241139      0.631621603      -50.3241139      0.769698559      39.1680294       
3086.67          0.772939419      38.8769072       0.627673936      -50.6158497      0.627673936      -50.6158497      0.772939419      38.8769072       
3112.6           0.776138149      38.5877444       0.623736803      -50.9055779      0.623736803      -50.9055779      0.776138149      38.5877444       
3138.53          0.779295249      38.3005256       0.619810417      -51.193314       0.619810417      -51.193314       0.779295249      38.3005256       
3164.46          0.782411216      38.0152356       0.615894982      -51.4790738      0.615894982      -51.4790738      0.782411216      38.0152356       
3190.39          0.785486547      37.7318587       0.611990694      -51.7628728      0.611990694      -51.7628728      0.785486547      37.7318587       
3216.32          0.788521732      37.4503797       0.608097737      -52.0447267      0.608097737      -52.0447267      0.788521732      37.4503797       
3242.25          0.791517258      37.1707831       0.604216289      -52.3246512      0.604216289      -52.3246512      0.791517258      37.1707831       
3268.18          0.794473609      36.8930534       0.600346519      -52.6026619      0.600346519      -52.6026619      0.794473609      36.8930534       
3294.11          0.797391266      36.6171753       0.596488587      -52.8787742      0.596488587      -52.8787742      0.797391266      36.6171753       
