! Coilcraft 0805CS-181 Chip Inductor				
! 11 June 2002			
# MHZ S MA R 50
!Freq             MagS11           AngS11           MagS21           AngS21           MagS12           AngS12           MagS22           AngS22
1                0.0143182265     50.0774842       0.99087211       -0.634964222     0.99087211       -0.634964222     0.0143182265     50.0774842       
4.99             0.0564073438     74.1783442       0.986115384      -3.15483765      0.986115384      -3.15483765      0.0564073438     74.1783442       
8.98             0.0995484268     76.0527354       0.980776136      -5.6532165       0.980776136      -5.6532165       0.0995484268     76.0527354       
12.97            0.142202536      75.463154        0.974081702      -8.12381419      0.974081702      -8.12381419      0.142202536      75.463154        
16.96            0.184052951      74.1017302       0.965940047      -10.5593822      0.965940047      -10.5593822      0.184052951      74.1017302       
20.95            0.224884853      72.4138219       0.956388941      -12.9528977      0.956388941      -12.9528977      0.224884853      72.4138219       
24.94            0.264524739      70.57297         0.945520105      -15.2979252      0.945520105      -15.2979252      0.264524739      70.57297         
28.93            0.302831161      68.663161        0.933453993      -17.5887936      0.933453993      -17.5887936      0.302831161      68.663161        
32.92            0.339692586      66.7310834       0.920327038      -19.8206859      0.920327038      -19.8206859      0.339692586      66.7310834       
36.91            0.375026131      64.8052092       0.90628339       -21.9896752      0.90628339       -21.9896752      0.375026131      64.8052092       
40.9             0.408775906      62.9039842       0.891468893      -24.0927193      0.891468893      -24.0927193      0.408775906      62.9039842       
44.89            0.440910812      61.0397906       0.876026519      -26.1276253      0.876026519      -26.1276253      0.440910812      61.0397906       
48.88            0.47142188       59.2210581       0.860092934      -28.0929915      0.860092934      -28.0929915      0.47142188       59.2210581       
52.87            0.50031933       57.4534866       0.843796027      -29.9881344      0.843796027      -29.9881344      0.50031933       57.4534866       
56.86            0.527629525      55.7408063       0.827253266      -31.8130072      0.827253266      -31.8130072      0.527629525      55.7408063       
60.85            0.553391988      54.0852839       0.810570733      -33.5681138      0.810570733      -33.5681138      0.553391988      54.0852839       
64.84            0.577656573      52.4880763       0.793842745      -35.2544242      0.793842745      -35.2544242      0.577656573      52.4880763       
68.83            0.600480891      50.9494915       0.777151912      -36.8732929      0.777151912      -36.8732929      0.600480891      50.9494915       
72.82            0.621928037      49.4691857       0.760569536      -38.426383       0.760569536      -38.426383       0.621928037      49.4691857       
76.81            0.642064615      48.0463177       0.744156253      -39.9155974      0.744156253      -39.9155974      0.642064615      48.0463177       
80.8             0.660959093      46.6796706       0.727962825      -41.3430181      0.727962825      -41.3430181      0.660959093      46.6796706       
84.79            0.678680442      45.3677488       0.712031028      -42.7108528      0.712031028      -42.7108528      0.678680442      45.3677488       
88.78            0.695297055      44.1088565       0.696394568      -44.0213895      0.696394568      -44.0213895      0.695297055      44.1088565       
92.77            0.710875898      42.9011605       0.681079998      -45.2769583      0.681079998      -45.2769583      0.710875898      42.9011605       
96.76            0.725481877      41.7427404       0.666107601      -46.4799         0.666107601      -46.4799         0.725481877      41.7427404       
100.75           0.739177379      40.6316286       0.651492216      -47.6325401      0.651492216      -47.6325401      0.739177379      40.6316286       
104.74           0.752021953      39.5658421       0.637244005      -48.7371687      0.637244005      -48.7371687      0.752021953      39.5658421       
108.73           0.764072121      38.5434073       0.623369152      -49.7960245      0.623369152      -49.7960245      0.764072121      38.5434073       
112.72           0.775381276      37.5623791       0.60987048       -50.8112827      0.60987048       -50.8112827      0.775381276      37.5623791       
116.71           0.785999656      36.6208555       0.596748009      -51.7850459      0.596748009      -51.7850459      0.785999656      36.6208555       
120.7            0.795974376      35.7169883       0.583999442      -52.7193384      0.583999442      -52.7193384      0.795974376      35.7169883       
124.69           0.805349504      34.8489907       0.571620584      -53.6161022      0.571620584      -53.6161022      0.805349504      34.8489907       
128.68           0.814166167      34.0151426       0.559605716      -54.4771944      0.559605716      -54.4771944      0.814166167      34.0151426       
132.67           0.822462673      33.2137939       0.547947902      -55.3043869      0.547947902      -55.3043869      0.822462673      33.2137939       
136.66           0.830274657      32.4433662       0.536639264      -56.0993669      0.536639264      -56.0993669      0.830274657      32.4433662       
140.65           0.837635225      31.7023531       0.525671205      -56.8637378      0.525671205      -56.8637378      0.837635225      31.7023531       
144.64           0.844575104      30.98932         0.515034603      -57.5990214      0.515034603      -57.5990214      0.844575104      30.98932         
148.63           0.8511228        30.3029026       0.504719976      -58.3066606      0.504719976      -58.3066606      0.8511228        30.3029026       
152.62           0.857304735      29.6418054       0.494717608      -58.9880218      0.494717608      -58.9880218      0.857304735      29.6418054       
156.61           0.863145399      29.0047994       0.485017668      -59.644398       0.485017668      -59.644398       0.863145399      29.0047994       
160.6            0.868667485      28.3907199       0.475610298      -60.2770123      0.475610298      -60.2770123      0.868667485      28.3907199       
164.59           0.873892016      27.7984636       0.466485685      -60.887021       0.466485685      -60.887021       0.873892016      27.7984636       
168.58           0.878838472      27.2269861       0.457634125      -61.4755169      0.457634125      -61.4755169      0.878838472      27.2269861       
172.57           0.883524906      26.6752991       0.44904607       -62.0435325      0.44904607       -62.0435325      0.883524906      26.6752991       
176.56           0.887968048      26.1424677       0.440712161      -62.5920431      0.440712161      -62.5920431      0.887968048      26.1424677       
180.55           0.892183411      25.6276076       0.432623262      -63.1219703      0.432623262      -63.1219703      0.892183411      25.6276076       
184.54           0.896185381      25.1298823       0.424770482      -63.6341847      0.424770482      -63.6341847      0.896185381      25.1298823       
188.53           0.899987306      24.648501        0.417145184      -64.1295088      0.417145184      -64.1295088      0.899987306      24.648501        
192.52           0.903601575      24.1827154       0.409739003      -64.6087197      0.409739003      -64.6087197      0.903601575      24.1827154       
196.51           0.907039693      23.7318179       0.402543849      -65.0725521      0.402543849      -65.0725521      0.907039693      23.7318179       
200.5            0.910312351      23.2951389       0.395551912      -65.5217004      0.395551912      -65.5217004      0.910312351      23.2951389       
204.49           0.913429485      22.872045        0.38875566       -65.9568212      0.38875566       -65.9568212      0.913429485      22.872045        
208.48           0.916400338      22.4619365       0.382147837      -66.3785355      0.382147837      -66.3785355      0.916400338      22.4619365       
212.47           0.919233512      22.0642457       0.375721465      -66.7874311      0.375721465      -66.7874311      0.919233512      22.0642457       
216.46           0.921937017      21.6784349       0.369469833      -67.184064       0.369469833      -67.184064       0.921937017      21.6784349       
220.45           0.924518317      21.303995        0.363386494      -67.5689609      0.363386494      -67.5689609      0.924518317      21.303995        
224.44           0.92698437       20.9404432       0.357465255      -67.9426207      0.357465255      -67.9426207      0.92698437       20.9404432       
228.43           0.929341667      20.587322        0.351700176      -68.3055159      0.351700176      -68.3055159      0.929341667      20.587322        
232.42           0.931596269      20.2441975       0.346085556      -68.6580947      0.346085556      -68.6580947      0.931596269      20.2441975       
236.41           0.933753836      19.910658        0.340615927      -69.0007818      0.340615927      -69.0007818      0.933753836      19.910658        
240.4            0.935819658      19.5863129       0.335286047      -69.3339805      0.335286047      -69.3339805      0.935819658      19.5863129       
244.39           0.937798685      19.2707912       0.33009089       -69.6580733      0.33009089       -69.6580733      0.937798685      19.2707912       
248.38           0.939695546      18.9637405       0.325025639      -69.9734236      0.325025639      -69.9734236      0.939695546      18.9637405       
252.37           0.941514579      18.6648259       0.320085674      -70.2803765      0.320085674      -70.2803765      0.941514579      18.6648259       
256.36           0.943259847      18.3737293       0.315266571      -70.5792599      0.315266571      -70.5792599      0.943259847      18.3737293       
260.35           0.94493516       18.0901477       0.310564087      -70.8703858      0.310564087      -70.8703858      0.94493516       18.0901477       
264.34           0.946544093      17.8137933       0.305974157      -71.1540508      0.305974157      -71.1540508      0.946544093      17.8137933       
268.33           0.948090002      17.5443918       0.301492883      -71.4305371      0.301492883      -71.4305371      0.948090002      17.5443918       
272.32           0.949576038      17.2816821       0.297116529      -71.7001136      0.297116529      -71.7001136      0.949576038      17.2816821       
276.31           0.951005166      17.0254154       0.292841513      -71.9630361      0.292841513      -71.9630361      0.951005166      17.0254154       
280.3            0.952380172      16.7753547       0.288664402      -72.2195487      0.288664402      -72.2195487      0.952380172      16.7753547       
284.29           0.953703678      16.531274        0.284581902      -72.4698838      0.284581902      -72.4698838      0.953703678      16.531274        
288.28           0.954978153      16.2929575       0.280590854      -72.7142632      0.280590854      -72.7142632      0.954978153      16.2929575       
292.27           0.956205926      16.0601996       0.276688228      -72.9528985      0.276688228      -72.9528985      0.956205926      16.0601996       
296.26           0.957389188      15.8328038       0.272871117      -73.1859915      0.272871117      -73.1859915      0.957389188      15.8328038       
300.25           0.958530008      15.6105824       0.269136731      -73.4137351      0.269136731      -73.4137351      0.958530008      15.6105824       
304.24           0.95963034       15.3933561       0.265482392      -73.6363135      0.265482392      -73.6363135      0.95963034       15.3933561       
308.23           0.960692026      15.1809537       0.26190553       -73.8539028      0.26190553       -73.8539028      0.960692026      15.1809537       
312.22           0.96171681       14.9732112       0.258403674      -74.0666712      0.258403674      -74.0666712      0.96171681       14.9732112       
316.21           0.962706337      14.7699718       0.254974455      -74.2747798      0.254974455      -74.2747798      0.962706337      14.7699718       
320.2            0.963662166      14.5710856       0.251615594      -74.4783825      0.251615594      -74.4783825      0.963662166      14.5710856       
324.19           0.96458577       14.3764088       0.248324902      -74.6776268      0.248324902      -74.6776268      0.96458577       14.3764088       
328.18           0.965478545      14.185804        0.245100275      -74.8726538      0.245100275      -74.8726538      0.965478545      14.185804        
332.17           0.966341813      13.9991393       0.24193969       -75.0635988      0.24193969       -75.0635988      0.966341813      13.9991393       
336.16           0.967176828      13.8162884       0.238841202      -75.2505914      0.238841202      -75.2505914      0.967176828      13.8162884       
340.15           0.967984778      13.6371302       0.23580294       -75.4337558      0.23580294       -75.4337558      0.967984778      13.6371302       
344.14           0.968766789      13.4615484       0.232823103      -75.613211       0.232823103      -75.613211       0.968766789      13.4615484       
348.13           0.969523933      13.2894315       0.22989996       -75.7890715      0.22989996       -75.7890715      0.969523933      13.2894315       
352.12           0.970257224      13.1206727       0.227031841      -75.9614469      0.227031841      -75.9614469      0.970257224      13.1206727       
356.11           0.970967629      12.9551689       0.224217143      -76.1304424      0.224217143      -76.1304424      0.970967629      12.9551689       
360.1            0.971656066      12.7928217       0.221454317      -76.2961592      0.221454317      -76.2961592      0.971656066      12.7928217       
364.09           0.972323406      12.633536        0.218741875      -76.4586945      0.218741875      -76.4586945      0.972323406      12.633536        
368.08           0.972970481      12.4772208       0.216078381      -76.6181414      0.216078381      -76.6181414      0.972970481      12.4772208       
372.07           0.973598079      12.3237883       0.213462451      -76.7745899      0.213462451      -76.7745899      0.973598079      12.3237883       
376.06           0.974206955      12.1731543       0.210892752      -76.9281261      0.210892752      -76.9281261      0.974206955      12.1731543       
380.05           0.974797825      12.0252375       0.208367996      -77.0788331      0.208367996      -77.0788331      0.974797825      12.0252375       
384.04           0.975371371      11.8799599       0.205886943      -77.2267907      0.205886943      -77.2267907      0.975371371      11.8799599       
388.03           0.975928246      11.7372462       0.203448397      -77.3720757      0.203448397      -77.3720757      0.975928246      11.7372462       
392.02           0.97646907       11.5970242       0.201051201      -77.5147622      0.201051201      -77.5147622      0.97646907       11.5970242       
396.01           0.976994437      11.4592239       0.198694241      -77.6549214      0.198694241      -77.6549214      0.976994437      11.4592239       
400              0.977504911      11.3237781       0.19637644       -77.792622       0.19637644       -77.792622       0.977504911      11.3237781       
403.99           0.978001035      11.1906221       0.194096759      -77.9279301      0.194096759      -77.9279301      0.978001035      11.1906221       
407.98           0.978483323      11.0596933       0.191854192      -78.0609095      0.191854192      -78.0609095      0.978483323      11.0596933       
411.97           0.978952269      10.9309314       0.189647769      -78.1916217      0.189647769      -78.1916217      0.978952269      10.9309314       
415.96           0.979408346      10.8042783       0.187476553      -78.320126       0.187476553      -78.320126       0.979408346      10.8042783       
419.95           0.979852003      10.6796778       0.185339636      -78.4464795      0.185339636      -78.4464795      0.979852003      10.6796778       
423.94           0.980283674      10.5570757       0.183236143      -78.5707374      0.183236143      -78.5707374      0.980283674      10.5570757       
427.93           0.98070377       10.4364196       0.181165224      -78.6929531      0.181165224      -78.6929531      0.98070377       10.4364196       
431.92           0.981112688      10.3176591       0.17912606       -78.8131778      0.17912606       -78.8131778      0.981112688      10.3176591       
435.91           0.981510806      10.2007452       0.177117856      -78.9314614      0.177117856      -78.9314614      0.981510806      10.2007452       
439.9            0.981898488      10.0856308       0.175139846      -79.0478517      0.175139846      -79.0478517      0.981898488      10.0856308       
443.89           0.982276081      9.9722702        0.173191286      -79.162395       0.173191286      -79.162395       0.982276081      9.9722702        
447.88           0.982643919      9.86061926       0.171271455      -79.2751362      0.171271455      -79.2751362      0.982643919      9.86061926       
451.87           0.983002321      9.75063531       0.169379656      -79.3861184      0.169379656      -79.3861184      0.983002321      9.75063531       
455.86           0.983351595      9.64227706       0.167515215      -79.4953836      0.167515215      -79.4953836      0.983351595      9.64227706       
459.85           0.983692035      9.53550454       0.165677476      -79.6029722      0.165677476      -79.6029722      0.983692035      9.53550454       
463.84           0.984023924      9.43027908       0.163865806      -79.7089232      0.163865806      -79.7089232      0.984023924      9.43027908       
467.83           0.984347533      9.32656321       0.16207959       -79.8132746      0.16207959       -79.8132746      0.984347533      9.32656321       
471.82           0.984663124      9.22432068       0.160318232      -79.9160628      0.160318232      -79.9160628      0.984663124      9.22432068       
475.81           0.984970947      9.12351636       0.158581155      -80.0173235      0.158581155      -80.0173235      0.984970947      9.12351636       
479.8            0.985271242      9.02411621       0.156867797      -80.1170907      0.156867797      -80.1170907      0.985271242      9.02411621       
483.79           0.985564242      8.92608725       0.155177616      -80.2153978      0.155177616      -80.2153978      0.985564242      8.92608725       
487.78           0.985850169      8.82939751       0.153510085      -80.3122769      0.153510085      -80.3122769      0.985850169      8.82939751       
491.77           0.986129237      8.73401598       0.15186469       -80.407759       0.15186469       -80.407759       0.986129237      8.73401598       
495.76           0.986401653      8.63991262       0.150240935      -80.5018743      0.150240935      -80.5018743      0.986401653      8.63991262       
499.75           0.986667615      8.54705826       0.148638338      -80.5946521      0.148638338      -80.5946521      0.986667615      8.54705826       
503.74           0.986927314      8.45542463       0.147056431      -80.6861205      0.147056431      -80.6861205      0.986927314      8.45542463       
507.73           0.987180934      8.36498426       0.145494758      -80.776307       0.145494758      -80.776307       0.987180934      8.36498426       
