! Coilcraft 0805CS-430 Chip Inductor				
! 11 June 2002			
# MHZ S MA R 50
!Freq             MagS11           AngS11           MagS21           AngS21           MagS12           AngS12           MagS22           AngS22
1                0.00468616485    34.8983794       0.996160165      -0.1542058       0.996160165      -0.1542058       0.00468616485    34.8983794       
8.98             0.0247057228     76.1811417       0.994388403      -1.38245319      0.994388403      -1.38245319      0.0247057228     76.1811417       
16.96            0.0459082935     79.6956034       0.99281601       -2.60755356      0.99281601       -2.60755356      0.0459082935     79.6956034       
24.94            0.0671243832     80.3657757       0.990978365      -3.82906999      0.990978365      -3.82906999      0.0671243832     80.3657757       
32.92            0.0882640437     80.1918806       0.988796811      -5.04622263      0.988796811      -5.04622263      0.0882640437     80.1918806       
40.9             0.109286757      79.6509334       0.9862444        -6.25815193      0.9862444        -6.25815193      0.109286757      79.6509334       
48.88            0.130162309      78.9175941       0.983311988      -7.46397714      0.983311988      -7.46397714      0.130162309      78.9175941       
56.86            0.15086427       78.0719912       0.979998989      -8.66282098      0.979998989      -8.66282098      0.15086427       78.0719912       
64.84            0.171368341      77.1565523       0.976309834      -9.85382321      0.976309834      -9.85382321      0.171368341      77.1565523       
72.82            0.191651857      76.1961292       0.972252296      -11.0361496      0.972252296      -11.0361496      0.191651857      76.1961292       
80.8             0.211693644      75.2064255       0.967836566      -12.2089983      0.967836566      -12.2089983      0.211693644      75.2064255       
88.78            0.231474001      74.1979714       0.963074683      -13.3716049      0.963074683      -13.3716049      0.231474001      74.1979714       
96.76            0.250974713      73.1781741       0.957980127      -14.5232458      0.957980127      -14.5232458      0.250974713      73.1781741       
104.74           0.270179083      72.1524521       0.95256752       -15.6632415      0.95256752       -15.6632415      0.270179083      72.1524521       
112.72           0.289071947      71.1248984       0.946852376      -16.7909585      0.946852376      -16.7909585      0.289071947      71.1248984       
120.7            0.307639693      70.0986875       0.940850896      -17.9058111      0.940850896      -17.9058111      0.307639693      70.0986875       
128.68           0.325870256      69.0763354       0.934579779      -19.007262       0.934579779      -19.007262       0.325870256      69.0763354       
136.66           0.343753109      68.05987         0.928056066      -20.0948231      0.928056066      -20.0948231      0.343753109      68.05987         
144.64           0.361279234      67.0509481       0.921296989      -21.1680555      0.921296989      -21.1680555      0.361279234      67.0509481       
152.62           0.378441089      66.0509367       0.914319839      -22.2265688      0.914319839      -22.2265688      0.378441089      66.0509367       
160.6            0.39523256       65.0609711       0.907141847      -23.2700209      0.907141847      -23.2700209      0.39523256       65.0609711       
168.58           0.411648904      64.0819981       0.899780079      -24.2981163      0.899780079      -24.2981163      0.411648904      64.0819981       
176.56           0.427686691      63.1148075       0.89225134       -25.3106052      0.89225134       -25.3106052      0.427686691      63.1148075       
184.54           0.443343729      62.1600573       0.884572092      -26.3072815      0.884572092      -26.3072815      0.443343729      62.1600573       
192.52           0.458618994      61.2182928       0.87675838       -27.2879817      0.87675838       -27.2879817      0.458618994      61.2182928       
200.5            0.473512552      60.2899616       0.868825772      -28.2525821      0.868825772      -28.2525821      0.473512552      60.2899616       
208.48           0.488025482      59.3754266       0.860789308      -29.2009973      0.860789308      -29.2009973      0.488025482      59.3754266       
216.46           0.502159792      58.4749764       0.852663458      -30.133178       0.852663458      -30.133178       0.502159792      58.4749764       
224.44           0.515918343      57.5888337       0.844462086      -31.0491087      0.844462086      -31.0491087      0.515918343      57.5888337       
232.42           0.529304769      56.717163        0.836198429      -31.9488051      0.836198429      -31.9488051      0.529304769      56.717163        
240.4            0.542323398      55.8600769       0.827885078      -32.8323126      0.827885078      -32.8323126      0.542323398      55.8600769       
248.38           0.55497918       55.0176421       0.819533966      -33.6997033      0.819533966      -33.6997033      0.55497918       55.0176421       
256.36           0.56727761       54.1898842       0.811156365      -34.5510745      0.811156365      -34.5510745      0.56727761       54.1898842       
264.34           0.579224665      53.3767922       0.802762887      -35.386546       0.802762887      -35.386546       0.579224665      53.3767922       
272.32           0.590826734      52.5783224       0.794363489      -36.2062582      0.794363489      -36.2062582      0.590826734      52.5783224       
280.3            0.602090559      51.7944025       0.785967481      -37.01037        0.785967481      -37.01037        0.602090559      51.7944025       
288.28           0.613023177      51.0249342       0.777583544      -37.7990573      0.777583544      -37.7990573      0.613023177      51.0249342       
296.26           0.623631863      50.2697967       0.769219741      -38.5725104      0.769219741      -38.5725104      0.623631863      50.2697967       
304.24           0.633924088      49.5288495       0.76088354       -39.3309331      0.76088354       -39.3309331      0.633924088      49.5288495       
312.22           0.643907464      48.8019342       0.752581832      -40.0745404      0.752581832      -40.0745404      0.643907464      48.8019342       
320.2            0.653589711      48.0888776       0.744320953      -40.8035571      0.744320953      -40.8035571      0.653589711      48.0888776       
328.18           0.662978611      47.3894931       0.736106709      -41.5182167      0.736106709      -41.5182167      0.662978611      47.3894931       
336.16           0.672081982      46.7035829       0.7279444        -42.2187597      0.7279444        -42.2187597      0.672081982      46.7035829       
344.14           0.680907641      46.0309398       0.719838842      -42.9054322      0.719838842      -42.9054322      0.680907641      46.0309398       
352.12           0.689463377      45.3713484       0.711794394      -43.5784854      0.711794394      -43.5784854      0.689463377      45.3713484       
360.1            0.69775693       44.7245869       0.703814985      -44.2381739      0.703814985      -44.2381739      0.69775693       44.7245869       
368.08           0.705795969      44.0904281       0.695904131      -44.8847548      0.695904131      -44.8847548      0.705795969      44.0904281       
376.06           0.713588067      43.4686406       0.688064968      -45.5184871      0.688064968      -45.5184871      0.713588067      43.4686406       
384.04           0.721140695      42.8589901       0.68030027       -46.1396309      0.68030027       -46.1396309      0.721140695      42.8589901       
392.02           0.728461199      42.2612399       0.672612472      -46.7484463      0.672612472      -46.7484463      0.728461199      42.2612399       
400              0.735556791      41.6751521       0.665003696      -47.3451929      0.665003696      -47.3451929      0.735556791      41.6751521       
407.98           0.742434544      41.1004884       0.657475769      -47.9301293      0.657475769      -47.9301293      0.742434544      41.1004884       
415.96           0.749101375      40.5370105       0.650030243      -48.5035126      0.650030243      -48.5035126      0.749101375      40.5370105       
423.94           0.755564044      39.9844808       0.642668418      -49.0655977      0.642668418      -49.0655977      0.755564044      39.9844808       
431.92           0.761829149      39.442663        0.635391358      -49.6166371      0.635391358      -49.6166371      0.761829149      39.442663        
439.9            0.76790312       38.9113226       0.628199911      -50.1568805      0.628199911      -50.1568805      0.76790312       38.9113226       
447.88           0.773792216      38.3902272       0.621094722      -50.6865741      0.621094722      -50.6865741      0.773792216      38.3902272       
455.86           0.779502527      37.879147        0.614076254      -51.2059611      0.614076254      -51.2059611      0.779502527      37.879147        
463.84           0.785039968      37.377855        0.607144799      -51.7152807      0.607144799      -51.7152807      0.785039968      37.377855        
471.82           0.790410283      36.8861273       0.600300494      -52.2147682      0.600300494      -52.2147682      0.790410283      36.8861273       
479.8            0.795619043      36.4037433       0.593543335      -52.704655       0.593543335      -52.704655       0.795619043      36.4037433       
487.78           0.800671649      35.9304861       0.586873188      -53.1851682      0.586873188      -53.1851682      0.800671649      35.9304861       
495.76           0.805573335      35.4661424       0.5802898        -53.6565304      0.5802898        -53.6565304      0.805573335      35.4661424       
503.74           0.810329166      35.0105027       0.573792812      -54.1189601      0.573792812      -54.1189601      0.810329166      35.0105027       
511.72           0.814944046      34.5633616       0.567381769      -54.572671       0.567381769      -54.572671       0.814944046      34.5633616       
519.7            0.819422715      34.1245175       0.561056129      -55.0178726      0.561056129      -55.0178726      0.819422715      34.1245175       
527.68           0.823769758      33.6937731       0.55481527       -55.4547694      0.55481527       -55.4547694      0.823769758      33.6937731       
535.66           0.827989605      33.2709352       0.5486585        -55.8835619      0.5486585        -55.8835619      0.827989605      33.2709352       
543.64           0.832086535      32.8558148       0.542585067      -56.3044454      0.542585067      -56.3044454      0.832086535      32.8558148       
551.62           0.836064682      32.448227        0.53659416       -56.7176112      0.53659416       -56.7176112      0.836064682      32.448227        
559.6            0.839928034      32.0479911       0.530684921      -57.1232456      0.530684921      -57.1232456      0.839928034      32.0479911       
567.58           0.843680444      31.6549306       0.524856448      -57.5215309      0.524856448      -57.5215309      0.843680444      31.6549306       
575.56           0.847325628      31.2688731       0.519107802      -57.9126444      0.519107802      -57.9126444      0.847325628      31.2688731       
583.54           0.85086717       30.8896505       0.513438012      -58.2967595      0.513438012      -58.2967595      0.85086717       30.8896505       
591.52           0.854308528      30.5170985       0.507846077      -58.6740449      0.507846077      -58.6740449      0.854308528      30.5170985       
599.5            0.857653038      30.151057        0.502330976      -59.0446652      0.502330976      -59.0446652      0.857653038      30.151057        
607.48           0.860903915      29.7913699       0.496891666      -59.4087807      0.496891666      -59.4087807      0.860903915      29.7913699       
615.46           0.86406426       29.4378848       0.491527088      -59.7665478      0.491527088      -59.7665478      0.86406426       29.4378848       
623.44           0.867137063      29.0904534       0.486236172      -60.1181184      0.486236172      -60.1181184      0.867137063      29.0904534       
631.42           0.870125206      28.748931        0.481017837      -60.4636408      0.481017837      -60.4636408      0.870125206      28.748931        
639.4            0.873031466      28.4131768       0.475870996      -60.8032592      0.475870996      -60.8032592      0.873031466      28.4131768       
647.38           0.875858521      28.0830534       0.470794557      -61.1371141      0.470794557      -61.1371141      0.875858521      28.0830534       
655.36           0.878608952      27.7584273       0.465787428      -61.4653422      0.465787428      -61.4653422      0.878608952      27.7584273       
663.34           0.881285247      27.4391681       0.460848513      -61.7880766      0.460848513      -61.7880766      0.881285247      27.4391681       
671.32           0.883889803      27.1251492       0.455976722      -62.1054467      0.455976722      -62.1054467      0.883889803      27.1251492       
679.3            0.886424931      26.8162471       0.451170966      -62.4175786      0.451170966      -62.4175786      0.886424931      26.8162471       
687.28           0.88889286       26.5123415       0.446430163      -62.7245948      0.446430163      -62.7245948      0.88889286       26.5123415       
695.26           0.891295737      26.2133157       0.441753235      -63.0266147      0.441753235      -63.0266147      0.891295737      26.2133157       
703.24           0.89363563       25.9190555       0.437139113      -63.3237543      0.437139113      -63.3237543      0.89363563       25.9190555       
711.22           0.895914536      25.6294503       0.432586738      -63.6161266      0.432586738      -63.6161266      0.895914536      25.6294503       
719.2            0.898134377      25.3443922       0.428095058      -63.9038413      0.428095058      -63.9038413      0.898134377      25.3443922       
727.18           0.900297008      25.063776        0.423663033      -64.1870054      0.423663033      -64.1870054      0.900297008      25.063776        
735.16           0.902404218      24.7874997       0.419289636      -64.4657228      0.419289636      -64.4657228      0.902404218      24.7874997       
743.14           0.904457729      24.5154638       0.414973848      -64.7400947      0.414973848      -64.7400947      0.904457729      24.5154638       
751.12           0.906459205      24.2475714       0.410714666      -65.0102193      0.410714666      -65.0102193      0.906459205      24.2475714       
759.1            0.908410248      23.9837284       0.406511098      -65.2761926      0.406511098      -65.2761926      0.908410248      23.9837284       
767.08           0.910312405      23.723843        0.402362166      -65.5381074      0.402362166      -65.5381074      0.910312405      23.723843        
775.06           0.912167168      23.467826        0.398266907      -65.7960545      0.398266907      -65.7960545      0.912167168      23.467826        
783.04           0.913975974      23.2155905       0.394224371      -66.0501219      0.394224371      -66.0501219      0.913975974      23.2155905       
791.02           0.915740213      22.967052        0.390233622      -66.3003954      0.390233622      -66.3003954      0.915740213      22.967052        
799              0.917461224      22.7221282       0.386293738      -66.5469584      0.386293738      -66.5469584      0.917461224      22.7221282       
806.98           0.919140299      22.4807389       0.382403814      -66.789892       0.382403814      -66.789892       0.919140299      22.4807389       
814.96           0.920778685      22.2428061       0.378562957      -67.0292752      0.378562957      -67.0292752      0.920778685      22.2428061       
822.94           0.922377587      22.008254        0.374770292      -67.2651848      0.374770292      -67.2651848      0.922377587      22.008254        
830.92           0.923938167      21.7770087       0.371024955      -67.4976955      0.371024955      -67.4976955      0.923938167      21.7770087       
838.9            0.925461548      21.548998        0.3673261        -67.7268803      0.3673261        -67.7268803      0.925461548      21.548998        
846.88           0.926948811      21.3241521       0.363672894      -67.9528097      0.363672894      -67.9528097      0.926948811      21.3241521       
854.86           0.928401005      21.1024026       0.360064521      -68.1755528      0.360064521      -68.1755528      0.928401005      21.1024026       
862.84           0.92981914       20.8836831       0.356500176      -68.3951766      0.356500176      -68.3951766      0.92981914       20.8836831       
870.82           0.931204191      20.667929        0.352979073      -68.6117464      0.352979073      -68.6117464      0.931204191      20.667929        
878.8            0.932557103      20.4550771       0.349500437      -68.8253258      0.349500437      -68.8253258      0.932557103      20.4550771       
886.78           0.933878787      20.2450661       0.346063509      -69.0359765      0.346063509      -69.0359765      0.933878787      20.2450661       
894.76           0.935170122      20.0378362       0.342667545      -69.2437589      0.342667545      -69.2437589      0.935170122      20.0378362       
902.74           0.936431962      19.8333291       0.339311813      -69.4487315      0.339311813      -69.4487315      0.936431962      19.8333291       
910.72           0.937665127      19.6314881       0.335995596      -69.6509515      0.335995596      -69.6509515      0.937665127      19.6314881       
918.7            0.938870415      19.432258        0.332718192      -69.8504744      0.332718192      -69.8504744      0.938870415      19.432258        
926.68           0.940048593      19.2355847       0.32947891       -70.0473543      0.32947891       -70.0473543      0.940048593      19.2355847       
934.66           0.941200407      19.0414159       0.326277074      -70.241644       0.326277074      -70.241644       0.941200407      19.0414159       
942.64           0.942326575      18.8497003       0.323112022      -70.4333949      0.323112022      -70.4333949      0.942326575      18.8497003       
950.62           0.943427793      18.660388        0.319983103      -70.6226568      0.319983103      -70.6226568      0.943427793      18.660388        
958.6            0.944504735      18.4734305       0.316889679      -70.8094786      0.316889679      -70.8094786      0.944504735      18.4734305       
966.58           0.945558053      18.2887803       0.313831128      -70.9939076      0.313831128      -70.9939076      0.945558053      18.2887803       
974.56           0.946588376      18.1063913       0.310806835      -71.1759901      0.310806835      -71.1759901      0.946588376      18.1063913       
982.54           0.947596316      17.9262183       0.307816201      -71.3557711      0.307816201      -71.3557711      0.947596316      17.9262183       
990.52           0.948582462      17.7482175       0.304858639      -71.5332945      0.304858639      -71.5332945      0.948582462      17.7482175       
998.5            0.949547388      17.5723459       0.30193357       -71.7086031      0.30193357       -71.7086031      0.949547388      17.5723459       
1006.48          0.950491647      17.3985619       0.299040432      -71.8817384      0.299040432      -71.8817384      0.950491647      17.3985619       
1014.46          0.951415776      17.2268245       0.296178669      -72.0527411      0.296178669      -72.0527411      0.951415776      17.2268245       
