! Coilcraft 0805CS-240 Chip Inductor				
! 11 June 2002			
# MHZ S MA R 50
!Freq             MagS11           AngS11           MagS21           AngS21           MagS12           AngS12           MagS22           AngS22
1                0.00308510167    29.0883953       0.997305148      -0.0861672052    0.997305148      -0.0861672052    0.00308510167    29.0883953       
9.73             0.0150890448     74.7790009       0.996144888      -0.837469104     0.996144888      -0.837469104     0.0150890448     74.7790009       
18.46            0.0280433615     79.5255999       0.995283918      -1.58768133      0.995283918      -1.58768133      0.0280433615     79.5255999       
27.19            0.0410542594     80.9688402       0.994382596      -2.3368466       0.994382596      -2.3368466       0.0410542594     80.9688402       
35.92            0.0540625        81.4285948       0.993381902      -3.08485235      0.993381902      -3.08485235      0.0540625        81.4285948       
44.65            0.0670497019     81.4579937       0.992258675      -3.83154451      0.992258675      -3.83154451      0.0670497019     81.4579937       
53.38            0.080005683      81.2589029       0.99100152       -4.5767512       0.99100152       -4.5767512       0.080005683      81.2589029       
62.11            0.0929228501     80.9234195       0.9896043        -5.32029188      0.9896043        -5.32029188      0.0929228501     80.9234195       
70.84            0.105794675      80.4999074       0.988063692      -6.06198176      0.988063692      -6.06198176      0.105794675      80.4999074       
79.57            0.118615168      80.0163751       0.986378079      -6.80163447      0.986378079      -6.80163447      0.118615168      80.0163751       
88.3             0.131378667      79.4902626       0.984546965      -7.53906368      0.984546965      -7.53906368      0.131378667      79.4902626       
97.03            0.144079746      78.9330571       0.982570657      -8.27408434      0.982570657      -8.27408434      0.144079746      78.9330571       
105.76           0.156713175      78.352674        0.98045006       -9.00651351      0.98045006       -9.00651351      0.156713175      78.352674        
114.49           0.169273905      77.7547736       0.978186553      -9.73617107      0.978186553      -9.73617107      0.169273905      77.7547736       
123.22           0.181757056      77.1435325       0.975781894      -10.4628803      0.975781894      -10.4628803      0.181757056      77.1435325       
131.95           0.194157921      76.5221157       0.973238161      -11.1864683      0.973238161      -11.1864683      0.194157921      76.5221157       
140.68           0.206471967      75.892978        0.9705577        -11.9067666      0.9705577        -11.9067666      0.206471967      75.892978        
149.41           0.218694839      75.2580626       0.967743091      -12.623611       0.967743091      -12.623611       0.218694839      75.2580626       
158.14           0.230822362      74.618935        0.964797116      -13.3368424      0.964797116      -13.3368424      0.230822362      74.618935        
166.87           0.242850548      73.9768772       0.961722732      -14.046307       0.961722732      -14.046307       0.242850548      73.9768772       
175.6            0.254775596      73.3329532       0.95852305       -14.7518561      0.95852305       -14.7518561      0.254775596      73.3329532       
184.33           0.266593899      72.6880581       0.955201316      -15.4533467      0.955201316      -15.4533467      0.266593899      72.6880581       
193.06           0.278302043      72.0429524       0.951760892      -16.1506414      0.951760892      -16.1506414      0.278302043      72.0429524       
201.79           0.28989681       71.3982893       0.948205242      -16.8436088      0.948205242      -16.8436088      0.28989681       71.3982893       
210.52           0.301375182      70.7546344       0.944537915      -17.5321233      0.944537915      -17.5321233      0.301375182      70.7546344       
219.25           0.312734335      70.1124813       0.940762532      -18.2160654      0.940762532      -18.2160654      0.312734335      70.1124813       
227.98           0.323971648      69.4722637       0.936882773      -18.8953216      0.936882773      -18.8953216      0.323971648      69.4722637       
236.71           0.335084692      68.8343645       0.932902367      -19.5697848      0.932902367      -19.5697848      0.335084692      68.8343645       
245.44           0.346071237      68.199124        0.928825077      -20.2393536      0.928825077      -20.2393536      0.346071237      68.199124        
254.17           0.356929247      67.5668451       0.924654689      -20.903933       0.924654689      -20.903933       0.356929247      67.5668451       
262.9            0.367656877      66.937799        0.920395007      -21.563434       0.920395007      -21.563434       0.367656877      66.937799        
271.63           0.378252468      66.3122288       0.916049837      -22.2177737      0.916049837      -22.2177737      0.378252468      66.3122288       
280.36           0.38871455       65.6903527       0.911622984      -22.8668753      0.911622984      -22.8668753      0.38871455       65.6903527       
289.09           0.399041831      65.0723673       0.907118237      -23.5106679      0.907118237      -23.5106679      0.399041831      65.0723673       
297.82           0.409233198      64.4584492       0.902539366      -24.1490862      0.902539366      -24.1490862      0.409233198      64.4584492       
306.55           0.419287709      63.8487576       0.897890113      -24.7820709      0.897890113      -24.7820709      0.419287709      63.8487576       
315.28           0.42920459       63.2434355       0.893174185      -25.4095685      0.893174185      -25.4095685      0.42920459       63.2434355       
324.01           0.438983229      62.6426114       0.888395246      -26.0315307      0.888395246      -26.0315307      0.438983229      62.6426114       
332.74           0.448623169      62.0464006       0.883556914      -26.6479148      0.883556914      -26.6479148      0.448623169      62.0464006       
341.47           0.458124107      61.4549061       0.878662755      -27.2586833      0.878662755      -27.2586833      0.458124107      61.4549061       
350.2            0.467485884      60.8682195       0.873716275      -27.8638041      0.873716275      -27.8638041      0.467485884      60.8682195       
358.93           0.476708479      60.2864224       0.86872092       -28.4632496      0.86872092       -28.4632496      0.476708479      60.2864224       
367.66           0.485792005      59.7095863       0.863680068      -29.0569975      0.863680068      -29.0569975      0.485792005      59.7095863       
376.39           0.494736704      59.1377741       0.858597028      -29.6450299      0.858597028      -29.6450299      0.494736704      59.1377741       
385.12           0.503542937      58.5710401       0.853475035      -30.2273337      0.853475035      -30.2273337      0.503542937      58.5710401       
393.85           0.512211182      58.009431        0.84831725       -30.8038998      0.84831725       -30.8038998      0.512211182      58.009431        
402.58           0.520742024      57.4529861       0.843126753      -31.3747235      0.843126753      -31.3747235      0.520742024      57.4529861       
411.31           0.529136152      56.9017382       0.837906547      -31.9398041      0.837906547      -31.9398041      0.529136152      56.9017382       
420.04           0.537394352      56.3557133       0.83265955       -32.4991449      0.83265955       -32.4991449      0.537394352      56.3557133       
428.77           0.5455175        55.8149319       0.827388599      -33.0527527      0.827388599      -33.0527527      0.5455175        55.8149319       
437.5            0.55350656       55.2794086       0.822096445      -33.6006378      0.822096445      -33.6006378      0.55350656       55.2794086       
446.23           0.561362573      54.7491531       0.816785754      -34.1428141      0.816785754      -34.1428141      0.561362573      54.7491531       
454.96           0.569086654      54.2241699       0.811459108      -34.6792985      0.811459108      -34.6792985      0.569086654      54.2241699       
463.69           0.576679987      53.7044591       0.806119003      -35.210111       0.806119003      -35.210111       0.576679987      53.7044591       
472.42           0.584143822      53.1900166       0.800767847      -35.7352745      0.800767847      -35.7352745      0.584143822      53.1900166       
481.15           0.591479464      52.6808342       0.795407967      -36.2548145      0.795407967      -36.2548145      0.591479464      52.6808342       
489.88           0.598688271      52.1768999       0.7900416        -36.7687594      0.7900416        -36.7687594      0.598688271      52.1768999       
498.61           0.605771653      51.6781983       0.784670903      -37.2771395      0.784670903      -37.2771395      0.605771653      51.6781983       
507.34           0.61273106       51.1847108       0.779297948      -37.7799879      0.779297948      -37.7799879      0.61273106       51.1847108       
516.07           0.619567986      50.6964155       0.773924724      -38.2773395      0.773924724      -38.2773395      0.619567986      50.6964155       
524.8            0.626283955      50.2132881       0.76855314       -38.7692313      0.76855314       -38.7692313      0.626283955      50.2132881       
533.53           0.632880527      49.7353012       0.763185024      -39.2557022      0.763185024      -39.2557022      0.632880527      49.7353012       
542.26           0.639359288      49.2624252       0.757822125      -39.7367926      0.757822125      -39.7367926      0.639359288      49.2624252       
550.99           0.645721846      48.7946284       0.752466118      -40.2125449      0.752466118      -40.2125449      0.645721846      48.7946284       
559.72           0.651969831      48.3318767       0.747118598      -40.6830025      0.747118598      -40.6830025      0.651969831      48.3318767       
568.45           0.658104889      47.8741342       0.74178109       -41.1482106      0.74178109       -41.1482106      0.658104889      47.8741342       
577.18           0.664128683      47.4213633       0.736455044      -41.6082153      0.736455044      -41.6082153      0.664128683      47.4213633       
585.91           0.670042881      46.9735246       0.731141841      -42.063064       0.731141841      -42.063064       0.670042881      46.9735246       
594.64           0.675849164      46.5305775       0.725842794      -42.5128051      0.725842794      -42.5128051      0.675849164      46.5305775       
603.37           0.681549216      46.0924798       0.720559146      -42.9574881      0.720559146      -42.9574881      0.681549216      46.0924798       
612.1            0.687144726      45.659188        0.715292079      -43.3971629      0.715292079      -43.3971629      0.687144726      45.659188        
620.83           0.69263738       45.2306578       0.71004271       -43.8318806      0.71004271       -43.8318806      0.69263738       45.2306578       
629.56           0.698028866      44.8068435       0.704812094      -44.2616927      0.704812094      -44.2616927      0.698028866      44.8068435       
638.29           0.703320866      44.387699        0.69960123       -44.6866514      0.69960123       -44.6866514      0.703320866      44.387699        
647.02           0.708515059      43.9731769       0.694411055      -45.1068092      0.694411055      -45.1068092      0.708515059      43.9731769       
655.75           0.713613113      43.5632294       0.689242453      -45.5222192      0.689242453      -45.5222192      0.713613113      43.5632294       
664.48           0.718616691      43.157808        0.684096256      -45.9329348      0.684096256      -45.9329348      0.718616691      43.157808        
673.21           0.723527443      42.7568637       0.678973242      -46.3390096      0.678973242      -46.3390096      0.723527443      42.7568637       
681.94           0.728347008      42.360347        0.673874138      -46.7404975      0.673874138      -46.7404975      0.728347008      42.360347        
690.67           0.733077012      41.9682081       0.668799626      -47.1374525      0.668799626      -47.1374525      0.733077012      41.9682081       
699.4            0.737719068      41.5803969       0.66375034       -47.5299287      0.66375034       -47.5299287      0.737719068      41.5803969       
708.13           0.742274771      41.1968628       0.658726868      -47.9179802      0.658726868      -47.9179802      0.742274771      41.1968628       
716.86           0.746745702      40.8175555       0.653729759      -48.3016613      0.653729759      -48.3016613      0.746745702      40.8175555       
725.59           0.751133424      40.4424241       0.648759517      -48.6810258      0.648759517      -48.6810258      0.751133424      40.4424241       
734.32           0.755439483      40.0714181       0.643816609      -49.0561278      0.643816609      -49.0561278      0.755439483      40.0714181       
743.05           0.759665404      39.7044866       0.638901462      -49.4270211      0.638901462      -49.4270211      0.759665404      39.7044866       
751.78           0.763812696      39.3415789       0.634014468      -49.7937593      0.634014468      -49.7937593      0.763812696      39.3415789       
760.51           0.767882845      38.9826444       0.629155985      -50.1563958      0.629155985      -50.1563958      0.767882845      38.9826444       
769.24           0.771877321      38.6276327       0.624326337      -50.5149836      0.624326337      -50.5149836      0.771877321      38.6276327       
777.97           0.775797568      38.2764933       0.619525815      -50.8695758      0.619525815      -50.8695758      0.775797568      38.2764933       
786.7            0.779645013      37.9291761       0.61475468       -51.2202246      0.61475468       -51.2202246      0.779645013      37.9291761       
795.43           0.78342106       37.5856312       0.610013166      -51.5669824      0.610013166      -51.5669824      0.78342106       37.5856312       
804.16           0.787127092      37.245809        0.605301478      -51.9099009      0.605301478      -51.9099009      0.787127092      37.245809        
812.89           0.790764471      36.9096601       0.600619792      -52.2490315      0.600619792      -52.2490315      0.790764471      36.9096601       
821.62           0.794334534      36.5771355       0.595968264      -52.5844251      0.595968264      -52.5844251      0.794334534      36.5771355       
830.35           0.797838599      36.2481865       0.591347022      -52.9161322      0.591347022      -52.9161322      0.797838599      36.2481865       
839.08           0.801277961      35.9227648       0.586756172      -53.244203       0.586756172      -53.244203       0.801277961      35.9227648       
847.81           0.804653893      35.6008224       0.582195799      -53.5686871      0.582195799      -53.5686871      0.804653893      35.6008224       
856.54           0.807967645      35.2823118       0.577665968      -53.8896334      0.577665968      -53.8896334      0.807967645      35.2823118       
865.27           0.811220446      34.9671859       0.573166723      -54.2070907      0.573166723      -54.2070907      0.811220446      34.9671859       
874              0.814413504      34.655398        0.56869809       -54.521107       0.56869809       -54.521107       0.814413504      34.655398        
882.73           0.817548001      34.3469019       0.564260077      -54.8317299      0.564260077      -54.8317299      0.817548001      34.3469019       
891.46           0.820625103      34.0416518       0.559852676      -55.1390064      0.559852676      -55.1390064      0.820625103      34.0416518       
900.19           0.823645948      33.7396024       0.555475864      -55.4429829      0.555475864      -55.4429829      0.823645948      33.7396024       
908.92           0.826611658      33.440709        0.5511296        -55.7437054      0.5511296        -55.7437054      0.826611658      33.440709        
917.65           0.829523332      33.1449271       0.546813834      -56.0412193      0.546813834      -56.0412193      0.829523332      33.1449271       
926.38           0.832382045      32.8522131       0.542528497      -56.3355694      0.542528497      -56.3355694      0.832382045      32.8522131       
935.11           0.835188855      32.5625236       0.538273512      -56.6267998      0.538273512      -56.6267998      0.835188855      32.5625236       
943.84           0.837944797      32.2758159       0.534048788      -56.9149544      0.534048788      -56.9149544      0.837944797      32.2758159       
952.57           0.840650888      31.9920475       0.529854223      -57.2000761      0.529854223      -57.2000761      0.840650888      31.9920475       
961.3            0.843308121      31.7111769       0.525689705      -57.4822075      0.525689705      -57.4822075      0.843308121      31.7111769       
970.03           0.845917472      31.4331628       0.521555113      -57.7613906      0.521555113      -57.7613906      0.845917472      31.4331628       
978.76           0.848479898      31.1579644       0.517450315      -58.0376667      0.517450315      -58.0376667      0.848479898      31.1579644       
987.49           0.850996333      30.8855416       0.513375172      -58.3110765      0.513375172      -58.3110765      0.850996333      30.8855416       
996.22           0.853467696      30.6158548       0.509329536      -58.5816604      0.509329536      -58.5816604      0.853467696      30.6158548       
1004.95          0.855894884      30.3488649       0.505313252      -58.849458       0.505313252      -58.849458       0.855894884      30.3488649       
1013.68          0.858278777      30.0845332       0.501326159      -59.1145082      0.501326159      -59.1145082      0.858278777      30.0845332       
1022.41          0.860620238      29.8228218       0.497368087      -59.3768497      0.497368087      -59.3768497      0.860620238      29.8228218       
1031.14          0.862920109      29.563693        0.493438862      -59.6365203      0.493438862      -59.6365203      0.862920109      29.563693        
1039.87          0.865179216      29.3071099       0.489538303      -59.8935574      0.489538303      -59.8935574      0.865179216      29.3071099       
1048.6           0.867398369      29.0530361       0.485666227      -60.1479977      0.485666227      -60.1479977      0.867398369      29.0530361       
1057.33          0.869578359      28.8014355       0.481822441      -60.3998776      0.481822441      -60.3998776      0.869578359      28.8014355       
1066.06          0.871719962      28.5522727       0.478006753      -60.6492327      0.478006753      -60.6492327      0.871719962      28.5522727       
1074.79          0.873823935      28.3055129       0.474218963      -60.8960981      0.474218963      -60.8960981      0.873823935      28.3055129       
1083.52          0.875891022      28.0611215       0.47045887       -61.1405084      0.47045887       -61.1405084      0.875891022      28.0611215       
1092.25          0.877921948      27.8190646       0.466726268      -61.3824976      0.466726268      -61.3824976      0.877921948      27.8190646       
1100.98          0.879917427      27.579309        0.463020948      -61.6220992      0.463020948      -61.6220992      0.879917427      27.579309        
1109.71          0.881878152      27.3418216       0.4593427        -61.8593462      0.4593427        -61.8593462      0.881878152      27.3418216       
