! Coilcraft 0805CS-910 Chip Inductor				
! 11 June 2002			
# MHZ S MA R 50
!Freq             MagS11           AngS11           MagS21           AngS21           MagS12           AngS12           MagS22           AngS22
1                0.00835652882    42.1702741       0.993822368      -0.323431359     0.993822368      -0.323431359     0.00835652882    42.1702741       
6.73             0.0387906399     75.3901139       0.990926787      -2.17088718      0.990926787      -2.17088718      0.0387906399     75.3901139       
12.46            0.0705809183     78.1530393       0.987927823      -4.00948489      0.987927823      -4.00948489      0.0705809183     78.1530393       
18.19            0.102249192      78.2114223       0.984213235      -5.83696012      0.984213235      -5.83696012      0.102249192      78.2114223       
23.92            0.133616427      77.4497347       0.979686027      -7.65039227      0.979686027      -7.65039227      0.133616427      77.4497347       
29.65            0.164577557      76.3340596       0.974330231      -9.4467877       0.974330231      -9.4467877       0.164577557      76.3340596       
35.38            0.195047004      75.0389245       0.968160928      -11.2232325      0.968160928      -11.2232325      0.195047004      75.0389245       
41.11            0.224949924      73.6460713       0.961209745      -12.9769659      0.961209745      -12.9769659      0.224949924      73.6460713       
46.84            0.254220297      72.1997449       0.953518695      -14.705425       0.953518695      -14.705425       0.254220297      72.1997449       
52.57            0.282800527      70.7264737       0.945136773      -16.4062734      0.945136773      -16.4062734      0.282800527      70.7264737       
58.3             0.310641361      69.2434101       0.936117692      -18.0774199      0.936117692      -18.0774199      0.310641361      69.2434101       
64.03            0.337701813      67.7622869       0.926518173      -19.7170288      0.926518173      -19.7170288      0.337701813      67.7622869       
69.76            0.363948992      66.291469        0.916396561      -21.3235238      0.916396561      -21.3235238      0.363948992      66.291469        
75.49            0.389357808      64.837097        0.905811677      -22.8955865      0.905811677      -22.8955865      0.389357808      64.837097        
81.22            0.413910572      63.4037641       0.894821854      -24.4321495      0.894821854      -24.4321495      0.413910572      63.4037641       
86.95            0.437596494      61.9949382       0.883484128      -25.9323868      0.883484128      -25.9323868      0.437596494      61.9949382       
92.68            0.460411129      60.613239        0.871853591      -27.3957004      0.871853591      -27.3957004      0.460411129      60.613239        
98.41            0.482355753      59.2606265       0.859982863      -28.8217051      0.859982863      -28.8217051      0.482355753      59.2606265       
104.14           0.503436739      57.9385367       0.847921706      -30.2102117      0.847921706      -30.2102117      0.503436739      57.9385367       
109.87           0.523664913      56.6479812       0.835716735      -31.5612094      0.835716735      -31.5612094      0.523664913      56.6479812       
115.6            0.543054924      55.3896238       0.823411241      -32.8748475      0.823411241      -32.8748475      0.543054924      55.3896238       
121.33           0.561624648      54.1638413       0.811045092      -34.1514173      0.811045092      -34.1514173      0.561624648      54.1638413       
127.06           0.579394615      52.9707722       0.798654714      -35.3913351      0.798654714      -35.3913351      0.579394615      52.9707722       
132.79           0.596387488      51.8103571       0.786273127      -36.5951243      0.786273127      -36.5951243      0.596387488      51.8103571       
138.52           0.612627578      50.6823726       0.773930036      -37.7634006      0.773930036      -37.7634006      0.612627578      50.6823726       
144.25           0.628140418      49.5864598       0.761651958      -38.8968563      0.761651958      -38.8968563      0.628140418      49.5864598       
149.98           0.642952381      48.5221487       0.749462375      -39.9962468      0.749462375      -39.9962468      0.642952381      48.5221487       
155.71           0.657090339      47.4888795       0.737381907      -41.0623782      0.737381907      -41.0623782      0.657090339      47.4888795       
161.44           0.670581382      46.4860199       0.725428507      -42.0960959      0.725428507      -42.0960959      0.670581382      46.4860199       
167.17           0.683452567      45.512881        0.713617648      -43.0982748      0.713617648      -43.0982748      0.683452567      45.512881        
172.9            0.695730711      44.5687308       0.701962525      -44.0698097      0.701962525      -44.0698097      0.695730711      44.5687308       
178.63           0.707442221      43.6528048       0.690474245      -45.0116081      0.690474245      -45.0116081      0.707442221      43.6528048       
184.36           0.718612955      42.7643167       0.679162019      -45.9245832      0.679162019      -45.9245832      0.718612955      42.7643167       
190.09           0.729268109      41.9024657       0.668033342      -46.8096477      0.668033342      -46.8096477      0.729268109      41.9024657       
195.82           0.739432135      41.0664444       0.657094165      -47.6677092      0.657094165      -47.6677092      0.739432135      41.0664444       
201.55           0.749128672      40.2554442       0.646349057      -48.4996656      0.646349057      -48.4996656      0.749128672      40.2554442       
207.28           0.758380504      39.4686601       0.635801356      -49.306402       0.635801356      -49.306402       0.758380504      39.4686601       
213.01           0.767209529      38.7052954       0.625453311      -50.0887871      0.625453311      -50.0887871      0.767209529      38.7052954       
218.74           0.775636743      37.9645645       0.615306209      -50.8476715      0.615306209      -50.8476715      0.775636743      37.9645645       
224.47           0.783682234      37.245696        0.605360492      -51.5838855      0.605360492      -51.5838855      0.783682234      37.245696        
230.2            0.791365185      36.5479346       0.595615868      -52.2982378      0.595615868      -52.2982378      0.791365185      36.5479346       
235.93           0.798703888      35.8705429       0.586071403      -52.991514       0.586071403      -52.991514       0.798703888      35.8705429       
241.66           0.805715759      35.2128029       0.576725615      -53.6644765      0.576725615      -53.6644765      0.805715759      35.2128029       
247.39           0.81241736       34.5740168       0.567576548      -54.3178636      0.567576548      -54.3178636      0.81241736       34.5740168       
253.12           0.818824425      33.9535076       0.558621847      -54.9523891      0.558621847      -54.9523891      0.818824425      33.9535076       
258.85           0.824951886      33.3506195       0.549858817      -55.5687427      0.549858817      -55.5687427      0.824951886      33.3506195       
264.58           0.830813906      32.7647185       0.541284484      -56.1675897      0.541284484      -56.1675897      0.830813906      32.7647185       
270.31           0.836423907      32.1951919       0.532895641      -56.7495713      0.532895641      -56.7495713      0.836423907      32.1951919       
276.04           0.841794604      31.6414485       0.524688893      -57.3153054      0.524688893      -57.3153054      0.841794604      31.6414485       
281.77           0.846938036      31.1029184       0.516660699      -57.8653863      0.516660699      -57.8653863      0.846938036      31.1029184       
287.5            0.851865596      30.5790523       0.508807403      -58.4003858      0.508807403      -58.4003858      0.851865596      30.5790523       
293.23           0.856588064      30.0693218       0.501125263      -58.9208534      0.501125263      -58.9208534      0.856588064      30.0693218       
298.96           0.86111564       29.5732182       0.493610482      -59.4273173      0.493610482      -59.4273173      0.86111564       29.5732182       
304.69           0.865457969      29.0902524       0.486259227      -59.9202847      0.486259227      -59.9202847      0.865457969      29.0902524       
310.42           0.869624172      28.6199542       0.479067648      -60.4002425      0.479067648      -60.4002425      0.869624172      28.6199542       
316.15           0.873622876      28.161872        0.472031898      -60.8676582      0.472031898      -60.8676582      0.873622876      28.161872        
321.88           0.877462239      27.7155717       0.465148146      -61.3229804      0.465148146      -61.3229804      0.877462239      27.7155717       
327.61           0.881149975      27.2806366       0.458412588      -61.7666396      0.458412588      -61.7666396      0.881149975      27.2806366       
333.34           0.88469338       26.8566665       0.451821463      -62.1990488      0.451821463      -62.1990488      0.88469338       26.8566665       
339.07           0.888099353      26.4432772       0.445371053      -62.6206042      0.445371053      -62.6206042      0.888099353      26.4432772       
344.8            0.891374423      26.0401          0.439057699      -63.0316857      0.439057699      -63.0316857      0.891374423      26.0401          
350.53           0.894524765      25.6467808       0.432877802      -63.432658       0.432877802      -63.432658       0.894524765      25.6467808       
356.26           0.897556221      25.2629798       0.426827831      -63.8238707      0.426827831      -63.8238707      0.897556221      25.2629798       
361.99           0.900474324      24.8883709       0.420904323      -64.2056592      0.420904323      -64.2056592      0.900474324      24.8883709       
367.72           0.903284307      24.5226411       0.415103891      -64.5783454      0.415103891      -64.5783454      0.903284307      24.5226411       
373.45           0.905991128      24.1654899       0.409423222      -64.942238       0.409423222      -64.942238       0.905991128      24.1654899       
379.18           0.908599483      23.8166288       0.403859083      -65.2976332      0.403859083      -65.2976332      0.908599483      23.8166288       
384.91           0.911113818      23.475781        0.398408317      -65.6448153      0.398408317      -65.6448153      0.911113818      23.475781        
390.64           0.913538349      23.1426805       0.39306785       -65.984057       0.39306785       -65.984057       0.913538349      23.1426805       
396.37           0.91587707       22.817072        0.387834684      -66.3156201      0.387834684      -66.3156201      0.91587707       22.817072        
402.1            0.918133769      22.4987105       0.382705903      -66.6397561      0.382705903      -66.6397561      0.918133769      22.4987105       
407.83           0.920312038      22.1873603       0.377678669      -66.9567062      0.377678669      -66.9567062      0.920312038      22.1873603       
413.56           0.922415286      21.8827952       0.372750222      -67.2667022      0.372750222      -67.2667022      0.922415286      21.8827952       
419.29           0.924446747      21.584798        0.367917881      -67.5699667      0.367917881      -67.5699667      0.924446747      21.584798        
425.02           0.926409492      21.2931597       0.363179039      -67.8667135      0.363179039      -67.8667135      0.926409492      21.2931597       
430.75           0.928306437      21.0076796       0.358531167      -68.157148       0.358531167      -68.157148       0.928306437      21.0076796       
436.48           0.930140351      20.7281647       0.353971807      -68.4414676      0.353971807      -68.4414676      0.930140351      20.7281647       
442.21           0.931913868      20.4544294       0.349498575      -68.7198622      0.349498575      -68.7198622      0.931913868      20.4544294       
447.94           0.933629489      20.1862954       0.345109155      -68.9925143      0.345109155      -68.9925143      0.933629489      20.1862954       
453.67           0.935289593      19.9235908       0.340801304      -69.2595991      0.340801304      -69.2595991      0.935289593      19.9235908       
459.4            0.936896444      19.6661506       0.336572841      -69.5212856      0.336572841      -69.5212856      0.936896444      19.6661506       
465.13           0.938452195      19.4138159       0.332421656      -69.777736       0.332421656      -69.777736       0.938452195      19.4138159       
470.86           0.939958896      19.1664337       0.328345699      -70.0291067      0.328345699      -70.0291067      0.939958896      19.1664337       
476.59           0.941418499      18.9238567       0.324342983      -70.2755478      0.324342983      -70.2755478      0.941418499      18.9238567       
482.32           0.942832863      18.6859432       0.320411582      -70.5172043      0.320411582      -70.5172043      0.942832863      18.6859432       
488.05           0.94420376       18.4525565       0.316549629      -70.7542154      0.316549629      -70.7542154      0.94420376       18.4525565       
493.78           0.945532878      18.2235651       0.312755312      -70.9867155      0.312755312      -70.9867155      0.945532878      18.2235651       
499.51           0.946821826      17.9988421       0.309026876      -71.2148338      0.309026876      -71.2148338      0.946821826      17.9988421       
505.24           0.948072141      17.7782654       0.305362619      -71.4386949      0.305362619      -71.4386949      0.948072141      17.7782654       
510.97           0.949285288      17.5617171       0.30176089       -71.6584189      0.30176089       -71.6584189      0.949285288      17.5617171       
516.7            0.950462665      17.3490838       0.29822009       -71.8741217      0.29822009       -71.8741217      0.950462665      17.3490838       
522.43           0.951605606      17.1402557       0.294738668      -72.0859148      0.294738668      -72.0859148      0.951605606      17.1402557       
528.16           0.952715387      16.9351272       0.29131512       -72.293906       0.29131512       -72.293906       0.952715387      16.9351272       
533.89           0.953793227      16.7335963       0.287947987      -72.4981989      0.287947987      -72.4981989      0.953793227      16.7335963       
539.62           0.954840288      16.5355646       0.284635855      -72.698894       0.284635855      -72.698894       0.954840288      16.5355646       
545.35           0.955857684      16.3409371       0.281377354      -72.8960879      0.281377354      -72.8960879      0.955857684      16.3409371       
551.08           0.95684648       16.149622        0.278171152      -73.0898739      0.278171152      -73.0898739      0.95684648       16.149622        
556.81           0.957807693      15.9615306       0.27501596       -73.2803422      0.27501596       -73.2803422      0.957807693      15.9615306       
562.54           0.958742297      15.7765774       0.271910528      -73.4675798      0.271910528      -73.4675798      0.958742297      15.7765774       
568.27           0.959651225      15.5946797       0.268853641      -73.6516709      0.268853641      -73.6516709      0.959651225      15.5946797       
574              0.96053537       15.4157574       0.265844121      -73.8326966      0.265844121      -73.8326966      0.96053537       15.4157574       
579.73           0.961395588      15.2397334       0.262880827      -74.0107356      0.262880827      -74.0107356      0.961395588      15.2397334       
585.46           0.962232696      15.0665329       0.25996265       -74.1858636      0.25996265       -74.1858636      0.962232696      15.0665329       
591.19           0.963047482      14.8960836       0.257088514      -74.3581541      0.257088514      -74.3581541      0.963047482      14.8960836       
596.92           0.963840696      14.7283156       0.254257374      -74.5276779      0.254257374      -74.5276779      0.963840696      14.7283156       
602.65           0.964613062      14.5631614       0.251468218      -74.6945038      0.251468218      -74.6945038      0.964613062      14.5631614       
608.38           0.965365271      14.4005554       0.248720062      -74.858698       0.248720062      -74.858698       0.965365271      14.4005554       
614.11           0.966097988      14.2404343       0.246011949      -75.0203249      0.246011949      -75.0203249      0.966097988      14.2404343       
619.84           0.966811851      14.0827367       0.243342953      -75.1794465      0.243342953      -75.1794465      0.966811851      14.0827367       
625.57           0.967507472      13.9274033       0.240712172      -75.336123       0.240712172      -75.336123       0.967507472      13.9274033       
631.3            0.968185439      13.7743765       0.238118733      -75.4904127      0.238118733      -75.4904127      0.968185439      13.7743765       
637.03           0.968846315      13.6236007       0.235561784      -75.6423719      0.235561784      -75.6423719      0.968846315      13.6236007       
642.76           0.969490645      13.4750217       0.2330405        -75.7920553      0.2330405        -75.7920553      0.969490645      13.4750217       
648.49           0.97011895       13.3285873       0.230554078      -75.9395159      0.230554078      -75.9395159      0.97011895       13.3285873       
654.22           0.970731731      13.1842467       0.22810174       -76.0848047      0.22810174       -76.0848047      0.970731731      13.1842467       
659.95           0.97132947       13.0419507       0.225682728      -76.2279716      0.225682728      -76.2279716      0.97132947       13.0419507       
665.68           0.97191263       12.9016517       0.223296304      -76.3690647      0.223296304      -76.3690647      0.97191263       12.9016517       
671.41           0.972481659      12.7633033       0.220941753      -76.5081307      0.220941753      -76.5081307      0.972481659      12.7633033       
677.14           0.973036986      12.6268607       0.218618378      -76.6452147      0.218618378      -76.6452147      0.973036986      12.6268607       
682.87           0.973579023      12.4922804       0.216325504      -76.7803608      0.216325504      -76.7803608      0.973579023      12.4922804       
688.6            0.97410817       12.35952         0.214062471      -76.9136114      0.214062471      -76.9136114      0.97410817       12.35952         
694.33           0.974624809      12.2285385       0.211828638      -77.0450078      0.211828638      -77.0450078      0.974624809      12.2285385       
700.06           0.97512931       12.0992961       0.209623384      -77.17459        0.209623384      -77.17459        0.97512931       12.0992961       
705.79           0.975622028      11.9717541       0.207446101      -77.302397       0.207446101      -77.302397       0.975622028      11.9717541       
711.52           0.976103307      11.845875        0.2052962        -77.4284664      0.2052962        -77.4284664      0.976103307      11.845875        
717.25           0.976573478      11.7216222       0.203173108      -77.5528349      0.203173108      -77.5528349      0.976573478      11.7216222       
722.98           0.977032859      11.5989603       0.201076264      -77.675538       0.201076264      -77.675538       0.977032859      11.5989603       
728.71           0.977481759      11.4778548       0.199005127      -77.7966101      0.199005127      -77.7966101      0.977481759      11.4778548       
