! Coilcraft 0805CS-111 Chip Inductor				
! 11 June 2002			
# MHZ S MA R 50
!Freq             MagS11           AngS11           MagS21           AngS21           MagS12           AngS12           MagS22           AngS22
1                0.00926041965    46.9090491       0.993696678      -0.38992976      0.993696678      -0.38992976      0.00926041965    46.9090491       
5.49             0.0381723258     75.3269142       0.991019049      -2.13545282      0.991019049      -2.13545282      0.0381723258     75.3269142       
9.98             0.0682114629     78.1301743       0.988226761      -3.87317533      0.988226761      -3.87317533      0.0682114629     78.1301743       
14.47            0.0981586924     78.3037502       0.984803046      -5.60120404      0.984803046      -5.60120404      0.0981586924     78.3037502       
18.96            0.127851987      77.6573412       0.980656626      -7.3170914       0.980656626      -7.3170914       0.127851987      77.6573412       
23.45            0.157198874      76.6513124       0.975768618      -9.018311        0.975768618      -9.018311        0.157198874      76.6513124       
27.94            0.18612487       75.4600247       0.970148005      -10.7023861      0.970148005      -10.7023861      0.18612487       75.4600247       
32.43            0.214564747      74.1655409       0.963818567      -12.3669511      0.963818567      -12.3669511      0.214564747      74.1655409       
36.92            0.242460513      72.8123406       0.956813371      -14.0097891      0.956813371      -14.0097891      0.242460513      72.8123406       
41.41            0.269760918      71.4270785       0.94917181       -15.6288565      0.94917181       -15.6288565      0.269760918      71.4270785       
45.9             0.296421366      70.026968        0.940937673      -17.2222994      0.940937673      -17.2222994      0.296421366      70.026968        
50.39            0.322403869      68.6237745       0.932157719      -18.7884643      0.932157719      -18.7884643      0.322403869      68.6237745       
54.88            0.347676966      67.225892        0.92288054       -20.3259026      0.92288054       -20.3259026      0.347676966      67.225892        
59.37            0.372215545      65.8395019       0.913155611      -21.8333721      0.913155611      -21.8333721      0.372215545      65.8395019       
63.86            0.396000598      64.4692577       0.903032482      -23.3098342      0.903032482      -23.3098342      0.396000598      64.4692577       
68.35            0.419018886      63.1187112       0.892560103      -24.7544476      0.892560103      -24.7544476      0.419018886      63.1187112       
72.84            0.441262558      61.7905894       0.881786247      -26.1665606      0.881786247      -26.1665606      0.441262558      61.7905894       
77.33            0.462728709      60.4869828       0.870757047      -27.5457002      0.870757047      -27.5457002      0.462728709      60.4869828       
81.82            0.483418922      59.2094779       0.859516619      -28.8915613      0.859516619      -28.8915613      0.483418922      59.2094779       
86.31            0.503338789      57.9592539       0.84810678       -30.2039929      0.84810678       -30.2039929      0.503338789      57.9592539       
90.8             0.522497429      56.7371564       0.836566837      -31.4829857      0.836566837      -31.4829857      0.522497429      56.7371564       
95.29            0.54090702       55.5437543       0.824933453      -32.728658       0.824933453      -32.728658       0.54090702       55.5437543       
99.78            0.558582342      54.3793855       0.813240573      -33.9412422      0.813240573      -33.9412422      0.558582342      54.3793855       
104.27           0.575540349      53.2441944       0.801519397      -35.1210718      0.801519397      -35.1210718      0.575540349      53.2441944       
108.76           0.591799767      52.1381627       0.789798409      -36.2685684      0.789798409      -36.2685684      0.591799767      52.1381627       
113.25           0.607380729      51.061136        0.778103432      -37.3842296      0.778103432      -37.3842296      0.607380729      51.061136        
117.74           0.622304439      50.012846        0.766457717      -38.4686176      0.766457717      -38.4686176      0.622304439      50.012846        
122.23           0.636592874      48.9929296       0.754882052      -39.5223487      0.754882052      -39.5223487      0.636592874      48.9929296       
126.72           0.650268516      48.0009459       0.743394892      -40.5460834      0.743394892      -40.5460834      0.650268516      48.0009459       
131.21           0.663354125      47.0363902       0.732012491      -41.5405178      0.732012491      -41.5405178      0.663354125      47.0363902       
135.7            0.675872531      46.0987068       0.720749052      -42.5063752      0.720749052      -42.5063752      0.675872531      46.0987068       
140.19           0.687846471      45.1872995       0.70961687       -43.444399       0.70961687       -43.444399       0.687846471      45.1872995       
144.68           0.699298435      44.3015412       0.698626481      -44.3553468      0.698626481      -44.3553468      0.699298435      44.3015412       
149.17           0.710250555      43.4407821       0.687786806      -45.2399839      0.687786806      -45.2399839      0.710250555      43.4407821       
153.66           0.720724498      42.6043561       0.677105293      -46.0990793      0.677105293      -46.0990793      0.720724498      42.6043561       
158.15           0.730741393      41.7915876       0.666588051      -46.9334006      0.666588051      -46.9334006      0.730741393      41.7915876       
162.64           0.740321767      41.001796        0.656239978      -47.743711       0.656239978      -47.743711       0.740321767      41.001796        
167.13           0.749485498      40.2343001       0.646064881      -48.5307656      0.646064881      -48.5307656      0.749485498      40.2343001       
171.62           0.758251785      39.4884221       0.636065591      -49.2953094      0.636065591      -49.2953094      0.758251785      39.4884221       
176.11           0.766639119      38.7634904       0.626244068      -50.0380743      0.626244068      -50.0380743      0.766639119      38.7634904       
180.6            0.774665277      38.0588422       0.616601496      -50.7597782      0.616601496      -50.7597782      0.774665277      38.0588422       
185.09           0.782347312      37.3738255       0.607138376      -51.4611228      0.607138376      -51.4611228      0.782347312      37.3738255       
189.58           0.789701558      36.7078012       0.597854605      -52.1427928      0.597854605      -52.1427928      0.789701558      36.7078012       
194.07           0.796743637      36.0601439       0.588749553      -52.8054552      0.588749553      -52.8054552      0.796743637      36.0601439       
198.56           0.803488467      35.4302434       0.579822129      -53.4497582      0.579822129      -53.4497582      0.803488467      35.4302434       
203.05           0.809950284      34.8175052       0.571070846      -54.0763312      0.571070846      -54.0763312      0.809950284      34.8175052       
207.54           0.816142652      34.2213513       0.562493872      -54.6857843      0.562493872      -54.6857843      0.816142652      34.2213513       
212.03           0.822078492      33.6412205       0.554089084      -55.2787081      0.554089084      -55.2787081      0.822078492      33.6412205       
216.52           0.827770095      33.0765687       0.545854111      -55.8556742      0.545854111      -55.8556742      0.827770095      33.0765687       
221.01           0.833229152      32.5268687       0.537786375      -56.4172346      0.537786375      -56.4172346      0.833229152      32.5268687       
225.5            0.838466772      31.9916106       0.529883125      -56.9639227      0.529883125      -56.9639227      0.838466772      31.9916106       
229.99           0.84349351       31.4703015       0.522141473      -57.4962529      0.522141473      -57.4962529      0.84349351       31.4703015       
234.48           0.848319389      30.9624654       0.514558418      -58.0147213      0.514558418      -58.0147213      0.848319389      30.9624654       
238.97           0.852953923      30.4676426       0.507130872      -58.5198062      0.507130872      -58.5198062      0.852953923      30.4676426       
243.46           0.857406143      29.9853897       0.499855683      -59.0119682      0.499855683      -59.0119682      0.857406143      29.9853897       
247.95           0.861684618      29.5152795       0.492729655      -59.4916508      0.492729655      -59.4916508      0.861684618      29.5152795       
252.44           0.865797478      29.0568999       0.485749564      -59.9592811      0.485749564      -59.9592811      0.865797478      29.0568999       
256.93           0.869752435      28.609854        0.478912172      -60.41527        0.478912172      -60.41527        0.869752435      28.609854        
261.42           0.873556806      28.1737597       0.472214241      -60.8600129      0.472214241      -60.8600129      0.873556806      28.1737597       
265.91           0.87721753       27.748249        0.465652545      -61.29389        0.465652545      -61.29389        0.87721753       27.748249        
270.4            0.88074119       27.3329677       0.459223877      -61.717267       0.459223877      -61.717267       0.88074119       27.3329677       
274.89           0.884134034      26.927575        0.45292506       -62.1304957      0.45292506       -62.1304957      0.884134034      26.927575        
279.38           0.887401985      26.5317427       0.446752952      -62.5339143      0.446752952      -62.5339143      0.887401985      26.5317427       
283.87           0.890550666      26.1451553       0.440704455      -62.9278479      0.440704455      -62.9278479      0.890550666      26.1451553       
288.36           0.893585413      25.7675091       0.434776516      -63.3126092      0.434776516      -63.3126092      0.893585413      25.7675091       
292.85           0.896511289      25.398512        0.428966132      -63.6884988      0.428966132      -63.6884988      0.896511289      25.398512        
297.34           0.8993331        25.0378829       0.423270356      -64.0558056      0.423270356      -64.0558056      0.8993331        25.0378829       
301.83           0.902055409      24.6853515       0.417686298      -64.4148075      0.417686298      -64.4148075      0.902055409      24.6853515       
306.32           0.904682552      24.3406577       0.412211126      -64.7657718      0.412211126      -64.7657718      0.904682552      24.3406577       
310.81           0.907218643      24.0035512       0.40684207       -65.1089553      0.40684207       -65.1089553      0.907218643      24.0035512       
315.3            0.909667594      23.6737913       0.401576422      -65.4446052      0.401576422      -65.4446052      0.909667594      23.6737913       
319.79           0.912033119      23.3511463       0.396411535      -65.772959       0.396411535      -65.772959       0.912033119      23.3511463       
324.28           0.914318751      23.0353931       0.391344826      -66.0942455      0.391344826      -66.0942455      0.914318751      23.0353931       
328.77           0.916527847      22.7263174       0.386373777      -66.4086845      0.386373777      -66.4086845      0.916527847      22.7263174       
333.26           0.918663602      22.4237124       0.38149593       -66.7164876      0.38149593       -66.7164876      0.918663602      22.4237124       
337.75           0.920729051      22.1273795       0.376708893      -67.0178584      0.376708893      -67.0178584      0.920729051      22.1273795       
342.24           0.922727086      21.8371272       0.372010333      -67.3129929      0.372010333      -67.3129929      0.922727086      21.8371272       
346.73           0.924660457      21.5527711       0.367397982      -67.6020797      0.367397982      -67.6020797      0.924660457      21.5527711       
351.22           0.926531783      21.2741338       0.362869631      -67.8853003      0.362869631      -67.8853003      0.926531783      21.2741338       
355.71           0.928343557      21.0010444       0.35842313       -68.1628297      0.35842313       -68.1628297      0.928343557      21.0010444       
360.2            0.930098155      20.7333379       0.354056391      -68.4348362      0.354056391      -68.4348362      0.930098155      20.7333379       
364.69           0.931797841      20.4708559       0.34976738       -68.7014821      0.34976738       -68.7014821      0.931797841      20.4708559       
369.18           0.933444772      20.2134452       0.345554121      -68.9629236      0.345554121      -68.9629236      0.933444772      20.2134452       
373.67           0.935041006      19.9609585       0.341414696      -69.2193113      0.341414696      -69.2193113      0.935041006      19.9609585       
378.16           0.936588503      19.7132536       0.337347237      -69.4707903      0.337347237      -69.4707903      0.936588503      19.7132536       
382.65           0.938089135      19.4701934       0.333349931      -69.7175005      0.333349931      -69.7175005      0.938089135      19.4701934       
387.14           0.939544689      19.2316459       0.329421018      -69.9595768      0.329421018      -69.9595768      0.939544689      19.2316459       
391.63           0.94095687       18.9974834       0.325558786      -70.1971493      0.325558786      -70.1971493      0.94095687       18.9974834       
396.12           0.942327304      18.767583        0.321761572      -70.4303434      0.321761572      -70.4303434      0.942327304      18.767583        
400.61           0.943657548      18.5418259       0.318027762      -70.6592802      0.318027762      -70.6592802      0.943657548      18.5418259       
405.1            0.944949087      18.3200975       0.314355788      -70.8840764      0.314355788      -70.8840764      0.944949087      18.3200975       
409.59           0.94620334       18.1022873       0.310744128      -71.1048447      0.310744128      -71.1048447      0.94620334       18.1022873       
414.08           0.947421665      17.8882884       0.307191301      -71.321694       0.307191301      -71.321694       0.947421665      17.8882884       
418.57           0.94860536       17.6779977       0.303695873      -71.5347293      0.303695873      -71.5347293      0.94860536       17.6779977       
423.06           0.949755667      17.4713154       0.300256447      -71.744052       0.300256447      -71.744052       0.949755667      17.4713154       
427.55           0.950873774      17.2681454       0.296871669      -71.9497602      0.296871669      -71.9497602      0.950873774      17.2681454       
432.04           0.951960818      17.0683945       0.293540223      -72.1519483      0.293540223      -72.1519483      0.951960818      17.0683945       
436.53           0.953017888      16.8719729       0.29026083       -72.350708       0.29026083       -72.350708       0.953017888      16.8719729       
441.02           0.954046026      16.6787935       0.287032251      -72.5461276      0.287032251      -72.5461276      0.954046026      16.6787935       
445.51           0.955046233      16.4887723       0.283853278      -72.7382926      0.283853278      -72.7382926      0.955046233      16.4887723       
450              0.956019464      16.3018281       0.28072274       -72.9272855      0.28072274       -72.9272855      0.956019464      16.3018281       
454.49           0.956966639      16.117882        0.277639501      -73.1131862      0.277639501      -73.1131862      0.956966639      16.117882        
458.98           0.957888635      15.936858        0.274602453      -73.2960721      0.274602453      -73.2960721      0.957888635      15.936858        
463.47           0.958786298      15.7586825       0.271610524      -73.4760178      0.271610524      -73.4760178      0.958786298      15.7586825       
467.96           0.959660437      15.5832841       0.268662669      -73.6530958      0.268662669      -73.6530958      0.959660437      15.5832841       
472.45           0.960511828      15.4105938       0.265757876      -73.8273759      0.265757876      -73.8273759      0.960511828      15.4105938       
476.94           0.961341218      15.2405448       0.262895157      -73.9989259      0.262895157      -73.9989259      0.961341218      15.2405448       
481.43           0.962149321      15.0730723       0.260073555      -74.1678115      0.260073555      -74.1678115      0.962149321      15.0730723       
485.92           0.962936827      14.9081135       0.25729214       -74.334096       0.25729214       -74.334096       0.962936827      14.9081135       
490.41           0.963704395      14.7456078       0.254550006      -74.4978412      0.254550006      -74.4978412      0.963704395      14.7456078       
494.9            0.96445266       14.5854963       0.251846274      -74.6591064      0.251846274      -74.6591064      0.96445266       14.5854963       
499.39           0.965182232      14.4277217       0.249180088      -74.8179495      0.249180088      -74.8179495      0.965182232      14.4277217       
503.88           0.965893698      14.2722289       0.246550616      -74.9744263      0.246550616      -74.9744263      0.965893698      14.2722289       
508.37           0.966587621      14.1189641       0.243957049      -75.1285911      0.243957049      -75.1285911      0.966587621      14.1189641       
512.86           0.967264545      13.9678753       0.241398601      -75.2804965      0.241398601      -75.2804965      0.967264545      13.9678753       
517.35           0.967924992      13.8189119       0.238874506      -75.4301932      0.238874506      -75.4301932      0.967924992      13.8189119       
521.84           0.968569463      13.6720251       0.236384019      -75.5777309      0.236384019      -75.5777309      0.968569463      13.6720251       
526.33           0.969198444      13.5271672       0.233926417      -75.7231572      0.233926417      -75.7231572      0.969198444      13.5271672       
530.82           0.969812398      13.3842921       0.231500995      -75.8665188      0.231500995      -75.8665188      0.969812398      13.3842921       
535.31           0.970411776      13.2433551       0.229107066      -76.0078606      0.229107066      -76.0078606      0.970411776      13.2433551       
539.8            0.970997008      13.1043127       0.226743964      -76.1472265      0.226743964      -76.1472265      0.970997008      13.1043127       
544.29           0.971568512      12.9671225       0.224411038      -76.2846587      0.224411038      -76.2846587      0.971568512      12.9671225       
548.78           0.972126689      12.8317436       0.222107656      -76.4201986      0.222107656      -76.4201986      0.972126689      12.8317436       
553.27           0.972671925      12.6981362       0.219833203      -76.553886       0.219833203      -76.553886       0.972671925      12.6981362       
557.76           0.973204595      12.5662615       0.217587077      -76.6857599      0.217587077      -76.6857599      0.973204595      12.5662615       
562.25           0.973725057      12.4360819       0.215368697      -76.8158578      0.215368697      -76.8158578      0.973725057      12.4360819       
566.74           0.974233658      12.3075607       0.213177492      -76.9442163      0.213177492      -76.9442163      0.974233658      12.3075607       
571.23           0.974730735      12.1806626       0.211012909      -77.070871       0.211012909      -77.070871       0.974730735      12.1806626       
