! Coilcraft 0805CS-3N0 Chip Inductor				
! 11 June 2002			
# MHZ S MA R 50
!Freq             MagS11           AngS11           MagS21           AngS21           MagS12           AngS12           MagS22           AngS22
1                0.000713827121   15.2897094       0.999311457      -0.0107925638    0.999311457      -0.0107925638    0.000713827121   15.2897094       
40.9             0.00778834501    80.9352981       0.998802561      -0.441198905     0.998802561      -0.441198905     0.00778834501    80.9352981       
80.8             0.0152719734     83.8766213       0.998486413      -0.871379649     0.998486413      -0.871379649     0.0152719734     83.8766213       
120.7            0.0227658247     84.7315137       0.998167037      -1.30137216      0.998167037      -1.30137216      0.0227658247     84.7315137       
160.6            0.0302592284     85.0019355       0.997819185      -1.73117202      0.997819185      -1.73117202      0.0302592284     85.0019355       
200.5            0.0377491688     85.021169        0.997433043      -2.16076461      0.997433043      -2.16076461      0.0377491688     85.021169        
240.4            0.0452340401     84.9077494       0.997003616      -2.59013078      0.997003616      -2.59013078      0.0452340401     84.9077494       
280.3            0.0527126576     84.7150703       0.996527991      -3.01924891      0.996527991      -3.01924891      0.0527126576     84.7150703       
320.2            0.0601839966     84.470958        0.996004329      -3.44809589      0.996004329      -3.44809589      0.0601839966     84.470958        
360.1            0.067647105      84.1914398       0.995431409      -3.87664768      0.995431409      -3.87664768      0.067647105      84.1914398       
400              0.075101067      83.8864484       0.994808401      -4.30487956      0.994808401      -4.30487956      0.075101067      83.8864484       
439.9            0.0825449882     83.5624948       0.994134741      -4.73276642      0.994134741      -4.73276642      0.0825449882     83.5624948       
479.8            0.0899779879     83.2240419       0.993410046      -5.16028284      0.993410046      -5.16028284      0.0899779879     83.2240419       
519.7            0.0973991956     82.8742614       0.992634071      -5.58740323      0.992634071      -5.58740323      0.0973991956     82.8742614       
559.6            0.104807749      82.5154765       0.991806679      -6.01410191      0.991806679      -6.01410191      0.104807749      82.5154765       
599.5            0.112202795      82.1494332       0.990927812      -6.44035315      0.990927812      -6.44035315      0.112202795      82.1494332       
639.4            0.119583486      81.7774729       0.98999748       -6.86613124      0.98999748       -6.86613124      0.119583486      81.7774729       
679.3            0.126948983      81.4006461       0.989015751      -7.2914105       0.989015751      -7.2914105       0.126948983      81.4006461       
719.2            0.134298457      81.0197893       0.987982739      -7.71616537      0.987982739      -7.71616537      0.134298457      81.0197893       
759.1            0.141631083      80.6355793       0.986898598      -8.14037038      0.986898598      -8.14037038      0.141631083      80.6355793       
799              0.148946049      80.2485703       0.985763522      -8.56400021      0.985763522      -8.56400021      0.148946049      80.2485703       
838.9            0.15624255       79.8592227       0.984577732      -8.98702971      0.984577732      -8.98702971      0.15624255       79.8592227       
878.8            0.16351979       79.4679225       0.983341483      -9.40943392      0.983341483      -9.40943392      0.16351979       79.4679225       
918.7            0.170776985      79.0749968       0.982055052      -9.83118806      0.982055052      -9.83118806      0.170776985      79.0749968       
958.6            0.178013358      78.6807258       0.980718743      -10.2522676      0.980718743      -10.2522676      0.178013358      78.6807258       
998.5            0.185228147      78.2853512       0.979332881      -10.6726482      0.979332881      -10.6726482      0.185228147      78.2853512       
1038.4           0.192420597      77.8890832       0.977897813      -11.0923059      0.977897813      -11.0923059      0.192420597      77.8890832       
1078.3           0.199589968      77.4921064       0.976413905      -11.5112168      0.976413905      -11.5112168      0.199589968      77.4921064       
1118.2           0.206735529      77.0945834       0.974881539      -11.9293575      0.974881539      -11.9293575      0.206735529      77.0945834       
1158.1           0.213856562      76.6966591       0.973301118      -12.3467047      0.973301118      -12.3467047      0.213856562      76.6966591       
1198             0.220952363      76.2984626       0.971673057      -12.7632355      0.971673057      -12.7632355      0.220952363      76.2984626       
1237.9           0.228022239      75.9001103       0.96999779       -13.1789272      0.96999779       -13.1789272      0.228022239      75.9001103       
1277.8           0.23506551       75.5017073       0.968275762      -13.5937577      0.968275762      -13.5937577      0.23506551       75.5017073       
1317.7           0.242081511      75.1033492       0.966507433      -14.0077049      0.966507433      -14.0077049      0.242081511      75.1033492       
1357.6           0.249069589      74.705123        0.964693277      -14.4207473      0.964693277      -14.4207473      0.249069589      74.705123        
1397.5           0.256029104      74.3071085       0.962833778      -14.8328634      0.962833778      -14.8328634      0.256029104      74.3071085       
1437.4           0.262959433      73.9093794       0.960929433      -15.2440325      0.960929433      -15.2440325      0.262959433      73.9093794       
1477.3           0.269859964      73.5120034       0.958980749      -15.654234       0.958980749      -15.654234       0.269859964      73.5120034       
1517.2           0.276730102      73.1150435       0.956988244      -16.0634475      0.956988244      -16.0634475      0.276730102      73.1150435       
1557.1           0.283569265      72.7185581       0.954952446      -16.4716535      0.954952446      -16.4716535      0.283569265      72.7185581       
1597             0.290376885      72.3226018       0.95287389       -16.8788322      0.95287389       -16.8788322      0.290376885      72.3226018       
1636.9           0.297152411      71.9272255       0.950753123      -17.2849648      0.950753123      -17.2849648      0.297152411      71.9272255       
1676.8           0.303895305      71.5324771       0.948590696      -17.6900325      0.948590696      -17.6900325      0.303895305      71.5324771       
1716.7           0.310605046      71.1384015       0.946387171      -18.0940171      0.946387171      -18.0940171      0.310605046      71.1384015       
1756.6           0.317281125      70.7450409       0.944143116      -18.4969005      0.944143116      -18.4969005      0.317281125      70.7450409       
1796.5           0.323923052      70.3524352       0.941859104      -18.8986655      0.941859104      -18.8986655      0.323923052      70.3524352       
1836.4           0.330530348      69.9606221       0.939535715      -19.2992947      0.939535715      -19.2992947      0.330530348      69.9606221       
1876.3           0.337102554      69.5696372       0.937173536      -19.6987716      0.937173536      -19.6987716      0.337102554      69.5696372       
1916.2           0.343639222      69.1795144       0.934773157      -20.0970799      0.934773157      -20.0970799      0.343639222      69.1795144       
1956.1           0.350139922      68.7902857       0.932335174      -20.4942036      0.932335174      -20.4942036      0.350139922      68.7902857       
1996             0.356604237      68.4019816       0.929860186      -20.8901273      0.929860186      -20.8901273      0.356604237      68.4019816       
2035.9           0.363031769      68.0146311       0.927348798      -21.284836       0.927348798      -21.284836       0.363031769      68.0146311       
2075.8           0.369422131      67.6282616       0.924801615      -21.6783149      0.924801615      -21.6783149      0.369422131      67.6282616       
2115.7           0.375774954      67.2428996       0.922219247      -22.0705499      0.922219247      -22.0705499      0.375774954      67.2428996       
2155.6           0.382089883      66.85857         0.919602308      -22.4615271      0.919602308      -22.4615271      0.382089883      66.85857         
2195.5           0.388366578      66.4752966       0.91695141       -22.8512331      0.91695141       -22.8512331      0.388366578      66.4752966       
2235.4           0.394604714      66.0931023       0.91426717       -23.2396549      0.91426717       -23.2396549      0.394604714      66.0931023       
2275.3           0.400803983      65.7120087       0.911550205      -23.6267799      0.911550205      -23.6267799      0.400803983      65.7120087       
2315.2           0.406964088      65.3320366       0.908801134      -24.0125958      0.908801134      -24.0125958      0.406964088      65.3320366       
2355.1           0.41308475       64.9532058       0.906020576      -24.397091       0.906020576      -24.397091       0.41308475       64.9532058       
2395             0.419165702      64.5755351       0.903209149      -24.780254       0.903209149      -24.780254       0.419165702      64.5755351       
2434.9           0.425206694      64.1990427       0.900367473      -25.1620738      0.900367473      -25.1620738      0.425206694      64.1990427       
2474.8           0.431207489      63.8237456       0.897496166      -25.54254        0.897496166      -25.54254        0.431207489      63.8237456       
2514.7           0.437167863      63.4496603       0.894595845      -25.9216422      0.894595845      -25.9216422      0.437167863      63.4496603       
2554.6           0.443087608      63.0768025       0.891667129      -26.2993707      0.891667129      -26.2993707      0.443087608      63.0768025       
2594.5           0.448966528      62.705187        0.888710631      -26.6757162      0.888710631      -26.6757162      0.448966528      62.705187        
2634.4           0.454804444      62.3348282       0.885726965      -27.0506697      0.885726965      -27.0506697      0.454804444      62.3348282       
2674.3           0.460601186      61.9657395       0.882716743      -27.4242225      0.882716743      -27.4242225      0.460601186      61.9657395       
2714.2           0.466356599      61.5979338       0.879680575      -27.7963664      0.879680575      -27.7963664      0.466356599      61.5979338       
2754.1           0.472070544      61.2314234       0.876619066      -28.1670936      0.876619066      -28.1670936      0.472070544      61.2314234       
2794             0.477742891      60.8662199       0.87353282       -28.5363966      0.87353282       -28.5363966      0.477742891      60.8662199       
2833.9           0.483373523      60.5023344       0.87042244       -28.9042683      0.87042244       -28.9042683      0.483373523      60.5023344       
2873.8           0.488962339      60.1397774       0.867288521      -29.270702       0.867288521      -29.270702       0.488962339      60.1397774       
2913.7           0.494509247      59.7785587       0.864131658      -29.6356913      0.864131658      -29.6356913      0.494509247      59.7785587       
2953.6           0.500014168      59.4186877       0.860952441      -29.9992302      0.860952441      -29.9992302      0.500014168      59.4186877       
2993.5           0.505477034      59.0601733       0.857751456      -30.3613131      0.857751456      -30.3613131      0.505477034      59.0601733       
3033.4           0.510897791      58.7030239       0.854529285      -30.7219347      0.854529285      -30.7219347      0.510897791      58.7030239       
3073.3           0.516276395      58.3472472       0.851286506      -31.0810901      0.851286506      -31.0810901      0.516276395      58.3472472       
3113.2           0.521612812      57.9928506       0.848023691      -31.4387745      0.848023691      -31.4387745      0.521612812      57.9928506       
3153.1           0.52690702       57.6398411       0.84474141       -31.7949838      0.84474141       -31.7949838      0.52690702       57.6398411       
3193             0.532159009      57.288225        0.841440224      -32.149714       0.841440224      -32.149714       0.532159009      57.288225        
3232.9           0.537368778      56.9380083       0.838120693      -32.5029614      0.838120693      -32.5029614      0.537368778      56.9380083       
3272.8           0.542536336      56.5891967       0.834783369      -32.8547229      0.834783369      -32.8547229      0.542536336      56.5891967       
3312.7           0.547661702      56.2417952       0.8314288        -33.2049953      0.8314288        -33.2049953      0.547661702      56.2417952       
3352.6           0.552744907      55.8958086       0.828057528      -33.5537761      0.828057528      -33.5537761      0.552744907      55.8958086       
3392.5           0.557785989      55.5512412       0.824670089      -33.9010628      0.824670089      -33.9010628      0.557785989      55.5512412       
3432.4           0.562784996      55.2080969       0.821267013      -34.2468534      0.821267013      -34.2468534      0.562784996      55.2080969       
3472.3           0.567741985      54.8663794       0.817848826      -34.591146       0.817848826      -34.591146       0.567741985      54.8663794       
3512.2           0.572657022      54.5260918       0.814416046      -34.9339393      0.814416046      -34.9339393      0.572657022      54.5260918       
3552.1           0.577530183      54.187237        0.810969185      -35.2752319      0.810969185      -35.2752319      0.577530183      54.187237        
3592             0.582361549      53.8498174       0.807508749      -35.615023       0.807508749      -35.615023       0.582361549      53.8498174       
3631.9           0.587151212      53.5138353       0.80403524       -35.9533119      0.80403524       -35.9533119      0.587151212      53.5138353       
3671.8           0.591899272      53.1792924       0.800549151      -36.2900982      0.800549151      -36.2900982      0.591899272      53.1792924       
3711.7           0.596605833      52.8461902       0.797050968      -36.6253817      0.797050968      -36.6253817      0.596605833      52.8461902       
3751.6           0.601271011      52.51453         0.793541173      -36.9591625      0.793541173      -36.9591625      0.601271011      52.51453         
3791.5           0.605894927      52.1843126       0.79002024       -37.2914411      0.79002024       -37.2914411      0.605894927      52.1843126       
3831.4           0.610477708      51.8555386       0.786488637      -37.6222179      0.786488637      -37.6222179      0.610477708      51.8555386       
3871.3           0.61501949       51.5282083       0.782946825      -37.9514939      0.782946825      -37.9514939      0.61501949       51.5282083       
3911.2           0.619520414      51.2023217       0.779395258      -38.2792701      0.779395258      -38.2792701      0.619520414      51.2023217       
3951.1           0.623980628      50.8778786       0.775834383      -38.6055479      0.775834383      -38.6055479      0.623980628      50.8778786       
3991             0.628400284      50.5548785       0.772264643      -38.9303286      0.772264643      -38.9303286      0.628400284      50.5548785       
4030.9           0.632779543      50.2333206       0.768686471      -39.253614       0.768686471      -39.253614       0.632779543      50.2333206       
4070.8           0.63711857       49.9132039       0.765100295      -39.5754061      0.765100295      -39.5754061      0.63711857       49.9132039       
4110.7           0.641417535      49.5945271       0.761506535      -39.895707       0.761506535      -39.895707       0.641417535      49.5945271       
4150.6           0.645676615      49.2772887       0.757905606      -40.214519       0.757905606      -40.214519       0.645676615      49.2772887       
4190.5           0.649895989      48.961487        0.754297914      -40.5318447      0.754297914      -40.5318447      0.649895989      48.961487        
4230.4           0.654075843      48.6471201       0.75068386       -40.8476868      0.75068386       -40.8476868      0.654075843      48.6471201       
4270.3           0.658216368      48.3341858       0.747063838      -41.1620481      0.747063838      -41.1620481      0.658216368      48.3341858       
4310.2           0.662317759      48.0226817       0.743438234      -41.4749317      0.743438234      -41.4749317      0.662317759      48.0226817       
4350.1           0.666380213      47.7126052       0.73980743       -41.7863409      0.73980743       -41.7863409      0.666380213      47.7126052       
4390             0.670403934      47.4039536       0.736171797      -42.096279       0.736171797      -42.096279       0.670403934      47.4039536       
4429.9           0.674389128      47.0967239       0.732531703      -42.4047496      0.732531703      -42.4047496      0.674389128      47.0967239       
4469.8           0.678336006      46.790913        0.728887509      -42.7117565      0.728887509      -42.7117565      0.678336006      46.790913        
4509.7           0.682244782      46.4865176       0.725239568      -43.0173035      0.725239568      -43.0173035      0.682244782      46.4865176       
4549.6           0.686115672      46.1835342       0.721588226      -43.3213946      0.721588226      -43.3213946      0.686115672      46.1835342       
4589.5           0.689948897      45.8819592       0.717933824      -43.6240339      0.717933824      -43.6240339      0.689948897      45.8819592       
4629.4           0.693744681      45.5817886       0.714276696      -43.9252258      0.714276696      -43.9252258      0.693744681      45.5817886       
4669.3           0.697503248      45.2830186       0.71061717       -44.2249747      0.71061717       -44.2249747      0.697503248      45.2830186       
4709.2           0.701224828      44.9856451       0.706955566      -44.5232852      0.706955566      -44.5232852      0.701224828      44.9856451       
4749.1           0.704909653      44.6896637       0.703292199      -44.8201618      0.703292199      -44.8201618      0.704909653      44.6896637       
4789             0.708557955      44.3950701       0.699627377      -45.1156093      0.699627377      -45.1156093      0.708557955      44.3950701       
4828.9           0.712169969      44.1018598       0.695961403      -45.4096328      0.695961403      -45.4096328      0.712169969      44.1018598       
4868.8           0.715745935      43.8100281       0.692294572      -45.7022371      0.692294572      -45.7022371      0.715745935      43.8100281       
4908.7           0.719286092      43.5195703       0.688627174      -45.9934274      0.688627174      -45.9934274      0.719286092      43.5195703       
4948.6           0.72279068       43.2304813       0.684959492      -46.2832089      0.684959492      -46.2832089      0.72279068       43.2304813       
4988.5           0.726259943      42.9427563       0.681291805      -46.5715869      0.681291805      -46.5715869      0.726259943      42.9427563       
5028.4           0.729694125      42.65639         0.677624384      -46.8585667      0.677624384      -46.8585667      0.729694125      42.65639         
5068.3           0.733093473      42.3713773       0.673957494      -47.144154       0.673957494      -47.144154       0.733093473      42.3713773       
