! Coilcraft 0805CS-330 Chip Inductor				
! 11 June 2002			
# MHZ S MA R 50
!Freq             MagS11           AngS11           MagS21           AngS21           MagS12           AngS12           MagS22           AngS22
1                0.00386017321    32.251753        0.996737536      -0.118412517     0.996737536      -0.118412517     0.00386017321    32.251753        
8.73             0.0185410931     75.343732        0.995470368      -1.03249195      0.995470368      -1.03249195      0.0185410931     75.343732        
16.46            0.0343049284     79.6930253       0.994435024      -1.94500579      0.994435024      -1.94500579      0.0343049284     79.6930253       
24.19            0.0501232795     80.8768399       0.993286228      -2.85587098      0.993286228      -2.85587098      0.0501232795     80.8768399       
31.92            0.065923738      81.1186314       0.991962763      -3.76480983      0.991962763      -3.76480983      0.065923738      81.1186314       
39.65            0.0816810936     80.9494457       0.9904413        -4.67149377      0.9904413        -4.67149377      0.0816810936     80.9494457       
47.38            0.0973796736     80.5630934       0.988711172      -5.57557434      0.988711172      -5.57557434      0.0973796736     80.5630934       
55.11            0.113006895      80.0479975       0.986767525      -6.47669542      0.986767525      -6.47669542      0.113006895      80.0479975       
62.84            0.128551533      79.4506189       0.984608717      -7.37449959      0.984608717      -7.37449959      0.128551533      79.4506189       
70.57            0.144003135      78.7979021       0.982235128      -8.26863197      0.982235128      -8.26863197      0.144003135      78.7979021       
78.3             0.159351797      78.1066655       0.979648539      -9.15874284      0.979648539      -9.15874284      0.159351797      78.1066655       
86.03            0.174588079      77.3880265       0.976851764      -10.0444896      0.976851764      -10.0444896      0.174588079      77.3880265       
93.76            0.189702968      76.6496824       0.973848424      -10.9255384      0.973848424      -10.9255384      0.189702968      76.6496824       
101.49           0.204687872      75.8971701       0.970642796      -11.8015652      0.970642796      -11.8015652      0.204687872      75.8971701       
109.22           0.219534624      75.1346035       0.967239695      -12.6722569      0.967239695      -12.6722569      0.219534624      75.1346035       
116.95           0.234235487      74.3651244       0.963644387      -13.537312       0.963644387      -13.537312       0.234235487      74.3651244       
124.68           0.248783165      73.5911899       0.959862525      -14.3964416      0.959862525      -14.3964416      0.248783165      73.5911899       
132.41           0.263170807      72.8147617       0.955900083      -15.24937        0.955900083      -15.24937        0.263170807      72.8147617       
140.14           0.277392019      72.0374337       0.951763309      -16.0958348      0.951763309      -16.0958348      0.277392019      72.0374337       
147.87           0.291440862      71.2605213       0.947458677      -16.9355874      0.947458677      -16.9355874      0.291440862      71.2605213       
155.6            0.30531186       70.4851243       0.942992847      -17.7683937      0.942992847      -17.7683937      0.30531186       70.4851243       
163.33           0.318999997      69.7121726       0.938372626      -18.5940338      0.938372626      -18.5940338      0.318999997      69.7121726       
171.06           0.332500717      68.94246         0.933604931      -19.4123021      0.933604931      -19.4123021      0.332500717      68.94246         
178.79           0.345809917      68.1766694       0.928696761      -20.223008       0.928696761      -20.223008       0.345809917      68.1766694       
186.52           0.358923946      67.415392        0.923655161      -21.0259749      0.923655161      -21.0259749      0.358923946      67.415392        
194.25           0.371839591      66.6591421       0.918487196      -21.821041       0.918487196      -21.821041       0.371839591      66.6591421       
201.98           0.384554073      65.9083688       0.913199924      -22.6080585      0.913199924      -22.6080585      0.384554073      65.9083688       
209.71           0.397065032      65.1634652       0.907800374      -23.3868939      0.907800374      -23.3868939      0.397065032      65.1634652       
217.44           0.409370515      64.4247757       0.902295519      -24.1574275      0.902295519      -24.1574275      0.409370515      64.4247757       
225.17           0.421468965      63.6926021       0.896692259      -24.9195528      0.896692259      -24.9195528      0.421468965      63.6926021       
232.9            0.433359203      62.9672086       0.8909974        -25.6731769      0.8909974        -25.6731769      0.433359203      62.9672086       
240.63           0.445040415      62.2488257       0.885217639      -26.4182195      0.885217639      -26.4182195      0.445040415      62.2488257       
248.36           0.456512133      61.537654        0.879359545      -27.1546129      0.879359545      -27.1546129      0.456512133      61.537654        
256.09           0.467774219      60.833867        0.87342955       -27.8823012      0.87342955       -27.8823012      0.467774219      60.833867        
263.82           0.478826852      60.1376136       0.867433933      -28.6012403      0.867433933      -28.6012403      0.478826852      60.1376136       
271.55           0.489670503      59.4490204       0.861378813      -29.311397       0.861378813      -29.311397       0.489670503      59.4490204       
279.28           0.500305924      58.7681935       0.855270137      -30.0127488      0.855270137      -30.0127488      0.500305924      58.7681935       
287.01           0.510734127      58.0952206       0.849113673      -30.7052836      0.849113673      -30.7052836      0.510734127      58.0952206       
294.74           0.520956365      57.4301722       0.842915005      -31.3889987      0.842915005      -31.3889987      0.520956365      57.4301722       
302.47           0.530974122      56.773103        0.836679528      -32.0639006      0.836679528      -32.0639006      0.530974122      56.773103        
310.2            0.540789087      56.1240533       0.830412443      -32.7300046      0.830412443      -32.7300046      0.540789087      56.1240533       
317.93           0.550403144      55.4830502       0.824118755      -33.3873343      0.824118755      -33.3873343      0.550403144      55.4830502       
325.66           0.559818352      54.8501085       0.817803273      -34.0359208      0.817803273      -34.0359208      0.559818352      54.8501085       
333.39           0.56903693       54.2252318       0.811470606      -34.6758025      0.811470606      -34.6758025      0.56903693       54.2252318       
341.12           0.578061245      53.6084132       0.805125165      -35.3070249      0.805125165      -35.3070249      0.578061245      53.6084132       
348.85           0.586893792      52.9996365       0.798771165      -35.9296393      0.798771165      -35.9296393      0.586893792      52.9996365       
356.58           0.595537187      52.3988765       0.792412625      -36.5437033      0.792412625      -36.5437033      0.595537187      52.3988765       
364.31           0.603994145      51.8061002       0.786053371      -37.1492797      0.786053371      -37.1492797      0.603994145      51.8061002       
372.04           0.612267475      51.2212671       0.77969704       -37.7464366      0.77969704       -37.7464366      0.612267475      51.2212671       
379.77           0.620360065      50.64433         0.773347081      -38.3352464      0.773347081      -38.3352464      0.620360065      50.64433         
387.5            0.628274867      50.0752356       0.767006759      -38.9157859      0.767006759      -38.9157859      0.628274867      50.0752356       
395.23           0.636014895      49.5139251       0.760679162      -39.4881357      0.760679162      -39.4881357      0.636014895      49.5139251       
402.96           0.643583206      48.9603344       0.754367204      -40.05238        0.754367204      -40.05238        0.643583206      48.9603344       
410.69           0.650982894      48.4143952       0.748073628      -40.608606       0.748073628      -40.608606       0.650982894      48.4143952       
418.42           0.658217083      47.8760347       0.741801014      -41.1569037      0.741801014      -41.1569037      0.658217083      47.8760347       
426.15           0.665288916      47.3451766       0.735551781      -41.6973658      0.735551781      -41.6973658      0.665288916      47.3451766       
433.88           0.67220155       46.8217412       0.729328195      -42.2300871      0.729328195      -42.2300871      0.67220155       46.8217412       
441.61           0.678958145      46.3056461       0.723132373      -42.7551643      0.723132373      -42.7551643      0.678958145      46.3056461       
449.34           0.685561861      45.7968059       0.716966288      -43.2726957      0.716966288      -43.2726957      0.685561861      45.7968059       
457.07           0.69201585       45.2951335       0.710831777      -43.7827812      0.710831777      -43.7827812      0.69201585       45.2951335       
464.8            0.698323252      44.8005393       0.704730543      -44.2855218      0.704730543      -44.2855218      0.698323252      44.8005393       
472.53           0.70448719       44.3129323       0.698664162      -44.7810192      0.698664162      -44.7810192      0.70448719       44.3129323       
480.26           0.710510763      43.8322201       0.692634089      -45.2693764      0.692634089      -45.2693764      0.710510763      43.8322201       
487.99           0.716397044      43.358309        0.686641663      -45.7506963      0.686641663      -45.7506963      0.716397044      43.358309        
495.72           0.722149077      42.8911045       0.680688111      -46.2250828      0.680688111      -46.2250828      0.722149077      42.8911045       
503.45           0.727769871      42.4305114       0.674774555      -46.6926394      0.674774555      -46.6926394      0.727769871      42.4305114       
511.18           0.733262399      41.9764337       0.668902015      -47.1534702      0.668902015      -47.1534702      0.733262399      41.9764337       
518.91           0.738629596      41.5287752       0.663071416      -47.6076789      0.663071416      -47.6076789      0.738629596      41.5287752       
526.64           0.743874353      41.0874397       0.657283592      -48.0553689      0.657283592      -48.0553689      0.743874353      41.0874397       
534.37           0.748999521      40.6523306       0.651539288      -48.4966434      0.651539288      -48.4966434      0.748999521      40.6523306       
542.1            0.754007902      40.2233516       0.645839171      -48.9316052      0.645839171      -48.9316052      0.754007902      40.2233516       
549.83           0.758902254      39.8004066       0.640183826      -49.3603562      0.640183826      -49.3603562      0.758902254      39.8004066       
557.56           0.763685288      39.3834          0.634573767      -49.7829981      0.634573767      -49.7829981      0.763685288      39.3834          
565.29           0.768359661      38.9722363       0.629009438      -50.1996313      0.629009438      -50.1996313      0.768359661      38.9722363       
573.02           0.772927987      38.5668209       0.623491218      -50.6103559      0.623491218      -50.6103559      0.772927987      38.5668209       
580.75           0.777392824      38.1670596       0.618019422      -51.0152707      0.618019422      -51.0152707      0.777392824      38.1670596       
588.48           0.781756682      37.7728592       0.61259431       -51.4144736      0.61259431       -51.4144736      0.781756682      37.7728592       
596.21           0.786022019      37.3841269       0.607216084      -51.8080617      0.607216084      -51.8080617      0.786022019      37.3841269       
603.94           0.790191242      37.0007712       0.601884897      -52.1961307      0.601884897      -52.1961307      0.790191242      37.0007712       
611.67           0.794266706      36.6227011       0.596600852      -52.5787754      0.596600852      -52.5787754      0.794266706      36.6227011       
619.4            0.798250715      36.249827        0.591364008      -52.9560892      0.591364008      -52.9560892      0.798250715      36.249827        
627.13           0.802145523      35.88206         0.586174382      -53.3281646      0.586174382      -53.3281646      0.802145523      35.88206         
634.86           0.80595333       35.5193125       0.581031949      -53.6950926      0.581031949      -53.6950926      0.80595333       35.5193125       
642.59           0.80967629       35.1614976       0.575936649      -54.056963       0.575936649      -54.056963       0.80967629       35.1614976       
650.32           0.813316502      34.8085301       0.570888388      -54.4138645      0.570888388      -54.4138645      0.813316502      34.8085301       
658.05           0.81687602       34.4603254       0.565887039      -54.7658841      0.565887039      -54.7658841      0.81687602       34.4603254       
665.78           0.820356846      34.1168006       0.560932444      -55.113108       0.560932444      -55.113108       0.820356846      34.1168006       
673.51           0.823760935      33.7778735       0.55602442       -55.4556205      0.55602442       -55.4556205      0.823760935      33.7778735       
681.24           0.827090195      33.4434635       0.551162757      -55.7935051      0.551162757      -55.7935051      0.827090195      33.4434635       
688.97           0.830346485      33.1134911       0.546347219      -56.1268435      0.546347219      -56.1268435      0.830346485      33.1134911       
696.7            0.833531619      32.7878779       0.541577553      -56.4557164      0.541577553      -56.4557164      0.833531619      32.7878779       
704.43           0.836647367      32.4665469       0.536853481      -56.7802029      0.536853481      -56.7802029      0.836647367      32.4665469       
712.16           0.839695452      32.1494223       0.53217471       -57.1003809      0.53217471       -57.1003809      0.839695452      32.1494223       
719.89           0.842677555      31.8364295       0.527540928      -57.416327       0.527540928      -57.416327       0.842677555      31.8364295       
727.62           0.845595313      31.5274954       0.522951808      -57.7281162      0.522951808      -57.7281162      0.845595313      31.5274954       
735.35           0.848450322      31.2225477       0.518407009      -58.0358225      0.518407009      -58.0358225      0.848450322      31.2225477       
743.08           0.851244135      30.9215156       0.513906177      -58.3395183      0.513906177      -58.3395183      0.851244135      30.9215156       
750.81           0.853978268      30.6243297       0.509448946      -58.6392748      0.509448946      -58.6392748      0.853978268      30.6243297       
758.54           0.856654193      30.3309215       0.505034941      -58.9351619      0.505034941      -58.9351619      0.856654193      30.3309215       
766.27           0.859273348      30.0412238       0.500663775      -59.2272483      0.500663775      -59.2272483      0.859273348      30.0412238       
774              0.86183713       29.7551708       0.496335055      -59.5156012      0.496335055      -59.5156012      0.86183713       29.7551708       
781.73           0.864346901      29.4726978       0.492048379      -59.8002867      0.492048379      -59.8002867      0.864346901      29.4726978       
789.46           0.866803986      29.1937411       0.487803339      -60.0813697      0.487803339      -60.0813697      0.866803986      29.1937411       
797.19           0.869209676      28.9182384       0.483599522      -60.3589136      0.483599522      -60.3589136      0.869209676      28.9182384       
804.92           0.871565228      28.6461285       0.47943651       -60.6329808      0.47943651       -60.6329808      0.871565228      28.6461285       
812.65           0.873871863      28.3773513       0.475313879      -60.9036324      0.475313879      -60.9036324      0.873871863      28.3773513       
820.38           0.876130772      28.111848        0.471231203      -61.1709285      0.471231203      -61.1709285      0.876130772      28.111848        
828.11           0.878343113      27.8495606       0.467188052      -61.4349277      0.467188052      -61.4349277      0.878343113      27.8495606       
835.84           0.880510015      27.5904324       0.463183997      -61.6956878      0.463183997      -61.6956878      0.880510015      27.5904324       
843.57           0.882632574      27.3344079       0.459218604      -61.9532652      0.459218604      -61.9532652      0.882632574      27.3344079       
851.3            0.884711859      27.0814325       0.455291437      -62.2077153      0.455291437      -62.2077153      0.884711859      27.0814325       
859.03           0.886748909      26.8314526       0.451402064      -62.4590923      0.451402064      -62.4590923      0.886748909      26.8314526       
866.76           0.888744736      26.5844159       0.447550048      -62.7074495      0.447550048      -62.7074495      0.888744736      26.5844159       
874.49           0.890700325      26.3402708       0.443734955      -62.952839       0.443734955      -62.952839       0.890700325      26.3402708       
882.22           0.892616633      26.0989669       0.43995635       -63.1953119      0.43995635       -63.1953119      0.892616633      26.0989669       
889.95           0.894494595      25.8604547       0.4362138        -63.4349183      0.4362138        -63.4349183      0.894494595      25.8604547       
897.68           0.896335116      25.6246858       0.432506874      -63.6717072      0.432506874      -63.6717072      0.896335116      25.6246858       
905.41           0.898139081      25.3916126       0.42883514       -63.9057266      0.42883514       -63.9057266      0.898139081      25.3916126       
913.14           0.89990735       25.1611885       0.42519817       -64.1370237      0.42519817       -64.1370237      0.89990735       25.1611885       
920.87           0.901640759      24.9333679       0.421595539      -64.3656446      0.421595539      -64.3656446      0.901640759      24.9333679       
928.6            0.903340123      24.7081059       0.418026821      -64.5916345      0.418026821      -64.5916345      0.903340123      24.7081059       
936.33           0.905006235      24.4853586       0.414491596      -64.8150378      0.414491596      -64.8150378      0.905006235      24.4853586       
944.06           0.906639866      24.265083        0.410989445      -65.0358977      0.410989445      -65.0358977      0.906639866      24.265083        
951.79           0.908241769      24.047237        0.407519953      -65.2542567      0.407519953      -65.2542567      0.908241769      24.047237        
959.52           0.909812673      23.8317791       0.404082707      -65.4701566      0.404082707      -65.4701566      0.909812673      23.8317791       
967.25           0.911353291      23.6186689       0.400677299      -65.6836381      0.400677299      -65.6836381      0.911353291      23.6186689       
974.98           0.912864316      23.4078666       0.397303323      -65.8947412      0.397303323      -65.8947412      0.912864316      23.4078666       
982.71           0.914346423      23.1993333       0.393960377      -66.1035049      0.393960377      -66.1035049      0.914346423      23.1993333       
