! Coilcraft 0805CS-471 Chip Inductor				
! 11 June 2002			
# MHZ S MA R 50
!Freq             MagS11           AngS11           MagS21           AngS21           MagS12           AngS12           MagS22           AngS22
1                0.0369962086     49.5518578       0.976404339      -1.65230902      0.976404339      -1.65230902      0.0369962086     49.5518578       
2.99             0.0898240589     67.3695826       0.968990398      -4.90830695      0.968990398      -4.90830695      0.0898240589     67.3695826       
4.98             0.144343026      69.8680751       0.959934429      -8.1161638       0.959934429      -8.1161638       0.144343026      69.8680751       
6.97             0.197905248      69.4102933       0.948667715      -11.2615593      0.948667715      -11.2615593      0.197905248      69.4102933       
8.96             0.249785756      67.9264702       0.935230379      -14.3301002      0.935230379      -14.3301002      0.249785756      67.9264702       
10.95            0.299564078      66.0028312       0.919825151      -17.3090384      0.919825151      -17.3090384      0.299564078      66.0028312       
12.94            0.34695577       63.8825299       0.90272335       -20.1878641      0.90272335       -20.1878641      0.34695577       63.8825299       
14.93            0.391774401      61.6864292       0.884224258      -22.9585123      0.884224258      -22.9585123      0.391774401      61.6864292       
16.92            0.433915058      59.4817252       0.864630977      -25.6153495      0.864630977      -25.6153495      0.433915058      59.4817252       
18.91            0.473341696      57.3083457       0.844234486      -28.1550164      0.844234486      -28.1550164      0.473341696      57.3083457       
20.9             0.510074993      55.1907739       0.823303211      -30.5761811      0.823303211      -30.5761811      0.510074993      55.1907739       
22.89            0.544180495      53.1440135       0.802076827      -32.8792447      0.802076827      -32.8792447      0.544180495      53.1440135       
24.88            0.57575749       51.1769086       0.780763339      -35.0660318      0.780763339      -35.0660318      0.57575749       51.1769086       
26.87            0.604929056      49.2941465       0.75953862       -37.1394899      0.75953862       -37.1394899      0.604929056      49.2941465       
28.86            0.631833534      47.4975494       0.738547676      -39.1034125      0.738547676      -39.1034125      0.631833534      47.4975494       
30.85            0.656617542      45.786949        0.717907024      -40.9621963      0.717907024      -40.9621963      0.656617542      45.786949        
32.84            0.679430459      44.1608001       0.697707693      -42.7206336      0.697707693      -42.7206336      0.679430459      44.1608001       
34.83            0.70042026       42.6166225       0.67801847       -44.3837432      0.67801847       -44.3837432      0.70042026       42.6166225       
36.82            0.719730487      41.1513217       0.658889152      -45.9566337      0.658889152      -45.9566337      0.719730487      41.1513217       
38.81            0.737498184      39.7614249       0.640353617      -47.4443979      0.640353617      -47.4443979      0.737498184      39.7614249       
40.8             0.753852587      38.4432533       0.622432615      -48.8520336      0.622432615      -48.8520336      0.753852587      38.4432533       
42.79            0.768914391      37.1930472       0.605136257      -50.1843855      0.605136257      -50.1843855      0.768914391      37.1930472       
44.78            0.78279547       36.0070567       0.588466158      -51.4461052      0.588466158      -51.4461052      0.78279547       36.0070567       
46.77            0.795598899      34.8816048       0.572417267      -52.6416254      0.572417267      -52.6416254      0.795598899      34.8816048       
48.76            0.807419205      33.8131315       0.556979402      -53.7751445      0.556979402      -53.7751445      0.807419205      33.8131315       
50.75            0.818342762      32.7982223       0.542138521      -54.8506203      0.542138521      -54.8506203      0.818342762      32.7982223       
52.74            0.828448275      31.8336258       0.527877759      -55.8717697      0.527877759      -55.8717697      0.828448275      31.8336258       
54.73            0.837807309      30.9162634       0.514178275      -56.8420726      0.514178275      -56.8420726      0.837807309      30.9162634       
56.72            0.846484837      30.0432322       0.501019921      -57.7647798      0.501019921      -57.7647798      0.846484837      30.0432322       
58.71            0.854539788      29.2118044       0.488381787      -58.6429222      0.488381787      -58.6429222      0.854539788      29.2118044       
60.7             0.862025571      28.4194232       0.476242611      -59.4793223      0.476242611      -59.4793223      0.862025571      28.4194232       
62.69            0.868990575      27.6636969       0.464581115      -60.2766053      0.464581115      -60.2766053      0.868990575      27.6636969       
64.68            0.87547864       26.9423914       0.453376246      -61.0372117      0.453376246      -61.0372117      0.87547864       26.9423914       
66.67            0.881529489      26.2534224       0.442607367      -61.7634089      0.442607367      -61.7634089      0.881529489      26.2534224       
68.66            0.887179124      25.5948464       0.432254395      -62.4573033      0.432254395      -62.4573033      0.887179124      25.5948464       
70.65            0.892460196      24.9648524       0.422297895      -63.1208516      0.422297895      -63.1208516      0.892460196      24.9648524       
72.64            0.897402328      24.3617534       0.412719146      -63.7558714      0.412719146      -63.7558714      0.897402328      24.3617534       
74.63            0.902032421      23.7839778       0.403500186      -64.3640516      0.403500186      -64.3640516      0.902032421      23.7839778       
76.62            0.906374918      23.2300615       0.394623826      -64.9469622      0.394623826      -64.9469622      0.906374918      23.2300615       
78.61            0.910452055      22.6986406       0.386073664      -65.5060627      0.386073664      -65.5060627      0.910452055      22.6986406       
80.6             0.91428407       22.1884438       0.377834078      -66.0427113      0.377834078      -66.0427113      0.91428407       22.1884438       
82.59            0.917889407      21.6982859       0.36989021       -66.558172       0.36989021       -66.558172       0.917889407      21.6982859       
84.58            0.921284889      21.2270615       0.362227952      -67.053622       0.362227952      -67.053622       0.921284889      21.2270615       
86.57            0.924485877      20.7737389       0.354833916      -67.5301587      0.354833916      -67.5301587      0.924485877      20.7737389       
88.56            0.92750641       20.337355        0.347695413      -67.9888052      0.347695413      -67.9888052      0.92750641       20.337355        
90.55            0.930359334      19.91701         0.340800419      -68.4305162      0.340800419      -68.4305162      0.930359334      19.91701         
92.54            0.933056417      19.5118627       0.334137549      -68.8561835      0.334137549      -68.8561835      0.933056417      19.5118627       
94.53            0.935608446      19.1211263       0.327696026      -69.2666404      0.327696026      -69.2666404      0.935608446      19.1211263       
96.52            0.938025325      18.7440644       0.321465649      -69.6626662      0.321465649      -69.6626662      0.938025325      18.7440644       
98.51            0.940316153      18.3799873       0.315436762      -70.0449901      0.315436762      -70.0449901      0.940316153      18.3799873       
100.5            0.942489301      18.0282485       0.30960023       -70.4142954      0.30960023       -70.4142954      0.942489301      18.0282485       
102.49           0.944552475      17.6882416       0.303947407      -70.771222       0.303947407      -70.771222       0.944552475      17.6882416       
104.48           0.946512781      17.3593975       0.298470107      -71.1163707      0.298470107      -71.1163707      0.946512781      17.3593975       
106.47           0.948376772      17.0411819       0.293160584      -71.4503051      0.293160584      -71.4503051      0.948376772      17.0411819       
108.46           0.950150503      16.7330923       0.288011502      -71.7735546      0.288011502      -71.7735546      0.950150503      16.7330923       
110.45           0.951839572      16.4346563       0.283015913      -72.0866169      0.283015913      -72.0866169      0.951839572      16.4346563       
112.44           0.95344916       16.1454292       0.278167234      -72.3899604      0.278167234      -72.3899604      0.95344916       16.1454292       
114.43           0.954984064      15.8649923       0.273459228      -72.6840256      0.273459228      -72.6840256      0.954984064      15.8649923       
116.42           0.956448736      15.592951        0.268885982      -72.9692279      0.268885982      -72.9692279      0.956448736      15.592951        
118.41           0.957847305      15.3289329       0.264441889      -73.2459586      0.264441889      -73.2459586      0.957847305      15.3289329       
120.4            0.959183608      15.0725869       0.260121628      -73.5145871      0.260121628      -73.5145871      0.959183608      15.0725869       
122.39           0.960461213      14.8235813       0.255920152      -73.7754617      0.255920152      -73.7754617      0.960461213      14.8235813       
124.38           0.961683439      14.5816026       0.251832668      -74.0289119      0.251832668      -74.0289119      0.961683439      14.5816026       
126.37           0.96285338       14.3463544       0.247854622      -74.2752487      0.247854622      -74.2752487      0.96285338       14.3463544       
128.36           0.963973918      14.1175563       0.243981691      -74.5147665      0.243981691      -74.5147665      0.963973918      14.1175563       
130.35           0.965047744      13.8949429       0.240209762      -74.747744       0.240209762      -74.747744       0.965047744      13.8949429       
132.34           0.966077371      13.6782625       0.236534924      -74.9744449      0.236534924      -74.9744449      0.966077371      13.6782625       
134.33           0.967065147      13.4672769       0.232953459      -75.1951193      0.232953459      -75.1951193      0.967065147      13.4672769       
136.32           0.968013267      13.2617599       0.229461826      -75.4100042      0.229461826      -75.4100042      0.968013267      13.2617599       
138.31           0.968923788      13.0614968       0.226056652      -75.6193245      0.226056652      -75.6193245      0.968923788      13.0614968       
140.3            0.969798635      12.866284        0.222734727      -75.8232937      0.222734727      -75.8232937      0.969798635      12.866284        
142.29           0.970639616      12.6759277       0.219492989      -76.0221146      0.219492989      -76.0221146      0.970639616      12.6759277       
144.28           0.971448423      12.490244        0.216328522      -76.2159799      0.216328522      -76.2159799      0.971448423      12.490244        
146.27           0.972226647      12.3090577       0.21323854       -76.4050728      0.21323854       -76.4050728      0.972226647      12.3090577       
148.26           0.972975784      12.1322022       0.210220389      -76.5895677      0.210220389      -76.5895677      0.972975784      12.1322022       
150.25           0.973697238      11.9595188       0.207271532      -76.7696306      0.207271532      -76.7696306      0.973697238      11.9595188       
152.24           0.974392331      11.7908564       0.204389548      -76.9454195      0.204389548      -76.9454195      0.974392331      11.7908564       
154.23           0.975062308      11.6260709       0.201572125      -77.117085       0.201572125      -77.117085       0.975062308      11.6260709       
156.22           0.975708342      11.4650248       0.198817049      -77.2847707      0.198817049      -77.2847707      0.975708342      11.4650248       
158.21           0.976331539      11.3075872       0.196122207      -77.4486136      0.196122207      -77.4486136      0.976331539      11.3075872       
160.2            0.976932942      11.1536327       0.193485575      -77.6087443      0.193485575      -77.6087443      0.976932942      11.1536327       
162.19           0.977513534      11.0030419       0.190905219      -77.7652876      0.190905219      -77.7652876      0.977513534      11.0030419       
164.18           0.978074247      10.8557006       0.188379284      -77.9183626      0.188379284      -77.9183626      0.978074247      10.8557006       
166.17           0.978615959      10.7114994       0.185905996      -78.0680833      0.185905996      -78.0680833      0.978615959      10.7114994       
168.16           0.979139501      10.5703341       0.183483655      -78.2145585      0.183483655      -78.2145585      0.979139501      10.5703341       
170.15           0.979645659      10.4321047       0.181110629      -78.3578923      0.181110629      -78.3578923      0.979645659      10.4321047       
172.14           0.980135177      10.2967155       0.178785357      -78.4981844      0.178785357      -78.4981844      0.980135177      10.2967155       
174.13           0.980608762      10.1640749       0.176506339      -78.63553        0.176506339      -78.63553        0.980608762      10.1640749       
176.12           0.981067081      10.0340951       0.174272137      -78.7700205      0.174272137      -78.7700205      0.981067081      10.0340951       
178.11           0.981510768      9.90669207       0.17208137       -78.9017434      0.17208137       -78.9017434      0.981510768      9.90669207       
180.1            0.981940424      9.7817851        0.169932712      -79.0307825      0.169932712      -79.0307825      0.981940424      9.7817851        
182.09           0.98235662       9.65929682       0.16782489       -79.1572181      0.16782489       -79.1572181      0.98235662       9.65929682       
184.08           0.982759899      9.53915297       0.165756679      -79.2811273      0.165756679      -79.2811273      0.982759899      9.53915297       
186.07           0.983150775      9.42128228       0.163726903      -79.4025841      0.163726903      -79.4025841      0.983150775      9.42128228       
188.06           0.983529738      9.30561627       0.161734431      -79.5216594      0.161734431      -79.5216594      0.983529738      9.30561627       
190.05           0.983897254      9.19208919       0.159778175      -79.6384213      0.159778175      -79.6384213      0.983897254      9.19208919       
192.04           0.984253766      9.08063781       0.157857088      -79.7529353      0.157857088      -79.7529353      0.984253766      9.08063781       
194.03           0.984599697      8.97120137       0.155970162      -79.8652641      0.155970162      -79.8652641      0.984599697      8.97120137       
196.02           0.984935448      8.86372141       0.154116427      -79.9754682      0.154116427      -79.9754682      0.984935448      8.86372141       
198.01           0.985261402      8.75814169       0.152294947      -80.0836057      0.152294947      -80.0836057      0.985261402      8.75814169       
200              0.985577925      8.65440808       0.150504824      -80.1897323      0.150504824      -80.1897323      0.985577925      8.65440808       
201.99           0.985885365      8.55246848       0.148745188      -80.2939018      0.148745188      -80.2939018      0.985885365      8.55246848       
203.98           0.986184053      8.45227268       0.147015203      -80.3961658      0.147015203      -80.3961658      0.986184053      8.45227268       
205.97           0.986474308      8.35377234       0.145314063      -80.496574       0.145314063      -80.496574       0.986474308      8.35377234       
207.96           0.986756433      8.25692084       0.143640989      -80.5951743      0.143640989      -80.5951743      0.986756433      8.25692084       
209.95           0.987030716      8.16167327       0.141995231      -80.6920128      0.141995231      -80.6920128      0.987030716      8.16167327       
211.94           0.987297434      8.0679863        0.140376063      -80.7871338      0.140376063      -80.7871338      0.987297434      8.0679863        
213.93           0.987556852      7.97581813       0.138782786      -80.8805801      0.138782786      -80.8805801      0.987556852      7.97581813       
215.92           0.987809222      7.88512844       0.137214725      -80.9723928      0.137214725      -80.9723928      0.987809222      7.88512844       
217.91           0.988054787      7.7958783        0.135671226      -81.0626117      0.135671226      -81.0626117      0.988054787      7.7958783        
219.9            0.988293779      7.70803013       0.134151658      -81.1512751      0.134151658      -81.1512751      0.988293779      7.70803013       
221.89           0.988526418      7.62154762       0.132655413      -81.2384198      0.132655413      -81.2384198      0.988526418      7.62154762       
223.88           0.988752918      7.53639572       0.1311819        -81.3240815      0.1311819        -81.3240815      0.988752918      7.53639572       
225.87           0.988973483      7.45254053       0.12973055       -81.4082944      0.12973055       -81.4082944      0.988973483      7.45254053       
227.86           0.989188306      7.36994929       0.128300812      -81.4910916      0.128300812      -81.4910916      0.989188306      7.36994929       
229.85           0.989397577      7.28859035       0.126892152      -81.5725052      0.126892152      -81.5725052      0.989397577      7.28859035       
231.84           0.989601473      7.20843306       0.125504054      -81.652566       0.125504054      -81.652566       0.989601473      7.20843306       
233.83           0.989800167      7.12944781       0.124136019      -81.7313037      0.124136019      -81.7313037      0.989800167      7.12944781       
235.82           0.989993826      7.05160591       0.122787562      -81.808747       0.122787562      -81.808747       0.989993826      7.05160591       
237.81           0.990182606      6.97487961       0.121458215      -81.8849237      0.121458215      -81.8849237      0.990182606      6.97487961       
239.8            0.990366662      6.89924206       0.120147525      -81.9598605      0.120147525      -81.9598605      0.990366662      6.89924206       
241.79           0.990546138      6.82466722       0.118855051      -82.0335834      0.118855051      -82.0335834      0.990546138      6.82466722       
243.78           0.990721177      6.75112991       0.117580367      -82.1061172      0.117580367      -82.1061172      0.990721177      6.75112991       
245.77           0.990891914      6.6786057        0.11632306       -82.1774862      0.11632306       -82.1774862      0.990891914      6.6786057        
247.76           0.991058478      6.60707093       0.11508273       -82.2477136      0.11508273       -82.2477136      0.991058478      6.60707093       
249.75           0.991220996      6.53650268       0.113858989      -82.3168219      0.113858989      -82.3168219      0.991220996      6.53650268       
251.74           0.991379586      6.4668787        0.112651458      -82.3848328      0.112651458      -82.3848328      0.991379586      6.4668787        
253.73           0.991534366      6.39817742       0.111459773      -82.4517674      0.111459773      -82.4517674      0.991534366      6.39817742       
