! Coilcraft 0805CS-241 Chip Inductor				
! 11 June 2002			
# MHZ S MA R 50
!Freq             MagS11           AngS11           MagS21           AngS21           MagS12           AngS12           MagS22           AngS22
1                0.0199331752     46.1013885       0.986283239      -0.834425824     0.986283239      -0.834425824     0.0199331752     46.1013885       
4.24             0.063834089      70.5878121       0.980633861      -3.51984304      0.980633861      -3.51984304      0.063834089      70.5878121       
7.48             0.109434331      73.3607846       0.974322379      -6.17786455      0.974322379      -6.17786455      0.109434331      73.3607846       
10.72            0.154534619      73.1292325       0.966532324      -8.80107783      0.966532324      -8.80107783      0.154534619      73.1292325       
13.96            0.198687817      71.9232326       0.95717019       -11.3810216      0.95717019       -11.3810216      0.198687817      71.9232326       
17.2             0.241624278      70.2983626       0.94629197       -13.9096024      0.94629197       -13.9096024      0.241624278      70.2983626       
20.44            0.283140353      68.4738825       0.93401592       -16.3795394      0.93401592       -16.3795394      0.283140353      68.4738825       
23.68            0.323078439      66.5561461       0.920492272      -18.7845722      0.920492272      -18.7845722      0.323078439      66.5561461       
26.92            0.361321147      64.6040257       0.905887504      -21.1195545      0.905887504      -21.1195545      0.361321147      64.6040257       
30.16            0.397787927      62.6530926       0.890374115      -23.3804753      0.890374115      -23.3804753      0.397787927      62.6530926       
33.4             0.432431728      60.7260812       0.874123314      -25.5644269      0.874123314      -25.5644269      0.432431728      60.7260812       
36.64            0.465235239      58.8379852       0.857299681      -27.6695351      0.857299681      -27.6695351      0.465235239      58.8379852       
39.88            0.496206793      56.9987887       0.840057384      -29.6948655      0.840057384      -29.6948655      0.496206793      56.9987887       
43.12            0.525376129      55.2150544       0.822537679      -31.6403125      0.822537679      -31.6403125      0.525376129      55.2150544       
46.36            0.552790245      53.4909139       0.804867478      -33.5064841      0.804867478      -33.5064841      0.552790245      53.4909139       
49.6             0.578509495      51.8287247       0.78715876       -35.2945851      0.78715876       -35.2945851      0.578509495      51.8287247       
52.84            0.602604056      50.2295296       0.769508654      -37.0063064      0.769508654      -37.0063064      0.602604056      50.2295296       
56.08            0.625150843      48.693389        0.752000002      -38.6437222      0.752000002      -38.6437222      0.625150843      48.693389        
59.32            0.646230873      47.2196309       0.734702262      -40.2091977      0.734702262      -40.2091977      0.646230873      47.2196309       
62.56            0.665927094      45.8070413       0.717672615      -41.7053082      0.717672615      -41.7053082      0.665927094      45.8070413       
65.8             0.684322631      44.4540128       0.700957183      -43.1347694      0.700957183      -43.1347694      0.684322631      44.4540128       
69.04            0.701499425      43.1586591       0.684592278      -44.5003795      0.684592278      -44.5003795      0.701499425      43.1586591       
72.28            0.717537193      41.9189061       0.668605631      -45.80497        0.668605631      -45.80497        0.717537193      41.9189061       
75.52            0.732512681      40.7325626       0.653017549      -47.0513676      0.653017549      -47.0513676      0.732512681      40.7325626       
78.76            0.746499145      39.597375        0.637842002      -48.2423626      0.637842002      -48.2423626      0.746499145      39.597375        
82               0.759566023      38.5110703       0.623087597      -49.380685       0.623087597      -49.380685       0.759566023      38.5110703       
85.24            0.771778764      37.4713885       0.608758457      -50.4689866      0.608758457      -50.4689866      0.771778764      37.4713885       
88.48            0.783198762      36.4761068       0.594854999      -51.5098279      0.594854999      -51.5098279      0.783198762      36.4761068       
91.72            0.79388339       35.5230583       0.581374602      -52.5056691      0.581374602      -52.5056691      0.79388339       35.5230583       
94.96            0.803886093      34.6101445       0.5683122        -53.458864       0.5683122        -53.458864       0.803886093      34.6101445       
98.2             0.813256531      33.7353442       0.555660778      -54.3716577      0.555660778      -54.3716577      0.813256531      33.7353442       
101.44           0.82204075       32.8967197       0.543411799      -55.2461851      0.543411799      -55.2461851      0.82204075       32.8967197       
104.68           0.830281376      32.0924196       0.531555566      -56.0844719      0.531555566      -56.0844719      0.830281376      32.0924196       
107.92           0.838017817      31.3206802       0.52008152       -56.8884364      0.52008152       -56.8884364      0.838017817      31.3206802       
111.16           0.84528647       30.5798254       0.508978496      -57.6598924      0.508978496      -57.6598924      0.84528647       30.5798254       
114.4            0.852120927      29.8682656       0.498234926      -58.4005529      0.498234926      -58.4005529      0.852120927      29.8682656       
117.64           0.858552174      29.1844952       0.487839015      -59.1120339      0.487839015      -59.1120339      0.858552174      29.1844952       
120.88           0.864608787      28.5270903       0.477778875      -59.7958588      0.477778875      -59.7958588      0.864608787      28.5270903       
124.12           0.870317111      27.8947054       0.468042641      -60.4534627      0.468042641      -60.4534627      0.870317111      27.8947054       
127.36           0.875701438      27.2860701       0.458618558      -61.0861973      0.458618558      -61.0861973      0.875701438      27.2860701       
130.6            0.880784166      26.6999857       0.449495053      -61.6953349      0.449495053      -61.6953349      0.880784166      26.6999857       
133.84           0.885585952      26.1353216       0.440660792      -62.2820732      0.440660792      -62.2820732      0.885585952      26.1353216       
137.08           0.890125856      25.5910115       0.432104716      -62.8475395      0.432104716      -62.8475395      0.890125856      25.5910115       
140.32           0.894421465      25.0660504       0.423816079      -63.3927946      0.423816079      -63.3927946      0.894421465      25.0660504       
143.56           0.898489019      24.5594907       0.415784465      -63.9188375      0.415784465      -63.9188375      0.898489019      24.5594907       
146.8            0.902343519      24.070439        0.407999804      -64.4266081      0.407999804      -64.4266081      0.902343519      24.070439        
150.04           0.905998829      23.5980531       0.400452381      -64.916992       0.400452381      -64.916992       0.905998829      23.5980531       
153.28           0.909467772      23.1415388       0.393132841      -65.390823       0.393132841      -65.390823       0.909467772      23.1415388       
156.52           0.912762212      22.700147        0.386032187      -65.8488868      0.386032187      -65.8488868      0.912762212      22.700147        
159.76           0.915893134      22.2731711       0.379141778      -66.2919239      0.379141778      -66.2919239      0.915893134      22.2731711       
163              0.918870716      21.8599442       0.372453323      -66.7206326      0.372453323      -66.7206326      0.918870716      21.8599442       
166.24           0.921704396      21.4598367       0.365958876      -67.1356714      0.365958876      -67.1356714      0.921704396      21.4598367       
169.48           0.924402928      21.0722543       0.359650823      -67.5376618      0.359650823      -67.5376618      0.924402928      21.0722543       
172.72           0.926974442      20.6966352       0.353521876      -67.9271904      0.353521876      -67.9271904      0.926974442      20.6966352       
175.96           0.92942649       20.3324487       0.34756506       -68.3048114      0.34756506       -68.3048114      0.92942649       20.3324487       
179.2            0.931766094      19.9791931       0.341773705      -68.6710482      0.341773705      -68.6710482      0.931766094      19.9791931       
182.44           0.933999787      19.6363937       0.336141431      -69.0263959      0.336141431      -69.0263959      0.933999787      19.6363937       
185.68           0.936133653      19.3036013       0.330662139      -69.3713226      0.330662139      -69.3713226      0.936133653      19.3036013       
188.92           0.938173359      18.9803907       0.325329999      -69.7062712      0.325329999      -69.7062712      0.938173359      18.9803907       
192.16           0.940124191      18.6663592       0.320139439      -70.0316611      0.320139439      -70.0316611      0.940124191      18.6663592       
195.4            0.94199108       18.361125        0.315085134      -70.3478897      0.315085134      -70.3478897      0.94199108       18.361125        
198.64           0.94377863       18.0643263       0.310161992      -70.6553332      0.310161992      -70.6553332      0.94377863       18.0643263       
201.88           0.945491145      17.7756199       0.305365149      -70.9543488      0.305365149      -70.9543488      0.945491145      17.7756199       
205.12           0.947132647      17.49468         0.300689955      -71.245275       0.300689955      -71.245275       0.947132647      17.49468         
208.36           0.948706901      17.2211976       0.296131965      -71.5284331      0.296131965      -71.5284331      0.948706901      17.2211976       
211.6            0.950217433      16.9548787       0.291686927      -71.8041284      0.291686927      -71.8041284      0.950217433      16.9548787       
214.84           0.951667546      16.6954444       0.287350778      -72.0726507      0.287350778      -72.0726507      0.951667546      16.6954444       
218.08           0.953060335      16.4426291       0.283119631      -72.3342757      0.283119631      -72.3342757      0.953060335      16.4426291       
221.32           0.954398708      16.1961804       0.278989768      -72.5892653      0.278989768      -72.5892653      0.954398708      16.1961804       
224.56           0.955685392      15.955858        0.274957631      -72.8378688      0.274957631      -72.8378688      0.955685392      15.955858        
227.8            0.956922951      15.7214333       0.271019818      -73.0803237      0.271019818      -73.0803237      0.956922951      15.7214333       
231.04           0.958113793      15.4926882       0.267173068      -73.3168558      0.267173068      -73.3168558      0.958113793      15.4926882       
234.28           0.959260186      15.2694152       0.263414263      -73.5476806      0.263414263      -73.5476806      0.959260186      15.2694152       
237.52           0.960364262      15.0514162       0.259740415      -73.7730032      0.259740415      -73.7730032      0.960364262      15.0514162       
240.76           0.961428032      14.8385023       0.256148662      -73.9930194      0.256148662      -73.9930194      0.961428032      14.8385023       
244              0.962453389      14.6304933       0.252636263      -74.207916       0.252636263      -74.207916       0.962453389      14.6304933       
247.24           0.963442118      14.4272172       0.249200589      -74.4178711      0.249200589      -74.4178711      0.963442118      14.4272172       
250.48           0.964395904      14.2285095       0.24583912       -74.6230549      0.24583912       -74.6230549      0.964395904      14.2285095       
253.72           0.965316338      14.0342134       0.242549441      -74.8236302      0.242549441      -74.8236302      0.965316338      14.0342134       
256.96           0.966204922      13.8441785       0.239329235      -75.0197521      0.239329235      -75.0197521      0.966204922      13.8441785       
260.2            0.967063077      13.6582614       0.236176277      -75.2115694      0.236176277      -75.2115694      0.967063077      13.6582614       
263.44           0.967892146      13.4763246       0.233088434      -75.3992242      0.233088434      -75.3992242      0.967892146      13.4763246       
266.68           0.968693398      13.2982368       0.230063657      -75.5828524      0.230063657      -75.5828524      0.968693398      13.2982368       
269.92           0.969468038      13.1238719       0.227099978      -75.7625842      0.227099978      -75.7625842      0.969468038      13.1238719       
273.16           0.970217205      12.9531095       0.224195507      -75.9385443      0.224195507      -75.9385443      0.970217205      12.9531095       
276.4            0.970941977      12.785834        0.221348429      -76.1108522      0.221348429      -76.1108522      0.970941977      12.785834        
279.64           0.971643381      12.6219344       0.218556997      -76.2796223      0.218556997      -76.2796223      0.971643381      12.6219344       
282.88           0.972322386      12.4613047       0.215819535      -76.4449643      0.215819535      -76.4449643      0.972322386      12.4613047       
286.12           0.972979914      12.3038429       0.213134426      -76.6069836      0.213134426      -76.6069836      0.972979914      12.3038429       
289.36           0.973616842      12.1494511       0.210500121      -76.765781       0.210500121      -76.765781       0.973616842      12.1494511       
292.6            0.974234         11.9980355       0.207915123      -76.9214537      0.207915123      -76.9214537      0.974234         11.9980355       
295.84           0.974832179      11.8495057       0.205377996      -77.0740946      0.205377996      -77.0740946      0.974832179      11.8495057       
299.08           0.975412132      11.7037752       0.202887354      -77.2237932      0.202887354      -77.2237932      0.975412132      11.7037752       
302.32           0.975974573      11.5607605       0.200441865      -77.3706353      0.200441865      -77.3706353      0.975974573      11.5607605       
305.56           0.976520183      11.4203818       0.198040244      -77.5147034      0.198040244      -77.5147034      0.976520183      11.4203818       
308.8            0.97704961       11.2825618       0.195681253      -77.6560771      0.195681253      -77.6560771      0.97704961       11.2825618       
312.04           0.977563472      11.1472264       0.1933637        -77.7948326      0.1933637        -77.7948326      0.977563472      11.1472264       
315.28           0.978062357      11.0143044       0.191086433      -77.9310433      0.191086433      -77.9310433      0.978062357      11.0143044       
318.52           0.978546826      10.8837271       0.188848345      -78.0647799      0.188848345      -78.0647799      0.978546826      10.8837271       
321.76           0.979017415      10.7554283       0.186648364      -78.1961105      0.186648364      -78.1961105      0.979017415      10.7554283       
325              0.979474635      10.6293443       0.184485458      -78.3251005      0.184485458      -78.3251005      0.979474635      10.6293443       
328.24           0.979918972      10.5054137       0.182358631      -78.4518131      0.182358631      -78.4518131      0.979918972      10.5054137       
331.48           0.980350894      10.3835774       0.18026692       -78.5763091      0.18026692       -78.5763091      0.980350894      10.3835774       
334.72           0.980770843      10.2637782       0.178209397      -78.698647       0.178209397      -78.698647       0.980770843      10.2637782       
337.96           0.981179247      10.1459611       0.176185164      -78.8188834      0.176185164      -78.8188834      0.981179247      10.1459611       
341.2            0.981576511      10.0300729       0.174193354      -78.9370727      0.174193354      -78.9370727      0.981576511      10.0300729       
344.44           0.981963025      9.91606253       0.172233129      -79.0532674      0.172233129      -79.0532674      0.981963025      9.91606253       
347.68           0.982339159      9.80388038       0.170303679      -79.1675182      0.170303679      -79.1675182      0.982339159      9.80388038       
350.92           0.982705271      9.69347868       0.168404221      -79.2798741      0.168404221      -79.2798741      0.982705271      9.69347868       
354.16           0.983061702      9.58481128       0.166533998      -79.3903822      0.166533998      -79.3903822      0.983061702      9.58481128       
357.4            0.983408778      9.47783357       0.164692277      -79.4990882      0.164692277      -79.4990882      0.983408778      9.47783357       
360.64           0.983746812      9.37250247       0.162878349      -79.606036       0.162878349      -79.606036       0.983746812      9.37250247       
363.88           0.984076104      9.26877629       0.161091528      -79.7112682      0.161091528      -79.7112682      0.984076104      9.26877629       
367.12           0.984396943      9.16661474       0.159331149      -79.8148259      0.159331149      -79.8148259      0.984396943      9.16661474       
370.36           0.984709603      9.06597887       0.157596571      -79.9167487      0.157596571      -79.9167487      0.984709603      9.06597887       
373.6            0.985014349      8.96683095       0.15588717       -80.017075       0.15588717       -80.017075       0.985014349      8.96683095       
376.84           0.985311437      8.86913451       0.154202342      -80.115842       0.154202342      -80.115842       0.985311437      8.86913451       
380.08           0.985601109      8.77285423       0.152541504      -80.2130854      0.152541504      -80.2130854      0.985601109      8.77285423       
383.32           0.9858836        8.67795591       0.150904088      -80.3088401      0.150904088      -80.3088401      0.9858836        8.67795591       
386.56           0.986159135      8.58440645       0.149289547      -80.4031395      0.149289547      -80.4031395      0.986159135      8.58440645       
389.8            0.98642793       8.49217375       0.147697346      -80.4960161      0.147697346      -80.4960161      0.98642793       8.49217375       
393.04           0.986690194      8.40122676       0.14612697       -80.5875013      0.14612697       -80.5875013      0.986690194      8.40122676       
396.28           0.986946127      8.31153533       0.144577919      -80.6776256      0.144577919      -80.6776256      0.986946127      8.31153533       
399.52           0.98719592       8.22307029       0.143049706      -80.7664184      0.143049706      -80.7664184      0.98719592       8.22307029       
402.76           0.987439758      8.13580332       0.141541859      -80.8539081      0.141541859      -80.8539081      0.987439758      8.13580332       
406              0.987677821      8.04970697       0.140053923      -80.9401223      0.140053923      -80.9401223      0.987677821      8.04970697       
409.24           0.987910279      7.96475461       0.138585451      -81.0250879      0.138585451      -81.0250879      0.987910279      7.96475461       
412.48           0.988137297      7.88092042       0.137136014      -81.1088305      0.137136014      -81.1088305      0.988137297      7.88092042       
