! Coilcraft 0805CS-561 Chip Inductor				
! 11 June 2002			
# MHZ S MA R 50
!Freq             MagS11           AngS11           MagS21           AngS21           MagS12           AngS12           MagS22           AngS22
1                0.041846203      53.1396812       0.975472632      -1.96695009      0.975472632      -1.96695009      0.041846203      53.1396812       
2.49             0.089099111      67.55745         0.969489688      -4.87272518      0.969489688      -4.87272518      0.089099111      67.55745         
3.98             0.137793412      70.1456037       0.96197151       -7.74278965      0.96197151       -7.74278965      0.137793412      70.1456037       
5.47             0.185884544      70.0065951       0.952596851      -10.5663573      0.952596851      -10.5663573      0.185884544      70.0065951       
6.96             0.232767021      68.8516646       0.941394379      -13.3326805      0.941394379      -13.3326805      0.232767021      68.8516646       
8.45             0.278092547      67.2345319       0.928501012      -16.0320107      0.928501012      -16.0320107      0.278092547      67.2345319       
9.94             0.321619171      65.3916819       0.914104052      -18.6559802      0.914104052      -18.6559802      0.321619171      65.3916819       
11.43            0.363176002      63.4427053       0.898415422      -21.1977691      0.898415422      -21.1977691      0.363176002      63.4427053       
12.92            0.40265007       61.4551471       0.88165592       -23.6521467      0.88165592       -23.6521467      0.40265007       61.4551471       
14.41            0.439978192      59.4700197       0.86404428       -26.0154251      0.86404428       -26.0154251      0.439978192      59.4700197       
15.9             0.475139865      57.5133432       0.84578935       -28.2853506      0.84578935       -28.2853506      0.475139865      57.5133432       
17.39            0.508150309      55.6019638       0.827084738      -30.4609566      0.827084738      -30.4609566      0.508150309      55.6019638       
18.88            0.539053684      53.7467602       0.808105453      -32.5423938      0.808105453      -32.5423938      0.539053684      53.7467602       
20.37            0.567916677      51.9545517       0.789006186      -34.5307522      0.789006186      -34.5307522      0.567916677      51.9545517       
21.86            0.594822659      50.2293089       0.769920856      -36.4278881      0.769920856      -36.4278881      0.594822659      50.2293089       
23.35            0.619866565      48.5729638       0.750963122      -38.2362602      0.750963122      -38.2362602      0.619866565      48.5729638       
24.84            0.643150543      46.9859771       0.732227542      -39.9587834      0.732227542      -39.9587834      0.643150543      46.9859771       
26.33            0.664780387      45.4677462       0.713791153      -41.5986988      0.713791153      -41.5986988      0.664780387      45.4677462       
27.82            0.684862692      44.0169077       0.695715277      -43.1594645      0.695715277      -43.1594645      0.684862692      44.0169077       
29.31            0.703502669      42.6315632       0.678047398      -44.6446636      0.678047398      -44.6446636      0.703502669      42.6315632       
30.8             0.720802522      41.3094504       0.660823018      -46.0579295      0.660823018      -46.0579295      0.720802522      41.3094504       
32.29            0.736860296      40.0480728       0.644067408      -47.4028866      0.644067408      -47.4028866      0.736860296      40.0480728       
33.78            0.751769116      38.8447979       0.627797223      -48.6831045      0.627797223      -48.6831045      0.751769116      38.8447979       
35.27            0.765616729      37.6969309       0.612021954      -49.9020627      0.612021954      -49.9020627      0.765616729      37.6969309       
36.76            0.778485281      36.6017703       0.596745205      -51.0631255      0.596745205      -51.0631255      0.778485281      36.6017703       
38.25            0.790451278      35.5566483       0.581965813      -52.1695243      0.581965813      -52.1695243      0.790451278      35.5566483       
39.74            0.801585676      34.5589603       0.567678805      -53.2243466      0.567678805      -53.2243466      0.801585676      34.5589603       
41.23            0.811954059      33.6061856       0.55387621       -54.2305289      0.55387621       -54.2305289      0.811954059      33.6061856       
42.72            0.821616887      32.695901        0.540547746      -55.1908546      0.540547746      -55.1908546      0.821616887      32.695901        
44.21            0.83062978       31.8257899       0.527681393      -56.1079541      0.527681393      -56.1079541      0.83062978       31.8257899       
45.7             0.839043819      30.9936467       0.515263867      -56.9843075      0.515263867      -56.9843075      0.839043819      30.9936467       
47.19            0.846905862      30.1973788       0.503281005      -57.8222488      0.503281005      -57.8222488      0.846905862      30.1973788       
48.68            0.854258855      29.4350061       0.491718087      -58.6239711      0.491718087      -58.6239711      0.854258855      29.4350061       
50.17            0.861142134      28.704659        0.480560086      -59.3915329      0.480560086      -59.3915329      0.861142134      28.704659        
51.66            0.867591715      28.0045753       0.469791876      -60.1268644      0.469791876      -60.1268644      0.867591715      28.0045753       
53.15            0.873640573      27.3330961       0.459398394      -60.8317744      0.459398394      -60.8317744      0.873640573      27.3330961       
54.64            0.879318894      26.6886613       0.449364761      -61.5079572      0.449364761      -61.5079572      0.879318894      26.6886613       
56.13            0.884654322      26.069805        0.439676388      -62.1569994      0.439676388      -62.1569994      0.884654322      26.069805        
57.62            0.889672175      25.4751507       0.430319039      -62.7803862      0.430319039      -62.7803862      0.889672175      25.4751507       
59.11            0.894395651      24.9034056       0.421278894      -63.3795083      0.421278894      -63.3795083      0.894395651      24.9034056       
60.6             0.89884602       24.3533568       0.41254258       -63.9556678      0.41254258       -63.9556678      0.89884602       24.3533568       
62.09            0.903042789      23.8238656       0.404097199      -64.510084       0.404097199      -64.510084       0.903042789      23.8238656       
63.58            0.907003865      23.3138632       0.395930342      -65.0438988      0.395930342      -65.0438988      0.907003865      23.3138632       
65.07            0.910745693      22.8223467       0.388030097      -65.5581824      0.388030097      -65.5581824      0.910745693      22.8223467       
66.56            0.914283387      22.3483742       0.380385046      -66.0539378      0.380385046      -66.0539378      0.914283387      22.3483742       
68.05            0.917630853      21.8910612       0.372984265      -66.5321054      0.372984265      -66.5321054      0.917630853      21.8910612       
69.54            0.920800887      21.4495768       0.36581731       -66.9935673      0.36581731       -66.9935673      0.920800887      21.4495768       
71.03            0.92380528       21.0231404       0.358874209      -67.4391517      0.358874209      -67.4391517      0.92380528       21.0231404       
72.52            0.926654904      20.6110179       0.352145448      -67.8696358      0.352145448      -67.8696358      0.926654904      20.6110179       
74.01            0.929359788      20.2125188       0.345621955      -68.2857502      0.345621955      -68.2857502      0.929359788      20.2125188       
75.5             0.931929199      19.8269936       0.339295084      -68.6881814      0.339295084      -68.6881814      0.931929199      19.8269936       
76.99            0.934371699      19.4538306       0.333156597      -69.0775751      0.333156597      -69.0775751      0.934371699      19.4538306       
78.48            0.936695211      19.0924539       0.32719865       -69.454539       0.32719865       -69.454539       0.936695211      19.0924539       
79.97            0.938907069      18.7423206       0.321413774      -69.8196452      0.321413774      -69.8196452      0.938907069      18.7423206       
81.46            0.941014071      18.4029189       0.315794855      -70.1734327      0.315794855      -70.1734327      0.941014071      18.4029189       
82.95            0.943022522      18.0737658       0.310335125      -70.5164096      0.310335125      -70.5164096      0.943022522      18.0737658       
84.44            0.944938273      17.7544057       0.305028136      -70.8490553      0.305028136      -70.8490553      0.944938273      17.7544057       
85.93            0.94676676       17.444408        0.299867752      -71.1718219      0.299867752      -71.1718219      0.94676676       17.444408        
87.42            0.948513039      17.1433661       0.294848131      -71.4851366      0.294848131      -71.4851366      0.948513039      17.1433661       
88.91            0.950181814      16.8508953       0.289963707      -71.789403       0.289963707      -71.789403       0.950181814      16.8508953       
90.4             0.951777464      16.5666319       0.285209181      -72.0850025      0.285209181      -72.0850025      0.951777464      16.5666319       
91.89            0.953304073      16.2902314       0.280579506      -72.372296       0.280579506      -72.372296       0.953304073      16.2902314       
93.38            0.954765449      16.0213679       0.27606987       -72.6516252      0.27606987       -72.6516252      0.954765449      16.0213679       
94.87            0.956165148      15.7597322       0.27167569       -72.9233134      0.27167569       -72.9233134      0.956165148      15.7597322       
96.36            0.957506491      15.5050314       0.267392596      -73.1876671      0.267392596      -73.1876671      0.957506491      15.5050314       
97.85            0.958792582      15.2569876       0.26321642       -73.444977       0.26321642       -73.444977       0.958792582      15.2569876       
99.34            0.960026329      15.0153371       0.259143189      -73.6955185      0.259143189      -73.6955185      0.960026329      15.0153371       
100.83           0.96121045       14.7798293       0.255169111      -73.9395533      0.255169111      -73.9395533      0.96121045       14.7798293       
102.32           0.962347495      14.5502263       0.251290567      -74.1773298      0.251290567      -74.1773298      0.962347495      14.5502263       
103.81           0.963439855      14.3263018       0.247504101      -74.4090838      0.247504101      -74.4090838      0.963439855      14.3263018       
105.3            0.964489772      14.1078408       0.243806416      -74.6350398      0.243806416      -74.6350398      0.964489772      14.1078408       
106.79           0.965499352      13.8946384       0.240194359      -74.8554109      0.240194359      -74.8554109      0.965499352      13.8946384       
108.28           0.966470573      13.6864997       0.236664918      -75.0704001      0.236664918      -75.0704001      0.966470573      13.6864997       
109.77           0.967405298      13.483239        0.233215214      -75.2802006      0.233215214      -75.2802006      0.967405298      13.483239        
111.26           0.968305276      13.2846795       0.229842495      -75.4849964      0.229842495      -75.4849964      0.968305276      13.2846795       
112.75           0.969172155      13.0906523       0.226544127      -75.6849628      0.226544127      -75.6849628      0.969172155      13.0906523       
114.24           0.970007488      12.9009966       0.223317589      -75.8802668      0.223317589      -75.8802668      0.970007488      12.9009966       
115.73           0.970812739      12.7155587       0.220160471      -76.0710678      0.220160471      -76.0710678      0.970812739      12.7155587       
117.22           0.971589289      12.5341921       0.217070461      -76.257518       0.217070461      -76.257518       0.971589289      12.5341921       
118.71           0.97233844       12.3567565       0.214045348      -76.4397622      0.214045348      -76.4397622      0.97233844       12.3567565       
120.2            0.973061423      12.1831182       0.211083011      -76.6179393      0.211083011      -76.6179393      0.973061423      12.1831182       
121.69           0.973759402      12.0131491       0.208181419      -76.7921814      0.208181419      -76.7921814      0.973759402      12.0131491       
123.18           0.974433475      11.8467269       0.205338623      -76.9626152      0.205338623      -76.9626152      0.974433475      11.8467269       
124.67           0.975084682      11.6837343       0.202552754      -77.1293616      0.202552754      -77.1293616      0.975084682      11.6837343       
126.16           0.975714009      11.5240592       0.199822019      -77.2925361      0.199822019      -77.2925361      0.975714009      11.5240592       
127.65           0.976322388      11.3675941       0.197144697      -77.4522496      0.197144697      -77.4522496      0.976322388      11.3675941       
129.14           0.976910701      11.2142363       0.194519136      -77.6086078      0.194519136      -77.6086078      0.976910701      11.2142363       
130.63           0.977479788      11.0638869       0.191943747      -77.7617122      0.191943747      -77.7617122      0.977479788      11.0638869       
132.12           0.978030441      10.9164515       0.189417007      -77.9116599      0.189417007      -77.9116599      0.978030441      10.9164515       
133.61           0.978563416      10.7718393       0.18693745       -78.0585439      0.18693745       -78.0585439      0.978563416      10.7718393       
135.1            0.979079429      10.6299633       0.184503667      -78.2024534      0.184503667      -78.2024534      0.979079429      10.6299633       
136.59           0.979579158      10.4907397       0.182114303      -78.3434739      0.182114303      -78.3434739      0.979579158      10.4907397       
138.08           0.980063252      10.3540885       0.179768055      -78.4816872      0.179768055      -78.4816872      0.980063252      10.3540885       
139.57           0.980532325      10.2199324       0.177463668      -78.6171721      0.177463668      -78.6171721      0.980532325      10.2199324       
141.06           0.980986961      10.0881973       0.175199935      -78.750004       0.175199935      -78.750004       0.980986961      10.0881973       
142.55           0.981427717      9.958812         0.172975695      -78.8802552      0.172975695      -78.8802552      0.981427717      9.958812         
144.04           0.981855124      9.83170798       0.170789826      -79.0079952      0.170789826      -79.0079952      0.981855124      9.83170798       
145.53           0.982269686      9.70681929       0.168641251      -79.1332908      0.168641251      -79.1332908      0.982269686      9.70681929       
147.02           0.982671884      9.58408249       0.166528929      -79.256206       0.166528929      -79.256206       0.982671884      9.58408249       
148.51           0.983062177      9.4634365        0.16445186       -79.3768024      0.16445186       -79.3768024      0.983062177      9.4634365        
150              0.983441003      9.3448225        0.162409075      -79.4951392      0.162409075      -79.4951392      0.983441003      9.3448225        
151.49           0.98380878       9.22818383       0.160399644      -79.6112732      0.160399644      -79.6112732      0.98380878       9.22818383       
152.98           0.984165906      9.11346587       0.158422667      -79.725259       0.158422667      -79.725259       0.984165906      9.11346587       
154.47           0.984512762      9.00061601       0.156477276      -79.8371491      0.156477276      -79.8371491      0.984512762      9.00061601       
155.96           0.984849712      8.88958347       0.154562633      -79.946994       0.154562633      -79.946994       0.984849712      8.88958347       
157.45           0.985177104      8.78031932       0.152677929      -80.0548423      0.152677929      -80.0548423      0.985177104      8.78031932       
158.94           0.985495269      8.67277631       0.150822383      -80.1607406      0.150822383      -80.1607406      0.985495269      8.67277631       
160.43           0.985804528      8.56690886       0.14899524       -80.264734       0.14899524       -80.264734       0.985804528      8.56690886       
161.92           0.986105182      8.46267297       0.147195769      -80.3668655      0.147195769      -80.3668655      0.986105182      8.46267297       
163.41           0.986397525      8.36002614       0.145423266      -80.4671767      0.145423266      -80.4671767      0.986397525      8.36002614       
164.9            0.986681834      8.25892733       0.143677049      -80.5657076      0.143677049      -80.5657076      0.986681834      8.25892733       
166.39           0.986958378      8.15933685       0.141956459      -80.6624967      0.141956459      -80.6624967      0.986958378      8.15933685       
167.88           0.987227412      8.0612164        0.140260857      -80.757581       0.140260857      -80.757581       0.987227412      8.0612164        
169.37           0.987489181      7.9645289        0.138589625      -80.8509959      0.138589625      -80.8509959      0.987489181      7.9645289        
170.86           0.987743922      7.86923853       0.136942168      -80.9427759      0.136942168      -80.9427759      0.987743922      7.86923853       
172.35           0.98799186       7.77531062       0.135317906      -81.0329538      0.135317906      -81.0329538      0.98799186       7.77531062       
173.84           0.988233211      7.68271163       0.133716279      -81.1215613      0.133716279      -81.1215613      0.988233211      7.68271163       
175.33           0.988468184      7.59140911       0.132136745      -81.2086289      0.132136745      -81.2086289      0.988468184      7.59140911       
176.82           0.988696978      7.50137166       0.130578778      -81.2941858      0.130578778      -81.2941858      0.988696978      7.50137166       
178.31           0.988919786      7.41256884       0.129041869      -81.3782603      0.129041869      -81.3782603      0.988919786      7.41256884       
179.8            0.989136791      7.3249712        0.127525525      -81.4608794      0.127525525      -81.4608794      0.989136791      7.3249712        
181.29           0.989348171      7.23855021       0.126029268      -81.5420691      0.126029268      -81.5420691      0.989348171      7.23855021       
182.78           0.989554095      7.15327822       0.124552633      -81.6218545      0.124552633      -81.6218545      0.989554095      7.15327822       
184.27           0.989754728      7.06912842       0.123095171      -81.7002595      0.123095171      -81.7002595      0.989754728      7.06912842       
185.76           0.989950228      6.98607484       0.121656446      -81.7773073      0.121656446      -81.7773073      0.989950228      6.98607484       
187.25           0.990140745      6.9040923        0.120236034      -81.8530198      0.120236034      -81.8530198      0.990140745      6.9040923        
188.74           0.990326426      6.82315637       0.118833524      -81.9274185      0.118833524      -81.9274185      0.990326426      6.82315637       
190.23           0.990507411      6.74324334       0.117448517      -82.0005235      0.117448517      -82.0005235      0.990507411      6.74324334       
