! Coilcraft 0805CS-820 Chip Inductor				
! 11 June 2002			
# MHZ S MA R 50
!Freq             MagS11           AngS11           MagS21           AngS21           MagS12           AngS12           MagS22           AngS22
1                0.00749824704    42.4216931       0.994477658      -0.291423066     0.994477658      -0.291423066     0.00749824704    42.4216931       
6.73             0.0349776265     75.4716314       0.991803663      -1.95639966      0.991803663      -1.95639966      0.0349776265     75.4716314       
12.46            0.0636558124     78.4087562       0.989177216      -3.6143157       0.989177216      -3.6143157       0.0636558124     78.4087562       
18.19            0.092259157      78.6528374       0.986005665      -5.26369322      0.986005665      -5.26369322      0.092259157      78.6528374       
23.92            0.120642851      78.0739397       0.982187963      -6.90245793      0.982187963      -6.90245793      0.120642851      78.0739397       
29.65            0.14872582       77.1358534       0.977698678      -8.52843334      0.977698678      -8.52843334      0.14872582       77.1358534       
35.38            0.176442623      76.012291        0.972540377      -10.1394647      0.972540377      -10.1394647      0.176442623      76.012291        
41.11            0.203735517      74.784462        0.966730072      -11.7334763      0.966730072      -11.7334763      0.203735517      74.784462        
46.84            0.230552635      73.4961701       0.960293701      -13.3085053      0.960293701      -13.3085053      0.230552635      73.4961701       
52.57            0.25684757       72.173566        0.953263261      -14.8627244      0.953263261      -14.8627244      0.25684757       72.173566        
58.3             0.282579312      70.8334903       0.945675022      -16.3944572      0.945675022      -16.3944572      0.282579312      70.8334903       
64.03            0.307712264      69.4874358       0.937568249      -17.9021884      0.937568249      -17.9021884      0.307712264      69.4874358       
69.76            0.332216215      68.143602        0.928984203      -19.3845699      0.928984203      -19.3845699      0.332216215      68.143602        
75.49            0.356066256      66.8080391       0.919965314      -20.8404232      0.919965314      -20.8404232      0.356066256      66.8080391       
81.22            0.379242629      65.485322        0.910554478      -22.2687389      0.910554478      -22.2687389      0.379242629      65.485322        
86.95            0.401730508      64.1789681       0.900794466      -23.6686738      0.900794466      -23.6686738      0.401730508      64.1789681       
92.68            0.423519731      62.8917073       0.890727409      -25.0395455      0.890727409      -25.0395455      0.423519731      62.8917073       
98.41            0.444604484      61.6256649       0.880394372      -26.3808255      0.880394372      -26.3808255      0.444604484      61.6256649       
104.14           0.464982956      60.3824884       0.869835005      -27.692131       0.869835005      -27.692131       0.464982956      60.3824884       
109.87           0.484656974      59.1634402       0.859087259      -28.9732152      0.859087259      -28.9732152      0.484656974      59.1634402       
115.6            0.503631626      57.9694666       0.84818717       -30.223958       0.84818717       -30.223958       0.503631626      57.9694666       
121.33           0.521914888      56.8012515       0.837168699      -31.4443546      0.837168699      -31.4443546      0.521914888      56.8012515       
127.06           0.539517251      55.6592581       0.82606363       -32.6345056      0.82606363       -32.6345056      0.539517251      55.6592581       
132.79           0.556451366      54.5437642       0.814901502      -33.7946059      0.814901502      -33.7946059      0.556451366      54.5437642       
138.52           0.572731706      53.4548896       0.803709599      -34.9249345      0.803709599      -34.9249345      0.572731706      53.4548896       
144.25           0.588374249      52.3926211       0.792512957      -36.0258443      0.792512957      -36.0258443      0.588374249      52.3926211       
149.98           0.603396184      51.3568321       0.781334408      -37.0977529      0.781334408      -37.0977529      0.603396184      51.3568321       
155.71           0.617815645      50.347301        0.770194645      -38.1411327      0.770194645      -38.1411327      0.617815645      50.347301        
161.44           0.631651469      49.3637256       0.759112305      -39.1565035      0.759112305      -39.1565035      0.631651469      49.3637256       
167.17           0.644922976      48.405737        0.748104065      -40.1444237      0.748104065      -40.1444237      0.644922976      48.405737        
172.9            0.657649784      47.4729111       0.737184743      -41.1054836      0.737184743      -41.1054836      0.657649784      47.4729111       
178.63           0.669851639      46.5647785       0.726367418      -42.0402988      0.726367418      -42.0402988      0.669851639      46.5647785       
184.36           0.681548267      45.6808336       0.715663537      -42.9495041      0.715663537      -42.9495041      0.681548267      45.6808336       
190.09           0.692759256      44.8205421       0.705083033      -43.8337486      0.705083033      -43.8337486      0.692759256      44.8205421       
195.82           0.703503949      43.9833482       0.694634444      -44.6936902      0.694634444      -44.6936902      0.703503949      43.9833482       
201.55           0.713801353      43.1686798       0.684325019      -45.5299922      0.684325019      -45.5299922      0.713801353      43.1686798       
207.28           0.723670075      42.3759544       0.674160833      -46.3433193      0.674160833      -46.3433193      0.723670075      42.3759544       
213.01           0.733128258      41.6045827       0.664146886      -47.1343343      0.664146886      -47.1343343      0.733128258      41.6045827       
218.74           0.742193542      40.853973        0.654287206      -47.9036954      0.654287206      -47.9036954      0.742193542      40.853973        
224.47           0.750883022      40.123534        0.644584942      -48.6520542      0.644584942      -48.6520542      0.750883022      40.123534        
230.2            0.759213231      39.4126778       0.635042448      -49.380053       0.635042448      -49.380053       0.759213231      39.4126778       
235.93           0.767200121      38.7208223       0.625661371      -50.0883238      0.625661371      -50.0883238      0.767200121      38.7208223       
241.66           0.774859048      38.0473927       0.616442723      -50.7774865      0.616442723      -50.7774865      0.774859048      38.0473927       
247.39           0.782204779      37.3918236       0.60738695       -51.4481479      0.60738695       -51.4481479      0.782204779      37.3918236       
253.12           0.789251484      36.75356         0.598494001      -52.1009008      0.598494001      -52.1009008      0.789251484      36.75356         
258.85           0.796012745      36.1320586       0.589763383      -52.7363234      0.589763383      -52.7363234      0.796012745      36.1320586       
264.58           0.802501565      35.5267884       0.581194216      -53.3549786      0.581194216      -53.3549786      0.802501565      35.5267884       
270.31           0.808730381      34.9372315       0.572785285      -53.9574137      0.572785285      -53.9574137      0.808730381      34.9372315       
276.04           0.814711073      34.3628834       0.56453508       -54.5441602      0.56453508       -54.5441602      0.814711073      34.3628834       
281.77           0.820454985      33.8032537       0.55644184       -55.1157338      0.55644184       -55.1157338      0.820454985      33.8032537       
287.5            0.82597294       33.2578658       0.548503588      -55.6726342      0.548503588      -55.6726342      0.82597294       33.2578658       
293.23           0.831275253      32.7262575       0.540718165      -56.2153451      0.540718165      -56.2153451      0.831275253      32.7262575       
298.96           0.836371758      32.2079807       0.533083256      -56.7443346      0.533083256      -56.7443346      0.836371758      32.2079807       
304.69           0.841271818      31.7026014       0.525596421      -57.2600554      0.525596421      -57.2600554      0.841271818      31.7026014       
310.42           0.845984351      31.2096995       0.518255115      -57.7629446      0.518255115      -57.7629446      0.845984351      31.2096995       
316.15           0.850517843      30.7288688       0.511056711      -58.2534248      0.511056711      -58.2534248      0.850517843      30.7288688       
321.88           0.85488037       30.2597167       0.50399852       -58.7319034      0.50399852       -58.7319034      0.85488037       30.2597167       
327.61           0.859079614      29.8018639       0.497077801      -59.1987739      0.497077801      -59.1987739      0.859079614      29.8018639       
333.34           0.863122886      29.3549441       0.490291785      -59.6544157      0.490291785      -59.6544157      0.863122886      29.3549441       
339.07           0.867017134      28.9186038       0.48363768       -60.0991947      0.48363768       -60.0991947      0.867017134      28.9186038       
344.8            0.870768972      28.4925017       0.477112687      -60.5334635      0.477112687      -60.5334635      0.870768972      28.4925017       
350.53           0.874384684      28.0763087       0.470714007      -60.9575622      0.470714007      -60.9575622      0.874384684      28.0763087       
356.26           0.877870249      27.6697073       0.464438851      -61.3718184      0.464438851      -61.3718184      0.877870249      27.6697073       
361.99           0.881231354      27.2723916       0.458284448      -61.7765476      0.458284448      -61.7765476      0.881231354      27.2723916       
367.72           0.884473405      26.8840662       0.452248052      -62.172054       0.452248052      -62.172054       0.884473405      26.8840662       
373.45           0.887601545      26.5044469       0.446326942      -62.5586306      0.446326942      -62.5586306      0.887601545      26.5044469       
379.18           0.890620666      26.1332592       0.440518436      -62.9365596      0.440518436      -62.9365596      0.890620666      26.1332592       
384.91           0.893535422      25.7702389       0.434819888      -63.3061127      0.434819888      -63.3061127      0.893535422      25.7702389       
390.64           0.89635024       25.4151313       0.429228692      -63.6675519      0.429228692      -63.6675519      0.89635024       25.4151313       
396.37           0.899069334      25.0676909       0.423742287      -64.0211292      0.423742287      -64.0211292      0.899069334      25.0676909       
402.1            0.901696713      24.7276809       0.41835816       -64.3670878      0.41835816       -64.3670878      0.901696713      24.7276809       
407.83           0.904236194      24.3948735       0.413073845      -64.7056615      0.413073845      -64.7056615      0.904236194      24.3948735       
413.56           0.906691411      24.0690487       0.407886924      -65.0370759      0.407886924      -65.0370759      0.906691411      24.0690487       
419.29           0.909065825      23.7499947       0.402795031      -65.3615482      0.402795031      -65.3615482      0.909065825      23.7499947       
425.02           0.91136273       23.4375074       0.397795853      -65.6792876      0.397795853      -65.6792876      0.91136273       23.4375074       
430.75           0.913585268      23.1313897       0.392887127      -65.9904959      0.392887127      -65.9904959      0.913585268      23.1313897       
436.48           0.91573643       22.831452        0.388066641      -66.2953673      0.388066641      -66.2953673      0.91573643       22.831452        
442.21           0.917819068      22.5375112       0.383332237      -66.5940893      0.383332237      -66.5940893      0.917819068      22.5375112       
447.94           0.9198359        22.2493908       0.378681808      -66.8868424      0.378681808      -66.8868424      0.9198359        22.2493908       
453.67           0.921789519      21.9669207       0.3741133        -67.1738006      0.3741133        -67.1738006      0.921789519      21.9669207       
459.4            0.923682396      21.6899367       0.369624709      -67.4551318      0.369624709      -67.4551318      0.923682396      21.6899367       
465.13           0.925516892      21.4182805       0.36521408       -67.7309978      0.36521408       -67.7309978      0.925516892      21.4182805       
470.86           0.927295257      21.1517992       0.360879512      -68.0015548      0.360879512      -68.0015548      0.927295257      21.1517992       
476.59           0.929019639      20.8903455       0.35661915       -68.2669533      0.35661915       -68.2669533      0.929019639      20.8903455       
482.32           0.930692091      20.6337771       0.352431188      -68.5273387      0.352431188      -68.5273387      0.930692091      20.6337771       
488.05           0.932314573      20.3819566       0.348313869      -68.782851       0.348313869      -68.782851       0.932314573      20.3819566       
493.78           0.933888955      20.1347514       0.34426548       -69.0336257      0.34426548       -69.0336257      0.933888955      20.1347514       
499.51           0.935417026      19.8920337       0.340284357      -69.2797931      0.340284357      -69.2797931      0.935417026      19.8920337       
505.24           0.936900497      19.6536796       0.336368879      -69.5214796      0.336368879      -69.5214796      0.936900497      19.6536796       
510.97           0.938341002      19.4195699       0.332517468      -69.7588066      0.332517468      -69.7588066      0.938341002      19.4195699       
516.7            0.939740103      19.1895892       0.32872859       -69.9918919      0.32872859       -69.9918919      0.939740103      19.1895892       
522.43           0.941099297      18.963626        0.325000752      -70.220849       0.325000752      -70.220849       0.941099297      18.963626        
528.16           0.942420015      18.7415727       0.321332502      -70.4457876      0.321332502      -70.4457876      0.942420015      18.7415727       
533.89           0.943703626      18.523325        0.317722429      -70.6668136      0.317722429      -70.6668136      0.943703626      18.523325        
539.62           0.94495144       18.3087824       0.314169159      -70.8840296      0.314169159      -70.8840296      0.94495144       18.3087824       
545.35           0.946164715      18.0978476       0.310671355      -71.0975345      0.310671355      -71.0975345      0.946164715      18.0978476       
551.08           0.947344653      17.8904263       0.307227718      -71.307424       0.307227718      -71.307424       0.947344653      17.8904263       
556.81           0.948492406      17.6864277       0.303836986      -71.5137908      0.303836986      -71.5137908      0.948492406      17.6864277       
562.54           0.94960908       17.4857637       0.300497929      -71.7167244      0.300497929      -71.7167244      0.94960908       17.4857637       
568.27           0.950695732      17.2883489       0.297209352      -71.9163114      0.297209352      -71.9163114      0.950695732      17.2883489       
574              0.95175338       17.094101        0.293970092      -72.1126355      0.293970092      -72.1126355      0.95175338       17.094101        
579.73           0.952782996      16.90294         0.29077902       -72.3057778      0.29077902       -72.3057778      0.952782996      16.90294         
585.46           0.953785516      16.7147888       0.287635036      -72.4958168      0.287635036      -72.4958168      0.953785516      16.7147888       
591.19           0.954761837      16.5295724       0.28453707       -72.6828285      0.28453707       -72.6828285      0.954761837      16.5295724       
596.92           0.95571282       16.3472183       0.281484083      -72.8668863      0.281484083      -72.8668863      0.95571282       16.3472183       
602.65           0.956639291      16.1676564       0.278475062      -73.0480614      0.278475062      -73.0480614      0.956639291      16.1676564       
608.38           0.957542045      15.9908185       0.275509023      -73.2264229      0.275509023      -73.2264229      0.957542045      15.9908185       
614.11           0.958421846      15.8166388       0.272585009      -73.4020376      0.272585009      -73.4020376      0.958421846      15.8166388       
619.84           0.959279425      15.6450532       0.269702088      -73.57497        0.269702088      -73.57497        0.959279425      15.6450532       
625.57           0.960115489      15.476           0.266859354      -73.7452831      0.266859354      -73.7452831      0.960115489      15.476           
631.3            0.960930714      15.3094189       0.264055924      -73.9130374      0.264055924      -73.9130374      0.960930714      15.3094189       
637.03           0.961725752      15.1452517       0.261290941      -74.078292       0.261290941      -74.078292       0.961725752      15.1452517       
642.76           0.962501231      14.9834419       0.258563569      -74.2411039      0.258563569      -74.2411039      0.962501231      14.9834419       
648.49           0.963257753      14.8239347       0.255872995      -74.4015285      0.255872995      -74.4015285      0.963257753      14.8239347       
654.22           0.963995899      14.6666769       0.253218427      -74.5596195      0.253218427      -74.5596195      0.963995899      14.6666769       
659.95           0.964716227      14.5116168       0.250599096      -74.7154291      0.250599096      -74.7154291      0.964716227      14.5116168       
665.68           0.965419277      14.3587044       0.248014252      -74.8690077      0.248014252      -74.8690077      0.965419277      14.3587044       
671.41           0.966105565      14.207891        0.245463164      -75.0204043      0.245463164      -75.0204043      0.966105565      14.207891        
677.14           0.966775591      14.0591293       0.242945121      -75.1696665      0.242945121      -75.1696665      0.966775591      14.0591293       
682.87           0.967429836      13.9123736       0.240459431      -75.3168406      0.240459431      -75.3168406      0.967429836      13.9123736       
688.6            0.968068764      13.7675791       0.23800542       -75.4619712      0.23800542       -75.4619712      0.968068764      13.7675791       
694.33           0.968692822      13.6247027       0.235582431      -75.605102       0.235582431      -75.605102       0.968692822      13.6247027       
700.06           0.96930244       13.4837023       0.233189824      -75.746275       0.233189824      -75.746275       0.96930244       13.4837023       
705.79           0.969898034      13.3445369       0.230826976      -75.8855315      0.230826976      -75.8855315      0.969898034      13.3445369       
711.52           0.970480006      13.207167        0.22849328       -76.0229111      0.22849328       -76.0229111      0.970480006      13.207167        
717.25           0.971048741      13.0715537       0.226188143      -76.1584526      0.226188143      -76.1584526      0.971048741      13.0715537       
722.98           0.971604614      12.9376596       0.22391099       -76.2921935      0.22391099       -76.2921935      0.971604614      12.9376596       
728.71           0.972147984      12.8054482       0.221661259      -76.4241704      0.221661259      -76.4241704      0.972147984      12.8054482       
