! Coilcraft 0805CS-470 Chip Inductor				
! 11 June 2002			
# MHZ S MA R 50
!Freq             MagS11           AngS11           MagS21           AngS21           MagS12           AngS12           MagS22           AngS22
1                0.00489738749    36.7465515       0.996080083      -0.168537025     0.996080083      -0.168537025     0.00489738749    36.7465515       
7.73             0.0233278766     75.365504        0.99436237       -1.30067001      0.99436237       -1.30067001      0.0233278766     75.365504        
14.46            0.0428529605     79.2299108       0.992885008      -2.43005675      0.992885008      -2.43005675      0.0428529605     79.2299108       
21.19            0.0624104689     80.1282633       0.991209046      -3.55644014      0.991209046      -3.55644014      0.0624104689     80.1282633       
27.92            0.0819136273     80.1293038       0.989255131      -4.67925265      0.989255131      -4.67925265      0.0819136273     80.1293038       
34.65            0.101326602      79.7361347       0.986994424      -5.79784877      0.986994424      -5.79784877      0.101326602      79.7361347       
41.38            0.120624205      79.1344461       0.984415387      -6.91155724      0.984415387      -6.91155724      0.120624205      79.1344461       
48.11            0.139784962      78.4097329       0.981514655      -8.01970248      0.981514655      -8.01970248      0.139784962      78.4097329       
54.84            0.158789289      77.6073075       0.978293544      -9.12161617      0.978293544      -9.12161617      0.158789289      77.6073075       
61.57            0.177618904      76.7536844       0.974756414      -10.2166447      0.974756414      -10.2166447      0.177618904      76.7536844       
68.3             0.196256637      75.8655735       0.97090979       -11.3041541      0.97090979       -11.3041541      0.196256637      75.8655735       
75.03            0.214686369      74.9541365       0.966761833      -12.3835344      0.966761833      -12.3835344      0.214686369      74.9541365       
81.76            0.232893025      74.0271876       0.962321984      -13.4542021      0.962321984      -13.4542021      0.232893025      74.0271876       
88.49            0.250862593      73.0904128       0.957600701      -14.5156031      0.957600701      -14.5156031      0.250862593      73.0904128       
95.22            0.268582137      72.1480851       0.952609268      -15.5672141      0.952609268      -15.5672141      0.268582137      72.1480851       
101.95           0.286039812      71.2035035       0.947359621      -16.6085445      0.947359621      -16.6085445      0.286039812      71.2035035       
108.68           0.303224873      70.2592728       0.941864212      -17.6391371      0.941864212      -17.6391371      0.303224873      70.2592728       
115.41           0.320127678      69.3174886       0.936135882      -18.6585687      0.936135882      -18.6585687      0.320127678      69.3174886       
122.14           0.336739678      68.3798626       0.930187754      -19.6664512      0.930187754      -19.6664512      0.336739678      68.3798626       
128.87           0.353053407      67.4478103       0.924033127      -20.6624308      0.924033127      -20.6624308      0.353053407      67.4478103       
135.6            0.369062461      66.5225134       0.917685391      -21.6461884      0.917685391      -21.6461884      0.369062461      66.5225134       
142.33           0.384761466      65.6049654       0.911157937      -22.6174393      0.911157937      -22.6174393      0.384761466      65.6049654       
149.06           0.400146052      64.6960052       0.904464092      -23.5759323      0.904464092      -23.5759323      0.400146052      64.6960052       
155.79           0.415212811      63.7963435       0.897617043      -24.5214491      0.897617043      -24.5214491      0.415212811      63.7963435       
162.52           0.429959255      62.906582        0.890629781      -25.4538033      0.890629781      -25.4538033      0.429959255      62.906582        
169.25           0.444383771      62.0272294       0.883515046      -26.3728396      0.883515046      -26.3728396      0.444383771      62.0272294       
175.98           0.458485575      61.1587138       0.876285283      -27.2784322      0.876285283      -27.2784322      0.458485575      61.1587138       
182.71           0.472264657      60.3013931       0.868952599      -28.1704841      0.868952599      -28.1704841      0.472264657      60.3013931       
189.44           0.485721734      59.4555632       0.861528731      -29.048925       0.861528731      -29.048925       0.485721734      59.4555632       
196.17           0.498858197      58.6214651       0.854025016      -29.9137109      0.854025016      -29.9137109      0.498858197      58.6214651       
202.9            0.511676057      57.7992911       0.846452367      -30.7648217      0.846452367      -30.7648217      0.511676057      57.7992911       
209.63           0.524177896      56.9891898       0.838821259      -31.6022603      0.838821259      -31.6022603      0.524177896      56.9891898       
216.36           0.536366812      56.1912709       0.83114171       -32.4260512      0.83114171       -32.4260512      0.536366812      56.1912709       
223.09           0.548246374      55.4056087       0.823423277      -33.2362387      0.823423277      -33.2362387      0.548246374      55.4056087       
229.82           0.559820571      54.6322462       0.815675048      -34.0328855      0.815675048      -34.0328855      0.559820571      54.6322462       
236.55           0.571093767      53.8711981       0.807905639      -34.8160716      0.807905639      -34.8160716      0.571093767      53.8711981       
243.28           0.582070654      53.1224533       0.800123201      -35.5858927      0.800123201      -35.5858927      0.582070654      53.1224533       
250.01           0.592756214      52.3859781       0.792335415      -36.3424588      0.792335415      -36.3424588      0.592756214      52.3859781       
256.74           0.603155676      51.6617181       0.784549509      -37.0858929      0.784549509      -37.0858929      0.603155676      51.6617181       
263.47           0.613274479      50.9496007       0.776772258      -37.81633        0.776772258      -37.81633        0.613274479      50.9496007       
270.2            0.623118239      50.2495366       0.76901          -38.5339156      0.76901          -38.5339156      0.623118239      50.2495366       
276.93           0.632692711      49.5614222       0.761268645      -39.2388046      0.761268645      -39.2388046      0.632692711      49.5614222       
283.66           0.642003766      48.8851407       0.753553688      -39.9311606      0.753553688      -39.9311606      0.642003766      48.8851407       
290.39           0.651057357      48.2205641       0.745870227      -40.6111542      0.745870227      -40.6111542      0.651057357      48.2205641       
297.12           0.659859497      47.5675543       0.738222972      -41.2789626      0.738222972      -41.2789626      0.659859497      47.5675543       
303.85           0.668416231      46.9259645       0.730616266      -41.9347685      0.730616266      -41.9347685      0.668416231      46.9259645       
310.58           0.676733622      46.2956402       0.723054097      -42.5787592      0.723054097      -42.5787592      0.676733622      46.2956402       
317.31           0.684817724      45.6764206       0.715540117      -43.2111259      0.715540117      -43.2111259      0.684817724      45.6764206       
324.04           0.69267457       45.0681394       0.708077654      -43.8320629      0.708077654      -43.8320629      0.69267457       45.0681394       
330.77           0.700310153      44.4706255       0.700669734      -44.441767       0.700669734      -44.441767       0.700310153      44.4706255       
337.5            0.707730414      43.8837044       0.69331909       -45.0404368      0.69331909       -45.0404368      0.707730414      43.8837044       
344.23           0.71494123       43.3071983       0.686028185      -45.628272       0.686028185      -45.628272       0.71494123       43.3071983       
350.96           0.721948402      42.7409273       0.678799222      -46.2054733      0.678799222      -46.2054733      0.721948402      42.7409273       
357.69           0.728757647      42.1847098       0.67163416       -46.7722413      0.67163416       -46.7722413      0.728757647      42.1847098       
364.42           0.73537459       41.6383629       0.664534731      -47.3287767      0.664534731      -47.3287767      0.73537459       41.6383629       
371.15           0.741804753      41.1017032       0.65750245       -47.8752794      0.65750245       -47.8752794      0.741804753      41.1017032       
377.88           0.748053558      40.5745474       0.650538635      -48.4119483      0.650538635      -48.4119483      0.748053558      40.5745474       
384.61           0.754126311      40.0567121       0.643644412      -48.9389812      0.643644412      -48.9389812      0.754126311      40.0567121       
391.34           0.760028209      39.5480149       0.636820735      -49.456574       0.636820735      -49.456574       0.760028209      39.5480149       
398.07           0.76576433       39.048274        0.630068391      -49.9649211      0.630068391      -49.9649211      0.76576433       39.048274        
404.8            0.771339631      38.5573093       0.623388019      -50.4642146      0.623388019      -50.4642146      0.771339631      38.5573093       
411.53           0.776758951      38.0749419       0.616780115      -50.9546443      0.616780115      -50.9546443      0.776758951      38.0749419       
418.26           0.782027005      37.6009949       0.610245045      -51.4363976      0.610245045      -51.4363976      0.782027005      37.6009949       
424.99           0.787148385      37.1352934       0.603783052      -51.9096593      0.603783052      -51.9096593      0.787148385      37.1352934       
431.72           0.792127563      36.6776646       0.597394271      -52.3746114      0.597394271      -52.3746114      0.792127563      36.6776646       
438.45           0.796968886      36.227938        0.591078731      -52.8314332      0.591078731      -52.8314332      0.796968886      36.227938        
445.18           0.80167658       35.7859455       0.584836369      -53.2803006      0.584836369      -53.2803006      0.80167658       35.7859455       
451.91           0.806254753      35.3515218       0.578667034      -53.721387       0.578667034      -53.721387       0.806254753      35.3515218       
458.64           0.810707391      34.9245041       0.572570494      -54.1548624      0.572570494      -54.1548624      0.810707391      34.9245041       
465.37           0.815038364      34.5047324       0.566546448      -54.5808936      0.566546448      -54.5808936      0.815038364      34.5047324       
472.1            0.819251427      34.0920494       0.560594526      -54.9996443      0.560594526      -54.9996443      0.819251427      34.0920494       
478.83           0.82335022       33.6863009       0.554714298      -55.4112751      0.554714298      -55.4112751      0.82335022       33.6863009       
485.56           0.827338273      33.2873353       0.548905282      -55.8159432      0.548905282      -55.8159432      0.827338273      33.2873353       
492.29           0.831219005      32.8950042       0.543166942      -56.2138025      0.543166942      -56.2138025      0.831219005      32.8950042       
499.02           0.834995731      32.5091619       0.537498704      -56.6050039      0.537498704      -56.6050039      0.834995731      32.5091619       
505.75           0.838671659      32.129666        0.531899948      -56.989695       0.531899948      -56.989695       0.838671659      32.129666        
512.48           0.842249896      31.7563766       0.526370023      -57.3680199      0.526370023      -57.3680199      0.842249896      31.7563766       
519.21           0.845733452      31.3891572       0.520908244      -57.74012        0.520908244      -57.74012        0.845733452      31.3891572       
525.94           0.849125236      31.0278738       0.5155139        -58.1061331      0.5155139        -58.1061331      0.849125236      31.0278738       
532.67           0.852428066      30.6723957       0.510186253      -58.4661941      0.510186253      -58.4661941      0.852428066      30.6723957       
539.4            0.855644669      30.3225949       0.504924547      -58.8204348      0.504924547      -58.8204348      0.855644669      30.3225949       
546.13           0.858777681      29.9783462       0.499728004      -59.168984       0.499728004      -59.168984       0.858777681      29.9783462       
552.86           0.861829653      29.6395274       0.494595834      -59.5119672      0.494595834      -59.5119672      0.861829653      29.6395274       
559.59           0.864803051      29.3060189       0.48952723       -59.8495072      0.48952723       -59.8495072      0.864803051      29.3060189       
566.32           0.867700262      28.9777041       0.484521378      -60.1817239      0.484521378      -60.1817239      0.867700262      28.9777041       
573.05           0.870523592      28.6544688       0.479577452      -60.5087343      0.479577452      -60.5087343      0.870523592      28.6544688       
579.78           0.873275273      28.3362018       0.474694621      -60.8306523      0.474694621      -60.8306523      0.873275273      28.3362018       
586.51           0.87595746       28.0227943       0.469872048      -61.1475895      0.469872048      -61.1475895      0.87595746       28.0227943       
593.24           0.87857224       27.7141401       0.465108895      -61.4596545      0.465108895      -61.4596545      0.87857224       27.7141401       
599.97           0.881121628      27.4101357       0.460404319      -61.7669532      0.460404319      -61.7669532      0.881121628      27.4101357       
606.7            0.883607574      27.1106798       0.455757477      -62.0695892      0.455757477      -62.0695892      0.883607574      27.1106798       
613.43           0.886031963      26.8156739       0.45116753       -62.3676632      0.45116753       -62.3676632      0.886031963      26.8156739       
620.16           0.888396617      26.5250215       0.446633636      -62.6612736      0.446633636      -62.6612736      0.888396617      26.5250215       
626.89           0.890703296      26.2386287       0.442154959      -62.9505163      0.442154959      -62.9505163      0.890703296      26.2386287       
633.62           0.892953705      25.9564038       0.437730668      -63.235485       0.437730668      -63.235485       0.892953705      25.9564038       
640.35           0.895149489      25.6782573       0.433359933      -63.5162708      0.433359933      -63.5162708      0.895149489      25.6782573       
647.08           0.897292242      25.4041019       0.429041933      -63.7929626      0.429041933      -63.7929626      0.897292242      25.4041019       
653.81           0.899383503      25.1338526       0.424775851      -64.0656472      0.424775851      -64.0656472      0.899383503      25.1338526       
660.54           0.901424759      24.8674261       0.420560878      -64.3344092      0.420560878      -64.3344092      0.901424759      24.8674261       
667.27           0.903417452      24.6047415       0.416396211      -64.599331       0.416396211      -64.599331       0.903417452      24.6047415       
674              0.905362972      24.3457198       0.412281058      -64.8604929      0.412281058      -64.8604929      0.905362972      24.3457198       
680.73           0.907262667      24.0902839       0.408214631      -65.1179734      0.408214631      -65.1179734      0.907262667      24.0902839       
687.46           0.909117838      23.8383584       0.404196155      -65.3718488      0.404196155      -65.3718488      0.909117838      23.8383584       
694.19           0.910929746      23.5898702       0.40022486       -65.6221937      0.40022486       -65.6221937      0.910929746      23.5898702       
700.92           0.912699608      23.3447476       0.396299988      -65.8690806      0.396299988      -65.8690806      0.912699608      23.3447476       
707.65           0.914428604      23.1029208       0.39242079       -66.1125804      0.39242079       -66.1125804      0.914428604      23.1029208       
714.38           0.916117874      22.8643217       0.388586527      -66.3527622      0.388586527      -66.3527622      0.916117874      22.8643217       
721.11           0.917768522      22.6288839       0.384796469      -66.5896931      0.384796469      -66.5896931      0.917768522      22.6288839       
727.84           0.919381616      22.3965426       0.381049897      -66.8234389      0.381049897      -66.8234389      0.919381616      22.3965426       
734.57           0.920958188      22.1672346       0.377346103      -67.0540636      0.377346103      -67.0540636      0.920958188      22.1672346       
741.3            0.92249924       21.9408982       0.373684387      -67.2816296      0.373684387      -67.2816296      0.92249924       21.9408982       
748.03           0.924005739      21.7174732       0.370064062      -67.5061976      0.370064062      -67.5061976      0.924005739      21.7174732       
754.76           0.925478623      21.4969009       0.366484449      -67.7278271      0.366484449      -67.7278271      0.925478623      21.4969009       
761.49           0.926918799      21.279124        0.362944882      -67.9465758      0.362944882      -67.9465758      0.926918799      21.279124        
768.22           0.928327145      21.0640866       0.359444703      -68.1625003      0.359444703      -68.1625003      0.928327145      21.0640866       
774.95           0.929704514      20.8517343       0.355983267      -68.3756555      0.355983267      -68.3756555      0.929704514      20.8517343       
781.68           0.931051728      20.6420137       0.352559938      -68.5860951      0.352559938      -68.5860951      0.931051728      20.6420137       
788.41           0.932369586      20.4348729       0.34917409       -68.7938715      0.34917409       -68.7938715      0.932369586      20.4348729       
795.14           0.93365886       20.2302612       0.345825109      -68.9990356      0.345825109      -68.9990356      0.93365886       20.2302612       
801.87           0.934920301      20.0281291       0.342512389      -69.2016374      0.342512389      -69.2016374      0.934920301      20.0281291       
808.6            0.936154633      19.8284284       0.339235336      -69.4017253      0.339235336      -69.4017253      0.936154633      19.8284284       
815.33           0.93736256       19.6311118       0.335993366      -69.5993467      0.335993366      -69.5993467      0.93736256       19.6311118       
822.06           0.938544764      19.4361334       0.332785904      -69.7945479      0.332785904      -69.7945479      0.938544764      19.4361334       
828.79           0.939701904      19.2434482       0.329612387      -69.9873739      0.329612387      -69.9873739      0.939701904      19.2434482       
835.52           0.940834622      19.0530123       0.32647226       -70.1778688      0.32647226       -70.1778688      0.940834622      19.0530123       
842.25           0.941943538      18.864783        0.323364978      -70.3660754      0.323364978      -70.3660754      0.941943538      18.864783        
848.98           0.943029254      18.6787182       0.320290006      -70.5520356      0.320290006      -70.5520356      0.943029254      18.6787182       
855.71           0.944092354      18.4947773       0.317246819      -70.7357903      0.317246819      -70.7357903      0.944092354      18.4947773       
