! Coilcraft 0805CS-101 Chip Inductor				
! 11 June 2002			
# MHZ S MA R 50
!Freq             MagS11           AngS11           MagS21           AngS21           MagS12           AngS12           MagS22           AngS22
1                0.00870501311    44.9536652       0.993858681      -0.354571402     0.993858681      -0.354571402     0.00870501311    44.9536652       
6.23             0.0393479103     75.4467863       0.990844915      -2.20283868      0.990844915      -2.20283868      0.0393479103     75.4467863       
11.46            0.0711590679     78.0742941       0.987752267      -4.04193046      0.987752267      -4.04193046      0.0711590679     78.0742941       
16.69            0.102833931      78.1027682       0.983958824      -5.86963767      0.983958824      -5.86963767      0.102833931      78.1027682       
21.92            0.134200917      77.3323212       0.97936228       -7.68307114      0.97936228       -7.68307114      0.134200917      77.3323212       
27.15            0.165156793      76.2145956       0.973944373      -9.4792595       0.973944373      -9.4792595       0.165156793      76.2145956       
32.38            0.195616828      74.9200673       0.967719026      -11.2553071      0.967719026      -11.2553071      0.195616828      74.9200673       
37.61            0.225506746      73.5290179       0.960717216      -13.0084698      0.960717216      -13.0084698      0.225506746      73.5290179       
42.84            0.254760995      72.0850788       0.952980559      -14.7362002      0.952980559      -14.7362002      0.254760995      72.0850788       
48.07            0.2833224        70.6144926       0.944557781      -16.436177       0.944557781      -16.436177       0.2833224        70.6144926       
53.3             0.311142103      69.1342679       0.935502388      -18.1063235      0.935502388      -18.1063235      0.311142103      69.1342679       
58.53            0.338179496      67.6560604       0.92587092       -19.7448183      0.92587092       -19.7448183      0.338179496      67.6560604       
63.76            0.364402047      66.1881911       0.915721551      -21.3500992      0.915721551      -21.3500992      0.364402047      66.1881911       
68.99            0.389785003      64.7367745       0.905112926      -22.9208607      0.905112926      -22.9208607      0.389785003      64.7367745       
74.22            0.41431099       63.3063869       0.894103193      -24.4560485      0.894103193      -24.4560485      0.41431099       63.3063869       
79.45            0.43796951       61.900485        0.882749198      -25.9548485      0.882749198      -25.9548485      0.43796951       61.900485        
84.68            0.460756382      60.5216799       0.871105827      -27.416674       0.871105827      -27.416674       0.460756382      60.5216799       
89.91            0.482673121      59.1719256       0.859225494      -28.8411503      0.859225494      -28.8411503      0.482673121      59.1719256       
95.14            0.503726309      57.8526531       0.847157744      -30.228098       0.847157744      -30.228098       0.503726309      57.8526531       
100.37           0.523926955      56.5648699       0.834948978      -31.5775149      0.834948978      -31.5775149      0.523926955      56.5648699       
105.6            0.543289868      55.3092364       0.82264227       -32.8895584      0.82264227       -32.8895584      0.543289868      55.3092364       
110.83           0.561833054      54.0861269       0.810277276      -34.1645269      0.810277276      -34.1645269      0.561833054      54.0861269       
116.06           0.579577155      52.8956774       0.797890214      -35.4028428      0.797890214      -35.4028428      0.579577155      52.8956774       
121.29           0.59654492       51.737827        0.785513904      -36.6050355      0.785513904      -36.6050355      0.59654492       51.737827        
126.52           0.61276073       50.6123509       0.77317786       -37.7717251      0.77317786       -37.7717251      0.61276073       50.6123509       
131.75           0.628250171      49.5188891       0.760908416      -38.9036081      0.760908416      -38.9036081      0.628250171      49.5188891       
136.98           0.64303965       48.4569714       0.748728881      -40.0014436      0.748728881      -40.0014436      0.64303965       48.4569714       
142.21           0.657156064      47.4260373       0.736659716      -41.0660404      0.736659716      -41.0660404      0.657156064      47.4260373       
147.44           0.670626514      46.4254548       0.724718725      -42.0982466      0.724718725      -42.0982466      0.670626514      46.4254548       
152.67           0.683478059      45.4545353       0.712921241      -43.0989387      0.712921241      -43.0989387      0.683478059      45.4545353       
157.9            0.695737508      44.5125472       0.701280332      -44.0690132      0.701280332      -44.0690132      0.695737508      44.5125472       
163.13           0.707431257      43.5987269       0.689806989      -45.0093789      0.689806989      -45.0093789      0.707431257      43.5987269       
168.36           0.718585143      42.7122887       0.678510317      -45.9209495      0.678510317      -45.9209495      0.718585143      42.7122887       
173.59           0.72922434       41.8524331       0.667397713      -46.8046385      0.667397713      -46.8046385      0.72922434       41.8524331       
178.82           0.739373272      41.0183538       0.656475041      -47.6613538      0.656475041      -47.6613538      0.739373272      41.0183538       
184.05           0.74905555       40.2092432       0.645746791      -48.4919933      0.645746791      -48.4919933      0.74905555       40.2092432       
189.28           0.758293926      39.424298        0.635216233      -49.2974419      0.635216233      -49.2974419      0.758293926      39.424298        
194.51           0.767110266      38.6627227       0.624885552      -50.0785684      0.624885552      -50.0785684      0.767110266      38.6627227       
199.74           0.775525533      37.9237331       0.614755977      -50.8362227      0.614755977      -50.8362227      0.775525533      37.9237331       
204.97           0.78355978       37.2065592       0.604827901      -51.5712349      0.604827901      -51.5712349      0.78355978       37.2065592       
210.2            0.791232159      36.5104473       0.595100988      -52.2844128      0.595100988      -52.2844128      0.791232159      36.5104473       
215.43           0.798560928      35.8346615       0.585574267      -52.9765417      0.585574267      -52.9765417      0.798560928      35.8346615       
220.66           0.80556347       35.1784852       0.576246219      -53.6483831      0.576246219      -53.6483831      0.80556347       35.1784852       
225.89           0.812256317      34.541222        0.56711486       -54.3006746      0.56711486       -54.3006746      0.812256317      34.541222        
231.12           0.818655171      33.9221963       0.558177808      -54.9341294      0.558177808      -54.9341294      0.818655171      33.9221963       
236.35           0.824774936      33.3207539       0.549432348      -55.5494362      0.549432348      -55.5494362      0.824774936      33.3207539       
241.58           0.830629746      32.7362621       0.540875484      -56.1472595      0.540875484      -56.1472595      0.830629746      32.7362621       
246.81           0.836232995      32.1681095       0.532503993      -56.72824        0.532503993      -56.72824        0.836232995      32.1681095       
252.04           0.841597374      31.6157062       0.524314468      -57.2929945      0.524314468      -57.2929945      0.841597374      31.6157062       
257.27           0.846734894      31.0784836       0.516303355      -57.8421166      0.516303355      -57.8421166      0.846734894      31.0784836       
262.5            0.851656927      30.5558938       0.508466988      -58.3761773      0.508466988      -58.3761773      0.851656927      30.5558938       
267.73           0.85637423       30.0474094       0.500801618      -58.8957253      0.500801618      -58.8957253      0.85637423       30.0474094       
272.96           0.860896982      29.552523        0.49330344       -59.4012881      0.49330344       -59.4012881      0.860896982      29.552523        
278.19           0.865234806      29.0707465       0.485968617      -59.8933721      0.485968617      -59.8933721      0.865234806      29.0707465       
283.42           0.869396807      28.6016109       0.478793295      -60.3724634      0.478793295      -60.3724634      0.869396807      28.6016109       
288.65           0.873391592      28.1446655       0.471773625      -60.839029       0.471773625      -60.839029       0.873391592      28.1446655       
293.88           0.877227302      27.6994774       0.464905773      -61.2935166      0.464905773      -61.2935166      0.877227302      27.6994774       
299.11           0.880911636      27.2656307       0.458185935      -61.7363561      0.458185935      -61.7363561      0.880911636      27.2656307       
304.34           0.884451874      26.8427262       0.451610348      -62.1679599      0.451610348      -62.1679599      0.884451874      26.8427262       
309.57           0.887854902      26.4303806       0.445175296      -62.5887234      0.445175296      -62.5887234      0.887854902      26.4303806       
314.8            0.891127234      26.0282259       0.438877121      -62.9990262      0.438877121      -62.9990262      0.891127234      26.0282259       
320.03           0.894275034      25.635909        0.432712224      -63.3992321      0.432712224      -63.3992321      0.894275034      25.635909        
325.26           0.897304132      25.2530909       0.426677075      -63.7896903      0.426677075      -63.7896903      0.897304132      25.2530909       
330.49           0.900220048      24.8794461       0.420768215      -64.1707356      0.420768215      -64.1707356      0.900220048      24.8794461       
335.72           0.903028008      24.5146625       0.414982258      -64.5426895      0.414982258      -64.5426895      0.903028008      24.5146625       
340.95           0.905732958      24.1584401       0.409315894      -64.90586        0.409315894      -64.90586        0.905732958      24.1584401       
346.18           0.908339584      23.8104912       0.403765893      -65.2605429      0.403765893      -65.2605429      0.908339584      23.8104912       
351.41           0.910852325      23.4705394       0.398329101      -65.607022       0.398329101      -65.607022       0.910852325      23.4705394       
356.64           0.913275388      23.1383197       0.393002445      -65.9455697      0.393002445      -65.9455697      0.913275388      23.1383197       
361.87           0.915612761      22.8135771       0.387782932      -66.2764472      0.387782932      -66.2764472      0.915612761      22.8135771       
367.1            0.917868222      22.4960672       0.382667648      -66.5999057      0.382667648      -66.5999057      0.917868222      22.4960672       
372.33           0.92004536       22.1855549       0.377653759      -66.9161859      0.377653759      -66.9161859      0.92004536       22.1855549       
377.56           0.922147574      21.8818145       0.372738509      -67.2255193      0.372738509      -67.2255193      0.922147574      21.8818145       
382.79           0.924178095      21.5846291       0.367919218      -67.528128       0.367919218      -67.528128       0.924178095      21.5846291       
388.02           0.926139987      21.2937905       0.363193285      -67.8242256      0.363193285      -67.8242256      0.926139987      21.2937905       
393.25           0.92803616       21.0090981       0.358558182      -68.1140171      0.358558182      -68.1140171      0.92803616       21.0090981       
398.48           0.92986938       20.7303596       0.354011455      -68.3976997      0.354011455      -68.3976997      0.92986938       20.7303596       
403.71           0.931642275      20.4573897       0.349550723      -68.6754628      0.349550723      -68.6754628      0.931642275      20.4573897       
408.94           0.933357342      20.1900104       0.345173675      -68.9474886      0.345173675      -68.9474886      0.933357342      20.1900104       
414.17           0.935016957      19.9280504       0.340878067      -69.2139522      0.340878067      -69.2139522      0.935016957      19.9280504       
419.4            0.936623379      19.6713449       0.336661726      -69.4750221      0.336661726      -69.4750221      0.936623379      19.6713449       
424.63           0.938178757      19.4197353       0.332522542      -69.7308605      0.332522542      -69.7308605      0.938178757      19.4197353       
429.86           0.93968514       19.1730691       0.328458468      -69.9816232      0.328458468      -69.9816232      0.93968514       19.1730691       
435.09           0.941144474      18.9311992       0.324467522      -70.2274603      0.324467522      -70.2274603      0.941144474      18.9311992       
440.32           0.942558617      18.6939842       0.320547779      -70.4685165      0.320547779      -70.4685165      0.942558617      18.6939842       
445.55           0.943929336      18.4612877       0.316697375      -70.7049308      0.316697375      -70.7049308      0.943929336      18.4612877       
450.78           0.945258319      18.2329785       0.312914502      -70.9368372      0.312914502      -70.9368372      0.945258319      18.2329785       
456.01           0.946547172      18.00893         0.309197406      -71.1643649      0.309197406      -71.1643649      0.946547172      18.00893         
461.24           0.947797429      17.7890204       0.305544389      -71.3876383      0.305544389      -71.3876383      0.947797429      17.7890204       
466.47           0.949010552      17.5731319       0.301953802      -71.6067772      0.301953802      -71.6067772      0.949010552      17.5731319       
471.7            0.950187938      17.3611514       0.298424049      -71.8218973      0.298424049      -71.8218973      0.950187938      17.3611514       
476.93           0.951330919      17.1529693       0.29495358       -72.03311        0.29495358       -72.03311        0.951330919      17.1529693       
482.16           0.952440769      16.9484804       0.291540894      -72.2405228      0.291540894      -72.2405228      0.952440769      16.9484804       
487.39           0.953518705      16.7475827       0.288184536      -72.4442393      0.288184536      -72.4442393      0.953518705      16.7475827       
492.62           0.954565889      16.550178        0.284883093      -72.6443596      0.284883093      -72.6443596      0.954565889      16.550178        
497.85           0.955583431      16.3561716       0.281635196      -72.8409804      0.281635196      -72.8409804      0.955583431      16.3561716       
503.08           0.956572396      16.1654718       0.278439517      -73.0341946      0.278439517      -73.0341946      0.956572396      16.1654718       
508.31           0.9575338        15.9779902       0.275294769      -73.2240925      0.275294769      -73.2240925      0.9575338        15.9779902       
513.54           0.958468615      15.7936414       0.272199702      -73.4107608      0.272199702      -73.4107608      0.958468615      15.7936414       
518.77           0.959377774      15.6123428       0.269153105      -73.5942835      0.269153105      -73.5942835      0.959377774      15.6123428       
524              0.960262167      15.4340146       0.266153802      -73.7747418      0.266153802      -73.7747418      0.960262167      15.4340146       
529.23           0.961122649      15.2585798       0.263200652      -73.9522139      0.263200652      -73.9522139      0.961122649      15.2585798       
534.46           0.961960038      15.0859637       0.26029255       -74.1267757      0.26029255       -74.1267757      0.961960038      15.0859637       
539.69           0.962775118      14.9160941       0.25742842       -74.2985004      0.25742842       -74.2985004      0.962775118      14.9160941       
544.92           0.963568642      14.7489014       0.25460722       -74.4674588      0.25460722       -74.4674588      0.963568642      14.7489014       
550.15           0.96434133       14.5843181       0.251827939      -74.6337195      0.251827939      -74.6337195      0.96434133       14.5843181       
555.38           0.965093875      14.4222788       0.249089593      -74.7973486      0.249089593      -74.7973486      0.965093875      14.4222788       
560.61           0.965826938      14.2627202       0.246391231      -74.9584103      0.246391231      -74.9584103      0.965826938      14.2627202       
565.84           0.966541159      14.1055812       0.243731924      -75.1169666      0.243731924      -75.1169666      0.966541159      14.1055812       
571.07           0.967237147      13.9508025       0.241110774      -75.2730776      0.241110774      -75.2730776      0.967237147      13.9508025       
576.3            0.967915491      13.7983266       0.238526908      -75.4268014      0.238526908      -75.4268014      0.967915491      13.7983266       
581.53           0.968576754      13.648098        0.235979477      -75.5781944      0.235979477      -75.5781944      0.968576754      13.648098        
586.76           0.969221478      13.5000627       0.233467656      -75.7273109      0.233467656      -75.7273109      0.969221478      13.5000627       
591.99           0.969850186      13.3541686       0.230990644      -75.874204       0.230990644      -75.874204       0.969850186      13.3541686       
597.22           0.970463376      13.2103648       0.228547664      -76.0189246      0.228547664      -76.0189246      0.970463376      13.2103648       
602.45           0.971061532      13.0686025       0.226137958      -76.1615225      0.226137958      -76.1615225      0.971061532      13.0686025       
607.68           0.971645117      12.9288338       0.223760792      -76.3020456      0.223760792      -76.3020456      0.971645117      12.9288338       
612.91           0.972214575      12.7910128       0.22141545       -76.4405405      0.22141545       -76.4405405      0.972214575      12.7910128       
618.14           0.972770337      12.6550945       0.219101238      -76.5770524      0.219101238      -76.5770524      0.972770337      12.6550945       
623.37           0.973312815      12.5210355       0.216817479      -76.7116252      0.216817479      -76.7116252      0.973312815      12.5210355       
628.6            0.973842408      12.3887936       0.214563517      -76.8443011      0.214563517      -76.8443011      0.973842408      12.3887936       
633.83           0.974359497      12.2583278       0.212338711      -76.9751216      0.212338711      -76.9751216      0.974359497      12.2583278       
639.06           0.974864453      12.1295984       0.210142441      -77.1041264      0.210142441      -77.1041264      0.974864453      12.1295984       
644.29           0.975357631      12.0025668       0.2079741        -77.2313545      0.2079741        -77.2313545      0.975357631      12.0025668       
649.52           0.975839373      11.8771954       0.205833101      -77.3568433      0.205833101      -77.3568433      0.975839373      11.8771954       
654.75           0.97631001       11.7534479       0.203718869      -77.4806295      0.203718869      -77.4806295      0.97631001       11.7534479       
659.98           0.976769861      11.6312888       0.201630847      -77.6027485      0.201630847      -77.6027485      0.976769861      11.6312888       
665.21           0.977219232      11.5106837       0.199568492      -77.7232348      0.199568492      -77.7232348      0.977219232      11.5106837       
