! Coilcraft 0805CS-220 Chip Inductor				
! 11 June 2002			
# MHZ S MA R 50
!Freq             MagS11           AngS11           MagS21           AngS21           MagS12           AngS12           MagS22           AngS22
1                0.00295190801    27.7640455       0.997388883      -0.0789932303    0.997388883      -0.0789932303    0.00295190801    27.7640455       
10.72            0.0151854788     75.625684        0.996338716      -0.845954002     0.996338716      -0.845954002     0.0151854788     75.625684        
20.44            0.0284215928     80.1607433       0.995537122      -1.61189004      0.995537122      -1.61189004      0.0284215928     80.1607433       
30.16            0.0417109845     81.476053        0.994673198      -2.37680369      0.994673198      -2.37680369      0.0417109845     81.476053        
39.88            0.0549957665     81.8485879       0.993694564      -3.14055499      0.993694564      -3.14055499      0.0549957665     81.8485879       
49.6             0.0682577333     81.8121918       0.992580886      -3.90296665      0.992580886      -3.90296665      0.0682577333     81.8121918       
59.32            0.0814865117     81.5600128       0.991322321      -4.66384571      0.991322321      -4.66384571      0.0814865117     81.5600128       
69.04            0.0946741903     81.1796721       0.989913731      -5.42299185      0.989913731      -5.42299185      0.0946741903     81.1796721       
78.76            0.107813875      80.7169961       0.988352512      -6.18020155      0.988352512      -6.18020155      0.107813875      80.7169961       
88.48            0.120899194      80.1984434       0.986637603      -6.9352705       0.986637603      -6.9352705       0.120899194      80.1984434       
98.2             0.133924105      79.6404514       0.984768981      -7.68799517      0.984768981      -7.68799517      0.133924105      79.6404514       
107.92           0.146882806      79.0538298       0.982747366      -8.438174        0.982747366      -8.438174        0.146882806      79.0538298       
117.64           0.159769706      78.4460187       0.980574048      -9.18560819      0.980574048      -9.18560819      0.159769706      78.4460187       
127.36           0.172579405      77.8223363       0.978250765      -9.93010248      0.978250765      -9.93010248      0.172579405      77.8223363       
137.08           0.185306693      77.1867058       0.975779626      -10.6714656      0.975779626      -10.6714656      0.185306693      77.1867058       
146.8            0.197946549      76.5421018       0.973163051      -11.409511       0.973163051      -11.409511       0.197946549      76.5421018       
156.52           0.210494146      75.8908327       0.970403726      -12.1440567      0.970403726      -12.1440567      0.210494146      75.8908327       
166.24           0.222944854      75.2347279       0.967504568      -12.8749265      0.967504568      -12.8749265      0.222944854      75.2347279       
175.96           0.235294245      74.5752635       0.964468697      -13.6019495      0.964468697      -13.6019495      0.235294245      74.5752635       
185.68           0.247538098      73.9136496       0.961299405      -14.3249606      0.961299405      -14.3249606      0.247538098      73.9136496       
195.4            0.259672401      73.250893        0.958000142      -15.0438011      0.958000142      -15.0438011      0.259672401      73.250893        
205.12           0.271693358      72.5878415       0.95457449       -15.7583184      0.95457449       -15.7583184      0.271693358      72.5878415       
214.84           0.283597385      71.9252173       0.951026147      -16.4683664      0.951026147      -16.4683664      0.283597385      71.9252173       
224.56           0.29538112       71.2636417       0.94735891       -17.1738054      0.94735891       -17.1738054      0.29538112       71.2636417       
234.28           0.307041416      70.6036533       0.943576661      -17.8745026      0.943576661      -17.8745026      0.307041416      70.6036533       
244              0.318575348      69.9457231       0.93968335       -18.5703318      0.93968335       -18.5703318      0.318575348      69.9457231       
253.72           0.329980207      69.2902654       0.935682984      -19.2611737      0.935682984      -19.2611737      0.329980207      69.2902654       
263.44           0.341253503      68.6376465       0.931579611      -19.9469158      0.931579611      -19.9469158      0.341253503      68.6376465       
273.16           0.35239296       67.9881917       0.92737731       -20.6274523      0.92737731       -20.6274523      0.35239296       67.9881917       
282.88           0.363396515      67.3421912       0.923080179      -21.3026843      0.923080179      -21.3026843      0.363396515      67.3421912       
292.6            0.374262314      66.6999043       0.918692322      -21.9725197      0.918692322      -21.9725197      0.374262314      66.6999043       
302.32           0.38498871       66.0615637       0.914217842      -22.636873       0.914217842      -22.636873       0.38498871       66.0615637       
312.04           0.395574257      65.4273778       0.909660829      -23.2956654      0.909660829      -23.2956654      0.395574257      65.4273778       
321.76           0.406017705      64.7975339       0.905025353      -23.9488245      0.905025353      -23.9488245      0.406017705      64.7975339       
331.48           0.416317996      64.1722001       0.900315453      -24.5962847      0.900315453      -24.5962847      0.416317996      64.1722001       
341.2            0.426474259      63.5515275       0.89553513       -25.2379862      0.89553513       -25.2379862      0.426474259      63.5515275       
350.92           0.4364858        62.9356512       0.89068834       -25.8738757      0.89068834       -25.8738757      0.4364858        62.9356512       
360.64           0.446352104      62.324692        0.885778987      -26.503906       0.885778987      -26.503906       0.446352104      62.324692        
370.36           0.45607282       61.7187576       0.880810919      -27.1280355      0.880810919      -27.1280355      0.45607282       61.7187576       
380.08           0.46564776       61.1179437       0.875787919      -27.7462286      0.875787919      -27.7462286      0.46564776       61.1179437       
389.8            0.47507689       60.5223348       0.870713699      -28.3584551      0.870713699      -28.3584551      0.47507689       60.5223348       
399.52           0.484360324      59.9320048       0.865591902      -28.9646902      0.865591902      -28.9646902      0.484360324      59.9320048       
409.24           0.493498315      59.3470184       0.860426091      -29.5649145      0.860426091      -29.5649145      0.493498315      59.3470184       
418.96           0.502491254      58.767431        0.855219748      -30.1591133      0.855219748      -30.1591133      0.502491254      58.767431        
428.68           0.511339655      58.1932897       0.849976272      -30.7472771      0.849976272      -30.7472771      0.511339655      58.1932897       
438.4            0.520044154      57.6246342       0.844698975      -31.3294007      0.844698975      -31.3294007      0.520044154      57.6246342       
448.12           0.5286055        57.0614964       0.839391079      -31.9054837      0.839391079      -31.9054837      0.5286055        57.0614964       
457.84           0.53702455       56.5039017       0.834055715      -32.4755298      0.834055715      -32.4755298      0.53702455       56.5039017       
467.56           0.545302257      55.9518691       0.828695924      -33.0395467      0.828695924      -33.0395467      0.545302257      55.9518691       
477.28           0.553439671      55.4054116       0.823314652      -33.5975462      0.823314652      -33.5975462      0.553439671      55.4054116       
487              0.561437927      54.8645368       0.81791475       -34.1495437      0.81791475       -34.1495437      0.561437927      54.8645368       
496.72           0.569298242      54.3292468       0.812498976      -34.695558       0.812498976      -34.695558       0.569298242      54.3292468       
506.44           0.577021906      53.799539        0.807069992      -35.2356116      0.807069992      -35.2356116      0.577021906      53.799539        
516.16           0.584610279      53.2754064       0.801630366      -35.7697298      0.801630366      -35.7697298      0.584610279      53.2754064       
525.88           0.592064782      52.7568374       0.796182571      -36.297941       0.796182571      -36.297941       0.592064782      52.7568374       
535.6            0.599386895      52.2438167       0.790728988      -36.8202764      0.790728988      -36.8202764      0.599386895      52.2438167       
545.32           0.606578149      51.7363251       0.785271904      -37.33677        0.785271904      -37.33677        0.606578149      51.7363251       
555.04           0.613640123      51.2343402       0.779813514      -37.847458       0.779813514      -37.847458       0.613640123      51.2343402       
564.76           0.620574436      50.7378361       0.774355922      -38.352379       0.774355922      -38.352379       0.620574436      50.7378361       
574.48           0.627382747      50.2467841       0.768901144      -38.8515739      0.768901144      -38.8515739      0.627382747      50.2467841       
584.2            0.634066745      49.7611528       0.763451109      -39.3450854      0.763451109      -39.3450854      0.634066745      49.7611528       
593.92           0.640628148      49.280908        0.758007657      -39.8329581      0.758007657      -39.8329581      0.640628148      49.280908        
603.64           0.6470687        48.8060133       0.752572546      -40.3152385      0.752572546      -40.3152385      0.6470687        48.8060133       
613.36           0.653390164      48.3364302       0.74714745       -40.7919745      0.74714745       -40.7919745      0.653390164      48.3364302       
623.08           0.65959432       47.8721181       0.741733964      -41.2632154      0.741733964      -41.2632154      0.65959432       47.8721181       
632.8            0.665682962      47.4130344       0.736333603      -41.7290119      0.736333603      -41.7290119      0.665682962      47.4130344       
642.52           0.671657893      46.9591351       0.730947805      -42.1894159      0.730947805      -42.1894159      0.671657893      46.9591351       
652.24           0.677520925      46.5103747       0.725577935      -42.6444804      0.725577935      -42.6444804      0.677520925      46.5103747       
661.96           0.683273872      46.0667059       0.720225283      -43.0942592      0.720225283      -43.0942592      0.683273872      46.0667059       
671.68           0.688918551      45.6280807       0.714891071      -43.5388073      0.714891071      -43.5388073      0.688918551      45.6280807       
681.4            0.694456777      45.1944495       0.709576453      -43.97818        0.709576453      -43.97818        0.694456777      45.1944495       
691.12           0.699890363      44.7657621       0.704282514      -44.4124337      0.704282514      -44.4124337      0.699890363      44.7657621       
700.84           0.705221114      44.3419671       0.699010278      -44.841625       0.699010278      -44.841625       0.705221114      44.3419671       
710.56           0.710450829      43.9230125       0.693760705      -45.2658114      0.693760705      -45.2658114      0.710450829      43.9230125       
720.28           0.715581299      43.5088456       0.688534698      -45.6850503      0.688534698      -45.6850503      0.715581299      43.5088456       
730              0.7206143        43.099413        0.683333099      -46.0993999      0.683333099      -46.0993999      0.7206143        43.099413        
739.72           0.7255516        42.694661        0.678156699      -46.5089183      0.678156699      -46.5089183      0.7255516        42.694661        
749.44           0.730394947      42.2945353       0.67300623       -46.9136639      0.67300623       -46.9136639      0.730394947      42.2945353       
759.16           0.735146079      41.8989814       0.667882378      -47.3136953      0.667882378      -47.3136953      0.735146079      41.8989814       
768.88           0.739806714      41.5079445       0.662785777      -47.709071       0.662785777      -47.709071       0.739806714      41.5079445       
778.6            0.744378553      41.1213697       0.657717013      -48.0998495      0.657717013      -48.0998495      0.744378553      41.1213697       
788.32           0.748863278      40.7392018       0.652676628      -48.4860894      0.652676628      -48.4860894      0.748863278      40.7392018       
798.04           0.753262551      40.3613857       0.64766512       -48.8678491      0.64766512       -48.8678491      0.753262551      40.3613857       
807.76           0.757578013      39.9878663       0.642682944      -49.2451866      0.642682944      -49.2451866      0.757578013      39.9878663       
817.48           0.761811286      39.6185885       0.637730518      -49.6181601      0.637730518      -49.6181601      0.761811286      39.6185885       
827.2            0.765963967      39.2534973       0.632808218      -49.9868272      0.632808218      -49.9868272      0.765963967      39.2534973       
836.92           0.770037632      38.8925379       0.627916386      -50.3512455      0.627916386      -50.3512455      0.770037632      38.8925379       
846.64           0.774033835      38.5356557       0.623055328      -50.7114721      0.623055328      -50.7114721      0.774033835      38.5356557       
856.36           0.777954106      38.1827962       0.618225317      -51.0675636      0.618225317      -51.0675636      0.777954106      38.1827962       
866.08           0.78179995       37.8339053       0.613426595      -51.4195766      0.613426595      -51.4195766      0.78179995       37.8339053       
875.8            0.78557285       37.4889294       0.608659372      -51.767567       0.608659372      -51.767567       0.78557285       37.4889294       
885.52           0.789274264      37.1478147       0.603923831      -52.1115902      0.603923831      -52.1115902      0.789274264      37.1478147       
895.24           0.792905627      36.8105084       0.599220126      -52.4517014      0.599220126      -52.4517014      0.792905627      36.8105084       
904.96           0.796468347      36.4769576       0.594548386      -52.787955       0.594548386      -52.787955       0.796468347      36.4769576       
914.68           0.799963811      36.14711         0.589908714      -53.1204051      0.589908714      -53.1204051      0.799963811      36.14711         
924.4            0.803393378      35.8209139       0.585301191      -53.4491053      0.585301191      -53.4491053      0.803393378      35.8209139       
934.12           0.806758385      35.4983179       0.580725875      -53.7741085      0.580725875      -53.7741085      0.806758385      35.4983179       
943.84           0.810060145      35.1792709       0.576182803      -54.0954671      0.576182803      -54.0954671      0.810060145      35.1792709       
953.56           0.813299944      34.8637227       0.571671992      -54.4132329      0.571671992      -54.4132329      0.813299944      34.8637227       
963.28           0.816479047      34.5516233       0.56719344       -54.7274572      0.56719344       -54.7274572      0.816479047      34.5516233       
973              0.819598693      34.2429234       0.562747127      -55.0381907      0.562747127      -55.0381907      0.819598693      34.2429234       
982.72           0.822660098      33.9375742       0.558333015      -55.3454833      0.558333015      -55.3454833      0.822660098      33.9375742       
992.44           0.825664454      33.6355272       0.553951053      -55.6493845      0.553951053      -55.6493845      0.825664454      33.6355272       
1002.16          0.82861293       33.3367349       0.549601172      -55.9499432      0.549601172      -55.9499432      0.82861293       33.3367349       
1011.88          0.831506671      33.0411501       0.545283291      -56.2472075      0.545283291      -56.2472075      0.831506671      33.0411501       
1021.6           0.8343468        32.7487261       0.540997314      -56.541225       0.540997314      -56.541225       0.8343468        32.7487261       
1031.32          0.837134416      32.459417        0.536743134      -56.8320426      0.536743134      -56.8320426      0.837134416      32.459417        
1041.04          0.839870598      32.1731773       0.532520631      -57.1197067      0.532520631      -57.1197067      0.839870598      32.1731773       
1050.76          0.842556401      31.8899621       0.528329674      -57.4042628      0.528329674      -57.4042628      0.842556401      31.8899621       
1060.48          0.845192859      31.6097272       0.524170123      -57.685756       0.524170123      -57.685756       0.845192859      31.6097272       
1070.2           0.847780983      31.332429        0.520041828      -57.9642308      0.520041828      -57.9642308      0.847780983      31.332429        
1079.92          0.850321765      31.0580243       0.515944629      -58.2397308      0.515944629      -58.2397308      0.850321765      31.0580243       
1089.64          0.852816174      30.7864706       0.511878358      -58.5122991      0.511878358      -58.5122991      0.852816174      30.7864706       
1099.36          0.855265162      30.5177261       0.50784284       -58.7819784      0.50784284       -58.7819784      0.855265162      30.5177261       
1109.08          0.857669657      30.2517493       0.503837893      -59.0488103      0.503837893      -59.0488103      0.857669657      30.2517493       
1118.8           0.860030568      29.9884997       0.499863326      -59.3128362      0.499863326      -59.3128362      0.860030568      29.9884997       
1128.52          0.862348787      29.727937        0.495918944      -59.5740966      0.495918944      -59.5740966      0.862348787      29.727937        
1138.24          0.864625184      29.4700218       0.492004547      -59.8326315      0.492004547      -59.8326315      0.864625184      29.4700218       
1147.96          0.866860612      29.2147149       0.488119927      -60.0884803      0.488119927      -60.0884803      0.866860612      29.2147149       
1157.68          0.869055904      28.961978        0.484264872      -60.3416817      0.484264872      -60.3416817      0.869055904      28.961978        
1167.4           0.871211876      28.7117734       0.480439169      -60.5922739      0.480439169      -60.5922739      0.871211876      28.7117734       
1177.12          0.873329326      28.4640636       0.476642595      -60.8402944      0.476642595      -60.8402944      0.873329326      28.4640636       
1186.84          0.875409035      28.2188121       0.472874929      -61.0857801      0.472874929      -61.0857801      0.875409035      28.2188121       
1196.56          0.877451765      27.9759826       0.469135944      -61.3287674      0.469135944      -61.3287674      0.877451765      27.9759826       
1206.28          0.879458265      27.7355397       0.465425409      -61.569292       0.465425409      -61.569292       0.879458265      27.7355397       
1216             0.881429263      27.4974482       0.461743094      -61.8073892      0.461743094      -61.8073892      0.881429263      27.4974482       
1225.72          0.883365474      27.2616738       0.458088762      -62.0430935      0.458088762      -62.0430935      0.883365474      27.2616738       
1235.44          0.885267597      27.0281823       0.454462178      -62.2764389      0.454462178      -62.2764389      0.885267597      27.0281823       
