! Coilcraft 0805CS-121 Chip Inductor				
! 11 June 2002			
# MHZ S MA R 50
!Freq             MagS11           AngS11           MagS21           AngS21           MagS12           AngS12           MagS22           AngS22
1                0.0100513415     47.2055808       0.993198808      -0.42549046      0.993198808      -0.42549046      0.0100513415     47.2055808       
5.49             0.0416374341     75.1309723       0.990133568      -2.32938364      0.990133568      -2.32938364      0.0416374341     75.1309723       
9.98             0.0743753866     77.7416171       0.986888463      -4.22338464      0.986888463      -4.22338464      0.0743753866     77.7416171       
14.47            0.106964173      77.7528779       0.98288403       -6.10495962      0.98288403       -6.10495962      0.106964173      77.7528779       
18.96            0.139216221      76.9540521       0.978023487      -7.97091839      0.978023487      -7.97091839      0.139216221      76.9540521       
23.45            0.171018695      75.8019314       0.972293306      -9.81800877      0.972293306      -9.81800877      0.171018695      75.8019314       
27.94            0.202279641      74.4702434       0.965712605      -11.643081       0.965712605      -11.643081       0.202279641      74.4702434       
32.43            0.232919092      73.0411628       0.958318048      -13.4431682      0.958318048      -13.4431682      0.232919092      73.0411628       
36.92            0.262867108      71.5594806       0.950157287      -15.2155345      0.950157287      -15.2155345      0.262867108      71.5594806       
41.41            0.292063344      70.0521874       0.941285263      -16.9577064      0.941285263      -16.9577064      0.292063344      70.0521874       
45.9             0.320456917      68.5367909       0.931761711      -18.6674911      0.931761711      -18.6674911      0.320456917      68.5367909       
50.39            0.348006263      67.0252841       0.921649257      -20.342987       0.921649257      -20.342987       0.348006263      67.0252841       
54.88            0.374678866      65.5262128       0.911011888      -21.982585       0.911011888      -21.982585       0.374678866      65.5262128       
59.37            0.400450862      64.0458339       0.899913685      -23.5849649      0.899913685      -23.5849649      0.400450862      64.0458339       
63.86            0.425306508      62.5888035       0.888417768      -25.1490856      0.888417768      -25.1490856      0.425306508      62.5888035       
68.35            0.449237566      61.1586092       0.876585438      -26.6741719      0.876585438      -26.6741719      0.449237566      61.1586092       
72.84            0.472242611      59.7578552       0.864475487      -28.1596975      0.864475487      -28.1596975      0.472242611      59.7578552       
77.33            0.494326298      58.3884578       0.852143674      -29.6053666      0.852143674      -29.6053666      0.494326298      58.3884578       
81.82            0.51549862       57.051787        0.839642333      -31.0110934      0.839642333      -31.0110934      0.51549862       57.051787        
86.31            0.535774166      55.748771        0.827020118      -32.3769809      0.827020118      -32.3769809      0.535774166      55.748771        
90.8             0.555171405      54.4799774       0.814321855      -33.7033003      0.814321855      -33.7033003      0.555171405      54.4799774       
95.29            0.573712012      53.2456779       0.801588486      -34.9904697      0.801588486      -34.9904697      0.573712012      53.2456779       
99.78            0.59142024       52.0458995       0.788857094      -36.2390346      0.788857094      -36.2390346      0.59142024       52.0458995       
104.27           0.608322343      50.8804686       0.776160996      -37.4496487      0.776160996      -37.4496487      0.608322343      50.8804686       
108.76           0.624446062      49.749046        0.763529871      -38.6230563      0.763529871      -38.6230563      0.624446062      49.749046        
113.25           0.639820165      48.6511582       0.750989944      -39.7600759      0.750989944      -39.7600759      0.639820165      48.6511582       
117.74           0.654474049      47.5862224       0.738564179      -40.8615857      0.738564179      -40.8615857      0.654474049      47.5862224       
122.23           0.668437395      46.5535694       0.726272497      -41.9285097      0.726272497      -41.9285097      0.668437395      46.5535694       
126.72           0.681739874      45.5524619       0.714132007      -42.9618061      0.714132007      -42.9618061      0.681739874      45.5524619       
131.21           0.694410902      44.5821104       0.702157228      -43.9624569      0.702157228      -43.9624569      0.694410902      44.5821104       
135.7            0.706479437      43.6416876       0.690360319      -44.9314582      0.690360319      -44.9314582      0.706479437      43.6416876       
140.19           0.717973818      42.7303393       0.678751298      -45.8698125      0.678751298      -45.8698125      0.717973818      42.7303393       
144.68           0.728921635      41.8471947       0.667338252      -46.7785219      0.667338252      -46.7785219      0.728921635      41.8471947       
149.17           0.73934963       40.9913746       0.656127539      -47.6585821      0.656127539      -47.6585821      0.73934963       40.9913746       
153.66           0.749283622      40.161998        0.645123975      -48.5109776      0.645123975      -48.5109776      0.749283622      40.161998        
158.15           0.758748459      39.3581886       0.634331008      -49.3366777      0.634331008      -49.3366777      0.758748459      39.3581886       
162.64           0.767767983      38.5790788       0.623750879      -50.1366328      0.623750879      -50.1366328      0.767767983      38.5790788       
167.13           0.776365014      37.8238141       0.613384771      -50.9117725      0.613384771      -50.9117725      0.776365014      37.8238141       
171.62           0.784561347      37.0915558       0.603232942      -51.6630029      0.603232942      -51.6630029      0.784561347      37.0915558       
176.11           0.792377756      36.3814839       0.593294851      -52.3912049      0.593294851      -52.3912049      0.792377756      36.3814839       
180.6            0.799834012      35.6927988       0.583569262      -53.0972338      0.583569262      -53.0972338      0.799834012      35.6927988       
185.09           0.806948903      35.0247226       0.57405435       -53.7819176      0.57405435       -53.7819176      0.806948903      35.0247226       
189.58           0.813740259      34.3765004       0.564747785      -54.4460573      0.564747785      -54.4460573      0.813740259      34.3765004       
194.07           0.820224988      33.7474009       0.555646816      -55.090426       0.555646816      -55.090426       0.820224988      33.7474009       
198.56           0.826419103      33.1367168       0.546748334      -55.7157696      0.546748334      -55.7157696      0.826419103      33.1367168       
203.05           0.832337765      32.543765        0.538048944      -56.3228064      0.538048944      -56.3228064      0.832337765      32.543765        
207.54           0.83799531       31.9678864       0.52954501       -56.9122277      0.52954501       -56.9122277      0.83799531       31.9678864       
212.03           0.843405295      31.4084463       0.521232711      -57.4846984      0.521232711      -57.4846984      0.843405295      31.4084463       
216.52           0.848580531      30.8648333       0.51310808       -58.0408571      0.51310808       -58.0408571      0.848580531      30.8648333       
221.01           0.853533118      30.3364593       0.505167042      -58.5813174      0.505167042      -58.5813174      0.853533118      30.3364593       
225.5            0.858274486      29.8227593       0.497405446      -59.1066681      0.497405446      -59.1066681      0.858274486      29.8227593       
229.99           0.862815426      29.32319         0.489819092      -59.6174739      0.489819092      -59.6174739      0.862815426      29.32319         
234.48           0.867166126      28.8372301       0.482403756      -60.1142767      0.482403756      -60.1142767      0.867166126      28.8372301       
238.97           0.871336204      28.364379        0.475155212      -60.5975958      0.475155212      -60.5975958      0.871336204      28.364379        
243.46           0.875334739      27.9041564       0.468069248      -61.0679289      0.468069248      -61.0679289      0.875334739      27.9041564       
247.95           0.879170302      27.4561016       0.461141681      -61.5257532      0.461141681      -61.5257532      0.879170302      27.4561016       
252.44           0.882850984      27.0197727       0.45436837       -61.9715258      0.45436837       -61.9715258      0.882850984      27.0197727       
256.93           0.886384425      26.5947461       0.44774523       -62.4056845      0.44774523       -62.4056845      0.886384425      26.5947461       
261.42           0.889777838      26.1806156       0.441268233      -62.828649       0.441268233      -62.828649       0.889777838      26.1806156       
265.91           0.893038038      25.7769916       0.434933425      -63.2408212      0.434933425      -63.2408212      0.893038038      25.7769916       
270.4            0.896171458      25.3835009       0.428736924      -63.642586       0.428736924      -63.642586       0.896171458      25.3835009       
274.89           0.89918418       24.9997855       0.422674929      -64.0343124      0.422674929      -64.0343124      0.89918418       24.9997855       
279.38           0.90208195       24.6255024       0.416743722      -64.4163538      0.416743722      -64.4163538      0.90208195       24.6255024       
283.87           0.904870198      24.2603226       0.410939672      -64.7890487      0.410939672      -64.7890487      0.904870198      24.2603226       
288.36           0.90755406       23.9039308       0.405259236      -65.1527215      0.405259236      -65.1527215      0.90755406       23.9039308       
292.85           0.910138392      23.5560246       0.399698959      -65.5076834      0.399698959      -65.5076834      0.910138392      23.5560246       
297.34           0.91262779       23.2163141       0.394255477      -65.8542321      0.394255477      -65.8542321      0.91262779       23.2163141       
301.83           0.915026601      22.8845212       0.388925518      -66.1926536      0.388925518      -66.1926536      0.915026601      22.8845212       
306.32           0.917338941      22.5603792       0.383705897      -66.5232216      0.383705897      -66.5232216      0.917338941      22.5603792       
310.81           0.919568707      22.2436323       0.37859352       -66.8461988      0.37859352       -66.8461988      0.919568707      22.2436323       
315.3            0.921719592      21.9340348       0.373585382      -67.1618372      0.373585382      -67.1618372      0.921719592      21.9340348       
319.79           0.923795092      21.6313513       0.368678564      -67.4703784      0.368678564      -67.4703784      0.923795092      21.6313513       
324.28           0.925798525      21.3353555       0.363870234      -67.7720542      0.363870234      -67.7720542      0.925798525      21.3353555       
328.77           0.927733034      21.0458305       0.359157645      -68.0670873      0.359157645      -68.0670873      0.927733034      21.0458305       
333.26           0.929601601      20.7625677       0.35453813       -68.3556912      0.35453813       -68.3556912      0.929601601      20.7625677       
337.75           0.931407057      20.4853669       0.350009107      -68.638071       0.350009107      -68.638071       0.931407057      20.4853669       
342.24           0.933152086      20.2140358       0.345568071      -68.9144237      0.345568071      -68.9144237      0.933152086      20.2140358       
346.73           0.93483924       19.9483897       0.341212592      -69.1849383      0.341212592      -69.1849383      0.93483924       19.9483897       
351.22           0.936470942      19.6882509       0.33694032       -69.4497966      0.33694032       -69.4497966      0.936470942      19.6882509       
355.71           0.938049493      19.4334487       0.332748974      -69.7091734      0.332748974      -69.7091734      0.938049493      19.4334487       
360.2            0.939577082      19.1838191       0.328636347      -69.9632365      0.328636347      -69.9632365      0.939577082      19.1838191       
364.69           0.941055789      18.9392041       0.324600299      -70.2121472      0.324600299      -70.2121472      0.941055789      18.9392041       
369.18           0.942487595      18.699452        0.320638758      -70.4560609      0.320638758      -70.4560609      0.942487595      18.699452        
373.67           0.943874382      18.4644165       0.316749717      -70.6951268      0.316749717      -70.6951268      0.943874382      18.4644165       
378.16           0.945217945      18.2339571       0.312931232      -70.9294885      0.312931232      -70.9294885      0.945217945      18.2339571       
382.65           0.946519991      18.0079385       0.309181422      -71.1592845      0.309181422      -71.1592845      0.946519991      18.0079385       
387.14           0.947782145      17.7862304       0.305498462      -71.3846476      0.305498462      -71.3846476      0.947782145      17.7862304       
391.63           0.94900596       17.5687071       0.301880586      -71.6057061      0.301880586      -71.6057061      0.94900596       17.5687071       
396.12           0.950192912      17.3552478       0.298326083      -71.8225835      0.298326083      -71.8225835      0.950192912      17.3552478       
400.61           0.95134441       17.145736        0.294833298      -72.0353985      0.294833298      -72.0353985      0.95134441       17.145736        
405.1            0.9524618        16.9400593       0.291400624      -72.2442657      0.291400624      -72.2442657      0.9524618        16.9400593       
409.59           0.953546363      16.7381096       0.288026507      -72.4492956      0.288026507      -72.4492956      0.953546363      16.7381096       
414.08           0.954599325      16.5397823       0.28470944       -72.6505946      0.28470944       -72.6505946      0.954599325      16.5397823       
418.57           0.955621855      16.3449769       0.281447965      -72.8482653      0.281447965      -72.8482653      0.955621855      16.3449769       
423.06           0.95661507       16.1535961       0.278240666      -73.0424067      0.278240666      -73.0424067      0.95661507       16.1535961       
427.55           0.957580038      15.9655463       0.275086174      -73.2331143      0.275086174      -73.2331143      0.957580038      15.9655463       
432.04           0.95851778       15.7807369       0.271983161      -73.4204802      0.271983161      -73.4204802      0.95851778       15.7807369       
436.53           0.959429271      15.5990806       0.268930339      -73.6045934      0.268930339      -73.6045934      0.959429271      15.5990806       
441.02           0.960315444      15.420493        0.265926461      -73.7855397      0.265926461      -73.7855397      0.960315444      15.420493        
445.51           0.961177194      15.2448927       0.262970317      -73.963402       0.262970317      -73.963402       0.961177194      15.2448927       
450              0.962015374      15.0722009       0.260060735      -74.1382604      0.260060735      -74.1382604      0.962015374      15.0722009       
454.49           0.962830803      14.9023415       0.257196577      -74.3101922      0.257196577      -74.3101922      0.962830803      14.9023415       
458.98           0.963624265      14.735241        0.25437674       -74.4792722      0.25437674       -74.4792722      0.963624265      14.735241        
463.47           0.964396511      14.5708284       0.251600156      -74.6455726      0.251600156      -74.6455726      0.964396511      14.5708284       
467.96           0.965148261      14.4090349       0.248865786      -74.8091632      0.248865786      -74.8091632      0.965148261      14.4090349       
472.45           0.965880205      14.2497939       0.246172624      -74.9701116      0.246172624      -74.9701116      0.965880205      14.2497939       
476.94           0.966593004      14.0930412       0.243519693      -75.1284829      0.243519693      -75.1284829      0.966593004      14.0930412       
481.43           0.967287293      13.9387145       0.240906045      -75.2843405      0.240906045      -75.2843405      0.967287293      13.9387145       
485.92           0.967963681      13.7867536       0.238330761      -75.4377453      0.238330761      -75.4377453      0.967963681      13.7867536       
490.41           0.968622753      13.6371          0.235792948      -75.5887565      0.235792948      -75.5887565      0.968622753      13.6371          
494.9            0.96926507       13.4896974       0.233291739      -75.7374312      0.233291739      -75.7374312      0.96926507       13.4896974       
499.39           0.96989117       13.3444911       0.230826292      -75.883825       0.230826292      -75.883825       0.96989117       13.3444911       
503.88           0.970501571      13.2014279       0.228395789      -76.0279914      0.228395789      -76.0279914      0.970501571      13.2014279       
508.37           0.97109677       13.0604567       0.225999438      -76.1699824      0.225999438      -76.1699824      0.97109677       13.0604567       
512.86           0.971677246      12.9215276       0.223636467      -76.3098483      0.223636467      -76.3098483      0.971677246      12.9215276       
517.35           0.972243459      12.7845923       0.221306127      -76.4476378      0.221306127      -76.4476378      0.972243459      12.7845923       
521.84           0.972795849      12.6496042       0.219007689      -76.5833982      0.219007689      -76.5833982      0.972795849      12.6496042       
526.33           0.973334843      12.5165179       0.216740448      -76.7171751      0.216740448      -76.7171751      0.973334843      12.5165179       
530.82           0.973860849      12.3852893       0.214503715      -76.8490131      0.214503715      -76.8490131      0.973860849      12.3852893       
535.31           0.974374262      12.2558759       0.212296821      -76.9789551      0.212296821      -76.9789551      0.974374262      12.2558759       
539.8            0.974875459      12.1282362       0.210119118      -77.1070427      0.210119118      -77.1070427      0.974875459      12.1282362       
544.29           0.975364807      12.00233         0.207969973      -77.2333165      0.207969973      -77.2333165      0.975364807      12.00233         
548.78           0.975842657      11.8781183       0.205848773      -77.3578157      0.205848773      -77.3578157      0.975842657      11.8781183       
553.27           0.976309346      11.7555632       0.203754919      -77.4805783      0.203754919      -77.4805783      0.976309346      11.7555632       
557.76           0.976765203      11.634628        0.20168783       -77.6016413      0.20168783       -77.6016413      0.976765203      11.634628        
562.25           0.977210541      11.515277        0.199646942      -77.7210404      0.199646942      -77.7210404      0.977210541      11.515277        
566.74           0.977645664      11.3974754       0.197631703      -77.8388105      0.197631703      -77.8388105      0.977645664      11.3974754       
571.23           0.978070864      11.2811895       0.195641578      -77.9549854      0.195641578      -77.9549854      0.978070864      11.2811895       
