! Coilcraft 0805CS-681 Chip Inductor				
! 11 June 2002			
# MHZ S MA R 50
!Freq             MagS11           AngS11           MagS21           AngS21           MagS12           AngS12           MagS22           AngS22
1                0.0502097258     53.3278393       0.970848575      -2.37735302      0.970848575      -2.37735302      0.0502097258     53.3278393       
2                0.0881451125     64.6798463       0.965595407      -4.73320813      0.965595407      -4.73320813      0.0881451125     64.6798463       
3                0.127336892      67.9264885       0.959431772      -7.06486999      0.959431772      -7.06486999      0.127336892      67.9264885       
4                0.166383485      68.6484961       0.952117013      -9.36695465      0.952117013      -9.36695465      0.166383485      68.6484961       
5                0.204816326      68.2893931       0.943620117      -11.6338661      0.943620117      -11.6338661      0.204816326      68.2893931       
6                0.242380368      67.3830148       0.933983028      -13.8602843      0.933983028      -13.8602843      0.242380368      67.3830148       
7                0.278901972      66.1736293       0.923283422      -16.0413743      0.923283422      -16.0413743      0.278901972      66.1736293       
8                0.31425288       64.7898181       0.911618933      -18.1728961      0.911618933      -18.1728961      0.31425288       64.7898181       
9                0.348337419      63.3062646       0.899098309      -20.2512589      0.899098309      -20.2512589      0.348337419      63.3062646       
10               0.381086622      61.7695522       0.885835516      -22.2735399      0.885835516      -22.2735399      0.381086622      61.7695522       
11               0.412454627      60.2102808       0.87194544       -24.2374764      0.87194544       -24.2374764      0.412454627      60.2102808       
12               0.442415826      58.6492999       0.857540653      -26.1414378      0.857540653      -26.1414378      0.442415826      58.6492999       
13               0.47096228       57.1011617       0.842728989      -27.9843834      0.842728989      -27.9843834      0.47096228       57.1011617       
14               0.498101223      55.5761549       0.827611792      -29.7658106      0.827611792      -29.7658106      0.498101223      55.5761549       
15               0.523852662      54.0815712       0.812282728      -31.4856966      0.812282728      -31.4856966      0.523852662      54.0815712       
16               0.548247097      52.62253         0.796827067      -33.1444384      0.796827067      -33.1444384      0.548247097      52.62253         
17               0.571323398      51.2025405       0.781321364      -34.7427924      0.781321364      -34.7427924      0.571323398      51.2025405       
18               0.593126874      49.8238971       0.765833438      -36.2818165      0.765833438      -36.2818165      0.593126874      49.8238971       
19               0.61370756       48.4879681       0.750422598      -37.762815       0.750422598      -37.762815       0.61370756       48.4879681       
20               0.633118714      47.1954105       0.73514004       -39.187289       0.73514004       -39.187289       0.633118714      47.1954105       
21               0.651415544      45.9463348       0.72002937       -40.5568909      0.72002937       -40.5568909      0.651415544      45.9463348       
22               0.668654135      44.7404311       0.70512719       -41.8733846      0.70512719       -41.8733846      0.668654135      44.7404311       
23               0.684890576      43.5770701       0.690463737      -43.1386109      0.690463737      -43.1386109      0.684890576      43.5770701       
24               0.700180255      42.4553811       0.676063522      -44.3544576      0.676063522      -44.3544576      0.700180255      42.4553811       
25               0.714577313      41.3743151       0.661945962      -45.5228342      0.661945962      -45.5228342      0.714577313      41.3743151       
26               0.728134228      40.3326952       0.648125981      -46.6456516      0.648125981      -46.6456516      0.728134228      40.3326952       
27               0.740901506      39.3292557       0.634614581      -47.7248042      0.634614581      -47.7248042      0.740901506      39.3292557       
28               0.752927481      38.362675        0.621419364      -48.7621568      0.621419364      -48.7621568      0.752927481      38.362675        
29               0.764258172      37.4315999       0.608545011      -49.7595332      0.608545011      -49.7595332      0.764258172      37.4315999       
30               0.774937221      36.5346662       0.595993714      -50.7187084      0.595993714      -50.7187084      0.774937221      36.5346662       
31               0.785005873      35.6705142       0.583765562      -51.6414017      0.583765562      -51.6414017      0.785005873      35.6705142       
32               0.794502988      34.8378005       0.571858882      -52.529273       0.571858882      -52.529273       0.794502988      34.8378005       
33               0.803465095      34.0352077       0.56027054       -53.3839193      0.56027054       -53.3839193      0.803465095      34.0352077       
34               0.811926462      33.2614512       0.548996206      -54.2068732      0.548996206      -54.2068732      0.811926462      33.2614512       
35               0.819919179      32.5152843       0.53803058       -54.9996022      0.53803058       -54.9996022      0.819919179      32.5152843       
36               0.827473255      31.7955016       0.527367591      -55.7635087      0.527367591      -55.7635087      0.827473255      31.7955016       
37               0.834616724      31.1009415       0.517000567      -56.4999308      0.517000567      -56.4999308      0.834616724      31.1009415       
38               0.841375747      30.4304877       0.506922376      -57.2101434      0.506922376      -57.2101434      0.841375747      30.4304877       
39               0.847774725      29.7830697       0.497125557      -57.8953601      0.497125557      -57.8953601      0.847774725      29.7830697       
40               0.8538364        29.1576627       0.487602415      -58.5567347      0.487602415      -58.5567347      0.8538364        29.1576627       
41               0.85958196       28.5532873       0.478345117      -59.1953635      0.478345117      -59.1953635      0.85958196       28.5532873       
42               0.865031145      27.9690086       0.46934576       -59.8122875      0.46934576       -59.8122875      0.865031145      27.9690086       
43               0.870202337      27.4039352       0.460596434      -60.4084947      0.460596434      -60.4084947      0.870202337      27.4039352       
44               0.875112657      26.8572178       0.452089272      -60.9849223      0.452089272      -60.9849223      0.875112657      26.8572178       
45               0.879778047      26.3280477       0.44381649       -61.5424593      0.44381649       -61.5424593      0.879778047      26.3280477       
46               0.88421336       25.8156555       0.435770421      -62.0819485      0.435770421      -62.0819485      0.88421336       25.8156555       
47               0.888432431      25.3193094       0.427943541      -62.6041893      0.427943541      -62.6041893      0.888432431      25.3193094       
48               0.892448151      24.8383135       0.420328489      -63.1099393      0.420328489      -63.1099393      0.892448151      24.8383135       
49               0.896272536      24.3720062       0.412918085      -63.5999169      0.412918085      -63.5999169      0.896272536      24.3720062       
50               0.89991679       23.9197589       0.40570534       -64.0748031      0.40570534       -64.0748031      0.89991679       23.9197589       
51               0.903391363      23.4809738       0.398683464      -64.5352438      0.398683464      -64.5352438      0.903391363      23.4809738       
52               0.906706006      23.0550832       0.391845873      -64.9818513      0.391845873      -64.9818513      0.906706006      23.0550832       
53               0.909869822      22.6415471       0.385186191      -65.4152067      0.385186191      -65.4152067      0.909869822      22.6415471       
54               0.91289131       22.2398526       0.378698252      -65.8358611      0.378698252      -65.8358611      0.91289131       22.2398526       
55               0.915778415      21.8495119       0.372376098      -66.2443373      0.372376098      -66.2443373      0.915778415      21.8495119       
56               0.918538561      21.4700614       0.366213982      -66.6411317      0.366213982      -66.6411317      0.918538561      21.4700614       
57               0.921178693      21.10106         0.360206356      -67.0267156      0.360206356      -67.0267156      0.921178693      21.10106         
58               0.92370531       20.7420883       0.354347879      -67.4015364      0.354347879      -67.4015364      0.92370531       20.7420883       
59               0.926124495      20.3927474       0.348633402      -67.7660193      0.348633402      -67.7660193      0.926124495      20.3927474       
60               0.92844195       20.0526574       0.343057971      -68.1205683      0.343057971      -68.1205683      0.92844195       20.0526574       
61               0.930663016      19.7214571       0.337616817      -68.4655672      0.337616817      -68.4655672      0.930663016      19.7214571       
62               0.932792702      19.3988022       0.332305352      -68.8013813      0.332305352      -68.8013813      0.932792702      19.3988022       
63               0.93483571       19.0843649       0.327119166      -69.1283577      0.327119166      -69.1283577      0.93483571       19.0843649       
64               0.936796452      18.7778331       0.322054016      -69.4468268      0.322054016      -69.4468268      0.936796452      18.7778331       
65               0.938679074      18.478909        0.317105824      -69.7571033      0.317105824      -69.7571033      0.938679074      18.478909        
66               0.940487471      18.1873089       0.31227067       -70.0594864      0.31227067       -70.0594864      0.940487471      18.1873089       
67               0.942225308      17.9027622       0.307544786      -70.3542615      0.307544786      -70.3542615      0.942225308      17.9027622       
68               0.943896032      17.6250108       0.302924551      -70.6417002      0.302924551      -70.6417002      0.943896032      17.6250108       
69               0.945502886      17.3538083       0.298406484      -70.9220615      0.298406484      -70.9220615      0.945502886      17.3538083       
70               0.947048929      17.0889195       0.293987241      -71.1955923      0.293987241      -71.1955923      0.947048929      17.0889195       
71               0.948537041      16.8301197       0.289663606      -71.4625282      0.289663606      -71.4625282      0.948537041      16.8301197       
72               0.949969937      16.5771944       0.285432489      -71.7230938      0.285432489      -71.7230938      0.949969937      16.5771944       
73               0.951350181      16.3299385       0.281290919      -71.9775035      0.281290919      -71.9775035      0.951350181      16.3299385       
74               0.95268019       16.0881559       0.277236041      -72.2259621      0.277236041      -72.2259621      0.95268019       16.0881559       
75               0.95396225       15.851659        0.273265108      -72.468665       0.273265108      -72.468665       0.95396225       15.851659        
76               0.95519852       15.6202686       0.269375481      -72.705799       0.269375481      -72.705799       0.95519852       15.6202686       
77               0.956391039      15.3938128       0.26556462       -72.9375425      0.26556462       -72.9375425      0.956391039      15.3938128       
78               0.957541738      15.1721272       0.261830082      -73.1640662      0.261830082      -73.1640662      0.957541738      15.1721272       
79               0.958652444      14.9550546       0.258169519      -73.3855331      0.258169519      -73.3855331      0.958652444      14.9550546       
80               0.959724887      14.7424438       0.254580669      -73.6020991      0.254580669      -73.6020991      0.959724887      14.7424438       
81               0.960760704      14.5341505       0.251061356      -73.8139136      0.251061356      -73.8139136      0.960760704      14.5341505       
82               0.96176145       14.330036        0.247609487      -74.0211193      0.247609487      -74.0211193      0.96176145       14.330036        
83               0.962728595      14.1299674       0.244223045      -74.2238529      0.244223045      -74.2238529      0.962728595      14.1299674       
84               0.963663538      13.9338171       0.240900089      -74.4222453      0.240900089      -74.4222453      0.963663538      13.9338171       
85               0.964567604      13.7414627       0.237638749      -74.6164217      0.237638749      -74.6164217      0.964567604      13.7414627       
86               0.965442052      13.5527867       0.234437225      -74.8065022      0.234437225      -74.8065022      0.965442052      13.5527867       
87               0.966288077      13.3676763       0.231293781      -74.9926019      0.231293781      -74.9926019      0.966288077      13.3676763       
88               0.967106817      13.186023        0.228206745      -75.1748308      0.228206745      -75.1748308      0.967106817      13.186023        
89               0.967899352      13.0077226       0.225174505      -75.3532946      0.225174505      -75.3532946      0.967899352      13.0077226       
90               0.968666711      12.832675        0.222195506      -75.5280946      0.222195506      -75.5280946      0.968666711      12.832675        
91               0.969409871      12.6607838       0.219268251      -75.6993278      0.219268251      -75.6993278      0.969409871      12.6607838       
92               0.970129764      12.4919564       0.216391294      -75.8670873      0.216391294      -75.8670873      0.970129764      12.4919564       
93               0.970827277      12.3261036       0.213563241      -76.0314623      0.213563241      -76.0314623      0.970827277      12.3261036       
94               0.971503257      12.1631397       0.210782745      -76.1925385      0.210782745      -76.1925385      0.971503257      12.1631397       
95               0.972158508      12.0029819       0.208048508      -76.350398       0.208048508      -76.350398       0.972158508      12.0029819       
96               0.972793799      11.8455508       0.205359277      -76.5051195      0.205359277      -76.5051195      0.972793799      11.8455508       
97               0.973409864      11.6907696       0.202713841      -76.6567787      0.202713841      -76.6567787      0.973409864      11.6907696       
98               0.974007402      11.5385645       0.20011103       -76.805448       0.20011103       -76.805448       0.974007402      11.5385645       
99               0.974587081      11.3888643       0.197549716      -76.9511969      0.197549716      -76.9511969      0.974587081      11.3888643       
100              0.97514954       11.2416002       0.195028806      -77.0940924      0.195028806      -77.0940924      0.97514954       11.2416002       
101              0.975695388      11.0967061       0.192547246      -77.2341982      0.192547246      -77.2341982      0.975695388      11.0967061       
102              0.976225209      10.954118        0.190104017      -77.371576       0.190104017      -77.371576       0.976225209      10.954118        
103              0.976739559      10.8137743       0.187698133      -77.5062846      0.187698133      -77.5062846      0.976739559      10.8137743       
104              0.977238972      10.6756154       0.18532864       -77.6383805      0.18532864       -77.6383805      0.977238972      10.6756154       
105              0.977723958      10.5395839       0.182994616      -77.7679179      0.182994616      -77.7679179      0.977723958      10.5395839       
106              0.978195006      10.4056242       0.18069517       -77.8949488      0.18069517       -77.8949488      0.978195006      10.4056242       
107              0.978652582      10.2736827       0.178429437      -78.019523       0.178429437      -78.019523       0.978652582      10.2736827       
108              0.979097135      10.1437075       0.176196583      -78.1416883      0.176196583      -78.1416883      0.979097135      10.1437075       
109              0.979529094      10.0156486       0.173995797      -78.2614903      0.173995797      -78.2614903      0.979529094      10.0156486       
110              0.979948871      9.8894575        0.171826298      -78.3789729      0.171826298      -78.3789729      0.979948871      9.8894575        
111              0.98035686       9.76508735       0.169687326      -78.4941781      0.169687326      -78.4941781      0.98035686       9.76508735       
112              0.98075344       9.64249284       0.167578147      -78.6071459      0.167578147      -78.6071459      0.98075344       9.64249284       
113              0.981138973      9.5216301        0.165498048      -78.7179147      0.165498048      -78.7179147      0.981138973      9.5216301        
114              0.981513809      9.40245671       0.163446339      -78.8265213      0.163446339      -78.8265213      0.981513809      9.40245671       
115              0.981878281      9.28493158       0.161422352      -78.9330007      0.161422352      -78.9330007      0.981878281      9.28493158       
116              0.982232712      9.16901493       0.159425438      -79.0373863      0.159425438      -79.0373863      0.982232712      9.16901493       
117              0.982577409      9.05466823       0.157454968      -79.1397101      0.157454968      -79.1397101      0.982577409      9.05466823       
118              0.98291267       8.94185416       0.155510332      -79.2400024      0.155510332      -79.2400024      0.98291267       8.94185416       
119              0.983238779      8.83053657       0.15359094       -79.3382922      0.15359094       -79.3382922      0.983238779      8.83053657       
120              0.983556012      8.7206804        0.151696216      -79.434607       0.151696216      -79.434607       0.983556012      8.7206804        
121              0.983864631      8.61225167       0.149825604      -79.528973       0.149825604      -79.528973       0.983864631      8.61225167       
122              0.98416489       8.50521746       0.147978564      -79.6214149      0.147978564      -79.6214149      0.98416489       8.50521746       
123              0.984457034      8.39954581       0.14615457       -79.7119561      0.14615457       -79.7119561      0.984457034      8.39954581       
124              0.984741297      8.29520574       0.144353113      -79.8006188      0.144353113      -79.8006188      0.984741297      8.29520574       
125              0.985017907      8.19216717       0.142573699      -79.8874238      0.142573699      -79.8874238      0.985017907      8.19216717       
126              0.98528708       8.09040095       0.140815846      -79.9723908      0.140815846      -79.9723908      0.98528708       8.09040095       
127              0.985549027      7.98987875       0.139079088      -80.0555381      0.139079088      -80.0555381      0.985549027      7.98987875       
128              0.98580395       7.89057307       0.137362971      -80.1368831      0.137362971      -80.1368831      0.98580395       7.89057307       
