! Coilcraft 0805CS-120 Chip Inductor				
! 11 June 2002			
# MHZ S MA R 50
!Freq             MagS11           AngS11           MagS21           AngS21           MagS12           AngS12           MagS22           AngS22
1                0.00189669827    23.3371165       0.998258753      -0.0431247832    0.998258753      -0.0431247832    0.00189669827    23.3371165       
18.7             0.0142913084     78.9224724       0.997352727      -0.805734752     0.997352727      -0.805734752     0.0142913084     78.9224724       
36.4             0.0275141876     82.251846        0.996663514      -1.56747899      0.996663514      -1.56747899      0.0275141876     82.251846        
54.1             0.0407580877     83.0538283       0.995893024      -2.32832655      0.995893024      -2.32832655      0.0407580877     83.0538283       
71.8             0.0539886722     83.1414876       0.99499766       -3.08812277      0.99499766       -3.08812277      0.0539886722     83.1414876       
89.5             0.06719361       82.9230898       0.993960897      -3.84668254      0.993960897      -3.84668254      0.06719361       82.9230898       
107.2            0.0803647179     82.5442063       0.99277492       -4.60380836      0.99277492       -4.60380836      0.0803647179     82.5442063       
124.9            0.0934951026     82.0704242       0.9914358        -5.35929714      0.9914358        -5.35929714      0.0934951026     82.0704242       
142.6            0.106578418      81.5359325       0.98994171       -6.11294368      0.98994171       -6.11294368      0.106578418      81.5359325       
160.3            0.119608622      80.9604464       0.988292113      -6.8645427       0.988292113      -6.8645427       0.119608622      80.9604464       
178              0.132579882      80.3562165       0.986487348      -7.61389013      0.986487348      -7.61389013      0.132579882      80.3562165       
195.7            0.145486545      79.73131         0.984528391      -8.36078416      0.984528391      -8.36078416      0.145486545      79.73131         
213.4            0.158323125      79.0912926       0.982416712      -9.10502594      0.982416712      -9.10502594      0.158323125      79.0912926       
231.1            0.171084302      78.4401553       0.980154178      -9.84642023      0.980154178      -9.84642023      0.171084302      78.4401553       
248.8            0.183764926      77.7808549       0.977742986      -10.5847759      0.977742986      -10.5847759      0.183764926      77.7808549       
266.5            0.196360023      77.1156437       0.975185616      -11.3199064      0.975185616      -11.3199064      0.196360023      77.1156437       
284.2            0.2088648        76.4462801       0.972484793      -12.05163        0.972484793      -12.05163        0.2088648        76.4462801       
301.9            0.221274654      75.7741659       0.969643453      -12.7797703      0.969643453      -12.7797703      0.221274654      75.7741659       
319.6            0.233585175      75.1004399       0.966664721      -13.5041565      0.966664721      -13.5041565      0.233585175      75.1004399       
337.3            0.245792152      74.4260427       0.963551889      -14.2246236      0.963551889      -14.2246236      0.245792152      74.4260427       
355              0.25789158       73.7517628       0.960308392      -14.9410125      0.960308392      -14.9410125      0.25789158       73.7517628       
372.7            0.269879661      73.078269        0.956937797      -15.6531702      0.956937797      -15.6531702      0.269879661      73.078269        
390.4            0.281752806      72.406136        0.953443778      -16.3609504      0.953443778      -16.3609504      0.281752806      72.406136        
408.1            0.293507642      71.7358614       0.949830107      -17.064213       0.949830107      -17.064213       0.293507642      71.7358614       
425.8            0.305141009      71.0678806       0.946100639      -17.7628246      0.946100639      -17.7628246      0.305141009      71.0678806       
443.5            0.31664996       70.4025767       0.942259293      -18.4566582      0.942259293      -18.4566582      0.31664996       70.4025767       
461.2            0.328031766      69.7402893       0.938310047      -19.1455939      0.938310047      -19.1455939      0.328031766      69.7402893       
478.9            0.339283908      69.0813205       0.934256918      -19.8295182      0.934256918      -19.8295182      0.339283908      69.0813205       
496.6            0.350404082      68.4259406       0.930103954      -20.5083245      0.930103954      -20.5083245      0.350404082      68.4259406       
514.3            0.361390191      67.774392        0.925855223      -21.1819128      0.925855223      -21.1819128      0.361390191      67.774392        
532              0.372240347      67.1268926       0.921514803      -21.8501897      0.921514803      -21.8501897      0.372240347      67.1268926       
549.7            0.382952863      66.4836385       0.917086768      -22.5130688      0.917086768      -22.5130688      0.382952863      66.4836385       
567.4            0.393526253      65.8448067       0.912575183      -23.1704697      0.912575183      -23.1704697      0.393526253      65.8448067       
585.1            0.403959225      65.2105565       0.907984093      -23.822319       0.907984093      -23.822319       0.403959225      65.2105565       
602.8            0.414250677      64.5810316       0.903317515      -24.4685493      0.903317515      -24.4685493      0.414250677      64.5810316       
620.5            0.424399691      63.956361        0.89857943       -25.1090996      0.89857943       -25.1090996      0.424399691      63.956361        
638.2            0.434405528      63.3366609       0.893773777      -25.743915       0.893773777      -25.743915       0.434405528      63.3366609       
655.9            0.444267622      62.722035        0.888904444      -26.3729466      0.888904444      -26.3729466      0.444267622      62.722035        
673.6            0.453985575      62.1125759       0.883975264      -26.9961514      0.883975264      -26.9961514      0.453985575      62.1125759       
691.3            0.463559148      61.5083657       0.878990009      -27.6134919      0.878990009      -27.6134919      0.463559148      61.5083657       
709              0.472988256      60.9094768       0.873952382      -28.2249363      0.873952382      -28.2249363      0.472988256      60.9094768       
726.7            0.482272963      60.3159726       0.868866018      -28.8304582      0.868866018      -28.8304582      0.482272963      60.3159726       
744.4            0.491413473      59.727908        0.863734474      -29.4300362      0.863734474      -29.4300362      0.491413473      59.727908        
762.1            0.500410123      59.1453298       0.858561232      -30.0236541      0.858561232      -30.0236541      0.500410123      59.1453298       
779.8            0.509263378      58.5682776       0.853349686      -30.6113005      0.853349686      -30.6113005      0.509263378      58.5682776       
797.5            0.517973823      57.996784        0.848103152      -31.1929684      0.848103152      -31.1929684      0.517973823      57.996784        
815.2            0.526542158      57.4308748       0.842824852      -31.7686556      0.842824852      -31.7686556      0.526542158      57.4308748       
832.9            0.534969188      56.8705699       0.837517925      -32.3383641      0.837517925      -32.3383641      0.534969188      56.8705699       
850.6            0.54325582       56.3158834       0.832185415      -32.9020998      0.832185415      -32.9020998      0.54325582       56.3158834       
868.3            0.551403055      55.7668237       0.826830276      -33.4598726      0.826830276      -33.4598726      0.551403055      55.7668237       
886              0.559411981      55.2233944       0.82145537       -34.0116963      0.82145537       -34.0116963      0.559411981      55.2233944       
903.7            0.567283767      54.6855941       0.816063465      -34.5575879      0.816063465      -34.5575879      0.567283767      54.6855941       
921.4            0.57501966       54.1534171       0.810657234      -35.0975682      0.810657234      -35.0975682      0.57501966       54.1534171       
939.1            0.582620974      53.6268531       0.805239259      -35.6316606      0.805239259      -35.6316606      0.582620974      53.6268531       
956.8            0.590089088      53.1058883       0.799812029      -36.1598921      0.799812029      -36.1598921      0.590089088      53.1058883       
974.5            0.597425439      52.5905049       0.794377937      -36.6822921      0.794377937      -36.6822921      0.597425439      52.5905049       
992.2            0.604631518      52.0806818       0.788939289      -37.1988928      0.788939289      -37.1988928      0.604631518      52.0806818       
1009.9           0.611708864      51.5763945       0.783498296      -37.709729       0.783498296      -37.709729       0.611708864      51.5763945       
1027.6           0.618659058      51.0776156       0.778057081      -38.2148378      0.778057081      -38.2148378      0.618659058      51.0776156       
1045.3           0.62548372       50.5843149       0.772617678      -38.7142582      0.772617678      -38.7142582      0.62548372       50.5843149       
1063             0.632184505      50.0964595       0.767182035      -39.2080318      0.767182035      -39.2080318      0.632184505      50.0964595       
1080.7           0.638763097      49.6140142       0.761752013      -39.6962015      0.761752013      -39.6962015      0.638763097      49.6140142       
1098.4           0.645221205      49.1369415       0.75632939       -40.1788123      0.75632939       -40.1788123      0.645221205      49.1369415       
1116.1           0.65156056       48.6652019       0.75091586       -40.6559107      0.75091586       -40.6559107      0.65156056       48.6652019       
1133.8           0.657782913      48.1987539       0.745513039      -41.1275446      0.745513039      -41.1275446      0.657782913      48.1987539       
1151.5           0.663890026      47.7375544       0.740122464      -41.5937636      0.740122464      -41.5937636      0.663890026      47.7375544       
1169.2           0.669883675      47.2815585       0.734745595      -42.054618       0.734745595      -42.054618       0.669883675      47.2815585       
1186.9           0.675765645      46.8307201       0.729383816      -42.5101597      0.729383816      -42.5101597      0.675765645      46.8307201       
1204.6           0.681537724      46.3849916       0.724038442      -42.9604412      0.724038442      -42.9604412      0.681537724      46.3849916       
1222.3           0.687201703      45.9443243       0.718710715      -43.4055163      0.718710715      -43.4055163      0.687201703      45.9443243       
1240             0.692759375      45.5086683       0.713401811      -43.8454392      0.713401811      -43.8454392      0.692759375      45.5086683       
1257.7           0.698212529      45.077973        0.708112836      -44.280265       0.708112836      -44.280265       0.698212529      45.077973        
1275.4           0.70356295       44.6521867       0.702844837      -44.7100495      0.702844837      -44.7100495      0.70356295       44.6521867       
1293.1           0.708812417      44.231257        0.697598795      -45.1348489      0.697598795      -45.1348489      0.708812417      44.231257        
1310.8           0.7139627        43.8151311       0.692375633      -45.5547197      0.692375633      -45.5547197      0.7139627        43.8151311       
1328.5           0.719015558      43.4037554       0.687176216      -45.969719       0.687176216      -45.969719       0.719015558      43.4037554       
1346.2           0.72397274       42.9970759       0.682001353      -46.3799041      0.682001353      -46.3799041      0.72397274       42.9970759       
1363.9           0.728835982      42.5950381       0.676851801      -46.7853324      0.676851801      -46.7853324      0.728835982      42.5950381       
1381.6           0.733607001      42.1975875       0.671728262      -47.1860617      0.671728262      -47.1860617      0.733607001      42.1975875       
1399.3           0.738287504      41.804669        0.666631392      -47.5821495      0.666631392      -47.5821495      0.738287504      41.804669        
1417             0.742879178      41.4162276       0.661561797      -47.9736536      0.661561797      -47.9736536      0.742879178      41.4162276       
1434.7           0.74738369       41.0322082       0.656520038      -48.3606318      0.656520038      -48.3606318      0.74738369       41.0322082       
1452.4           0.751802692      40.6525553       0.651506632      -48.7431415      0.651506632      -48.7431415      0.751802692      40.6525553       
1470.1           0.756137814      40.2772139       0.646522053      -49.1212405      0.646522053      -49.1212405      0.756137814      40.2772139       
1487.8           0.760390665      39.9061288       0.641566736      -49.4949858      0.641566736      -49.4949858      0.760390665      39.9061288       
1505.5           0.764562834      39.5392448       0.636641077      -49.8644346      0.636641077      -49.8644346      0.764562834      39.5392448       
1523.2           0.768655888      39.1765072       0.631745434      -50.2296438      0.631745434      -50.2296438      0.768655888      39.1765072       
1540.9           0.772671371      38.8178612       0.626880131      -50.5906697      0.626880131      -50.5906697      0.772671371      38.8178612       
1558.6           0.776610806      38.4632524       0.622045458      -50.9475687      0.622045458      -50.9475687      0.776610806      38.4632524       
1576.3           0.78047569       38.1126266       0.617241672      -51.3003964      0.617241672      -51.3003964      0.78047569       38.1126266       
1594             0.7842675        37.76593         0.612469001      -51.6492084      0.612469001      -51.6492084      0.7842675        37.76593         
1611.7           0.787987687      37.4231089       0.607727641      -51.9940597      0.607727641      -51.9940597      0.787987687      37.4231089       
1629.4           0.79163768       37.0841103       0.603017764      -52.3350047      0.603017764      -52.3350047      0.79163768       37.0841103       
1647.1           0.795218883      36.7488814       0.598339511      -52.6720976      0.598339511      -52.6720976      0.795218883      36.7488814       
1664.8           0.798732676      36.4173699       0.593693002      -53.0053919      0.593693002      -53.0053919      0.798732676      36.4173699       
1682.5           0.802180416      36.0895239       0.589078331      -53.3349408      0.589078331      -53.3349408      0.802180416      36.0895239       
1700.2           0.805563435      35.7652918       0.58449557       -53.6607967      0.58449557       -53.6607967      0.805563435      35.7652918       
1717.9           0.808883041      35.4446229       0.579944768      -53.9830118      0.579944768      -53.9830118      0.808883041      35.4446229       
1735.6           0.812140518      35.1274665       0.575425956      -54.3016374      0.575425956      -54.3016374      0.812140518      35.1274665       
1753.3           0.815337129      34.8137728       0.570939144      -54.6167246      0.570939144      -54.6167246      0.815337129      34.8137728       
1771             0.818474109      34.5034924       0.566484323      -54.9283235      0.566484323      -54.9283235      0.818474109      34.5034924       
1788.7           0.821552672      34.1965763       0.56206147       -55.2364839      0.56206147       -55.2364839      0.821552672      34.1965763       
1806.4           0.824574008      33.8929762       0.557670542      -55.541255       0.557670542      -55.541255       0.824574008      33.8929762       
1824.1           0.827539284      33.5926443       0.553311484      -55.8426853      0.553311484      -55.8426853      0.827539284      33.5926443       
1841.8           0.830449645      33.2955333       0.548984222      -56.1408226      0.548984222      -56.1408226      0.830449645      33.2955333       
1859.5           0.833306212      33.0015967       0.544688674      -56.4357144      0.544688674      -56.4357144      0.833306212      33.0015967       
1877.2           0.836110083      32.7107884       0.54042474       -56.7274074      0.54042474       -56.7274074      0.836110083      32.7107884       
1894.9           0.838862337      32.4230627       0.536192312      -57.0159475      0.536192312      -57.0159475      0.838862337      32.4230627       
1912.6           0.841564027      32.1383749       0.531991267      -57.3013802      0.531991267      -57.3013802      0.841564027      32.1383749       
1930.3           0.844216187      31.8566805       0.527821476      -57.5837504      0.527821476      -57.5837504      0.844216187      31.8566805       
1948             0.846819829      31.5779359       0.523682794      -57.8631022      0.523682794      -57.8631022      0.846819829      31.5779359       
1965.7           0.849375944      31.3020978       0.519575073      -58.1394793      0.519575073      -58.1394793      0.849375944      31.3020978       
1983.4           0.851885504      31.0291236       0.515498152      -58.4129246      0.515498152      -58.4129246      0.851885504      31.0291236       
2001.1           0.854349456      30.7589715       0.511451863      -58.6834804      0.511451863      -58.6834804      0.854349456      30.7589715       
2018.8           0.856768733      30.4916          0.507436032      -58.9511884      0.507436032      -58.9511884      0.856768733      30.4916          
2036.5           0.859144244      30.2269683       0.503450477      -59.2160898      0.503450477      -59.2160898      0.859144244      30.2269683       
2054.2           0.861476879      29.9650361       0.499495009      -59.4782249      0.499495009      -59.4782249      0.861476879      29.9650361       
2071.9           0.863767512      29.7057639       0.495569433      -59.7376337      0.495569433      -59.7376337      0.863767512      29.7057639       
2089.6           0.866016995      29.4491125       0.491673549      -59.9943554      0.491673549      -59.9943554      0.866016995      29.4491125       
2107.3           0.868226163      29.1950434       0.487807153      -60.2484287      0.487807153      -60.2484287      0.868226163      29.1950434       
2125             0.870395833      28.9435188       0.483970035      -60.4998916      0.483970035      -60.4998916      0.870395833      28.9435188       
2142.7           0.872526804      28.6945013       0.480161981      -60.7487816      0.480161981      -60.7487816      0.872526804      28.6945013       
2160.4           0.874619858      28.4479541       0.476382773      -60.9951355      0.476382773      -60.9951355      0.874619858      28.4479541       
2178.1           0.87667576       28.2038409       0.472632191      -61.2389896      0.472632191      -61.2389896      0.87667576       28.2038409       
2195.8           0.878695258      27.9621262       0.468910008      -61.4803796      0.468910008      -61.4803796      0.878695258      27.9621262       
2213.5           0.880679083      27.7227747       0.465216         -61.7193406      0.465216         -61.7193406      0.880679083      27.7227747       
2231.2           0.882627951      27.4857519       0.461549935      -61.9559073      0.461549935      -61.9559073      0.882627951      27.4857519       
2248.9           0.884542564      27.2510237       0.457911582      -62.1901135      0.457911582      -62.1901135      0.884542564      27.2510237       
