! Coilcraft 0805CS-180 Chip Inductor				
! 11 June 2002			
# MHZ S MA R 50
!Freq             MagS11           AngS11           MagS21           AngS21           MagS12           AngS12           MagS22           AngS22
1                0.00261891544    25.4554144       0.997635964      -0.0646468266    0.997635964      -0.0646468266    0.00261891544    25.4554144       
14.46            0.0166454929     77.311023        0.996476003      -0.933755444     0.996476003      -0.933755444     0.0166454929     77.311023        
27.92            0.0316830063     81.0686419       0.995573288      -1.80156261      0.995573288      -1.80156261      0.0316830063     81.0686419       
41.38            0.0467515267     81.9928728       0.994565773      -2.6680076       0.994565773      -2.6680076       0.0467515267     81.9928728       
54.84            0.0617999714     82.1035976       0.993397597      -3.53285198      0.993397597      -3.53285198      0.0617999714     82.1035976       
68.3             0.0768097769     81.8639127       0.992047766      -4.39581338      0.992047766      -4.39581338      0.0768097769     81.8639127       
81.76            0.091768657      81.4401749       0.99050665       -5.25659211      0.99050665       -5.25659211      0.091768657      81.4401749       
95.22            0.106666324      80.9076716       0.988769756      -6.11488162      0.988769756      -6.11488162      0.106666324      80.9076716       
108.68           0.12149337       80.3057801       0.986835405      -6.97037367      0.986835405      -6.97037367      0.12149337       80.3057801       
122.14           0.136240901      79.6572745       0.984703677      -7.82276157      0.984703677      -7.82276157      0.136240901      79.6572745       
135.6            0.150900402      78.9763479       0.982375861      -8.67174233      0.982375861      -8.67174233      0.150900402      78.9763479       
149.06           0.165463689      78.2723755       0.979854139      -9.51701824      0.979854139      -9.51701824      0.165463689      78.2723755       
162.52           0.179922892      77.551847        0.977141393      -10.3582981      0.977141393      -10.3582981      0.179922892      77.551847        
175.98           0.194270462      76.8194327       0.974241067      -11.1952984      0.974241067      -11.1952984      0.194270462      76.8194327       
189.44           0.208499169      76.0786053       0.971157076      -12.0277437      0.971157076      -12.0277437      0.208499169      76.0786053       
202.9            0.222602119      75.3320205       0.96789373       -12.855368       0.96789373       -12.855368       0.222602119      75.3320205       
216.36           0.236572761      74.5817587       0.964455682      -13.6779149      0.964455682      -13.6779149      0.236572761      74.5817587       
229.82           0.250404895      73.8294845       0.960847874      -14.4951382      0.960847874      -14.4951382      0.250404895      73.8294845       
243.28           0.264092679      73.0765541       0.957075499      -15.3068021      0.957075499      -15.3068021      0.264092679      73.0765541       
256.74           0.277630638      72.3240902       0.953143961      -16.1126823      0.953143961      -16.1126823      0.277630638      72.3240902       
270.2            0.291013667      71.5730348       0.949058845      -16.9125652      0.949058845      -16.9125652      0.291013667      71.5730348       
283.66           0.304237031      70.8241878       0.944825882      -17.7062492      0.944825882      -17.7062492      0.304237031      70.8241878       
297.12           0.317296369      70.078235        0.940450925      -18.4935438      0.940450925      -18.4935438      0.317296369      70.078235        
310.58           0.330187692      69.3357696       0.935939917      -19.2742708      0.935939917      -19.2742708      0.330187692      69.3357696       
324.04           0.342907381      68.5973081       0.931298871      -20.0482632      0.931298871      -20.0482632      0.342907381      68.5973081       
337.5            0.35545218       67.8633025       0.926533843      -20.8153663      0.926533843      -20.8153663      0.35545218       67.8633025       
350.96           0.367819195      67.1341504       0.921650913      -21.5754366      0.921650913      -21.5754366      0.367819195      67.1341504       
364.42           0.380005884      66.4102023       0.916656158      -22.3283426      0.916656158      -22.3283426      0.380005884      66.4102023       
377.88           0.392010052      65.6917681       0.911555643      -23.0739641      0.911555643      -23.0739641      0.392010052      65.6917681       
391.34           0.403829837      64.9791219       0.906355395      -23.8121921      0.906355395      -23.8121921      0.403829837      64.9791219       
404.8            0.415463704      64.2725058       0.901061387      -24.5429289      0.901061387      -24.5429289      0.415463704      64.2725058       
418.26           0.426910434      63.5721341       0.895679528      -25.2660874      0.895679528      -25.2660874      0.426910434      63.5721341       
431.72           0.438169112      62.8781952       0.890215645      -25.9815915      0.890215645      -25.9815915      0.438169112      62.8781952       
445.18           0.449239112      62.1908547       0.884675469      -26.6893748      0.884675469      -26.6893748      0.449239112      62.1908547       
458.64           0.460120088      61.5102573       0.879064629      -27.3893814      0.879064629      -27.3893814      0.460120088      61.5102573       
472.1            0.470811962      60.8365286       0.873388636      -28.0815648      0.873388636      -28.0815648      0.470811962      60.8365286       
485.56           0.481314904      60.1697766       0.867652877      -28.7658878      0.867652877      -28.7658878      0.481314904      60.1697766       
499.02           0.491629328      59.510093        0.861862609      -29.4423224      0.861862609      -29.4423224      0.491629328      59.510093        
512.48           0.501755869      58.8575551       0.856022945      -30.1108489      0.856022945      -30.1108489      0.501755869      58.8575551       
525.94           0.511695379      58.212226        0.850138858      -30.7714561      0.850138858      -30.7714561      0.511695379      58.212226        
539.4            0.521448904      57.5741564       0.844215168      -31.4241405      0.844215168      -31.4241405      0.521448904      57.5741564       
552.86           0.531017678      56.9433849       0.838256541      -32.0689062      0.838256541      -32.0689062      0.531017678      56.9433849       
566.32           0.540403108      56.3199395       0.832267489      -32.7057643      0.832267489      -32.7057643      0.540403108      56.3199395       
579.78           0.549606759      55.703838        0.826252363      -33.3347327      0.826252363      -33.3347327      0.549606759      55.703838        
593.24           0.558630342      55.0950886       0.820215352      -33.9558357      0.820215352      -33.9558357      0.558630342      55.0950886       
606.7            0.567475706      54.493691        0.814160488      -34.5691035      0.814160488      -34.5691035      0.567475706      54.493691        
620.16           0.576144819      53.8996368       0.808091637      -35.1745721      0.808091637      -35.1745721      0.576144819      53.8996368       
633.62           0.584639765      53.3129101       0.802012508      -35.7722826      0.802012508      -35.7722826      0.584639765      53.3129101       
647.08           0.592962724      52.7334881       0.795926648      -36.3622812      0.795926648      -36.3622812      0.592962724      52.7334881       
660.54           0.60111597       52.1613415       0.789837447      -36.9446186      0.789837447      -36.9446186      0.60111597       52.1613415       
674              0.609101855      51.5964354       0.783748139      -37.5193499      0.783748139      -37.5193499      0.609101855      51.5964354       
687.46           0.616922802      51.0387292       0.777661802      -38.0865339      0.777661802      -38.0865339      0.616922802      51.0387292       
700.92           0.624581294      50.4881775       0.771581366      -38.6462333      0.771581366      -38.6462333      0.624581294      50.4881775       
714.38           0.63207987       49.9447302       0.76550961       -39.1985141      0.76550961       -39.1985141      0.63207987       49.9447302       
727.84           0.63942111       49.4083331       0.75944917       -39.7434453      0.75944917       -39.7434453      0.63942111       49.4083331       
741.3            0.646607632      48.8789283       0.753402539      -40.2810987      0.753402539      -40.2810987      0.646607632      48.8789283       
754.76           0.653642084      48.3564543       0.747372075      -40.8115486      0.747372075      -40.8115486      0.653642084      48.3564543       
768.22           0.660527138      47.8408465       0.74136          -41.3348717      0.74136          -41.3348717      0.660527138      47.8408465       
781.68           0.667265479      47.3320375       0.735368406      -41.8511466      0.735368406      -41.8511466      0.667265479      47.3320375       
795.14           0.673859806      46.8299574       0.729399261      -42.3604538      0.729399261      -42.3604538      0.673859806      46.8299574       
808.6            0.680312821      46.3345341       0.723454409      -42.8628754      0.723454409      -42.8628754      0.680312821      46.3345341       
822.06           0.686627227      45.8456933       0.717535579      -43.3584947      0.717535579      -43.3584947      0.686627227      45.8456933       
835.52           0.692805722      45.3633591       0.711644386      -43.8473964      0.711644386      -43.8473964      0.692805722      45.3633591       
848.98           0.698850995      44.887454        0.705782334      -44.3296662      0.705782334      -44.3296662      0.698850995      44.887454        
862.44           0.704765721      44.4178994       0.699950824      -44.8053905      0.699950824      -44.8053905      0.704765721      44.4178994       
875.9            0.710552559      43.9546152       0.694151156      -45.2746565      0.694151156      -45.2746565      0.710552559      43.9546152       
889.36           0.71621415       43.4975207       0.688384534      -45.7375518      0.688384534      -45.7375518      0.71621415       43.4975207       
902.82           0.721753108      43.0465343       0.682652067      -46.1941645      0.682652067      -46.1941645      0.721753108      43.0465343       
916.28           0.727172024      42.6015736       0.676954779      -46.6445828      0.676954779      -46.6445828      0.727172024      42.6015736       
929.74           0.732473461      42.1625562       0.671293606      -47.0888952      0.671293606      -47.0888952      0.732473461      42.1625562       
943.2            0.737659951      41.729399        0.665669406      -47.5271901      0.665669406      -47.5271901      0.737659951      41.729399        
956.66           0.742733993      41.3020188       0.660082957      -47.9595556      0.660082957      -47.9595556      0.742733993      41.3020188       
970.12           0.747698052      40.8803325       0.654534967      -48.38608        0.654534967      -48.38608        0.747698052      40.8803325       
983.58           0.752554559      40.4642568       0.649026071      -48.8068509      0.649026071      -48.8068509      0.752554559      40.4642568       
997.04           0.757305908      40.0537087       0.643556839      -49.2219558      0.643556839      -49.2219558      0.757305908      40.0537087       
1010.5           0.761954453      39.6486056       0.638127779      -49.6314815      0.638127779      -49.6314815      0.761954453      39.6486056       
1023.96          0.76650251       39.2488648       0.632739338      -50.0355145      0.632739338      -50.0355145      0.76650251       39.2488648       
1037.42          0.770952358      38.8544044       0.627391905      -50.4341404      0.627391905      -50.4341404      0.770952358      38.8544044       
1050.88          0.775306232      38.4651428       0.622085818      -50.8274444      0.622085818      -50.8274444      0.775306232      38.4651428       
1064.34          0.779566327      38.080999        0.616821363      -51.2155107      0.616821363      -51.2155107      0.779566327      38.080999        
1077.8           0.783734799      37.7018925       0.611598777      -51.5984231      0.611598777      -51.5984231      0.783734799      37.7018925       
1091.26          0.787813761      37.3277438       0.606418254      -51.9762642      0.606418254      -51.9762642      0.787813761      37.3277438       
1104.72          0.791805283      36.9584737       0.601279943      -52.3491159      0.601279943      -52.3491159      0.791805283      36.9584737       
1118.18          0.795711395      36.5940039       0.596183954      -52.7170593      0.596183954      -52.7170593      0.795711395      36.5940039       
1131.64          0.799534086      36.2342571       0.591130359      -53.0801743      0.591130359      -53.0801743      0.799534086      36.2342571       
1145.1           0.803275302      35.8791566       0.586119194      -53.4385401      0.586119194      -53.4385401      0.803275302      35.8791566       
1158.56          0.806936947      35.5286266       0.581150463      -53.7922348      0.581150463      -53.7922348      0.806936947      35.5286266       
1172.02          0.810520887      35.1825923       0.576224137      -54.1413355      0.576224137      -54.1413355      0.810520887      35.1825923       
1185.48          0.814028945      34.8409797       0.571340159      -54.4859182      0.571340159      -54.4859182      0.814028945      34.8409797       
1198.94          0.817462903      34.5037159       0.566498442      -54.826058       0.566498442      -54.826058       0.817462903      34.5037159       
1212.4           0.820824503      34.1707288       0.561698878      -55.1618289      0.561698878      -55.1618289      0.820824503      34.1707288       
1225.86          0.824115451      33.8419473       0.55694133       -55.4933037      0.55694133       -55.4933037      0.824115451      33.8419473       
1239.32          0.827337409      33.5173014       0.552225642      -55.8205542      0.552225642      -55.8205542      0.827337409      33.5173014       
1252.78          0.830492004      33.1967221       0.547551637      -56.1436513      0.547551637      -56.1436513      0.830492004      33.1967221       
1266.24          0.833580823      32.8801411       0.542919117      -56.4626645      0.542919117      -56.4626645      0.833580823      32.8801411       
1279.7           0.836605416      32.5674915       0.538327868      -56.7776625      0.538327868      -56.7776625      0.836605416      32.5674915       
1293.16          0.839567298      32.2587073       0.533777658      -57.0887126      0.533777658      -57.0887126      0.839567298      32.2587073       
1306.62          0.842467945      31.9537235       0.529268241      -57.3958814      0.529268241      -57.3958814      0.842467945      31.9537235       
1320.08          0.845308799      31.6524759       0.524799357      -57.699234       0.524799357      -57.699234       0.845308799      31.6524759       
1333.54          0.848091267      31.3549018       0.520370732      -57.9988347      0.520370732      -57.9988347      0.848091267      31.3549018       
1347             0.850816722      31.060939        0.51598208       -58.2947466      0.51598208       -58.2947466      0.850816722      31.060939        
1360.46          0.853486504      30.7705267       0.511633106      -58.5870319      0.511633106      -58.5870319      0.853486504      30.7705267       
1373.92          0.856101917      30.483605        0.507323503      -58.8757514      0.507323503      -58.8757514      0.856101917      30.483605        
1387.38          0.858664237      30.2001149       0.503052957      -59.1609652      0.503052957      -59.1609652      0.858664237      30.2001149       
1400.84          0.861174705      29.9199984       0.498821144      -59.442732       0.498821144      -59.442732       0.861174705      29.9199984       
1414.3           0.863634533      29.6431987       0.494627734      -59.7211099      0.494627734      -59.7211099      0.863634533      29.6431987       
1427.76          0.866044903      29.3696598       0.49047239       -59.9961555      0.49047239       -59.9961555      0.866044903      29.3696598       
1441.22          0.868406966      29.0993267       0.48635477       -60.2679248      0.48635477       -60.2679248      0.868406966      29.0993267       
1454.68          0.870721846      28.8321453       0.482274525      -60.5364724      0.482274525      -60.5364724      0.870721846      28.8321453       
1468.14          0.872990635      28.5680627       0.478231303      -60.8018523      0.478231303      -60.8018523      0.872990635      28.5680627       
1481.6           0.875214403      28.3070266       0.474224747      -61.0641171      0.474224747      -61.0641171      0.875214403      28.3070266       
1495.06          0.877394189      28.0489858       0.470254499      -61.3233188      0.470254499      -61.3233188      0.877394189      28.0489858       
1508.52          0.879531007      27.7938902       0.466320195      -61.5795083      0.466320195      -61.5795083      0.879531007      27.7938902       
1521.98          0.881625845      27.5416903       0.462421471      -61.8327355      0.462421471      -61.8327355      0.881625845      27.5416903       
1535.44          0.883679666      27.2923376       0.45855796       -62.0830494      0.45855796       -62.0830494      0.883679666      27.2923376       
1548.9           0.88569341       27.0457846       0.454729293      -62.3304981      0.454729293      -62.3304981      0.88569341       27.0457846       
1562.36          0.887667991      26.8019845       0.450935103      -62.5751288      0.450935103      -62.5751288      0.887667991      26.8019845       
1575.82          0.889604301      26.5608914       0.447175018      -62.8169878      0.447175018      -62.8169878      0.889604301      26.5608914       
1589.28          0.891503209      26.3224604       0.443448669      -63.0561205      0.443448669      -63.0561205      0.891503209      26.3224604       
1602.74          0.893365562      26.0866473       0.439755685      -63.2925715      0.439755685      -63.2925715      0.893365562      26.0866473       
1616.2           0.895192185      25.8534086       0.436095697      -63.5263845      0.436095697      -63.5263845      0.895192185      25.8534086       
1629.66          0.896983884      25.6227019       0.432468336      -63.7576024      0.432468336      -63.7576024      0.896983884      25.6227019       
1643.12          0.898741442      25.3944853       0.428873234      -63.9862673      0.428873234      -63.9862673      0.898741442      25.3944853       
1656.58          0.900465624      25.1687179       0.425310024      -64.2124203      0.425310024      -64.2124203      0.900465624      25.1687179       
1670.04          0.902157174      24.9453594       0.421778339      -64.436102       0.421778339      -64.436102       0.902157174      24.9453594       
1683.5           0.903816818      24.7243703       0.418277816      -64.657352       0.418277816      -64.657352       0.903816818      24.7243703       
1696.96          0.905445265      24.505712        0.414808093      -64.8762092      0.414808093      -64.8762092      0.905445265      24.505712        
1710.42          0.907043203      24.2893464       0.411368809      -65.0927119      0.411368809      -65.0927119      0.907043203      24.2893464       
