! Coilcraft 0805CS-391 Chip Inductor				
! 11 June 2002			
# MHZ S MA R 50
!Freq             MagS11           AngS11           MagS21           AngS21           MagS12           AngS12           MagS22           AngS22
1                0.0309996437     47.6261998       0.979375133      -1.33990911      0.979375133      -1.33990911      0.0309996437     47.6261998       
3.74             0.0903411573     68.6877696       0.970820539      -4.97336899      0.970820539      -4.97336899      0.0903411573     68.6877696       
6.48             0.151308634      70.5832885       0.960361057      -8.54540589      0.960361057      -8.54540589      0.151308634      70.5832885       
9.22             0.210802444      69.552307        0.947179555      -12.0365141      0.947179555      -12.0365141      0.210802444      69.552307        
11.96            0.268004815      67.5869373       0.931373294      -15.4272878      0.931373294      -15.4272878      0.268004815      67.5869373       
14.7             0.322423551      65.2546967       0.913254309      -18.7011005      0.913254309      -18.7011005      0.322423551      65.2546967       
17.44            0.373735959      62.7849848       0.893216933      -21.8449172      0.893216933      -21.8449172      0.373735959      62.7849848       
20.18            0.421752518      60.2900627       0.871680121      -24.8494818      0.871680121      -24.8494818      0.421752518      60.2900627       
22.92            0.466395608      57.8311511       0.849053457      -27.7091537      0.849053457      -27.7091537      0.466395608      57.8311511       
25.66            0.507679404      55.4434193       0.825715905      -30.4215305      0.825715905      -30.4215305      0.507679404      55.4434193       
28.4             0.545689769      53.1471594       0.802003463      -32.9869573      0.802003463      -32.9869573      0.545689769      53.1471594       
31.14            0.580565176      50.9534914       0.778203495      -35.4079964      0.778203495      -35.4079964      0.580565176      50.9534914       
33.88            0.612479718      48.8676028       0.754553892      -37.6889115      0.754553892      -37.6889115      0.612479718      48.8676028       
36.62            0.641628842      46.8907483       0.731245488      -39.8351989      0.731245488      -39.8351989      0.641628842      46.8907483       
39.36            0.668217977      45.0215619       0.70842645       -41.853184       0.70842645       -41.853184       0.668217977      45.0215619       
42.1             0.692453913      43.2569528       0.686207638      -43.7496882      0.686207638      -43.7496882      0.692453913      43.2569528       
44.84            0.714538596      41.5927319       0.664668233      -45.5317643      0.664668233      -45.5317643      0.714538596      41.5927319       
47.58            0.734664925      40.0240549       0.64386117       -47.2064938      0.64386117       -47.2064938      0.734664925      40.0240549       
50.32            0.753014137      38.5457364       0.62381811       -48.7808375      0.62381811       -48.7808375      0.753014137      38.5457364       
53.06            0.769754382      37.1524707       0.604553814      -50.2615289      0.604553814      -50.2615289      0.769754382      37.1524707       
55.8             0.785040179      35.8389843       0.586069885      -51.6550039      0.586069885      -51.6550039      0.785040179      35.8389843       
58.54            0.799012483      34.6001399       0.568357894      -52.9673564      0.568357894      -52.9673564      0.799012483      34.6001399       
61.28            0.811799159      33.4310035       0.551401951      -54.2043154      0.551401951      -54.2043154      0.811799159      33.4310035       
64.02            0.823515711      32.3268859       0.535180775      -55.3712367      0.535180775      -55.3712367      0.823515711      32.3268859       
66.76            0.83426615       31.2833649       0.519669355      -56.4731057      0.519669355      -56.4731057      0.83426615       31.2833649       
69.5             0.844143931      30.2962948       0.50484024       -57.5145479      0.50484024       -57.5145479      0.844143931      30.2962948       
72.24            0.853232898      29.3618058       0.490664559      -58.4998441      0.490664559      -58.4998441      0.853232898      29.3618058       
74.98            0.861608195      28.476298        0.477112788      -59.4329489      0.477112788      -59.4329489      0.861608195      28.476298        
77.72            0.869337142      27.6364303       0.464155338      -60.3175106      0.464155338      -60.3175106      0.869337142      27.6364303       
80.46            0.87648004       26.8391079       0.451762985      -61.1568923      0.451762985      -61.1568923      0.87648004       26.8391079       
83.2             0.883090916      26.0814676       0.439907188      -61.9541924      0.439907188      -61.9541924      0.883090916      26.0814676       
85.94            0.889218193      25.3608622       0.428560307      -62.7122645      0.428560307      -62.7122645      0.889218193      25.3608622       
88.68            0.894905305      24.6748461       0.417695754      -63.4337374      0.417695754      -63.4337374      0.894905305      24.6748461       
91.42            0.900191238      24.02116         0.407288085      -64.1210325      0.407288085      -64.1210325      0.900191238      24.02116         
94.16            0.905111022      23.3977168       0.397313051      -64.7763814      0.397313051      -64.7763814      0.905111022      23.3977168       
96.9             0.909696163      22.8025883       0.387747619      -65.4018418      0.387747619      -65.4018418      0.909696163      22.8025883       
99.64            0.91397503       22.233992        0.378569968      -65.9993117      0.378569968      -65.9993117      0.91397503       22.233992        
102.38           0.917973198      21.6902801       0.369759463      -66.5705436      0.369759463      -66.5705436      0.917973198      21.6902801       
105.12           0.921713751      21.1699277       0.361296627      -67.1171563      0.361296627      -67.1171563      0.921713751      21.1699277       
107.86           0.925217554      20.6715233       0.353163097      -67.6406465      0.353163097      -67.6406465      0.925217554      20.6715233       
110.6            0.928503485      20.1937591       0.345341575      -68.1423991      0.345341575      -68.1423991      0.928503485      20.1937591       
113.34           0.931588654      19.7354228       0.337815778      -68.6236969      0.337815778      -68.6236969      0.931588654      19.7354228       
116.08           0.934488581      19.2953895       0.330570389      -69.0857286      0.330570389      -69.0857286      0.934488581      19.2953895       
118.82           0.93721737       18.8726146       0.323590999      -69.5295975      0.323590999      -69.5295975      0.93721737       18.8726146       
121.56           0.939787849      18.4661273       0.31686406       -69.9563278      0.31686406       -69.9563278      0.939787849      18.4661273       
124.3            0.942211705      18.0750248       0.310376829      -70.3668715      0.310376829      -70.3668715      0.942211705      18.0750248       
127.04           0.944499598      17.6984665       0.304117325      -70.7621144      0.304117325      -70.7621144      0.944499598      17.6984665       
129.78           0.946661261      17.3356691       0.29807428       -71.1428814      0.29807428       -71.1428814      0.946661261      17.3356691       
132.52           0.948705597      16.9859022       0.292237092      -71.5099412      0.292237092      -71.5099412      0.948705597      16.9859022       
135.26           0.950640756      16.6484841       0.286595784      -71.864011       0.286595784      -71.864011       0.950640756      16.6484841       
138              0.95247421       16.322778        0.281140967      -72.2057603      0.281140967      -72.2057603      0.95247421       16.322778        
140.74           0.954212816      16.0081884       0.275863798      -72.5358152      0.275863798      -72.5358152      0.954212816      16.0081884       
143.48           0.955862876      15.7041581       0.270755947      -72.8547608      0.270755947      -72.8547608      0.955862876      15.7041581       
146.22           0.957430188      15.4101654       0.265809563      -73.1631455      0.265809563      -73.1631455      0.957430188      15.4101654       
148.96           0.958920091      15.125721        0.261017245      -73.4614826      0.261017245      -73.4614826      0.958920091      15.125721        
151.7            0.960337511      14.850366        0.25637201       -73.7502539      0.25637201       -73.7502539      0.960337511      14.850366        
154.44           0.961686993      14.5836697       0.251867267      -74.0299114      0.251867267      -74.0299114      0.961686993      14.5836697       
157.18           0.962972738      14.3252272       0.247496794      -74.3008797      0.247496794      -74.3008797      0.962972738      14.3252272       
159.92           0.964198632      14.0746578       0.243254713      -74.5635581      0.243254713      -74.5635581      0.964198632      14.0746578       
162.66           0.965368275      13.8316033       0.239135465      -74.8183222      0.239135465      -74.8183222      0.965368275      13.8316033       
165.4            0.966485004      13.5957262       0.235133795      -75.0655256      0.235133795      -75.0655256      0.966485004      13.5957262       
168.14           0.967551914      13.3667086       0.231244731      -75.3055016      0.231244731      -75.3055016      0.967551914      13.3667086       
170.88           0.968571882      13.1442505       0.227463563      -75.5385645      0.227463563      -75.5385645      0.968571882      13.1442505       
173.62           0.969547583      12.9280687       0.223785831      -75.7650109      0.223785831      -75.7650109      0.969547583      12.9280687       
176.36           0.970481504      12.7178958       0.220207309      -75.9851209      0.220207309      -75.9851209      0.970481504      12.7178958       
179.1            0.971375965      12.513479        0.216723987      -76.1991592      0.216723987      -76.1991592      0.971375965      12.513479        
181.84           0.972233127      12.3145792       0.213332064      -76.4073762      0.213332064      -76.4073762      0.972233127      12.3145792       
184.58           0.973055007      12.1209701       0.210027928      -76.6100086      0.210027928      -76.6100086      0.973055007      12.1209701       
187.32           0.973843489      11.9324373       0.20680815       -76.8072809      0.20680815       -76.8072809      0.973843489      11.9324373       
190.06           0.974600334      11.7487776       0.203669473      -76.9994055      0.203669473      -76.9994055      0.974600334      11.7487776       
192.8            0.975327189      11.5697985       0.200608797      -77.1865841      0.200608797      -77.1865841      0.975327189      11.5697985       
195.54           0.976025597      11.3953171       0.197623177      -77.3690079      0.197623177      -77.3690079      0.976025597      11.3953171       
198.28           0.976697004      11.2251598       0.194709808      -77.5468584      0.194709808      -77.5468584      0.976697004      11.2251598       
201.02           0.977342764      11.0591616       0.191866019      -77.7203081      0.191866019      -77.7203081      0.977342764      11.0591616       
203.76           0.977964151      10.8971659       0.189089267      -77.8895207      0.189089267      -77.8895207      0.977964151      10.8971659       
206.5            0.978562358      10.7390235       0.186377125      -78.0546523      0.186377125      -78.0546523      0.978562358      10.7390235       
209.24           0.979138508      10.5845924       0.183727283      -78.2158511      0.183727283      -78.2158511      0.979138508      10.5845924       
211.98           0.979693658      10.4337374       0.181137534      -78.3732582      0.181137534      -78.3732582      0.979693658      10.4337374       
214.72           0.980228802      10.28633         0.178605773      -78.5270082      0.178605773      -78.5270082      0.980228802      10.28633         
217.46           0.980744876      10.1422472       0.176129989      -78.6772292      0.176129989      -78.6772292      0.980744876      10.1422472       
220.2            0.981242761      10.0013721       0.173708262      -78.8240435      0.173708262      -78.8240435      0.981242761      10.0013721       
222.94           0.98172329       9.86359287       0.171338755      -78.9675677      0.171338755      -78.9675677      0.98172329       9.86359287       
225.68           0.982187249      9.72880293       0.169019712      -79.107913       0.169019712      -79.107913       0.982187249      9.72880293       
228.42           0.982635379      9.59690038       0.166749456      -79.2451857      0.166749456      -79.2451857      0.982635379      9.59690038       
231.16           0.98306838       9.46778787       0.164526379      -79.3794873      0.164526379      -79.3794873      0.98306838       9.46778787       
233.9            0.983486914      9.34137231       0.162348941      -79.5109149      0.162348941      -79.5109149      0.983486914      9.34137231       
236.64           0.983891609      9.21756467       0.16021567       -79.6395613      0.16021567       -79.6395613      0.983891609      9.21756467       
239.38           0.984283057      9.09627975       0.158125153      -79.7655153      0.158125153      -79.7655153      0.984283057      9.09627975       
242.12           0.984661821      8.97743595       0.156076037      -79.8888617      0.156076037      -79.8888617      0.984661821      8.97743595       
244.86           0.985028432      8.86095516       0.154067023      -80.009682       0.154067023      -80.009682       0.985028432      8.86095516       
247.6            0.985383395      8.74676248       0.152096866      -80.1280541      0.152096866      -80.1280541      0.985383395      8.74676248       
250.34           0.985727189      8.63478614       0.150164371      -80.2440527      0.150164371      -80.2440527      0.985727189      8.63478614       
253.08           0.986060269      8.5249573        0.14826839       -80.3577492      0.14826839       -80.3577492      0.986060269      8.5249573        
255.82           0.986383065      8.41720992       0.146407821      -80.4692124      0.146407821      -80.4692124      0.986383065      8.41720992       
258.56           0.986695989      8.31148059       0.144581605      -80.5785081      0.144581605      -80.5785081      0.986695989      8.31148059       
261.3            0.986999429      8.20770844       0.142788725      -80.6856995      0.142788725      -80.6856995      0.986999429      8.20770844       
264.04           0.987293758      8.10583502       0.141028202      -80.7908473      0.141028202      -80.7908473      0.987293758      8.10583502       
266.78           0.987579326      8.00580412       0.139299095      -80.8940096      0.139299095      -80.8940096      0.987579326      8.00580412       
269.52           0.987856471      7.90756174       0.137600498      -80.9952426      0.137600498      -80.9952426      0.987856471      7.90756174       
272.26           0.988125512      7.81105593       0.135931541      -81.0946         0.135931541      -81.0946         0.988125512      7.81105593       
275              0.988386754      7.71623673       0.134291382      -81.1921334      0.134291382      -81.1921334      0.988386754      7.71623673       
277.74           0.988640487      7.62305605       0.132679216      -81.2878927      0.132679216      -81.2878927      0.988640487      7.62305605       
280.48           0.988886989      7.53146761       0.131094262      -81.3819255      0.131094262      -81.3819255      0.988886989      7.53146761       
283.22           0.989126524      7.44142683       0.12953577       -81.4742781      0.12953577       -81.4742781      0.989126524      7.44142683       
285.96           0.989359344      7.35289076       0.128003018      -81.5649946      0.128003018      -81.5649946      0.989359344      7.35289076       
288.7            0.98958569       7.26581803       0.126495308      -81.6541177      0.126495308      -81.6541177      0.98958569       7.26581803       
291.44           0.989805793      7.18016874       0.125011966      -81.7416884      0.125011966      -81.7416884      0.989805793      7.18016874       
294.18           0.990019873      7.09590444       0.123552344      -81.8277463      0.123552344      -81.8277463      0.990019873      7.09590444       
296.92           0.990228139      7.01298801       0.122115815      -81.9123295      0.122115815      -81.9123295      0.990228139      7.01298801       
299.66           0.990430794      6.93138368       0.120701773      -81.9954747      0.120701773      -81.9954747      0.990430794      6.93138368       
302.4            0.990628029      6.85105688       0.119309635      -82.0772174      0.119309635      -82.0772174      0.990628029      6.85105688       
305.14           0.99082003       6.77197426       0.117938836      -82.1575916      0.117938836      -82.1575916      0.99082003       6.77197426       
307.88           0.991006972      6.69410361       0.11658883       -82.2366303      0.11658883       -82.2366303      0.991006972      6.69410361       
310.62           0.991189024      6.61741381       0.115259091      -82.3143652      0.115259091      -82.3143652      0.991189024      6.61741381       
313.36           0.991366349      6.54187479       0.113949108      -82.390827       0.113949108      -82.390827       0.991366349      6.54187479       
316.1            0.991539102      6.46745749       0.112658389      -82.4660452      0.112658389      -82.4660452      0.991539102      6.46745749       
318.84           0.991707432      6.39413381       0.111386457      -82.5400483      0.111386457      -82.5400483      0.991707432      6.39413381       
321.58           0.991871481      6.32187657       0.11013285       -82.6128639      0.11013285       -82.6128639      0.991871481      6.32187657       
324.32           0.992031387      6.25065949       0.108897122      -82.6845185      0.108897122      -82.6845185      0.992031387      6.25065949       
327.06           0.992187281      6.18045713       0.107678841      -82.7550379      0.107678841      -82.7550379      0.992187281      6.18045713       
329.8            0.992339289      6.11124488       0.106477588      -82.8244467      0.106477588      -82.8244467      0.992339289      6.11124488       
332.54           0.992487533      6.0429989        0.105292958      -82.8927691      0.105292958      -82.8927691      0.992487533      6.0429989        
335.28           0.99263213       5.97569611       0.104124558      -82.960028       0.104124558      -82.960028       0.99263213       5.97569611       
338.02           0.992773192      5.90931417       0.102972007      -83.0262458      0.102972007      -83.0262458      0.992773192      5.90931417       
340.76           0.992910825      5.84383141       0.101834936      -83.0914442      0.101834936      -83.0914442      0.992910825      5.84383141       
343.5            0.993045135      5.77922685       0.100712989      -83.1556439      0.100712989      -83.1556439      0.993045135      5.77922685       
346.24           0.99317622       5.71548015       0.0996058175     -83.2188652      0.0996058175     -83.2188652      0.99317622       5.71548015       
348.98           0.993304176      5.65257158       0.098513086      -83.2811275      0.098513086      -83.2811275      0.993304176      5.65257158       
