! Coilcraft 0805CS-360 Chip Inductor				
! 11 June 2002			
# MHZ S MA R 50
!Freq             MagS11           AngS11           MagS21           AngS21           MagS12           AngS12           MagS22           AngS22
1                0.00404591335    33.7325162       0.996637793      -0.129164388     0.996637793      -0.129164388     0.00404591335    33.7325162       
7.73             0.0179864253     74.3687692       0.995304383      -0.997164779     0.995304383      -0.997164779     0.0179864253     74.3687692       
14.46            0.0329373933     79.0147955       0.9942495        -1.86363741      0.9942495        -1.86363741      0.0329373933     79.0147955       
21.19            0.0479504844     80.3848894       0.993116825      -2.7285709       0.993116825      -2.7285709       0.0479504844     80.3848894       
27.92            0.0629525619     80.7602733       0.991840206      -3.59175781      0.991840206      -3.59175781      0.0629525619     80.7602733       
34.65            0.0779191772     80.6972574       0.990393842      -4.45293754      0.990393842      -4.45293754      0.0779191772     80.6972574       
41.38            0.0928359103     80.4008926       0.988765443      -5.31182755      0.988765443      -5.31182755      0.0928359103     80.4008926       
48.11            0.107691583      79.9652859       0.986948872      -6.16813565      0.986948872      -6.16813565      0.107691583      79.9652859       
54.84            0.122476408      79.4400722       0.984941356      -7.02156625      0.984941356      -7.02156625      0.122476408      79.4400722       
61.57            0.137181346      78.854103        0.982742197      -7.87182407      0.982742197      -7.87182407      0.137181346      78.854103        
68.3             0.151797862      78.2254082       0.980352108      -8.7186166       0.980352108      -8.7186166       0.151797862      78.2254082       
75.03            0.166317816      77.5659084       0.977772828      -9.56165592      0.977772828      -9.56165592      0.166317816      77.5659084       
81.76            0.180733421      76.883851        0.975006878      -10.4006601      0.975006878      -10.4006601      0.180733421      76.883851        
88.49            0.195037229      76.1851604       0.972057406      -11.2353541      0.972057406      -11.2353541      0.195037229      76.1851604       
95.22            0.209222128      75.4742287       0.968928076      -12.0654709      0.968928076      -12.0654709      0.209222128      75.4742287       
101.95           0.223281342      74.7544017       0.965622976      -12.8907524      0.965622976      -12.8907524      0.223281342      74.7544017       
108.68           0.237208442      74.028288        0.962146559      -13.7109495      0.962146559      -13.7109495      0.237208442      74.028288        
115.41           0.250997348      73.2979634       0.958503584      -14.5258231      0.958503584      -14.5258231      0.250997348      73.2979634       
122.14           0.264642336      72.5651092       0.954699075      -15.3351442      0.954699075      -15.3351442      0.264642336      72.5651092       
128.87           0.278138042      71.8311084       0.950738275      -16.1386948      0.950738275      -16.1386948      0.278138042      71.8311084       
135.6            0.291479469      71.0971142       0.946626615      -16.9362674      0.946626615      -16.9362674      0.291479469      71.0971142       
142.33           0.304661983      70.3640992       0.942369678      -17.727666       0.942369678      -17.727666       0.304661983      70.3640992       
149.06           0.317681318      69.6328923       0.937973173      -18.5127056      0.937973173      -18.5127056      0.317681318      69.6328923       
155.79           0.330533572      68.9042059       0.933442904      -19.2912128      0.933442904      -19.2912128      0.330533572      68.9042059       
162.52           0.343215205      68.1786567       0.928784745      -20.0630256      0.928784745      -20.0630256      0.343215205      68.1786567       
169.25           0.355723036      67.4567818       0.92400462       -20.8279932      0.92400462       -20.8279932      0.355723036      67.4567818       
175.98           0.368054236      66.7390513       0.919108475      -21.5859766      0.919108475      -21.5859766      0.368054236      66.7390513       
182.71           0.380206321      66.0258779       0.914102261      -22.3368478      0.914102261      -22.3368478      0.380206321      66.0258779       
189.44           0.392177146      65.3176253       0.908991916      -23.08049        0.908991916      -23.08049        0.392177146      65.3176253       
196.17           0.403964894      64.6146142       0.903783343      -23.8167974      0.903783343      -23.8167974      0.403964894      64.6146142       
202.9            0.415568068      63.9171279       0.898482396      -24.545675       0.898482396      -24.545675       0.415568068      63.9171279       
209.63           0.426985477      63.2254162       0.893094866      -25.2670384      0.893094866      -25.2670384      0.426985477      63.2254162       
216.36           0.438216231      62.5396993       0.887626464      -25.9808134      0.887626464      -25.9808134      0.438216231      62.5396993       
223.09           0.449259723      61.8601711       0.882082813      -26.686936       0.882082813      -26.686936       0.449259723      61.8601711       
229.82           0.460115617      61.1870012       0.876469431      -27.3853517      0.876469431      -27.3853517      0.460115617      61.1870012       
236.55           0.470783842      60.5203378       0.870791728      -28.0760156      0.870791728      -28.0760156      0.470783842      60.5203378       
243.28           0.48126457       59.860309        0.865054991      -28.7588916      0.865054991      -28.7588916      0.48126457       59.860309        
250.01           0.49155821       59.207025        0.859264376      -29.4339528      0.859264376      -29.4339528      0.49155821       59.207025        
256.74           0.50166539       58.5605796       0.853424909      -30.1011802      0.853424909      -30.1011802      0.50166539       58.5605796       
263.47           0.511586948      57.9210512       0.84754147       -30.7605632      0.84754147       -30.7605632      0.511586948      57.9210512       
270.2            0.521323916      57.2885043       0.841618796      -31.4120986      0.841618796      -31.4120986      0.521323916      57.2885043       
276.93           0.530877507      56.6629904       0.835661474      -32.0557907      0.835661474      -32.0557907      0.530877507      56.6629904       
283.66           0.540249105      56.0445493       0.829673936      -32.6916506      0.829673936      -32.6916506      0.540249105      56.0445493       
290.39           0.549440249      55.4332096       0.823660461      -33.3196961      0.823660461      -33.3196961      0.549440249      55.4332096       
297.12           0.558452623      54.8289898       0.817625171      -33.9399511      0.817625171      -33.9399511      0.558452623      54.8289898       
303.85           0.567288044      54.2318992       0.811572031      -34.5524455      0.811572031      -34.5524455      0.567288044      54.2318992       
310.58           0.575948449      53.6419381       0.805504849      -35.1572146      0.805504849      -35.1572146      0.575948449      53.6419381       
317.31           0.584435886      53.059099        0.799427275      -35.7542988      0.799427275      -35.7542988      0.584435886      53.059099        
324.04           0.592752501      52.483367        0.793342804      -36.3437436      0.793342804      -36.3437436      0.592752501      52.483367        
330.77           0.60090053       51.9147203       0.787254774      -36.9255987      0.787254774      -36.9255987      0.60090053       51.9147203       
337.5            0.608882288      51.3531309       0.781166375      -37.4999181      0.781166375      -37.4999181      0.608882288      51.3531309       
344.23           0.616700159      50.7985648       0.775080642      -38.0667598      0.775080642      -38.0667598      0.616700159      50.7985648       
350.96           0.624356588      50.2509831       0.769000465      -38.6261852      0.769000465      -38.6261852      0.624356588      50.2509831       
357.69           0.631854072      49.7103417       0.762928588      -39.178259       0.762928588      -39.178259       0.631854072      49.7103417       
364.42           0.639195153      49.1765921       0.756867613      -39.723049       0.756867613      -39.723049       0.639195153      49.1765921       
371.15           0.64638241       48.6496818       0.750820004      -40.2606256      0.750820004      -40.2606256      0.64638241       48.6496818       
377.88           0.653418451      48.1295547       0.744788092      -40.7910619      0.744788092      -40.7910619      0.653418451      48.1295547       
384.61           0.660305908      47.6161511       0.738774073      -41.3144331      0.738774073      -41.3144331      0.660305908      47.6161511       
391.34           0.667047427      47.1094086       0.732780018      -41.8308162      0.732780018      -41.8308162      0.667047427      47.1094086       
398.07           0.673645669      46.6092619       0.726807876      -42.3402905      0.726807876      -42.3402905      0.673645669      46.6092619       
404.8            0.680103297      46.1156432       0.720859474      -42.8429363      0.720859474      -42.8429363      0.680103297      46.1156432       
411.53           0.686422978      45.6284826       0.714936526      -43.3388357      0.714936526      -43.3388357      0.686422978      45.6284826       
418.26           0.692607372      45.1477083       0.709040633      -43.8280717      0.709040633      -43.8280717      0.692607372      45.1477083       
424.99           0.698659132      44.6732469       0.703173289      -44.3107285      0.703173289      -44.3107285      0.698659132      44.6732469       
431.72           0.704580899      44.2050234       0.697335887      -44.786891       0.697335887      -44.786891       0.704580899      44.2050234       
438.45           0.710375297      43.7429616       0.691529719      -45.2566448      0.691529719      -45.2566448      0.710375297      43.7429616       
445.18           0.716044933      43.2869842       0.685755982      -45.7200761      0.685755982      -45.7200761      0.716044933      43.2869842       
451.91           0.721592389      42.837013        0.680015784      -46.1772713      0.680015784      -46.1772713      0.721592389      42.837013        
458.64           0.727020226      42.3929693       0.674310142      -46.6283172      0.674310142      -46.6283172      0.727020226      42.3929693       
465.37           0.732330973      41.9547734       0.668639994      -47.0733008      0.668639994      -47.0733008      0.732330973      41.9547734       
472.1            0.737527135      41.5223456       0.663006196      -47.5123088      0.663006196      -47.5123088      0.737527135      41.5223456       
478.83           0.742611181      41.0956057       0.657409528      -47.9454281      0.657409528      -47.9454281      0.742611181      41.0956057       
485.56           0.74758555       40.6744734       0.651850698      -48.3727454      0.651850698      -48.3727454      0.74758555       40.6744734       
492.29           0.752452645      40.2588682       0.646330346      -48.7943469      0.646330346      -48.7943469      0.752452645      40.2588682       
499.02           0.757214833      39.8487099       0.640849045      -49.2103185      0.640849045      -49.2103185      0.757214833      39.8487099       
505.75           0.761874446      39.4439184       0.635407307      -49.6207458      0.635407307      -49.6207458      0.761874446      39.4439184       
512.48           0.766433776      39.0444135       0.630005584      -50.0257137      0.630005584      -50.0257137      0.766433776      39.0444135       
519.21           0.770895077      38.6501159       0.624644271      -50.4253067      0.624644271      -50.4253067      0.770895077      38.6501159       
525.94           0.775260563      38.2609463       0.619323713      -50.8196084      0.619323713      -50.8196084      0.775260563      38.2609463       
532.67           0.77953241       37.8768259       0.614044202      -51.208702       0.614044202      -51.208702       0.77953241       37.8768259       
539.4            0.783712751      37.4976766       0.608805984      -51.5926695      0.608805984      -51.5926695      0.783712751      37.4976766       
546.13           0.78780368       37.1234208       0.603609258      -51.9715927      0.603609258      -51.9715927      0.78780368       37.1234208       
552.86           0.791807251      36.7539815       0.598454184      -52.345552       0.598454184      -52.345552       0.791807251      36.7539815       
559.59           0.795725475      36.3892824       0.59334088       -52.7146272      0.59334088       -52.7146272      0.795725475      36.3892824       
566.32           0.799560325      36.0292482       0.588269426      -53.0788973      0.588269426      -53.0788973      0.799560325      36.0292482       
573.05           0.803313729      35.6738039       0.583239868      -53.43844        0.583239868      -53.43844        0.803313729      35.6738039       
579.78           0.80698758       35.3228757       0.578252218      -53.7933324      0.578252218      -53.7933324      0.80698758       35.3228757       
586.51           0.810583725      34.9763905       0.573306457      -54.1436504      0.573306457      -54.1436504      0.810583725      34.9763905       
593.24           0.814103976      34.6342759       0.568402538      -54.489469       0.568402538      -54.489469       0.814103976      34.6342759       
599.97           0.817550101      34.2964608       0.563540384      -54.8308621      0.563540384      -54.8308621      0.817550101      34.2964608       
606.7            0.820923832      33.9628745       0.558719895      -55.1679027      0.558719895      -55.1679027      0.820923832      33.9628745       
613.43           0.824226859      33.6334476       0.553940946      -55.5006625      0.553940946      -55.5006625      0.824226859      33.6334476       
620.16           0.827460837      33.3081115       0.54920339       -55.8292123      0.54920339       -55.8292123      0.827460837      33.3081115       
626.89           0.83062738       32.9867986       0.54450706       -56.153622       0.54450706       -56.153622       0.83062738       32.9867986       
633.62           0.833728066      32.6694421       0.539851767      -56.4739602      0.539851767      -56.4739602      0.833728066      32.6694421       
640.35           0.836764436      32.3559764       0.535237308      -56.7902945      0.535237308      -56.7902945      0.836764436      32.3559764       
647.08           0.839737996      32.0463368       0.530663461      -57.1026915      0.530663461      -57.1026915      0.839737996      32.0463368       
653.81           0.842650214      31.7404595       0.526129989      -57.4112165      0.526129989      -57.4112165      0.842650214      31.7404595       
660.54           0.845502524      31.4382817       0.521636642      -57.7159341      0.521636642      -57.7159341      0.845502524      31.4382817       
667.27           0.848296326      31.1397416       0.517183155      -58.0169075      0.517183155      -58.0169075      0.848296326      31.1397416       
674              0.851032986      30.8447785       0.512769253      -58.314199       0.512769253      -58.314199       0.851032986      30.8447785       
680.73           0.853713836      30.5533324       0.508394649      -58.6078699      0.508394649      -58.6078699      0.853713836      30.5533324       
687.46           0.856340177      30.2653445       0.504059046      -58.8979802      0.504059046      -58.8979802      0.856340177      30.2653445       
694.19           0.858913277      29.9807569       0.499762139      -59.1845893      0.499762139      -59.1845893      0.858913277      29.9807569       
700.92           0.861434373      29.6995127       0.495503613      -59.4677551      0.495503613      -59.4677551      0.861434373      29.6995127       
707.65           0.863904671      29.4215559       0.491283148      -59.7475347      0.491283148      -59.7475347      0.863904671      29.4215559       
714.38           0.86632535       29.1468315       0.487100415      -60.0239843      0.487100415      -60.0239843      0.86632535       29.1468315       
721.11           0.868697555      28.8752853       0.48295508       -60.2971588      0.48295508       -60.2971588      0.868697555      28.8752853       
727.84           0.871022407      28.6068644       0.478846804      -60.5671123      0.478846804      -60.5671123      0.871022407      28.6068644       
734.57           0.873300995      28.3415163       0.474775242      -60.8338979      0.474775242      -60.8338979      0.873300995      28.3415163       
741.3            0.875534385      28.0791899       0.470740048      -61.0975677      0.470740048      -61.0975677      0.875534385      28.0791899       
748.03           0.877723613      27.8198347       0.466740868      -61.358173       0.466740868      -61.358173       0.877723613      27.8198347       
754.76           0.87986969       27.5634011       0.46277735       -61.6157638      0.46277735       -61.6157638      0.87986969       27.5634011       
761.49           0.881973602      27.3098407       0.458849135      -61.8703895      0.458849135      -61.8703895      0.881973602      27.3098407       
768.22           0.884036309      27.0591056       0.454955864      -62.1220984      0.454955864      -62.1220984      0.884036309      27.0591056       
774.95           0.88605875       26.8111489       0.451097178      -62.370938       0.451097178      -62.370938       0.88605875       26.8111489       
781.68           0.888041835      26.5659246       0.447272714      -62.6169549      0.447272714      -62.6169549      0.888041835      26.5659246       
788.41           0.889986457      26.3233874       0.44348211       -62.8601947      0.44348211       -62.8601947      0.889986457      26.3233874       
795.14           0.891893481      26.0834931       0.439725002      -63.1007021      0.439725002      -63.1007021      0.891893481      26.0834931       
801.87           0.893763754      25.8461979       0.436001028      -63.3385213      0.436001028      -63.3385213      0.893763754      25.8461979       
808.6            0.895598101      25.6114591       0.432309825      -63.5736952      0.432309825      -63.5736952      0.895598101      25.6114591       
815.33           0.897397324      25.3792348       0.428651029      -63.8062662      0.428651029      -63.8062662      0.897397324      25.3792348       
822.06           0.899162208      25.1494837       0.42502428       -64.0362758      0.42502428       -64.0362758      0.899162208      25.1494837       
828.79           0.900893515      24.9221654       0.421429217      -64.2637646      0.421429217      -64.2637646      0.900893515      24.9221654       
835.52           0.90259199       24.6972401       0.41786548       -64.4887725      0.41786548       -64.4887725      0.90259199       24.6972401       
842.25           0.904258358      24.4746689       0.414332711      -64.7113385      0.414332711      -64.7113385      0.904258358      24.4746689       
848.98           0.905893326      24.2544136       0.410830555      -64.9315012      0.410830555      -64.9315012      0.905893326      24.2544136       
855.71           0.907497585      24.0364365       0.407358655      -65.149298       0.407358655      -65.149298       0.907497585      24.0364365       
