! Coilcraft 0805CS-150 Chip Inductor				
! 11 June 2002			
# MHZ S MA R 50
!Freq             MagS11           AngS11           MagS21           AngS21           MagS12           AngS12           MagS22           AngS22
1                0.00221013096    25.1336307       0.997999566      -0.0538919873    0.997999566      -0.0538919873    0.00221013096    25.1336307       
12.72            0.0122724435     76.2402413       0.997152235      -0.68494649      0.997152235      -0.68494649      0.0122724435     76.2402413       
24.44            0.0231761943     80.7684852       0.996544577      -1.31535968      0.996544577      -1.31535968      0.0231761943     80.7684852       
36.16            0.0341245208     82.1444581       0.995909876      -1.94517124      0.995909876      -1.94517124      0.0341245208     82.1444581       
47.88            0.0450745666     82.6076828       0.99520495       -2.57432301      0.99520495       -2.57432301      0.0450745666     82.6076828       
59.6             0.0560139168     82.6763524       0.994412854      -3.20273121      0.994412854      -3.20273121      0.0560139168     82.6763524       
71.32            0.0669360768     82.5369199       0.993525111      -3.83030086      0.993525111      -3.83030086      0.0669360768     82.5369199       
83.04            0.0778363826     82.2736864       0.992536979      -4.45693122      0.992536979      -4.45693122      0.0778363826     82.2736864       
94.76            0.0887109018     81.9306255       0.991445695      -5.08251841      0.991445695      -5.08251841      0.0887109018     81.9306255       
106.48           0.0995560537     81.5330611       0.990249665      -5.70695693      0.990249665      -5.70695693      0.0995560537     81.5330611       
118.2            0.110368456      81.096682        0.988948064      -6.33014056      0.988948064      -6.33014056      0.110368456      81.096682        
129.92           0.121144857      80.6317717       0.987540598      -6.95196305      0.987540598      -6.95196305      0.121144857      80.6317717       
141.64           0.131882103      80.1453813       0.986027365      -7.57231855      0.986027365      -7.57231855      0.131882103      80.1453813       
153.36           0.142577124      79.6425277       0.98440877       -8.19110202      0.98440877       -8.19110202      0.142577124      79.6425277       
165.08           0.153226927      79.1268928       0.982685461      -8.80820947      0.982685461      -8.80820947      0.153226927      79.1268928       
176.8            0.163828594      78.6012515       0.980858285      -9.42353825      0.980858285      -9.42353825      0.163828594      78.6012515       
188.52           0.174379277      78.0677437       0.978928264      -10.0369872      0.978928264      -10.0369872      0.174379277      78.0677437       
200.24           0.184876208      77.528053        0.976896564      -10.648457       0.976896564      -10.648457       0.184876208      77.528053        
211.96           0.195316692      76.9835278       0.974764482      -11.2578499      0.974764482      -11.2578499      0.195316692      76.9835278       
223.68           0.205698115      76.4352658       0.972533429      -11.8650705      0.972533429      -11.8650705      0.205698115      76.4352658       
235.4            0.216017941      75.8841729       0.970204917      -12.4700253      0.970204917      -12.4700253      0.216017941      75.8841729       
247.12           0.22627372       75.3310068       0.967780551      -13.0726231      0.967780551      -13.0726231      0.22627372       75.3310068       
258.84           0.236463084      74.7764086       0.965262018      -13.6727749      0.965262018      -13.6727749      0.236463084      74.7764086       
270.56           0.246583753      74.2209264       0.96265108       -14.2703944      0.96265108       -14.2703944      0.246583753      74.2209264       
282.28           0.256633535      73.6650333       0.959949567      -14.8653975      0.959949567      -14.8653975      0.256633535      73.6650333       
294              0.266610327      73.1091412       0.957159366      -15.4577028      0.957159366      -15.4577028      0.266610327      73.1091412       
305.72           0.276512116      72.5536117       0.954282424      -16.0472315      0.954282424      -16.0472315      0.276512116      72.5536117       
317.44           0.286336983      71.9987641       0.95132073       -16.6339076      0.95132073       -16.6339076      0.286336983      71.9987641       
329.16           0.296083098      71.4448826       0.948276322      -17.2176574      0.948276322      -17.2176574      0.296083098      71.4448826       
340.88           0.305748726      70.8922212       0.94515127       -17.7984105      0.94515127       -17.7984105      0.305748726      70.8922212       
352.6            0.315332225      70.3410081       0.941947681      -18.3760989      0.941947681      -18.3760989      0.315332225      70.3410081       
364.32           0.324832044      69.7914494       0.938667689      -18.9506575      0.938667689      -18.9506575      0.324832044      69.7914494       
376.04           0.334246727      69.2437319       0.935313449      -19.522024       0.935313449      -19.522024       0.334246727      69.2437319       
387.76           0.34357491       68.6980252       0.931887137      -20.090139       0.931887137      -20.090139       0.34357491       68.6980252       
399.48           0.35281532       68.1544842       0.928390943      -20.6549458      0.928390943      -20.6549458      0.35281532       68.1544842       
411.2            0.361966777      67.6132503       0.924827069      -21.2163906      0.924827069      -21.2163906      0.361966777      67.6132503       
422.92           0.371028189      67.0744529       0.921197723      -21.7744224      0.921197723      -21.7744224      0.371028189      67.0744529       
434.64           0.379998555      66.5382109       0.917505116      -22.328993       0.917505116      -22.328993       0.379998555      66.5382109       
446.36           0.388876962      66.0046332       0.913751458      -22.8800569      0.913751458      -22.8800569      0.388876962      66.0046332       
458.08           0.397662581      65.4738199       0.909938958      -23.4275716      0.909938958      -23.4275716      0.397662581      65.4738199       
469.8            0.406354671      64.9458632       0.906069814      -23.971497       0.906069814      -23.971497       0.406354671      64.9458632       
481.52           0.414952574      64.4208476       0.902146219      -24.5117959      0.902146219      -24.5117959      0.414952574      64.4208476       
493.24           0.423455711      63.8988507       0.898170349      -25.0484337      0.898170349      -25.0484337      0.423455711      63.8988507       
504.96           0.431863585      63.3799439       0.894144367      -25.5813785      0.894144367      -25.5813785      0.431863585      63.3799439       
516.68           0.440175777      62.8641926       0.890070417      -26.1106008      0.890070417      -26.1106008      0.440175777      62.8641926       
528.4            0.448391943      62.3516566       0.885950623      -26.6360738      0.885950623      -26.6360738      0.448391943      62.3516566       
540.12           0.456511812      61.8423906       0.881787087      -27.1577732      0.881787087      -27.1577732      0.456511812      61.8423906       
551.84           0.464535186      61.3364444       0.877581884      -27.675677       0.877581884      -27.675677       0.464535186      61.3364444       
563.56           0.472461934      60.8338632       0.873337064      -28.1897657      0.873337064      -28.1897657      0.472461934      60.8338632       
575.28           0.480291995      60.334688        0.869054648      -28.700022       0.869054648      -28.700022       0.480291995      60.334688        
587              0.48802537       59.8389557       0.864736628      -29.206431       0.864736628      -29.206431       0.48802537       59.8389557       
598.72           0.495662123      59.3466993       0.860384962      -29.70898        0.860384962      -29.70898        0.495662123      59.3466993       
610.44           0.503202379      58.8579484       0.856001578      -30.2076584      0.856001578      -30.2076584      0.503202379      58.8579484       
622.16           0.51064632       58.3727288       0.851588366      -30.7024578      0.851588366      -30.7024578      0.51064632       58.3727288       
633.88           0.517994183      57.8910633       0.847147183      -31.1933715      0.847147183      -31.1933715      0.517994183      57.8910633       
645.6            0.525246258      57.4129716       0.842679849      -31.6803953      0.842679849      -31.6803953      0.525246258      57.4129716       
657.32           0.532402885      56.9384705       0.838188147      -32.1635264      0.838188147      -32.1635264      0.532402885      56.9384705       
669.04           0.539464454      56.4675737       0.833673822      -32.6427642      0.833673822      -32.6427642      0.539464454      56.4675737       
680.76           0.546431399      56.0002928       0.829138578      -33.1181098      0.829138578      -33.1181098      0.546431399      56.0002928       
692.48           0.553304199      55.5366363       0.824584084      -33.5895658      0.824584084      -33.5895658      0.553304199      55.5366363       
704.2            0.560083374      55.0766108       0.820011965      -34.0571368      0.820011965      -34.0571368      0.560083374      55.0766108       
715.92           0.566769482      54.6202203       0.815423809      -34.5208287      0.815423809      -34.5208287      0.566769482      54.6202203       
727.64           0.57336312       54.1674667       0.810821162      -34.9806491      0.810821162      -34.9806491      0.57336312       54.1674667       
739.36           0.579864917      53.7183502       0.806205529      -35.4366071      0.806205529      -35.4366071      0.579864917      53.7183502       
751.08           0.586275538      53.2728685       0.801578378      -35.8887129      0.801578378      -35.8887129      0.586275538      53.2728685       
762.8            0.592595677      52.8310178       0.796941131      -36.3369785      0.796941131      -36.3369785      0.592595677      52.8310178       
774.52           0.598826056      52.3927926       0.792295174      -36.7814169      0.792295174      -36.7814169      0.598826056      52.3927926       
786.24           0.604967426      51.9581854       0.787641851      -37.2220424      0.787641851      -37.2220424      0.604967426      51.9581854       
797.96           0.611020559      51.5271876       0.782982465      -37.6588704      0.782982465      -37.6588704      0.611020559      51.5271876       
809.68           0.616986254      51.0997887       0.778318281      -38.0919175      0.778318281      -38.0919175      0.616986254      51.0997887       
821.4            0.62286533       50.6759769       0.773650522      -38.5212014      0.773650522      -38.5212014      0.62286533       50.6759769       
833.12           0.628658623      50.2557394       0.768980374      -38.9467407      0.768980374      -38.9467407      0.628658623      50.2557394       
844.84           0.634366991      49.8390616       0.764308984      -39.368555       0.764308984      -39.368555       0.634366991      49.8390616       
856.56           0.639991304      49.425928        0.759637458      -39.7866648      0.759637458      -39.7866648      0.639991304      49.425928        
868.28           0.645532451      49.0163222       0.754966867      -40.2010914      0.754966867      -40.2010914      0.645532451      49.0163222       
880              0.65099133       48.6102263       0.750298244      -40.6118569      0.750298244      -40.6118569      0.65099133       48.6102263       
891.72           0.656368853      48.2076217       0.745632585      -41.0189843      0.745632585      -41.0189843      0.656368853      48.2076217       
903.44           0.661665942      47.8084889       0.74097085       -41.4224971      0.74097085       -41.4224971      0.661665942      47.8084889       
915.16           0.666883528      47.4128073       0.736313962      -41.8224196      0.736313962      -41.8224196      0.666883528      47.4128073       
926.88           0.672022549      47.0205557       0.731662811      -42.2187767      0.731662811      -42.2187767      0.672022549      47.0205557       
938.6            0.677083951      46.6317121       0.727018252      -42.6115937      0.727018252      -42.6115937      0.677083951      46.6317121       
950.32           0.682068684      46.2462538       0.722381106      -43.0008966      0.722381106      -43.0008966      0.682068684      46.2462538       
962.04           0.686977703      45.8641574       0.717752163      -43.3867119      0.717752163      -43.3867119      0.686977703      45.8641574       
973.76           0.691811967      45.4853989       0.713132178      -43.7690665      0.713132178      -43.7690665      0.691811967      45.4853989       
985.48           0.696572434      45.1099537       0.708521877      -44.1479877      0.708521877      -44.1479877      0.696572434      45.1099537       
997.2            0.701260068      44.7377968       0.703921953      -44.5235031      0.703921953      -44.5235031      0.701260068      44.7377968       
1008.92          0.705875829      44.3689028       0.699333071      -44.8956409      0.699333071      -44.8956409      0.705875829      44.3689028       
1020.64          0.710420679      44.0032455       0.694755865      -45.2644292      0.694755865      -45.2644292      0.710420679      44.0032455       
1032.36          0.714895579      43.6407987       0.690190943      -45.6298969      0.690190943      -45.6298969      0.714895579      43.6407987       
1044.08          0.719301487      43.2815356       0.685638882      -45.9920726      0.685638882      -45.9920726      0.719301487      43.2815356       
1055.8           0.723639357      42.9254292       0.681100235      -46.3509855      0.681100235      -46.3509855      0.723639357      42.9254292       
1067.52          0.727910143      42.5724521       0.676575526      -46.7066648      0.676575526      -46.7066648      0.727910143      42.5724521       
1079.24          0.732114792      42.2225768       0.672065254      -47.05914        0.672065254      -47.05914        0.732114792      42.2225768       
1090.96          0.736254247      41.8757755       0.667569895      -47.4084406      0.667569895      -47.4084406      0.736254247      41.8757755       
1102.68          0.740329447      41.53202         0.663089899      -47.7545963      0.663089899      -47.7545963      0.740329447      41.53202         
1114.4           0.744341323      41.1912824       0.658625693      -48.0976368      0.658625693      -48.0976368      0.744341323      41.1912824       
1126.12          0.748290803      40.8535341       0.654177681      -48.4375919      0.654177681      -48.4375919      0.748290803      40.8535341       
1137.84          0.752178805      40.5187468       0.649746246      -48.7744914      0.649746246      -48.7744914      0.752178805      40.5187468       
1149.56          0.756006243      40.186892        0.645331748      -49.1083653      0.645331748      -49.1083653      0.756006243      40.186892        
1161.28          0.759774021      39.857941        0.640934527      -49.4392434      0.640934527      -49.4392434      0.759774021      39.857941        
1173             0.763483036      39.5318652       0.636554903      -49.7671555      0.636554903      -49.7671555      0.763483036      39.5318652       
1184.72          0.767134179      39.2086359       0.632193177      -50.0921314      0.632193177      -50.0921314      0.767134179      39.2086359       
1196.44          0.770728329      38.8882245       0.627849631      -50.4142009      0.627849631      -50.4142009      0.770728329      38.8882245       
1208.16          0.774266358      38.5706021       0.623524529      -50.7333938      0.623524529      -50.7333938      0.774266358      38.5706021       
1219.88          0.777749131      38.2557403       0.619218116      -51.0497394      0.619218116      -51.0497394      0.777749131      38.2557403       
1231.6           0.7811775        37.9436103       0.614930623      -51.3632675      0.614930623      -51.3632675      0.7811775        37.9436103       
1243.32          0.784552311      37.6341836       0.610662262      -51.6740073      0.610662262      -51.6740073      0.784552311      37.6341836       
1255.04          0.787874399      37.3274318       0.60641323       -51.9819881      0.60641323       -51.9819881      0.787874399      37.3274318       
1266.76          0.791144588      37.0233264       0.60218371       -52.287239       0.60218371       -52.287239       0.791144588      37.0233264       
1278.48          0.794363695      36.7218392       0.597973869      -52.5897891      0.597973869      -52.5897891      0.794363695      36.7218392       
1290.2           0.797532526      36.422942        0.593783861      -52.889667       0.593783861      -52.889667       0.797532526      36.422942        
1301.92          0.800651875      36.1266067       0.589613825      -53.1869015      0.589613825      -53.1869015      0.800651875      36.1266067       
1313.64          0.803722528      35.8328055       0.585463889      -53.4815209      0.585463889      -53.4815209      0.803722528      35.8328055       
1325.36          0.806745261      35.5415106       0.581334165      -53.7735536      0.581334165      -53.7735536      0.806745261      35.5415106       
1337.08          0.809720838      35.2526944       0.577224757      -54.0630277      0.577224757      -54.0630277      0.809720838      35.2526944       
1348.8           0.812650014      34.9663293       0.573135756      -54.3499709      0.573135756      -54.3499709      0.812650014      34.9663293       
1360.52          0.815533533      34.6823883       0.56906724       -54.634411       0.56906724       -54.634411       0.815533533      34.6823883       
1372.24          0.81837213       34.4008441       0.565019278      -54.9163753      0.565019278      -54.9163753      0.81837213       34.4008441       
1383.96          0.821166527      34.1216699       0.560991929      -55.1958911      0.560991929      -55.1958911      0.821166527      34.1216699       
1395.68          0.823917438      33.8448389       0.556985241      -55.4729855      0.556985241      -55.4729855      0.823917438      33.8448389       
1407.4           0.826625566      33.5703248       0.552999254      -55.747685       0.552999254      -55.747685       0.826625566      33.5703248       
1419.12          0.829291603      33.298101        0.549033997      -56.0200162      0.549033997      -56.0200162      0.829291603      33.298101        
1430.84          0.831916232      33.0281417       0.545089493      -56.2900054      0.545089493      -56.2900054      0.831916232      33.0281417       
1442.56          0.834500124      32.7604208       0.541165754      -56.5576786      0.541165754      -56.5576786      0.834500124      32.7604208       
1454.28          0.837043941      32.4949128       0.537262786      -56.8230615      0.537262786      -56.8230615      0.837043941      32.4949128       
1466             0.839548335      32.2315921       0.533380586      -57.0861796      0.533380586      -57.0861796      0.839548335      32.2315921       
1477.72          0.842013947      31.9704337       0.529519144      -57.3470582      0.529519144      -57.3470582      0.842013947      31.9704337       
1489.44          0.844441409      31.7114126       0.525678446      -57.6057223      0.525678446      -57.6057223      0.844441409      31.7114126       
