! Coilcraft 0805CS-331 Chip Inductor				
! 11 June 2002			
# MHZ S MA R 50
!Freq             MagS11           AngS11           MagS21           AngS21           MagS12           AngS12           MagS22           AngS22
1                0.0269745584     45.8835737       0.981413593      -1.13066314      0.981413593      -1.13066314      0.0269745584     45.8835737       
3.74             0.0766976551     68.6736085       0.974728511      -4.20343813      0.974728511      -4.20343813      0.0766976551     68.6736085       
6.48             0.128469305      71.4495868       0.966831001      -7.23694667      0.966831001      -7.23694667      0.128469305      71.4495868       
9.22             0.179487802      71.0727474       0.956961804      -10.2194538      0.956961804      -10.2194538      0.179487802      71.0727474       
11.96            0.229114461      69.6580833       0.945094238      -13.1385237      0.945094238      -13.1385237      0.229114461      69.6580833       
14.7             0.276975303      67.8044919       0.931370171      -15.9827906      0.931370171      -15.9827906      0.276975303      67.8044919       
17.44            0.322805246      65.752099        0.916002397      -18.7425429      0.916002397      -18.7425429      0.322805246      65.752099        
20.18            0.366417345      63.618217        0.899236513      -21.4099631      0.899236513      -21.4099631      0.366417345      63.618217        
22.92            0.407691318      61.4676893       0.881329229      -23.9791833      0.881329229      -23.9791833      0.407691318      61.4676893       
25.66            0.446565169      59.33921         0.862533905      -26.4462186      0.862533905      -26.4462186      0.446565169      59.33921         
28.4             0.483026874      57.2568554       0.843090602      -28.808819       0.843090602      -28.808819       0.483026874      57.2568554       
31.14            0.517105789      55.2357895       0.823219538      -31.0662691      0.823219538      -31.0662691      0.517105789      55.2357895       
33.88            0.548864159      53.285384        0.803117251      -33.2191644      0.803117251      -33.2191644      0.548864159      53.285384        
36.62            0.578389114      51.4110742       0.782954904      -35.2691799      0.782954904      -35.2691799      0.578389114      51.4110742       
39.36            0.605785497      49.6155437       0.762878189      -37.2188492      0.762878189      -37.2188492      0.605785497      49.6155437       
42.1             0.631169679      47.8995245       0.7430084        -39.0713602      0.7430084        -39.0713602      0.631169679      47.8995245       
44.84            0.654664436      46.2623597       0.723444236      -40.8303759      0.723444236      -40.8303759      0.654664436      46.2623597       
47.58            0.676394855      44.7024123       0.704264047      -42.4998792      0.704264047      -42.4998792      0.676394855      44.7024123       
50.32            0.696485173      43.2173671       0.685528261      -44.0840451      0.685528261      -44.0840451      0.696485173      43.2173671       
53.06            0.715056442      41.8044563       0.667281819      -45.587136       0.667281819      -45.587136       0.715056442      41.8044563       
55.8             0.732224868      40.4606284       0.649556506      -47.013419       0.649556506      -47.013419       0.732224868      40.4606284       
58.54            0.748100718      39.1826748       0.632373098      -48.3671024      0.632373098      -48.3671024      0.748100718      39.1826748       
61.28            0.762787667      37.9673238       0.615743289      -49.6522878      0.615743289      -49.6522878      0.762787667      37.9673238       
64.02            0.776382472      36.8113101       0.599671388      -50.8729361      0.599671388      -50.8729361      0.776382472      36.8113101       
66.76            0.788974915      35.7114245       0.584155785      -52.0328439      0.584155785      -52.0328439      0.788974915      35.7114245       
69.5             0.800647914      34.6645493       0.569190201      -53.1356284      0.569190201      -53.1356284      0.800647914      34.6645493       
72.24            0.811477764      33.6676824       0.55476474       -54.1847199      0.55476474       -54.1847199      0.811477764      33.6676824       
74.98            0.821534469      32.7179529       0.540866766      -55.1833584      0.540866766      -55.1833584      0.821534469      32.7179529       
77.72            0.830882109      31.8126294       0.527481628      -56.1345948      0.527481628      -56.1345948      0.830882109      31.8126294       
80.46            0.839579249      30.9491251       0.51459325       -57.041295       0.51459325       -57.041295       0.839579249      30.9491251       
83.2             0.847679341      30.1249974       0.502184609      -57.9061454      0.502184609      -57.9061454      0.847679341      30.1249974       
85.94            0.855231132      29.3379464       0.490238122      -58.7316608      0.490238122      -58.7316608      0.855231132      29.3379464       
88.68            0.862279051      28.5858108       0.478735953      -59.5201922      0.478735953      -59.5201922      0.862279051      28.5858108       
91.42            0.868863579      27.8665628       0.467660248      -60.2739357      0.467660248      -60.2739357      0.868863579      27.8665628       
94.16            0.875021602      27.1783023       0.456993328      -60.9949415      0.456993328      -60.9949415      0.875021602      27.1783023       
96.9             0.880786728      26.5192501       0.446717824      -61.6851225      0.446717824      -61.6851225      0.880786728      26.5192501       
99.64            0.886189592      25.8877414       0.436816792      -62.3462637      0.436816792      -62.3462637      0.886189592      25.8877414       
102.38           0.891258127      25.2822194       0.427273783      -62.98003        0.427273783      -62.98003        0.891258127      25.2822194       
105.12           0.896017818      24.701228        0.418072901      -63.5879746      0.418072901      -63.5879746      0.896017818      24.701228        
107.86           0.900491927      24.1434061       0.409198838      -64.1715471      0.409198838      -64.1715471      0.900491927      24.1434061       
110.6            0.904701705      23.6074809       0.400636896      -64.7320999      0.400636896      -64.7320999      0.904701705      23.6074809       
113.34           0.908666579      23.092262        0.392372994      -65.2708962      0.392372994      -65.2708962      0.908666579      23.092262        
116.08           0.912404322      22.5966362       0.384393671      -65.7891155      0.384393671      -65.7891155      0.912404322      22.5966362       
118.82           0.915931209      22.1195616       0.376686077      -66.2878599      0.376686077      -66.2878599      0.915931209      22.1195616       
121.56           0.919262154      21.6600632       0.369237962      -66.76816        0.369237962      -66.76816        0.919262154      21.6600632       
124.3            0.922410836      21.2172278       0.362037663      -67.2309797      0.362037663      -67.2309797      0.922410836      21.2172278       
127.04           0.925389817      20.7902          0.35507408       -67.6772211      0.35507408       -67.6772211      0.925389817      20.7902          
129.78           0.928210639      20.3781779       0.348336661      -68.107729       0.348336661      -68.107729       0.928210639      20.3781779       
132.52           0.930883918      19.9804095       0.341815378      -68.523295       0.341815378      -68.523295       0.930883918      19.9804095       
135.26           0.933419428      19.5961891       0.335500704      -68.9246614      0.335500704      -68.9246614      0.933419428      19.5961891       
138              0.935826178      19.2248542       0.329383591      -69.3125245      0.329383591      -69.3125245      0.935826178      19.2248542       
140.74           0.938112476      18.8657824       0.323455449      -69.6875383      0.323455449      -69.6875383      0.938112476      18.8657824       
143.48           0.940285992      18.5183885       0.317708121      -70.050317       0.317708121      -70.050317       0.940285992      18.5183885       
146.22           0.942353818      18.1821223       0.312133865      -70.4014378      0.312133865      -70.4014378      0.942353818      18.1821223       
148.96           0.94432251       17.8564658       0.306725328      -70.7414441      0.306725328      -70.7414441      0.94432251       17.8564658       
151.7            0.94619814       17.5409313       0.30147553       -71.0708471      0.30147553       -71.0708471      0.94619814       17.5409313       
154.44           0.947986335      17.2350589       0.296377841      -71.3901283      0.296377841      -71.3901283      0.947986335      17.2350589       
157.18           0.949692313      16.9384154       0.291425964      -71.6997416      0.291425964      -71.6997416      0.949692313      16.9384154       
159.92           0.951320919      16.6505917       0.286613919      -72.0001153      0.286613919      -72.0001153      0.951320919      16.6505917       
162.66           0.952876657      16.3712018       0.281936022      -72.2916532      0.281936022      -72.2916532      0.952876657      16.3712018       
165.4            0.954363711      16.0998809       0.277386869      -72.5747369      0.277386869      -72.5747369      0.954363711      16.0998809       
168.14           0.95578598       15.8362843       0.272961324      -72.849727       0.272961324      -72.849727       0.95578598       15.8362843       
170.88           0.957147094      15.5800859       0.268654504      -73.1169643      0.268654504      -73.1169643      0.957147094      15.5800859       
173.62           0.958450438      15.330977        0.264461761      -73.3767714      0.264461761      -73.3767714      0.958450438      15.330977        
176.36           0.959699169      15.0886654       0.260378672      -73.6294536      0.260378672      -73.6294536      0.959699169      15.0886654       
179.1            0.960896238      14.8528742       0.256401028      -73.8753002      0.256401028      -73.8753002      0.960896238      14.8528742       
181.84           0.962044402      14.6233409       0.252524819      -74.1145853      0.252524819      -74.1145853      0.962044402      14.6233409       
184.58           0.963146239      14.3998164       0.248746226      -74.3475688      0.248746226      -74.3475688      0.963146239      14.3998164       
187.32           0.964204161      14.1820644       0.24506161       -74.5744976      0.24506161       -74.5744976      0.964204161      14.1820644       
190.06           0.965220432      13.9698603       0.2414675        -74.7956059      0.2414675        -74.7956059      0.965220432      13.9698603       
192.8            0.966197169      13.7629909       0.237960587      -75.0111162      0.237960587      -75.0111162      0.966197169      13.7629909       
195.54           0.967136361      13.5612534       0.234537714      -75.2212401      0.234537714      -75.2212401      0.967136361      13.5612534       
198.28           0.968039875      13.3644548       0.231195867      -75.4261786      0.231195867      -75.4261786      0.968039875      13.3644548       
201.02           0.968909464      13.1724116       0.227932168      -75.6261233      0.227932168      -75.6261233      0.968909464      13.1724116       
203.76           0.969746778      12.9849489       0.22474387       -75.8212563      0.22474387       -75.8212563      0.969746778      12.9849489       
206.5            0.970553367      12.8019003       0.221628347      -76.0117513      0.221628347      -76.0117513      0.970553367      12.8019003       
209.24           0.971330691      12.6231069       0.218583088      -76.1977737      0.218583088      -76.1977737      0.971330691      12.6231069       
211.98           0.972080125      12.4484173       0.215605692      -76.3794811      0.215605692      -76.3794811      0.972080125      12.4484173       
214.72           0.972802965      12.2776872       0.212693865      -76.5570241      0.212693865      -76.5570241      0.972802965      12.2776872       
217.46           0.973500435      12.1107785       0.209845408      -76.7305463      0.209845408      -76.7305463      0.973500435      12.1107785       
220.2            0.974173688      11.9475597       0.207058217      -76.9001848      0.207058217      -76.9001848      0.974173688      11.9475597       
222.94           0.974823814      11.7879048       0.204330279      -77.0660705      0.204330279      -77.0660705      0.974823814      11.7879048       
225.68           0.975451842      11.6316936       0.201659663      -77.2283287      0.201659663      -77.2283287      0.975451842      11.6316936       
228.42           0.976058747      11.478811        0.199044519      -77.387079       0.199044519      -77.387079       0.976058747      11.478811        
231.16           0.976645447      11.3291471       0.196483075      -77.5424359      0.196483075      -77.5424359      0.976645447      11.3291471       
233.9            0.977212817      11.1825964       0.193973628      -77.694509       0.193973628      -77.694509       0.977212817      11.1825964       
236.64           0.977761679      11.0390582       0.191514548      -77.8434031      0.191514548      -77.8434031      0.977761679      11.0390582       
239.38           0.978292818      10.8984356       0.189104268      -77.9892188      0.189104268      -77.9892188      0.978292818      10.8984356       
242.12           0.978806975      10.7606362       0.186741285      -78.1320523      0.186741285      -78.1320523      0.978806975      10.7606362       
244.86           0.979304852      10.6255712       0.184424155      -78.2719959      0.184424155      -78.2719959      0.979304852      10.6255712       
247.6            0.979787117      10.4931553       0.18215149       -78.4091379      0.18215149       -78.4091379      0.979787117      10.4931553       
250.34           0.980254405      10.3633068       0.179921957      -78.5435634      0.179921957      -78.5435634      0.980254405      10.3633068       
253.08           0.980707318      10.2359473       0.177734274      -78.6753537      0.177734274      -78.6753537      0.980707318      10.2359473       
255.82           0.981146427      10.1110015       0.175587208      -78.804587       0.175587208      -78.804587       0.981146427      10.1110015       
258.56           0.981572278      9.98839705       0.173479574      -78.9313383      0.173479574      -78.9313383      0.981572278      9.98839705       
261.3            0.981985388      9.86806432       0.17141023       -79.0556799      0.17141023       -79.0556799      0.981985388      9.86806432       
264.04           0.982386249      9.74993649       0.169378078      -79.1776811      0.169378078      -79.1776811      0.982386249      9.74993649       
266.78           0.982775332      9.63394929       0.167382059      -79.2974084      0.167382059      -79.2974084      0.982775332      9.63394929       
269.52           0.983153084      9.52004085       0.165421156      -79.4149259      0.165421156      -79.4149259      0.983153084      9.52004085       
272.26           0.98351993       9.40815168       0.163494385      -79.5302953      0.163494385      -79.5302953      0.98351993       9.40815168       
275              0.983876277      9.29822447       0.1616008        -79.6435759      0.1616008        -79.6435759      0.983876277      9.29822447       
277.74           0.984222513      9.19020404       0.15973949       -79.7548248      0.15973949       -79.7548248      0.984222513      9.19020404       
280.48           0.984559008      9.08403725       0.157909575      -79.8640969      0.157909575      -79.8640969      0.984559008      9.08403725       
283.22           0.984886115      8.97967287       0.156110205      -79.9714453      0.156110205      -79.9714453      0.984886115      8.97967287       
285.96           0.985204171      8.87706156       0.154340563      -80.0769208      0.154340563      -80.0769208      0.985204171      8.87706156       
288.7            0.985513498      8.77615569       0.152599857      -80.1805728      0.152599857      -80.1805728      0.985513498      8.77615569       
291.44           0.985814405      8.67690935       0.150887324      -80.2824484      0.150887324      -80.2824484      0.985814405      8.67690935       
294.18           0.986107187      8.57927826       0.149202227      -80.3825936      0.149202227      -80.3825936      0.986107187      8.57927826       
296.92           0.986392125      8.48321965       0.147543855      -80.4810522      0.147543855      -80.4810522      0.986392125      8.48321965       
299.66           0.986669489      8.38869225       0.14591152       -80.5778669      0.14591152       -80.5778669      0.986669489      8.38869225       
302.4            0.986939537      8.29565621       0.144304555      -80.6730787      0.144304555      -80.6730787      0.986939537      8.29565621       
305.14           0.987202517      8.20407303       0.14272232       -80.7667271      0.14272232       -80.7667271      0.987202517      8.20407303       
307.88           0.987458665      8.11390552       0.141164191      -80.8588505      0.141164191      -80.8588505      0.987458665      8.11390552       
310.62           0.987708208      8.02511772       0.139629568      -80.9494857      0.139629568      -80.9494857      0.987708208      8.02511772       
313.36           0.987951365      7.93767487       0.138117869      -81.0386684      0.138117869      -81.0386684      0.987951365      7.93767487       
316.1            0.988188343      7.85154337       0.136628531      -81.126433       0.136628531      -81.126433       0.988188343      7.85154337       
318.84           0.988419344      7.76669071       0.13516101       -81.212813       0.13516101       -81.212813       0.988419344      7.76669071       
321.58           0.988644559      7.68308544       0.133714776      -81.2978404      0.133714776      -81.2978404      0.988644559      7.68308544       
324.32           0.988864173      7.60069711       0.13228932       -81.3815464      0.13228932       -81.3815464      0.988864173      7.60069711       
327.06           0.989078362      7.51949627       0.130884147      -81.463961       0.130884147      -81.463961       0.989078362      7.51949627       
329.8            0.989287298      7.43945439       0.129498776      -81.5451134      0.129498776      -81.5451134      0.989287298      7.43945439       
332.54           0.989491143      7.36054383       0.128132744      -81.6250318      0.128132744      -81.6250318      0.989491143      7.36054383       
335.28           0.989690056      7.28273783       0.126785599      -81.7037433      0.126785599      -81.7037433      0.989690056      7.28273783       
338.02           0.989884186      7.20601045       0.125456904      -81.7812743      0.125456904      -81.7812743      0.989884186      7.20601045       
340.76           0.990073679      7.13033656       0.124146237      -81.8576503      0.124146237      -81.8576503      0.990073679      7.13033656       
343.5            0.990258675      7.05569179       0.122853186      -81.9328961      0.122853186      -81.9328961      0.990258675      7.05569179       
346.24           0.990439309      6.98205251       0.121577353      -82.0070355      0.121577353      -82.0070355      0.990439309      6.98205251       
348.98           0.99061571       6.90939581       0.12031835       -82.0800916      0.12031835       -82.0800916      0.99061571       6.90939581       
