! Coilcraft 0805CS-030 Chip Inductor				
! 11 June 2002			
# MHZ S MA R 50
!Freq             MagS11           AngS11           MagS21           AngS21           MagS12           AngS12           MagS22           AngS22
1                0.000944156451   12.6623105       0.999078828      -0.0118690566    0.999078828      -0.0118690566    0.000944156451   12.6623105       
38.15            0.00804863623    78.4361992       0.998417717      -0.45251315      0.998417717      -0.45251315      0.00804863623    78.4361992       
75.3             0.0156927392     82.3182763       0.998023528      -0.892859628     0.998023528      -0.892859628     0.0156927392     82.3182763       
112.45           0.0233561521     83.5356866       0.997640434      -1.33296602      0.997640434      -1.33296602      0.0233561521     83.5356866       
149.6            0.031021206      84.0007102       0.997235119      -1.77283355      0.997235119      -1.77283355      0.031021206      84.0007102       
186.75           0.0386832306     84.141548        0.996794615      -2.21244965      0.996794615      -2.21244965      0.0386832306     84.141548        
223.9            0.0463399892     84.1109644       0.996312314      -2.65179563      0.996312314      -2.65179563      0.0463399892     84.1109644       
261.05           0.0539899794     83.977874        0.995784349      -3.09084943      0.995784349      -3.09084943      0.0539899794     83.977874        
298.2            0.0616319825     83.7782217       0.995208267      -3.52958698      0.995208267      -3.52958698      0.0616319825     83.7782217       
335.35           0.069264908      83.5327202       0.994582431      -3.96798289      0.994582431      -3.96798289      0.069264908      83.5327202       
372.5            0.0768877308     83.2542091       0.993905717      -4.40601092      0.993905717      -4.40601092      0.0768877308     83.2542091       
409.65           0.084499463      82.9511052       0.993177343      -4.84364418      0.993177343      -4.84364418      0.084499463      82.9511052       
446.8            0.0920991399     82.6291769       0.992396768      -5.28085543      0.992396768      -5.28085543      0.0920991399     82.6291769       
483.95           0.0996858134     82.292523        0.991563631      -5.71761713      0.991563631      -5.71761713      0.0996858134     82.292523        
521.1            0.107258548      81.9441447       0.990677703      -6.15390158      0.990677703      -6.15390158      0.107258548      81.9441447       
558.25           0.114816419      81.5862961       0.989738863      -6.58968101      0.989738863      -6.58968101      0.114816419      81.5862961       
595.4            0.122358512      81.2207081       0.988747073      -7.02492762      0.988747073      -7.02492762      0.122358512      81.2207081       
632.55           0.129883923      80.8487348       0.987702368      -7.45961367      0.987702368      -7.45961367      0.129883923      80.8487348       
669.7            0.137391756      80.4714538       0.986604841      -7.89371146      0.986604841      -7.89371146      0.137391756      80.4714538       
706.85           0.144881127      80.0897356       0.985454637      -8.32719346      0.985454637      -8.32719346      0.144881127      80.0897356       
744              0.152351161      79.7042927       0.984251943      -8.76003225      0.984251943      -8.76003225      0.152351161      79.7042927       
781.15           0.159800996      79.3157154       0.982996988      -9.1922006       0.982996988      -9.1922006       0.159800996      79.3157154       
818.3            0.167229777      78.924498        0.981690034      -9.62367151      0.981690034      -9.62367151      0.167229777      78.924498        
855.45           0.174636664      78.5310591       0.980331376      -10.0544182      0.980331376      -10.0544182      0.174636664      78.5310591       
892.6            0.182020829      78.1357559       0.978921337      -10.4844141      0.978921337      -10.4844141      0.182020829      78.1357559       
929.75           0.189381454      77.7388962       0.977460266      -10.9136329      0.977460266      -10.9136329      0.189381454      77.7388962       
966.9            0.196717736      77.340747        0.975948538      -11.3420487      0.975948538      -11.3420487      0.196717736      77.340747        
1004.05          0.204028884      76.9415419       0.974386547      -11.7696359      0.974386547      -11.7696359      0.204028884      76.9415419       
1041.2           0.211314122      76.5414867       0.972774713      -12.1963689      0.972774713      -12.1963689      0.211314122      76.5414867       
1078.35          0.218572686      76.1407637       0.971113471      -12.6222229      0.971113471      -12.6222229      0.218572686      76.1407637       
1115.5           0.225803828      75.7395351       0.969403276      -13.0471731      0.969403276      -13.0471731      0.225803828      75.7395351       
1152.65          0.233006813      75.3379467       0.967644603      -13.4711952      0.967644603      -13.4711952      0.233006813      75.3379467       
1189.8           0.240180923      74.9361296       0.965837938      -13.8942653      0.965837938      -13.8942653      0.240180923      74.9361296       
1226.95          0.247325454      74.5342025       0.963983786      -14.3163597      0.963983786      -14.3163597      0.247325454      74.5342025       
1264.1           0.254439717      74.1322735       0.962082665      -14.7374553      0.962082665      -14.7374553      0.254439717      74.1322735       
1301.25          0.26152304       73.7304412       0.960135107      -15.1575293      0.960135107      -15.1575293      0.26152304       73.7304412       
1338.4           0.268574766      73.328796        0.958141656      -15.5765593      0.958141656      -15.5765593      0.268574766      73.328796        
1375.55          0.275594254      72.927421        0.956102868      -15.9945233      0.956102868      -15.9945233      0.275594254      72.927421        
1412.7           0.28258088       72.5263931       0.95401931       -16.4113998      0.95401931       -16.4113998      0.28258088       72.5263931       
1449.85          0.289534037      72.1257836       0.951891561      -16.8271677      0.951891561      -16.8271677      0.289534037      72.1257836       
1487             0.296453133      71.7256583       0.949720207      -17.2418062      0.949720207      -17.2418062      0.296453133      71.7256583       
1524.15          0.303337595      71.326079        0.947505847      -17.6552952      0.947505847      -17.6552952      0.303337595      71.326079        
1561.3           0.310186864      70.9271031       0.945249084      -18.0676147      0.945249084      -18.0676147      0.310186864      70.9271031       
1598.45          0.3170004        70.5287844       0.942950532      -18.4787455      0.942950532      -18.4787455      0.3170004        70.5287844       
1635.6           0.32377768       70.1311734       0.940610812      -18.8886686      0.940610812      -18.8886686      0.32377768       70.1311734       
1672.75          0.330518197      69.7343175       0.93823055       -19.2973655      0.93823055       -19.2973655      0.330518197      69.7343175       
1709.9           0.337221462      69.3382612       0.93581038       -19.7048184      0.93581038       -19.7048184      0.337221462      69.3382612       
1747.05          0.343887004      68.9430468       0.933350941      -20.1110095      0.933350941      -20.1110095      0.343887004      68.9430468       
1784.2           0.350514367      68.5487139       0.930852877      -20.5159219      0.930852877      -20.5159219      0.350514367      68.5487139       
1821.35          0.357103113      68.1553001       0.928316835      -20.919539       0.928316835      -20.919539       0.357103113      68.1553001       
1858.5           0.363652821      67.7628409       0.925743469      -21.3218445      0.925743469      -21.3218445      0.363652821      67.7628409       
1895.65          0.370163089      67.37137         0.923133434      -21.7228228      0.923133434      -21.7228228      0.370163089      67.37137         
1932.8           0.376633529      66.9809194       0.920487389      -22.1224587      0.920487389      -22.1224587      0.376633529      66.9809194       
1969.95          0.383063771      66.5915193       0.917805996      -22.5207374      0.917805996      -22.5207374      0.383063771      66.5915193       
2007.1           0.389453463      66.2031985       0.915089918      -22.9176446      0.915089918      -22.9176446      0.389453463      66.2031985       
2044.25          0.395802268      65.8159843       0.912339821      -23.3131665      0.912339821      -23.3131665      0.395802268      65.8159843       
2081.4           0.402109866      65.4299027       0.90955637       -23.7072898      0.90955637       -23.7072898      0.402109866      65.4299027       
2118.55          0.408375955      65.0449785       0.906740233      -24.1000015      0.906740233      -24.1000015      0.408375955      65.0449785       
2155.7           0.414600247      64.661235        0.903892078      -24.4912892      0.903892078      -24.4912892      0.414600247      64.661235        
2192.85          0.420782473      64.2786946       0.901012571      -24.881141       0.901012571      -24.881141       0.420782473      64.2786946       
2230             0.426922376      63.8973786       0.898102379      -25.2695452      0.898102379      -25.2695452      0.426922376      63.8973786       
2267.15          0.433019719      63.5173072       0.895162169      -25.6564908      0.895162169      -25.6564908      0.433019719      63.5173072       
2304.3           0.439074279      63.1384995       0.892192604      -26.0419671      0.892192604      -26.0419671      0.439074279      63.1384995       
2341.45          0.445085847      62.7609738       0.88919435       -26.4259641      0.88919435       -26.4259641      0.445085847      62.7609738       
2378.6           0.451054232      62.3847474       0.886168065      -26.8084719      0.886168065      -26.8084719      0.451054232      62.3847474       
2415.75          0.456979255      62.0098368       0.88311441       -27.1894813      0.88311441       -27.1894813      0.456979255      62.0098368       
2452.9           0.462860755      61.6362576       0.88003404       -27.5689833      0.88003404       -27.5689833      0.462860755      61.6362576       
2490.05          0.468698584      61.2640246       0.87692761       -27.9469696      0.87692761       -27.9469696      0.468698584      61.2640246       
2527.2           0.474492609      60.8931519       0.873795769      -28.323432       0.873795769      -28.323432       0.474492609      60.8931519       
2564.35          0.480242709      60.5236527       0.870639163      -28.6983631      0.870639163      -28.6983631      0.480242709      60.5236527       
2601.5           0.48594878       60.1555397       0.867458436      -29.0717556      0.867458436      -29.0717556      0.48594878       60.1555397       
2638.65          0.49161073       59.7888247       0.864254226      -29.4436028      0.864254226      -29.4436028      0.49161073       59.7888247       
2675.8           0.497228482      59.4235188       0.861027169      -29.8138983      0.861027169      -29.8138983      0.497228482      59.4235188       
2712.95          0.502801969      59.0596327       0.857777892      -30.1826362      0.857777892      -30.1826362      0.502801969      59.0596327       
2750.1           0.508331139      58.6971763       0.854507023      -30.5498108      0.854507023      -30.5498108      0.508331139      58.6971763       
2787.25          0.513815954      58.3361589       0.85121518       -30.915417       0.85121518       -30.915417       0.513815954      58.3361589       
2824.4           0.519256386      57.9765891       0.847902979      -31.27945        0.847902979      -31.27945        0.519256386      57.9765891       
2861.55          0.524652419      57.6184752       0.844571028      -31.6419053      0.844571028      -31.6419053      0.524652419      57.6184752       
2898.7           0.530004052      57.2618248       0.841219932      -32.002779       0.841219932      -32.002779       0.530004052      57.2618248       
2935.85          0.535311291      56.9066448       0.837850288      -32.3620673      0.837850288      -32.3620673      0.535311291      56.9066448       
2973             0.540574158      56.5529419       0.834462689      -32.7197669      0.834462689      -32.7197669      0.540574158      56.5529419       
3010.15          0.545792682      56.2007221       0.831057719      -33.0758748      0.831057719      -33.0758748      0.545792682      56.2007221       
3047.3           0.550966904      55.8499909       0.827635958      -33.4303884      0.827635958      -33.4303884      0.550966904      55.8499909       
3084.45          0.556096878      55.5007534       0.82419798       -33.7833055      0.82419798       -33.7833055      0.556096878      55.5007534       
3121.6           0.561182664      55.1530142       0.820744351      -34.1346239      0.820744351      -34.1346239      0.561182664      55.1530142       
3158.75          0.566224335      54.8067775       0.817275629      -34.4843422      0.817275629      -34.4843422      0.566224335      54.8067775       
3195.9           0.571221972      54.4620469       0.813792369      -34.8324589      0.813792369      -34.8324589      0.571221972      54.4620469       
3233.05          0.576175666      54.1188258       0.810295116      -35.1789732      0.810295116      -35.1789732      0.576175666      54.1188258       
3270.2           0.581085518      53.7771171       0.806784409      -35.5238842      0.806784409      -35.5238842      0.581085518      53.7771171       
3307.35          0.585951636      53.4369232       0.803260779      -35.8671916      0.803260779      -35.8671916      0.585951636      53.4369232       
3344.5           0.590774138      53.0982463       0.799724752      -36.2088953      0.799724752      -36.2088953      0.590774138      53.0982463       
3381.65          0.595553149      52.761088        0.796176845      -36.5489955      0.796176845      -36.5489955      0.595553149      52.761088        
3418.8           0.600288803      52.4254498       0.792617568      -36.8874926      0.792617568      -36.8874926      0.600288803      52.4254498       
3455.95          0.604981241      52.0913327       0.789047422      -37.2243874      0.789047422      -37.2243874      0.604981241      52.0913327       
3493.1           0.609630612      51.7587372       0.785466905      -37.5596809      0.785466905      -37.5596809      0.609630612      51.7587372       
3530.25          0.614237073      51.4276638       0.781876503      -37.8933743      0.781876503      -37.8933743      0.614237073      51.4276638       
3567.4           0.618800786      51.0981125       0.778276697      -38.2254692      0.778276697      -38.2254692      0.618800786      51.0981125       
3604.55          0.623321922      50.7700829       0.774667959      -38.5559672      0.774667959      -38.5559672      0.623321922      50.7700829       
3641.7           0.627800655      50.4435745       0.771050755      -38.8848705      0.771050755      -38.8848705      0.627800655      50.4435745       
3678.85          0.63223717       50.1185863       0.767425542      -39.2121812      0.767425542      -39.2121812      0.63223717       50.1185863       
3716             0.636631654      49.7951172       0.763792771      -39.5379018      0.763792771      -39.5379018      0.636631654      49.7951172       
3753.15          0.640984302      49.4731656       0.760152883      -39.8620349      0.760152883      -39.8620349      0.640984302      49.4731656       
3790.3           0.645295313      49.15273         0.756506314      -40.1845836      0.756506314      -40.1845836      0.645295313      49.15273         
3827.45          0.649564892      48.8338081       0.752853491      -40.5055508      0.752853491      -40.5055508      0.649564892      48.8338081       
3864.6           0.653793249      48.5163979       0.749194834      -40.8249399      0.749194834      -40.8249399      0.653793249      48.5163979       
3901.75          0.6579806        48.2004969       0.745530756      -41.1427544      0.745530756      -41.1427544      0.6579806        48.2004969       
3938.9           0.662127162      47.8861022       0.74186166       -41.4589979      0.74186166       -41.4589979      0.662127162      47.8861022       
3976.05          0.66623316       47.573211        0.738187944      -41.7736743      0.738187944      -41.7736743      0.66623316       47.573211        
4013.2           0.670298823      47.2618201       0.734509999      -42.0867878      0.734509999      -42.0867878      0.670298823      47.2618201       
4050.35          0.674324381      46.9519262       0.730828205      -42.3983425      0.730828205      -42.3983425      0.674324381      46.9519262       
4087.5           0.67831007       46.6435255       0.72714294       -42.7083427      0.72714294       -42.7083427      0.67831007       46.6435255       
4124.65          0.68225613       46.3366145       0.723454569      -43.0167931      0.723454569      -43.0167931      0.68225613       46.3366145       
4161.8           0.686162804      46.031189        0.719763454      -43.3236983      0.719763454      -43.3236983      0.686162804      46.031189        
4198.95          0.690030336      45.7272449       0.716069947      -43.6290632      0.716069947      -43.6290632      0.690030336      45.7272449       
4236.1           0.693858975      45.4247779       0.712374396      -43.9328928      0.712374396      -43.9328928      0.693858975      45.4247779       
4273.25          0.697648974      45.1237836       0.708677137      -44.2351922      0.708677137      -44.2351922      0.697648974      45.1237836       
4310.4           0.701400585      44.8242571       0.704978504      -44.5359666      0.704978504      -44.5359666      0.701400585      44.8242571       
4347.55          0.705114066      44.5261938       0.701278822      -44.8352215      0.701278822      -44.8352215      0.705114066      44.5261938       
4384.7           0.708789676      44.2295885       0.697578407      -45.1329624      0.697578407      -45.1329624      0.708789676      44.2295885       
4421.85          0.712427675      43.9344363       0.693877571      -45.4291949      0.693877571      -45.4291949      0.712427675      43.9344363       
4459             0.716028327      43.6407318       0.690176619      -45.7239247      0.690176619      -45.7239247      0.716028327      43.6407318       
4496.15          0.719591895      43.3484697       0.686475847      -46.0171577      0.686475847      -46.0171577      0.719591895      43.3484697       
4533.3           0.723118647      43.0576443       0.682775546      -46.3088998      0.682775546      -46.3088998      0.723118647      43.0576443       
4570.45          0.72660885       42.7682502       0.679076001      -46.5991571      0.679076001      -46.5991571      0.72660885       42.7682502       
4607.6           0.730062773      42.4802814       0.675377489      -46.8879358      0.675377489      -46.8879358      0.730062773      42.4802814       
4644.75          0.733480687      42.1937322       0.671680282      -47.175242       0.671680282      -47.175242       0.733480687      42.1937322       
4681.9           0.736862863      41.9085965       0.667984644      -47.461082       0.667984644      -47.461082       0.736862863      41.9085965       
4719.05          0.740209575      41.6248682       0.664290834      -47.7454623      0.664290834      -47.7454623      0.740209575      41.6248682       
