! Coilcraft 0805CS-151 Chip Inductor				
! 11 June 2002			
# MHZ S MA R 50
!Freq             MagS11           AngS11           MagS21           AngS21           MagS12           AngS12           MagS22           AngS22
1                0.0121093728     49.5598729       0.992188023      -0.532217634     0.992188023      -0.532217634     0.0121093728     49.5598729       
4.74             0.0450760861     74.2280457       0.988699986      -2.51464864      0.988699986      -2.51464864      0.0450760861     74.2280457       
8.48             0.0791062014     76.8530046       0.985024042      -4.48533827      0.985024042      -4.48533827      0.0791062014     76.8530046       
12.22            0.112955158      76.880042        0.980550538      -6.44149965      0.980550538      -6.44149965      0.112955158      76.880042        
15.96            0.146416481      76.0739575       0.975172754      -8.37961141      0.975172754      -8.37961141      0.146416481      76.0739575       
19.7             0.179365074      74.9002577       0.968876961      -10.2960892      0.968876961      -10.2960892      0.179365074      74.9002577       
23.44            0.211699796      73.5389186       0.961686334      -12.1874782      0.961686334      -12.1874782      0.211699796      73.5389186       
27.18            0.243333673      72.0759565       0.953643813      -14.0505471      0.953643813      -14.0505471      0.243333673      72.0759565       
30.92            0.274191664      70.5585843       0.944804531      -15.8823439      0.944804531      -15.8823439      0.274191664      70.5585843       
34.66            0.304210094      69.0153778       0.935231492      -17.6802294      0.935231492      -17.6802294      0.304210094      69.0153778       
38.4             0.333336412      67.464912        0.924992634      -19.4418973      0.924992634      -19.4418973      0.333336412      67.464912        
42.14            0.361528899      65.9199074       0.914158612      -21.1653824      0.914158612      -21.1653824      0.361528899      65.9199074       
45.88            0.388756246      64.3894032       0.902801015      -22.8490593      0.902801015      -22.8490593      0.388756246      64.3894032       
49.62            0.414996963      62.8799813       0.890990932      -24.4916343      0.890990932      -24.4916343      0.414996963      62.8799813       
53.36            0.440238661      61.3964988       0.878797767      -26.0921311      0.878797767      -26.0921311      0.440238661      61.3964988       
57.1             0.46447724       59.9425505       0.866288315      -27.649872       0.866288315      -27.649872       0.46447724       59.9425505       
60.84            0.487716002      58.5207758       0.853526032      -29.1644557      0.853526032      -29.1644557      0.487716002      58.5207758       
64.58            0.509964749      57.1330718       0.840570515      -30.6357332      0.840570515      -30.6357332      0.509964749      57.1330718       
68.32            0.531238871      55.7807473       0.827477137      -32.0637823      0.827477137      -32.0637823      0.531238871      55.7807473       
72.06            0.55155847       54.4646386       0.814296837      -33.4488821      0.814296837      -33.4488821      0.55155847       54.4646386       
75.8             0.570947523      53.1851988       0.801076034      -34.7914875      0.801076034      -34.7914875      0.570947523      53.1851988       
79.54            0.58943311       51.942569        0.787856642      -36.0922046      0.787856642      -36.0922046      0.58943311       51.942569        
83.28            0.607044705      50.7366362       0.774676168      -37.3517676      0.774676168      -37.3517676      0.607044705      50.7366362       
87.02            0.62381354       49.5670802       0.761567875      -38.5710175      0.761567875      -38.5710175      0.62381354       49.5670802       
90.76            0.639772054      48.4334139       0.748560996      -39.7508817      0.748560996      -39.7508817      0.639772054      48.4334139       
94.5             0.654953396      47.3350162       0.735680972      -40.8923562      0.735680972      -40.8923562      0.654953396      47.3350162       
98.24            0.669391019      46.2711599       0.72294972       -41.9964896      0.72294972       -41.9964896      0.669391019      46.2711599       
101.98           0.683118322      45.2410359       0.710385906      -43.0643685      0.710385906      -43.0643685      0.683118322      45.2410359       
105.72           0.696168364      44.2437726       0.698005226      -44.0971049      0.698005226      -44.0971049      0.696168364      44.2437726       
109.46           0.708573623      43.2784532       0.685820673      -45.0958255      0.685820673      -45.0958255      0.708573623      43.2784532       
113.2            0.720365809      42.34413         0.67384281       -46.0616621      0.67384281       -46.0616621      0.720365809      42.34413         
116.94           0.731575719      41.439836        0.662080017      -46.9957434      0.662080017      -46.9957434      0.731575719      41.439836        
120.68           0.742233123      40.5645951       0.650538732      -47.8991888      0.650538732      -47.8991888      0.742233123      40.5645951       
124.42           0.752366685      39.7174304       0.639223672      -48.7731024      0.639223672      -48.7731024      0.752366685      39.7174304       
128.16           0.762003912      38.8973707       0.628138041      -49.6185686      0.628138041      -49.6185686      0.762003912      38.8973707       
131.9            0.771171123      38.1034564       0.617283715      -50.4366484      0.617283715      -50.4366484      0.771171123      38.1034564       
135.64           0.779893435      37.3347438       0.60666142       -51.2283764      0.60666142       -51.2283764      0.779893435      37.3347438       
139.38           0.788194763      36.5903084       0.59627088       -51.9947589      0.59627088       -51.9947589      0.788194763      36.5903084       
143.12           0.796097838      35.8692481       0.586110963      -52.7367718      0.586110963      -52.7367718      0.796097838      35.8692481       
146.86           0.80362423       35.1706848       0.576179807      -53.4553601      0.576179807      -53.4553601      0.80362423       35.1706848       
150.6            0.810794375      34.4937664       0.566474927      -54.1514364      0.566474927      -54.1514364      0.810794375      34.4937664       
154.34           0.817627614      33.8376677       0.556993322      -54.8258813      0.556993322      -54.8258813      0.817627614      33.8376677       
158.08           0.824142233      33.2015907       0.547731556      -55.4795429      0.547731556      -55.4795429      0.824142233      33.2015907       
161.82           0.830355503      32.5847655       0.538685844      -56.1132372      0.538685844      -56.1132372      0.830355503      32.5847655       
165.56           0.836283729      31.9864502       0.529852112      -56.7277481      0.529852112      -56.7277481      0.836283729      31.9864502       
169.3            0.84194229       31.4059305       0.521226064      -57.3238287      0.521226064      -57.3238287      0.84194229       31.4059305       
173.04           0.847345687      30.8425196       0.51280323       -57.9022011      0.51280323       -57.9022011      0.847345687      30.8425196       
176.78           0.852507591      30.2955577       0.504579013      -58.4635579      0.504579013      -58.4635579      0.852507591      30.2955577       
180.52           0.857440878      29.7644116       0.496548728      -59.0085627      0.496548728      -59.0085627      0.857440878      29.7644116       
184.26           0.862157682      29.2484736       0.488707635      -59.5378508      0.488707635      -59.5378508      0.862157682      29.2484736       
188              0.866669432      28.7471611       0.481050972      -60.0520307      0.481050972      -60.0520307      0.866669432      28.7471611       
191.74           0.870986888      28.2599157       0.473573973      -60.5516848      0.473573973      -60.5516848      0.870986888      28.2599157       
195.48           0.87512019       27.7862028       0.466271896      -61.03737        0.466271896      -61.03737        0.87512019       27.7862028       
199.22           0.879078884      27.3255098       0.459140036      -61.5096193      0.459140036      -61.5096193      0.879078884      27.3255098       
202.96           0.882871963      26.8773464       0.452173741      -61.9689426      0.452173741      -61.9689426      0.882871963      26.8773464       
206.7            0.886507898      26.4412429       0.445368427      -62.4158272      0.445368427      -62.4158272      0.886507898      26.4412429       
210.44           0.889994669      26.01675         0.438719583      -62.8507394      0.438719583      -62.8507394      0.889994669      26.01675         
214.18           0.893339799      25.6034373       0.432222786      -63.274125       0.432222786      -63.274125       0.893339799      25.6034373       
217.92           0.896550376      25.2008931       0.425873701      -63.6864104      0.425873701      -63.6864104      0.896550376      25.2008931       
221.66           0.899633081      24.8087234       0.41966809       -64.0880034      0.41966809       -64.0880034      0.899633081      24.8087234       
225.4            0.902594217      24.4265511       0.413601814      -64.4792938      0.413601814      -64.4792938      0.902594217      24.4265511       
229.14           0.905439728      24.0540151       0.407670838      -64.8606549      0.407670838      -64.8606549      0.905439728      24.0540151       
232.88           0.908175221      23.6907699       0.40187123       -65.2324433      0.40187123       -65.2324433      0.908175221      23.6907699       
236.62           0.91080599       23.3364848       0.396199165      -65.5950005      0.396199165      -65.5950005      0.91080599       23.3364848       
240.36           0.913337032      22.990843        0.390650923      -65.9486532      0.390650923      -65.9486532      0.913337032      22.990843        
244.1            0.915773067      22.6535412       0.385222891      -66.293714       0.385222891      -66.293714       0.915773067      22.6535412       
247.84           0.918118554      22.324289        0.379911559      -66.6304824      0.379911559      -66.6304824      0.918118554      22.324289        
251.58           0.920377707      22.0028083       0.374713522      -66.9592448      0.374713522      -66.9592448      0.920377707      22.0028083       
255.32           0.922554509      21.6888325       0.36962548       -67.2802756      0.36962548       -67.2802756      0.922554509      21.6888325       
259.06           0.924652729      21.3821061       0.364644232      -67.5938377      0.364644232      -67.5938377      0.924652729      21.3821061       
262.8            0.926675933      21.0823844       0.359766675      -67.900183       0.359766675      -67.900183       0.926675933      21.0823844       
266.54           0.928627495      20.7894327       0.354989807      -68.1995527      0.354989807      -68.1995527      0.928627495      20.7894327       
270.28           0.93051061       20.503026        0.350310717      -68.4921782      0.350310717      -68.4921782      0.93051061       20.503026        
274.02           0.932328304      20.2229485       0.34572659       -68.7782812      0.34572659       -68.7782812      0.932328304      20.2229485       
277.76           0.934083446      19.9489932       0.341234699      -69.0580743      0.341234699      -69.0580743      0.934083446      19.9489932       
281.5            0.935778754      19.6809614       0.336832406      -69.3317616      0.336832406      -69.3317616      0.935778754      19.6809614       
285.24           0.937416806      19.4186625       0.332517159      -69.5995387      0.332517159      -69.5995387      0.937416806      19.4186625       
288.98           0.939000049      19.1619133       0.328286488      -69.8615936      0.328286488      -69.8615936      0.939000049      19.1619133       
292.72           0.940530804      18.9105383       0.324138004      -70.1181064      0.324138004      -70.1181064      0.940530804      18.9105383       
296.46           0.942011275      18.6643684       0.320069395      -70.3692504      0.320069395      -70.3692504      0.942011275      18.6643684       
300.2            0.943443555      18.4232416       0.316078426      -70.6151918      0.316078426      -70.6151918      0.943443555      18.4232416       
303.94           0.944829633      18.1870019       0.312162935      -70.8560904      0.312162935      -70.8560904      0.944829633      18.1870019       
307.68           0.9461714        17.9554995       0.30832083       -71.0920996      0.30832083       -71.0920996      0.9461714        17.9554995       
311.42           0.947470655      17.7285904       0.304550088      -71.3233672      0.304550088      -71.3233672      0.947470655      17.7285904       
315.16           0.948729107      17.506136        0.300848752      -71.5500349      0.300848752      -71.5500349      0.948729107      17.506136        
318.9            0.949948384      17.2880029       0.297214929      -71.7722393      0.297214929      -71.7722393      0.949948384      17.2880029       
322.64           0.951130036      17.074063        0.293646788      -71.9901115      0.293646788      -71.9901115      0.951130036      17.074063        
326.38           0.952275537      16.8641926       0.290142557      -72.2037779      0.290142557      -72.2037779      0.952275537      16.8641926       
330.12           0.953386295      16.6582731       0.286700523      -72.4133601      0.286700523      -72.4133601      0.953386295      16.6582731       
333.86           0.954463649      16.4561898       0.283319026      -72.618975       0.283319026      -72.618975       0.954463649      16.4561898       
337.6            0.955508877      16.2578326       0.279996462      -72.8207355      0.279996462      -72.8207355      0.955508877      16.2578326       
341.34           0.956523196      16.0630951       0.276731277      -73.0187501      0.276731277      -73.0187501      0.956523196      16.0630951       
345.08           0.95750777       15.871875        0.27352197       -73.2131234      0.27352197       -73.2131234      0.95750777       15.871875        
348.82           0.958463708      15.6840735       0.270367084      -73.4039561      0.270367084      -73.4039561      0.958463708      15.6840735       
352.56           0.959392069      15.4995954       0.26726521       -73.5913455      0.26726521       -73.5913455      0.959392069      15.4995954       
356.3            0.960293865      15.318349        0.264214987      -73.7753853      0.264214987      -73.7753853      0.960293865      15.318349        
360.04           0.961170063      15.1402455       0.261215092      -73.9561658      0.261215092      -73.9561658      0.961170063      15.1402455       
363.78           0.962021586      14.9651996       0.258264247      -74.1337742      0.258264247      -74.1337742      0.962021586      14.9651996       
367.52           0.962849319      14.7931288       0.255361213      -74.3082946      0.255361213      -74.3082946      0.962849319      14.7931288       
371.26           0.963654107      14.6239532       0.25250479       -74.4798081      0.25250479       -74.4798081      0.963654107      14.6239532       
375              0.964436756      14.4575961       0.249693816      -74.6483932      0.249693816      -74.6483932      0.964436756      14.4575961       
378.74           0.965198043      14.293983        0.246927165      -74.8141255      0.246927165      -74.8141255      0.965198043      14.293983        
382.48           0.965938706      14.1330422       0.244203744      -74.9770781      0.244203744      -74.9770781      0.965938706      14.1330422       
386.22           0.966659455      13.9747042       0.241522497      -75.1373215      0.241522497      -75.1373215      0.966659455      13.9747042       
389.96           0.967360971      13.818902        0.238882396      -75.2949241      0.238882396      -75.2949241      0.967360971      13.818902        
393.7            0.968043903      13.6655707       0.236282448      -75.4499516      0.236282448      -75.4499516      0.968043903      13.6655707       
397.44           0.968708877      13.5146476       0.233721688      -75.6024679      0.233721688      -75.6024679      0.968708877      13.5146476       
401.18           0.969356491      13.3660719       0.231199182      -75.7525345      0.231199182      -75.7525345      0.969356491      13.3660719       
404.92           0.969987319      13.2197849       0.228714021      -75.900211       0.228714021      -75.900211       0.969987319      13.2197849       
408.66           0.970601912      13.0757299       0.226265326      -76.045555       0.226265326      -76.045555       0.970601912      13.0757299       
412.4            0.971200799      12.9338517       0.223852244      -76.1886224      0.223852244      -76.1886224      0.971200799      12.9338517       
416.14           0.971784488      12.7940972       0.221473944      -76.329467       0.221473944      -76.329467       0.971784488      12.7940972       
419.88           0.972353465      12.6564147       0.219129624      -76.4681411      0.219129624      -76.4681411      0.972353465      12.6564147       
423.62           0.972908199      12.5207544       0.216818502      -76.6046951      0.216818502      -76.6046951      0.972908199      12.5207544       
427.36           0.97344914       12.3870676       0.214539821      -76.7391781      0.214539821      -76.7391781      0.97344914       12.3870676       
431.1            0.973976721      12.2553077       0.212292844      -76.8716374      0.212292844      -76.8716374      0.973976721      12.2553077       
434.84           0.974491357      12.125429        0.210076856      -77.0021189      0.210076856      -77.0021189      0.974491357      12.125429        
438.58           0.974993448      11.9973875       0.207891163      -77.130667       0.207891163      -77.130667       0.974993448      11.9973875       
442.32           0.975483379      11.8711404       0.205735091      -77.257325       0.205735091      -77.257325       0.975483379      11.8711404       
446.06           0.975961519      11.7466464       0.203607983      -77.3821344      0.203607983      -77.3821344      0.975961519      11.7466464       
449.8            0.976428225      11.6238651       0.201509204      -77.5051357      0.201509204      -77.5051357      0.976428225      11.6238651       
453.54           0.976883841      11.5027575       0.199438133      -77.6263682      0.199438133      -77.6263682      0.976883841      11.5027575       
457.28           0.977328695      11.3832858       0.197394169      -77.7458699      0.197394169      -77.7458699      0.977328695      11.3832858       
461.02           0.977763106      11.2654132       0.195376727      -77.8636777      0.195376727      -77.8636777      0.977763106      11.2654132       
464.76           0.978187381      11.149104        0.193385238      -77.9798272      0.193385238      -77.9798272      0.978187381      11.149104        
468.5            0.978601815      11.0343236       0.191419148      -78.0943532      0.191419148      -78.0943532      0.978601815      11.0343236       
472.24           0.979006692      10.9210383       0.18947792       -78.2072894      0.18947792       -78.2072894      0.979006692      10.9210383       
475.98           0.979402287      10.8092153       0.187561029      -78.3186682      0.187561029      -78.3186682      0.979402287      10.8092153       
