! Coilcraft 0805CS-070 Chip Inductor				
! 11 June 2002			
# MHZ S MA R 50
!Freq             MagS11           AngS11           MagS21           AngS21           MagS12           AngS12           MagS22           AngS22
1                0.00168898177    16.4791744       0.998380512      -0.0274954008    0.998380512      -0.0274954008    0.00168898177    16.4791744       
20.7             0.0102124272     75.8153084       0.997546599      -0.568693442     0.997546599      -0.568693442     0.0102124272     75.8153084       
40.4             0.0195631733     80.653723        0.997009813      -1.10939374      0.997009813      -1.10939374      0.0195631733     80.653723        
60.1             0.0289556291     82.1839912       0.996475257      -1.64966446      0.996475257      -1.64966446      0.0289556291     82.1839912       
79.8             0.0383527924     82.7698669       0.995900174      -2.18948759      0.995900174      -2.18948759      0.0383527924     82.7698669       
99.5             0.0477447277     82.9490827       0.995267853      -2.72882335      0.995267853      -2.72882335      0.0477447277     82.9490827       
119.2            0.0571266744     82.9139364       0.994569833      -3.26762234      0.994569833      -3.26762234      0.0571266744     82.9139364       
138.9            0.0664954545     82.7511171       0.993801239      -3.80583         0.993801239      -3.80583         0.0664954545     82.7511171       
158.6            0.0758485119     82.5057683       0.992959064      -4.34338879      0.992959064      -4.34338879      0.0758485119     82.5057683       
178.3            0.0851835788     82.2038559       0.992041393      -4.88023931      0.992041393      -4.88023931      0.0851835788     82.2038559       
198              0.0944985416     81.8614482       0.991047002      -5.41632109      0.991047002      -5.41632109      0.0944985416     81.8614482       
217.7            0.103791379      81.4890638       0.989975141      -5.95157302      0.989975141      -5.95157302      0.103791379      81.4890638       
237.4            0.113060131      81.0939032       0.988825398      -6.4859337       0.988825398      -6.4859337       0.113060131      81.0939032       
257.1            0.122302889      80.6810792       0.987597619      -7.01934172      0.987597619      -7.01934172      0.122302889      80.6810792       
276.8            0.13151778       80.2543349       0.986291843      -7.55173581      0.986291843      -7.55173581      0.13151778       80.2543349       
296.5            0.14070297       79.8164824       0.984908272      -8.08305504      0.984908272      -8.08305504      0.14070297       79.8164824       
316.2            0.149856659      79.3696823       0.983447239      -8.61323893      0.983447239      -8.61323893      0.149856659      79.3696823       
335.9            0.158977081      78.9156275       0.981909188      -9.14222756      0.981909188      -9.14222756      0.158977081      78.9156275       
355.6            0.168062506      78.4556674       0.98029466       -9.66996166      0.98029466       -9.66996166      0.168062506      78.4556674       
375.3            0.177111238      77.9908948       0.97860428       -10.1963827      0.97860428       -10.1963827      0.177111238      77.9908948       
395              0.186121615      77.5222063       0.976838744      -10.721433       0.976838744      -10.721433       0.186121615      77.5222063       
414.7            0.195092017      77.0503475       0.974998819      -11.2450556      0.974998819      -11.2450556      0.195092017      77.0503475       
434.4            0.204020858      76.5759451       0.97308533       -11.7671948      0.97308533       -11.7671948      0.204020858      76.5759451       
454.1            0.212906592      76.0995315       0.971099155      -12.2877955      0.971099155      -12.2877955      0.212906592      76.0995315       
473.8            0.221747714      75.6215634       0.969041225      -12.806804       0.969041225      -12.806804       0.221747714      75.6215634       
493.5            0.23054276       75.1424359       0.966912513      -13.3241673      0.966912513      -13.3241673      0.23054276       75.1424359       
513.2            0.239290308      74.6624936       0.964714036      -13.8398338      0.964714036      -13.8398338      0.239290308      74.6624936       
532.9            0.247988977      74.1820393       0.962446849      -14.3537531      0.962446849      -14.3537531      0.247988977      74.1820393       
552.6            0.256637432      73.7013408       0.960112042      -14.8658758      0.960112042      -14.8658758      0.256637432      73.7013408       
572.3            0.265234381      73.2206364       0.957710736      -15.3761537      0.957710736      -15.3761537      0.265234381      73.2206364       
592              0.273778576      72.7401397       0.955244083      -15.8845401      0.955244083      -15.8845401      0.273778576      72.7401397       
611.7            0.282268815      72.2600427       0.952713261      -16.3909893      0.952713261      -16.3909893      0.282268815      72.2600427       
631.4            0.290703942      71.7805191       0.950119474      -16.895457       0.950119474      -16.895457       0.290703942      71.7805191       
651.1            0.299082847      71.3017265       0.947463947      -17.3979003      0.947463947      -17.3979003      0.299082847      71.3017265       
670.8            0.307404465      70.8238087       0.944747924      -17.8982774      0.944747924      -17.8982774      0.307404465      70.8238087       
690.5            0.315667778      70.3468974       0.941972668      -18.396548       0.941972668      -18.396548       0.315667778      70.3468974       
710.2            0.323871814      69.8711133       0.939139458      -18.8926731      0.939139458      -18.8926731      0.323871814      69.8711133       
729.9            0.332015648      69.3965676       0.936249587      -19.3866151      0.936249587      -19.3866151      0.332015648      69.3965676       
749.6            0.340098401      68.9233628       0.933304358      -19.8783377      0.933304358      -19.8783377      0.340098401      68.9233628       
769.3            0.348119241      68.4515938       0.930305086      -20.367806       0.930305086      -20.367806       0.348119241      68.4515938       
789              0.356077381      67.9813486       0.927253094      -20.8549864      0.927253094      -20.8549864      0.356077381      67.9813486       
808.7            0.36397208       67.5127088       0.92414971       -21.3398467      0.92414971       -21.3398467      0.36397208       67.5127088       
828.4            0.371802642      67.0457503       0.920996269      -21.8223562      0.920996269      -21.8223562      0.371802642      67.0457503       
848.1            0.379568417      66.5805437       0.917794108      -22.3024853      0.917794108      -22.3024853      0.379568417      66.5805437       
867.8            0.387268798      66.1171547       0.914544566      -22.7802059      0.914544566      -22.7802059      0.387268798      66.1171547       
887.5            0.394903223      65.6556448       0.911248982      -23.2554913      0.911248982      -23.2554913      0.394903223      65.6556448       
907.2            0.402471174      65.1960711       0.907908694      -23.7283161      0.907908694      -23.7283161      0.402471174      65.1960711       
926.9            0.409972175      64.7384869       0.904525038      -24.198656       0.904525038      -24.198656       0.409972175      64.7384869       
946.6            0.417405792      64.282942        0.901099346      -24.6664884      0.901099346      -24.6664884      0.417405792      64.282942        
966.3            0.424771633      63.8294828       0.897632945      -25.1317917      0.897632945      -25.1317917      0.424771633      63.8294828       
986              0.432069347      63.3781526       0.894127154      -25.5945458      0.894127154      -25.5945458      0.432069347      63.3781526       
1005.7           0.439298621      62.9289916       0.890583288      -26.0547317      0.890583288      -26.0547317      0.439298621      62.9289916       
1025.4           0.446459183      62.4820375       0.887002649      -26.5123317      0.887002649      -26.5123317      0.446459183      62.4820375       
1045.1           0.453550801      62.037325        0.883386534      -26.9673293      0.883386534      -26.9673293      0.453550801      62.037325        
1064.8           0.460573276      61.5948866       0.879736227      -27.4197094      0.879736227      -27.4197094      0.460573276      61.5948866       
1084.5           0.467526449      61.1547522       0.876053         -27.869458       0.876053         -27.869458       0.467526449      61.1547522       
1104.2           0.474410196      60.7169498       0.872338114      -28.3165621      0.872338114      -28.3165621      0.474410196      60.7169498       
1123.9           0.481224427      60.281505        0.868592817      -28.7610101      0.868592817      -28.7610101      0.481224427      60.281505        
1143.6           0.487969086      59.8484413       0.864818342      -29.2027914      0.864818342      -29.2027914      0.487969086      59.8484413       
1163.3           0.494644151      59.4177804       0.861015907      -29.6418965      0.861015907      -29.6418965      0.494644151      59.4177804       
1183             0.50124963       58.9895422       0.857186717      -30.0783172      0.857186717      -30.0783172      0.50124963       58.9895422       
1202.7           0.507785563      58.5637447       0.853331958      -30.512046       0.853331958      -30.512046       0.507785563      58.5637447       
1222.4           0.514252021      58.1404044       0.849452803      -30.9430769      0.849452803      -30.9430769      0.514252021      58.1404044       
1242.1           0.520649101      57.7195358       0.845550403      -31.3714044      0.845550403      -31.3714044      0.520649101      57.7195358       
1261.8           0.526976932      57.3011523       0.841625897      -31.7970244      0.841625897      -31.7970244      0.526976932      57.3011523       
1281.5           0.533235666      56.8852655       0.837680403      -32.2199336      0.837680403      -32.2199336      0.533235666      56.8852655       
1301.2           0.539425483      56.4718858       0.83371502       -32.6401296      0.83371502       -32.6401296      0.539425483      56.4718858       
1320.9           0.545546589      56.061022        0.829730829      -33.057611       0.829730829      -33.057611       0.545546589      56.061022        
1340.6           0.551599212      55.6526817       0.825728894      -33.4723773      0.825728894      -33.4723773      0.551599212      55.6526817       
1360.3           0.557583604      55.2468714       0.821710256      -33.8844289      0.821710256      -33.8844289      0.557583604      55.2468714       
1380             0.56350004       54.8435961       0.81767594       -34.2937668      0.81767594       -34.2937668      0.56350004       54.8435961       
1399.7           0.569348814      54.4428599       0.813626948      -34.7003931      0.813626948      -34.7003931      0.569348814      54.4428599       
1419.4           0.575130243      54.0446656       0.809564264      -35.1043106      0.809564264      -35.1043106      0.575130243      54.0446656       
1439.1           0.580844661      53.6490151       0.805488851      -35.5055227      0.805488851      -35.5055227      0.580844661      53.6490151       
1458.8           0.586492423      53.2559093       0.801401653      -35.9040338      0.801401653      -35.9040338      0.586492423      53.2559093       
1478.5           0.592073898      52.8653479       0.797303593      -36.2998489      0.797303593      -36.2998489      0.592073898      52.8653479       
1498.2           0.597589474      52.4773298       0.793195574      -36.6929737      0.793195574      -36.6929737      0.597589474      52.4773298       
1517.9           0.603039556      52.0918531       0.789078477      -37.0834144      0.789078477      -37.0834144      0.603039556      52.0918531       
1537.6           0.608424562      51.7089149       0.784953164      -37.4711782      0.784953164      -37.4711782      0.608424562      51.7089149       
1557.3           0.613744923      51.3285115       0.780820478      -37.8562725      0.780820478      -37.8562725      0.613744923      51.3285115       
1577             0.619001087      50.9506386       0.77668124       -38.2387055      0.77668124       -38.2387055      0.619001087      50.9506386       
1596.7           0.624193511      50.5752909       0.77253625       -38.6184861      0.77253625       -38.6184861      0.624193511      50.5752909       
1616.4           0.629322667      50.2024624       0.768386291      -38.9956236      0.768386291      -38.9956236      0.629322667      50.2024624       
1636.1           0.634389034      49.8321466       0.764232123      -39.3701277      0.764232123      -39.3701277      0.634389034      49.8321466       
1655.8           0.639393105      49.4643362       0.760074488      -39.7420089      0.760074488      -39.7420089      0.639393105      49.4643362       
1675.5           0.644335381      49.0990234       0.755914107      -40.1112779      0.755914107      -40.1112779      0.644335381      49.0990234       
1695.2           0.649216372      48.7361996       0.751751684      -40.4779459      0.751751684      -40.4779459      0.649216372      48.7361996       
1714.9           0.654036597      48.3758558       0.7475879        -40.8420248      0.7475879        -40.8420248      0.654036597      48.3758558       
1734.6           0.65879658       48.0179825       0.74342342       -41.2035266      0.74342342       -41.2035266      0.65879658       48.0179825       
1754.3           0.663496855      47.6625695       0.739258889      -41.5624638      0.739258889      -41.5624638      0.663496855      47.6625695       
1774             0.668137962      47.3096063       0.735094933      -41.9188493      0.735094933      -41.9188493      0.668137962      47.3096063       
1793.7           0.672720443      46.9590817       0.730932161      -42.2726964      0.730932161      -42.2726964      0.672720443      46.9590817       
1813.4           0.677244851      46.6109844       0.726771162      -42.6240187      0.726771162      -42.6240187      0.677244851      46.6109844       
1833.1           0.681711739      46.2653025       0.722612507      -42.9728301      0.722612507      -42.9728301      0.681711739      46.2653025       
1852.8           0.686121665      45.9220236       0.718456752      -43.3191447      0.718456752      -43.3191447      0.686121665      45.9220236       
1872.5           0.690475193      45.581135        0.714304433      -43.6629771      0.714304433      -43.6629771      0.690475193      45.581135        
1892.2           0.694772887      45.2426239       0.710156071      -44.004342       0.710156071      -44.004342       0.694772887      45.2426239       
1911.9           0.699015315      44.9064768       0.706012167      -44.3432545      0.706012167      -44.3432545      0.699015315      44.9064768       
1931.6           0.703203048      44.57268         0.701873208      -44.6797297      0.701873208      -44.6797297      0.703203048      44.57268         
1951.3           0.707336656      44.2412198       0.697739665      -45.0137831      0.697739665      -45.0137831      0.707336656      44.2412198       
1971             0.711416714      43.9120817       0.693611992      -45.3454305      0.693611992      -45.3454305      0.711416714      43.9120817       
1990.7           0.715443794      43.5852515       0.689490627      -45.6746875      0.689490627      -45.6746875      0.715443794      43.5852515       
2010.4           0.719418471      43.2607144       0.685375994      -46.0015703      0.685375994      -46.0015703      0.719418471      43.2607144       
2030.1           0.72334132       42.9384554       0.681268502      -46.3260951      0.681268502      -46.3260951      0.72334132       42.9384554       
2049.8           0.727212914      42.6184594       0.677168543      -46.6482782      0.677168543      -46.6482782      0.727212914      42.6184594       
2069.5           0.731033828      42.3007112       0.673076497      -46.9681359      0.673076497      -46.9681359      0.731033828      42.3007112       
2089.2           0.734804634      41.9851952       0.668992728      -47.285685       0.668992728      -47.285685       0.734804634      41.9851952       
2108.9           0.738525904      41.6718958       0.664917589      -47.6009421      0.664917589      -47.6009421      0.738525904      41.6718958       
2128.6           0.742198209      41.3607972       0.660851417      -47.9139239      0.660851417      -47.9139239      0.742198209      41.3607972       
2148.3           0.745822115      41.0518834       0.656794536      -48.2246475      0.656794536      -48.2246475      0.745822115      41.0518834       
2168             0.74939819       40.7451385       0.652747258      -48.5331296      0.652747258      -48.5331296      0.74939819       40.7451385       
2187.7           0.752926999      40.4405462       0.648709882      -48.8393873      0.648709882      -48.8393873      0.752926999      40.4405462       
2207.4           0.756409101      40.1380904       0.644682695      -49.1434378      0.644682695      -49.1434378      0.756409101      40.1380904       
2227.1           0.759845058      39.8377546       0.640665971      -49.4452979      0.640665971      -49.4452979      0.759845058      39.8377546       
2246.8           0.763235423      39.5395225       0.636659974      -49.7449851      0.636659974      -49.7449851      0.763235423      39.5395225       
2266.5           0.766580751      39.2433776       0.632664955      -50.0425163      0.632664955      -50.0425163      0.766580751      39.2433776       
2286.2           0.769881591      38.9493033       0.628681156      -50.3379087      0.628681156      -50.3379087      0.769881591      38.9493033       
2305.9           0.773138488      38.6572831       0.624708804      -50.6311796      0.624708804      -50.6311796      0.773138488      38.6572831       
2325.6           0.776351986      38.3673004       0.62074812       -50.9223462      0.62074812       -50.9223462      0.776351986      38.3673004       
2345.3           0.779522624      38.0793386       0.616799313      -51.2114255      0.616799313      -51.2114255      0.779522624      38.0793386       
2365             0.782650935      37.7933809       0.612862581      -51.4984348      0.612862581      -51.4984348      0.782650935      37.7933809       
2384.7           0.78573745       37.5094108       0.608938113      -51.7833913      0.608938113      -51.7833913      0.78573745       37.5094108       
2404.4           0.788782696      37.2274116       0.60502609       -52.066312       0.60502609       -52.066312       0.788782696      37.2274116       
2424.1           0.791787196      36.9473666       0.601126682      -52.3472139      0.601126682      -52.3472139      0.791787196      36.9473666       
2443.8           0.794751467      36.6692592       0.597240049      -52.6261142      0.597240049      -52.6261142      0.794751467      36.6692592       
2463.5           0.797676021      36.3930728       0.593366346      -52.9030298      0.593366346      -52.9030298      0.797676021      36.3930728       
2483.2           0.800561369      36.1187907       0.589505716      -53.1779777      0.589505716      -53.1779777      0.800561369      36.1187907       
2502.9           0.803408014      35.8463965       0.585658296      -53.4509746      0.585658296      -53.4509746      0.803408014      35.8463965       
