! Coilcraft 0805CS-080 Chip Inductor				
! 11 June 2002			
# MHZ S MA R 50
!Freq             MagS11           AngS11           MagS21           AngS21           MagS12           AngS12           MagS22           AngS22
1                0.00151840981    19.3996826       0.998567926      -0.0289385003    0.998567926      -0.0289385003    0.00151840981    19.3996826       
18.7             0.00969179357    76.2968938       0.997748534      -0.540718413     0.997748534      -0.540718413     0.00969179357    76.2968938       
36.4             0.0185443425     80.8738471       0.997226806      -1.05203922      0.997226806      -1.05203922      0.0185443425     80.8738471       
54.1             0.0274306311     82.3435531       0.996716167      -1.56297342      0.996716167      -1.56297342      0.0274306311     82.3435531       
71.8             0.0363204314     82.9176537       0.996174114      -2.07351316      0.996174114      -2.07351316      0.0363204314     82.9176537       
89.5             0.0452055767     83.1035735       0.995583965      -2.58363005      0.995583965      -2.58363005      0.0452055767     83.1035735       
107.2            0.054082149      83.083839        0.994937221      -3.09328656      0.994937221      -3.09328656      0.054082149      83.083839        
124.9            0.0629475329     82.9411021       0.994228948      -3.60244022      0.994228948      -3.60244022      0.0629475329     82.9411021       
142.6            0.071799624      82.7185573       0.993456057      -4.11104566      0.993456057      -4.11104566      0.071799624      82.7185573       
160.3            0.0806365536     82.441123        0.992616539      -4.61905563      0.992616539      -4.61905563      0.0806365536     82.441123        
178              0.089456577      82.1242567       0.991709065      -5.12642176      0.991709065      -5.12642176      0.089456577      82.1242567       
195.7            0.098258023      81.7780977       0.990732766      -5.63309492      0.990732766      -5.63309492      0.098258023      81.7780977       
213.4            0.107039269      81.4095987       0.989687102      -6.13902559      0.989687102      -6.13902559      0.107039269      81.4095987       
231.1            0.115798729      81.0237032       0.988571776      -6.64416405      0.988571776      -6.64416405      0.115798729      81.0237032       
248.8            0.124534845      80.6240338       0.987386681      -7.14846056      0.987386681      -7.14846056      0.124534845      80.6240338       
266.5            0.133246089      80.2133145       0.98613186       -7.65186552      0.98613186       -7.65186552      0.133246089      80.2133145       
284.2            0.141930955      79.7936391       0.984807477      -8.15432953      0.984807477      -8.15432953      0.141930955      79.7936391       
301.9            0.150587964      79.3666484       0.983413801      -8.65580356      0.983413801      -8.65580356      0.150587964      79.3666484       
319.6            0.15921566       78.9336504       0.981951186      -9.15623895      0.981951186      -9.15623895      0.15921566       78.9336504       
337.3            0.167812615      78.4957039       0.980420065      -9.65558755      0.980420065      -9.65558755      0.167812615      78.4957039       
355              0.176377424      78.0536773       0.978820937      -10.1538017      0.978820937      -10.1538017      0.176377424      78.0536773       
372.7            0.184908712      77.608292        0.977154358      -10.6508344      0.977154358      -10.6508344      0.184908712      77.608292        
390.4            0.19340513       77.1601543       0.975420942      -11.1466393      0.975420942      -11.1466393      0.19340513       77.1601543       
408.1            0.201865358      76.7097782       0.97362135       -11.6411705      0.97362135       -11.6411705      0.201865358      76.7097782       
425.8            0.210288105      76.2576044       0.971756285      -12.1343833      0.971756285      -12.1343833      0.210288105      76.2576044       
443.5            0.218672112      75.8040137       0.969826492      -12.6262332      0.969826492      -12.6262332      0.218672112      75.8040137       
461.2            0.227016148      75.3493376       0.967832756      -13.1166769      0.967832756      -13.1166769      0.227016148      75.3493376       
478.9            0.235319016      74.8938671       0.965775892      -13.6056718      0.965775892      -13.6056718      0.235319016      74.8938671       
496.6            0.243579551      74.4378592       0.963656748      -14.0931762      0.963656748      -14.0931762      0.243579551      74.4378592       
514.3            0.251796619      73.9815424       0.961476203      -14.5791491      0.961476203      -14.5791491      0.251796619      73.9815424       
532              0.259969123      73.525121        0.959235162      -15.0635506      0.959235162      -15.0635506      0.259969123      73.525121        
549.7            0.268095995      73.0687787       0.956934552      -15.5463416      0.956934552      -15.5463416      0.268095995      73.0687787       
567.4            0.276176207      72.6126815       0.954575328      -16.027484       0.954575328      -16.027484       0.276176207      72.6126815       
585.1            0.28420876       72.1569797       0.952158463      -16.5069406      0.952158463      -16.5069406      0.28420876       72.1569797       
602.8            0.292192695      71.7018107       0.949684948      -16.9846753      0.949684948      -16.9846753      0.292192695      71.7018107       
620.5            0.300127084      71.2472999       0.947155796      -17.4606529      0.947155796      -17.4606529      0.300127084      71.2472999       
638.2            0.308011038      70.7935624       0.944572031      -17.9348391      0.944572031      -17.9348391      0.308011038      70.7935624       
655.9            0.315843701      70.3407042       0.941934694      -18.4072008      0.941934694      -18.4072008      0.315843701      70.3407042       
673.6            0.323624254      69.8888234       0.93924484       -18.8777057      0.93924484       -18.8777057      0.323624254      69.8888234       
691.3            0.331351913      69.4380104       0.936503532      -19.3463227      0.936503532      -19.3463227      0.331351913      69.4380104       
709              0.33902593       68.9883494       0.933711847      -19.8130216      0.933711847      -19.8130216      0.33902593       68.9883494       
726.7            0.346645592      68.5399185       0.930870867      -20.2777733      0.930870867      -20.2777733      0.346645592      68.5399185       
744.4            0.354210222      68.0927906       0.927981685      -20.7405498      0.927981685      -20.7405498      0.354210222      68.0927906       
762.1            0.361719179      67.6470336       0.925045396      -21.2013239      0.925045396      -21.2013239      0.361719179      67.6470336       
779.8            0.369171856      67.2027108       0.922063103      -21.6600697      0.922063103      -21.6600697      0.369171856      67.2027108       
797.5            0.376567681      66.7598816       0.919035912      -22.1167621      0.919035912      -22.1167621      0.376567681      66.7598816       
815.2            0.383906117      66.3186016       0.915964932      -22.5713771      0.915964932      -22.5713771      0.383906117      66.3186016       
832.9            0.391186661      65.8789227       0.912851271      -23.0238919      0.912851271      -23.0238919      0.391186661      65.8789227       
850.6            0.398408843      65.4408937       0.909696041      -23.4742845      0.909696041      -23.4742845      0.398408843      65.4408937       
868.3            0.405572229      65.0045603       0.90650035       -23.9225339      0.90650035       -23.9225339      0.405572229      65.0045603       
886              0.412676415      64.5699653       0.903265307      -24.3686203      0.903265307      -24.3686203      0.412676415      64.5699653       
903.7            0.419721031      64.1371489       0.899992016      -24.8125247      0.899992016      -24.8125247      0.419721031      64.1371489       
921.4            0.42670574       63.7061488       0.89668158       -25.2542291      0.89668158       -25.2542291      0.42670574       63.7061488       
939.1            0.433630235      63.2770003       0.893335095      -25.6937167      0.893335095      -25.6937167      0.433630235      63.2770003       
956.8            0.44049424       62.8497365       0.889953654      -26.1309714      0.889953654      -26.1309714      0.44049424       62.8497365       
974.5            0.447297511      62.4243884       0.886538342      -26.5659782      0.886538342      -26.5659782      0.447297511      62.4243884       
992.2            0.454039833      62.0009848       0.88309024       -26.998723       0.88309024       -26.998723       0.454039833      62.0009848       
1009.9           0.46072102       61.5795529       0.879610418      -27.4291925      0.879610418      -27.4291925      0.46072102       61.5795529       
1027.6           0.467340915      61.160118        0.876099939      -27.8573747      0.876099939      -27.8573747      0.467340915      61.160118        
1045.3           0.473899389      60.7427035       0.872559859      -28.283258       0.872559859      -28.283258       0.473899389      60.7427035       
1063             0.48039634       60.3273313       0.868991223      -28.7068321      0.868991223      -28.7068321      0.48039634       60.3273313       
1080.7           0.486831692      59.9140217       0.865395064      -29.1280873      0.865395064      -29.1280873      0.486831692      59.9140217       
1098.4           0.493205398      59.5027935       0.861772408      -29.5470149      0.861772408      -29.5470149      0.493205398      59.5027935       
1116.1           0.499517434      59.093664        0.858124266      -29.963607       0.858124266      -29.963607       0.499517434      59.093664        
1133.8           0.5057678        58.6866493       0.854451641      -30.3778566      0.854451641      -30.3778566      0.5057678        58.6866493       
1151.5           0.511956521      58.2817639       0.850755522      -30.7897573      0.850755522      -30.7897573      0.511956521      58.2817639       
1169.2           0.518083646      57.8790213       0.847036885      -31.1993038      0.847036885      -31.1993038      0.518083646      57.8790213       
1186.9           0.524149245      57.4784335       0.843296693      -31.6064912      0.843296693      -31.6064912      0.524149245      57.4784335       
1204.6           0.530153411      57.0800116       0.839535897      -32.0113157      0.839535897      -32.0113157      0.530153411      57.0800116       
1222.3           0.536096258      56.6837653       0.835755433      -32.4137741      0.835755433      -32.4137741      0.536096258      56.6837653       
1240             0.54197792       56.2897036       0.831956224      -32.8138639      0.831956224      -32.8138639      0.54197792       56.2897036       
1257.7           0.54779855       55.897834        0.828139178      -33.2115832      0.828139178      -33.2115832      0.54779855       55.897834        
1275.4           0.553558323      55.5081633       0.824305189      -33.6069311      0.824305189      -33.6069311      0.553558323      55.5081633       
1293.1           0.559257429      55.1206972       0.820455137      -33.999907       0.820455137      -33.999907       0.559257429      55.1206972       
1310.8           0.564896077      54.7354406       0.816589885      -34.3905112      0.816589885      -34.3905112      0.564896077      54.7354406       
1328.5           0.570474493      54.3523973       0.812710283      -34.7787446      0.812710283      -34.7787446      0.570474493      54.3523973       
1346.2           0.57599292       53.9715706       0.808817164      -35.1646086      0.808817164      -35.1646086      0.57599292       53.9715706       
1363.9           0.581451615      53.5929625       0.804911348      -35.5481054      0.804911348      -35.5481054      0.581451615      53.5929625       
1381.6           0.586850851      53.2165746       0.800993636      -35.9292374      0.800993636      -35.9292374      0.586850851      53.2165746       
1399.3           0.592190916      52.8424074       0.797064818      -36.308008       0.797064818      -36.308008       0.592190916      52.8424074       
1417             0.59747211       52.4704611       0.793125664      -36.6844209      0.793125664      -36.6844209      0.59747211       52.4704611       
1434.7           0.602694747      52.1007347       0.789176931      -37.0584803      0.789176931      -37.0584803      0.602694747      52.1007347       
1452.4           0.607859154      51.7332269       0.78521936       -37.4301911      0.78521936       -37.4301911      0.607859154      51.7332269       
1470.1           0.612965668      51.3679356       0.781253676      -37.7995585      0.781253676      -37.7995585      0.612965668      51.3679356       
1487.8           0.618014639      51.0048579       0.777280588      -38.1665882      0.777280588      -38.1665882      0.618014639      51.0048579       
1505.5           0.623006427      50.6439907       0.77330079       -38.5312864      0.77330079       -38.5312864      0.623006427      50.6439907       
1523.2           0.627941402      50.28533         0.769314961      -38.8936598      0.769314961      -38.8936598      0.627941402      50.28533         
1540.9           0.632819943      49.9288714       0.765323762      -39.2537155      0.765323762      -39.2537155      0.632819943      49.9288714       
1558.6           0.63764244       49.5746098       0.761327841      -39.6114608      0.761327841      -39.6114608      0.63764244       49.5746098       
1576.3           0.642409288      49.2225397       0.75732783       -39.9669037      0.75732783       -39.9669037      0.642409288      49.2225397       
1594             0.647120892      48.8726553       0.753324346      -40.3200523      0.753324346      -40.3200523      0.647120892      48.8726553       
1611.7           0.651777665      48.5249499       0.749317991      -40.6709154      0.749317991      -40.6709154      0.651777665      48.5249499       
1629.4           0.656380026      48.1794168       0.745309349      -41.0195017      0.745309349      -41.0195017      0.656380026      48.1794168       
1647.1           0.660928399      47.8360485       0.741298995      -41.3658207      0.741298995      -41.3658207      0.660928399      47.8360485       
1664.8           0.665423217      47.4948374       0.737287483      -41.7098818      0.737287483      -41.7098818      0.665423217      47.4948374       
1682.5           0.669864915      47.1557754       0.733275357      -42.0516949      0.733275357      -42.0516949      0.669864915      47.1557754       
1700.2           0.674253937      46.8188539       0.729263145      -42.3912702      0.729263145      -42.3912702      0.674253937      46.8188539       
1717.9           0.678590727      46.4840641       0.725251359      -42.7286182      0.725251359      -42.7286182      0.678590727      46.4840641       
1735.6           0.682875737      46.1513968       0.7212405        -43.0637495      0.7212405        -43.0637495      0.682875737      46.1513968       
1753.3           0.687109421      45.8208425       0.717231053      -43.3966751      0.717231053      -43.3966751      0.687109421      45.8208425       
1771             0.691292237      45.4923914       0.71322349       -43.7274061      0.71322349       -43.7274061      0.691292237      45.4923914       
1788.7           0.695424645      45.1660335       0.709218269      -44.055954       0.709218269      -44.055954       0.695424645      45.1660335       
1806.4           0.69950711       44.8417583       0.705215836      -44.3823304      0.705215836      -44.3823304      0.69950711       44.8417583       
1824.1           0.703540095      44.5195552       0.701216622      -44.706547       0.701216622      -44.706547       0.703540095      44.5195552       
1841.8           0.70752407       44.1994133       0.697221046      -45.0286159      0.697221046      -45.0286159      0.70752407       44.1994133       
1859.5           0.711459504      43.8813216       0.693229514      -45.3485492      0.693229514      -45.3485492      0.711459504      43.8813216       
1877.2           0.715346866      43.5652688       0.68924242       -45.6663592      0.68924242       -45.6663592      0.715346866      43.5652688       
1894.9           0.719186629      43.2512433       0.685260146      -45.9820584      0.685260146      -45.9820584      0.719186629      43.2512433       
1912.6           0.722979265      42.9392333       0.681283061      -46.2956595      0.681283061      -46.2956595      0.722979265      42.9392333       
1930.3           0.726725247      42.6292271       0.677311522      -46.6071751      0.677311522      -46.6071751      0.726725247      42.6292271       
1948             0.730425047      42.3212125       0.673345874      -46.9166181      0.673345874      -46.9166181      0.730425047      42.3212125       
1965.7           0.734079139      42.0151774       0.669386453      -47.2240015      0.669386453      -47.2240015      0.734079139      42.0151774       
1983.4           0.737687996      41.7111093       0.665433582      -47.5293383      0.665433582      -47.5293383      0.737687996      41.7111093       
2001.1           0.741252088      41.4089958       0.661487571      -47.8326418      0.661487571      -47.8326418      0.741252088      41.4089958       
2018.8           0.744771889      41.1088242       0.657548724      -48.1339251      0.657548724      -48.1339251      0.744771889      41.1088242       
2036.5           0.748247867      40.8105819       0.65361733       -48.4332017      0.65361733       -48.4332017      0.748247867      40.8105819       
2054.2           0.751680492      40.5142559       0.64969367       -48.7304848      0.64969367       -48.7304848      0.751680492      40.5142559       
2071.9           0.755070232      40.2198333       0.645778015      -49.025788       0.645778015      -49.025788       0.755070232      40.2198333       
2089.6           0.758417553      39.9273011       0.641870624      -49.3191247      0.641870624      -49.3191247      0.758417553      39.9273011       
2107.3           0.761722919      39.6366461       0.637971748      -49.6105084      0.637971748      -49.6105084      0.761722919      39.6366461       
2125             0.764986793      39.3478553       0.634081629      -49.8999529      0.634081629      -49.8999529      0.764986793      39.3478553       
2142.7           0.768209635      39.0609153       0.630200499      -50.1874715      0.630200499      -50.1874715      0.768209635      39.0609153       
2160.4           0.771391903      38.7758129       0.62632858       -50.4730781      0.62632858       -50.4730781      0.771391903      38.7758129       
2178.1           0.774534054      38.4925347       0.622466087      -50.7567862      0.622466087      -50.7567862      0.774534054      38.4925347       
2195.8           0.77763654       38.2110673       0.618613224      -51.0386095      0.618613224      -51.0386095      0.77763654       38.2110673       
2213.5           0.780699812      37.9313973       0.614770189      -51.3185616      0.614770189      -51.3185616      0.780699812      37.9313973       
2231.2           0.783724319      37.6535112       0.610937171      -51.5966562      0.610937171      -51.5966562      0.783724319      37.6535112       
2248.9           0.786710505      37.3773957       0.607114351      -51.8729069      0.607114351      -51.8729069      0.786710505      37.3773957       
