! Coilcraft 0805CS-680 Chip Inductor				
! 11 June 2002			
# MHZ S MA R 50
!Freq             MagS11           AngS11           MagS21           AngS21           MagS12           AngS12           MagS22           AngS22
1                0.00652379785    40.0638231       0.995016015      -0.241789661     0.995016015      -0.241789661     0.00652379785    40.0638231       
7.23             0.0312247015     75.3492282       0.992562268      -1.74411321      0.992562268      -1.74411321      0.0312247015     75.3492282       
13.46            0.0571138734     78.5823895       0.99027755       -3.24084466      0.99027755       -3.24084466      0.0571138734     78.5823895       
19.69            0.0829695078     79.0329774       0.987580397      -4.73104855      0.987580397      -4.73104855      0.0829695078     79.0329774       
25.92            0.108668202      78.6356983       0.98436954       -6.21325497      0.98436954       -6.21325497      0.108668202      78.6356983       
32.15            0.134145915      77.8668873       0.980614389      -7.6858836       0.980614389      -7.6858836       0.134145915      77.8668873       
38.38            0.159352196      76.904111        0.976309698      -9.14734513      0.976309698      -9.14734513      0.159352196      76.904111        
44.61            0.184242523      75.8299823       0.971462891      -10.5960862      0.971462891      -10.5960862      0.184242523      75.8299823       
50.84            0.208776447      74.6888174       0.966089046      -12.0306152      0.966089046      -12.0306152      0.208776447      74.6888174       
57.07            0.232917113      73.5069113       0.96020841       -13.4495198      0.96020841       -13.4495198      0.232917113      73.5069113       
63.3             0.256631166      72.3010937       0.953844941      -14.8514786      0.953844941      -14.8514786      0.256631166      72.3010937       
69.53            0.279888761      71.082788        0.947025313      -16.2352702      0.947025313      -16.2352702      0.279888761      71.082788        
75.76            0.302663592      69.8601147       0.939778178      -17.5997786      0.939778178      -17.5997786      0.302663592      69.8601147       
81.99            0.324932885      68.6390606       0.932133571      -18.9439977      0.932133571      -18.9439977      0.324932885      68.6390606       
88.22            0.346677362      67.4241659       0.924122406      -20.2670322      0.924122406      -20.2670322      0.346677362      67.4241659       
94.45            0.367881171      66.2189479       0.915776046      -21.5680985      0.915776046      -21.5680985      0.367881171      66.2189479       
100.68           0.388531763      65.0261736       0.907125926      -22.8465231      0.907125926      -22.8465231      0.388531763      65.0261736       
106.91           0.408619758      63.8480415       0.89820323       -24.10174        0.89820323       -24.10174        0.408619758      63.8480415       
113.14           0.428138766      62.6863063       0.88903861       -25.3332874      0.88903861       -25.3332874      0.428138766      62.6863063       
119.37           0.4470852        61.542369        0.879661949      -26.5408031      0.879661949      -26.5408031      0.4470852        61.542369        
125.6            0.465458065      60.4173417       0.87010216       -27.7240198      0.87010216       -27.7240198      0.465458065      60.4173417       
131.83           0.483258744      59.3120973       0.860387026      -28.8827588      0.860387026      -28.8827588      0.483258744      59.3120973       
138.06           0.500490772      58.2273079       0.85054307       -30.0169248      0.85054307       -30.0169248      0.500490772      58.2273079       
144.29           0.517159616      57.1634753       0.840595462      -31.1264995      0.840595462      -31.1264995      0.517159616      57.1634753       
150.52           0.533272454      56.1209554       0.830567947      -32.211535       0.830567947      -32.211535       0.533272454      56.1209554       
156.75           0.548837961      55.0999791       0.820482803      -33.2721479      0.820482803      -33.2721479      0.548837961      55.0999791       
162.98           0.563866107      54.1006695       0.810360824      -34.3085127      0.810360824      -34.3085127      0.563866107      54.1006695       
169.21           0.578367957      53.1230566       0.800221316      -35.3208561      0.800221316      -35.3208561      0.578367957      53.1230566       
175.44           0.592355496      52.16709         0.790082111      -36.3094512      0.790082111      -36.3094512      0.592355496      52.16709         
181.67           0.605841457      51.2326502       0.779959602      -37.2746114      0.779959602      -37.2746114      0.605841457      51.2326502       
187.9            0.618839164      50.3195583       0.769868779      -38.2166857      0.769868779      -38.2166857      0.618839164      50.3195583       
194.13           0.631362394      49.4275848       0.759823281      -39.1360533      0.759823281      -39.1360533      0.631362394      49.4275848       
200.36           0.643425247      48.5564568       0.749835454      -40.0331193      0.749835454      -40.0331193      0.643425247      48.5564568       
206.59           0.655042033      47.7058653       0.739916409      -40.9083102      0.739916409      -40.9083102      0.655042033      47.7058653       
212.82           0.666227171      46.8754708       0.730076095      -41.7620701      0.730076095      -41.7620701      0.666227171      46.8754708       
219.05           0.676995096      46.0649089       0.720323357      -42.5948568      0.720323357      -42.5948568      0.676995096      46.0649089       
225.28           0.687360185      45.2737949       0.710666015      -43.4071392      0.710666015      -43.4071392      0.687360185      45.2737949       
231.51           0.69733669       44.5017279       0.701110923      -44.1993933      0.701110923      -44.1993933      0.69733669       44.5017279       
237.74           0.706938677      43.7482948       0.691664043      -44.9721007      0.691664043      -44.9721007      0.706938677      43.7482948       
243.97           0.716179981      43.0130731       0.682330509      -45.7257452      0.682330509      -45.7257452      0.716179981      43.0130731       
250.2            0.725074161      42.2956343       0.673114691      -46.4608115      0.673114691      -46.4608115      0.725074161      42.2956343       
256.43           0.733634475      41.5955461       0.664020256      -47.1777827      0.664020256      -47.1777827      0.733634475      41.5955461       
262.66           0.741873845      40.9123745       0.655050229      -47.8771392      0.655050229      -47.8771392      0.741873845      40.9123745       
268.89           0.749804841      40.2456859       0.646207045      -48.5593569      0.646207045      -48.5593569      0.749804841      40.2456859       
275.12           0.757439663      39.5950488       0.637492605      -49.2249062      0.637492605      -49.2249062      0.757439663      39.5950488       
281.35           0.764790134      38.960035        0.628908323      -49.8742509      0.628908323      -49.8742509      0.764790134      38.960035        
287.58           0.771867689      38.3402209       0.620455176      -50.5078474      0.620455176      -50.5078474      0.771867689      38.3402209       
293.81           0.77868337       37.7351888       0.612133742      -51.1261436      0.612133742      -51.1261436      0.77868337       37.7351888       
300.04           0.785247831      37.144527        0.603944244      -51.7295789      0.603944244      -51.7295789      0.785247831      37.144527        
306.27           0.791571335      36.5678316       0.595886587      -52.3185832      0.595886587      -52.3185832      0.791571335      36.5678316       
312.5            0.797663757      36.004706        0.587960392      -52.8935766      0.587960392      -52.8935766      0.797663757      36.004706        
318.73           0.803534594      35.4547622       0.580165025      -53.4549693      0.580165025      -53.4549693      0.803534594      35.4547622       
324.96           0.809192969      34.9176206       0.57249963       -54.0031614      0.57249963       -54.0031614      0.809192969      34.9176206       
331.19           0.814647637      34.3929108       0.564963155      -54.5385425      0.564963155      -54.5385425      0.814647637      34.3929108       
337.42           0.819906998      33.8802713       0.557554374      -55.0614918      0.557554374      -55.0614918      0.819906998      33.8802713       
343.65           0.824979105      33.3793499       0.55027191       -55.5723779      0.55027191       -55.5723779      0.824979105      33.3793499       
349.88           0.829871675      32.8898037       0.543114258      -56.0715592      0.543114258      -56.0715592      0.829871675      32.8898037       
356.11           0.834592098      32.4112993       0.5360798        -56.5593836      0.5360798        -56.5593836      0.834592098      32.4112993       
362.34           0.839147449      31.9435126       0.529166824      -57.0361887      0.529166824      -57.0361887      0.839147449      31.9435126       
368.57           0.843544499      31.4861287       0.522373537      -57.5023021      0.522373537      -57.5023021      0.843544499      31.4861287       
374.8            0.847789727      31.038842        0.515698082      -57.9580411      0.515698082      -57.9580411      0.847789727      31.038842        
381.03           0.851889329      30.6013559       0.509138546      -58.4037136      0.509138546      -58.4037136      0.851889329      30.6013559       
387.26           0.855849231      30.1733829       0.502692973      -58.8396175      0.502692973      -58.8396175      0.855849231      30.1733829       
393.49           0.8596751        29.754644        0.496359376      -59.2660415      0.496359376      -59.2660415      0.8596751        29.754644        
399.72           0.863372352      29.3448692       0.490135742      -59.683265       0.490135742      -59.683265       0.863372352      29.3448692       
405.95           0.866946165      28.9437967       0.484020043      -60.0915585      0.484020043      -60.0915585      0.866946165      28.9437967       
412.18           0.870401489      28.5511731       0.478010242      -60.4911837      0.478010242      -60.4911837      0.870401489      28.5511731       
418.41           0.873743054      28.1667527       0.472104298      -60.8823937      0.472104298      -60.8823937      0.873743054      28.1667527       
424.64           0.876975381      27.7902982       0.466300173      -61.2654336      0.466300173      -61.2654336      0.876975381      27.7902982       
430.87           0.880102792      27.4215794       0.460595838      -61.6405401      0.460595838      -61.6405401      0.880102792      27.4215794       
437.1            0.883129417      27.060374        0.454989275      -62.0079423      0.454989275      -62.0079423      0.883129417      27.060374        
443.33           0.886059204      26.7064664       0.449478481      -62.3678617      0.449478481      -62.3678617      0.886059204      26.7064664       
449.56           0.888895927      26.3596484       0.444061472      -62.7205126      0.444061472      -62.7205126      0.888895927      26.3596484       
455.79           0.891643192      26.0197185       0.438736287      -63.0661021      0.438736287      -63.0661021      0.891643192      26.0197185       
462.02           0.89430445       25.6864816       0.433500989      -63.4048302      0.433500989      -63.4048302      0.89430445       25.6864816       
468.25           0.896882997      25.3597491       0.428353665      -63.7368908      0.428353665      -63.7368908      0.896882997      25.3597491       
474.48           0.899381986      25.0393386       0.423292433      -64.0624708      0.423292433      -64.0624708      0.899381986      25.0393386       
480.71           0.901804434      24.7250736       0.41831544       -64.3817513      0.41831544       -64.3817513      0.901804434      24.7250736       
486.94           0.904153224      24.4167834       0.413420862      -64.6949072      0.413420862      -64.6949072      0.904153224      24.4167834       
493.17           0.906431117      24.1143029       0.408606908      -65.0021077      0.408606908      -65.0021077      0.906431117      24.1143029       
499.4            0.908640751      23.8174723       0.403871821      -65.3035165      0.403871821      -65.3035165      0.908640751      23.8174723       
505.63           0.910784655      23.526137        0.399213875      -65.5992916      0.399213875      -65.5992916      0.910784655      23.526137        
511.86           0.912865245      23.2401475       0.394631378      -65.889586       0.394631378      -65.889586       0.912865245      23.2401475       
518.09           0.914884836      22.9593593       0.390122673      -66.1745478      0.390122673      -66.1745478      0.914884836      22.9593593       
524.32           0.916845645      22.6836322       0.385686137      -66.45432        0.385686137      -66.45432        0.916845645      22.6836322       
530.55           0.918749793      22.412831        0.381320179      -66.729041       0.381320179      -66.729041       0.918749793      22.412831        
536.78           0.920599314      22.1468244       0.377023245      -66.9988448      0.377023245      -66.9988448      0.920599314      22.1468244       
543.01           0.922396154      21.8854857       0.372793814      -67.2638609      0.372793814      -67.2638609      0.922396154      21.8854857       
549.24           0.924142181      21.628692        0.368630398      -67.5242146      0.368630398      -67.5242146      0.924142181      21.628692        
555.47           0.925839181      21.3763245       0.364531542      -67.7800273      0.364531542      -67.7800273      0.925839181      21.3763245       
561.7            0.927488869      21.128268        0.360495827      -68.0314164      0.360495827      -68.0314164      0.927488869      21.128268        
567.93           0.929092888      20.8844113       0.356521863      -68.2784955      0.356521863      -68.2784955      0.929092888      20.8844113       
574.16           0.930652816      20.6446463       0.352608295      -68.5213747      0.352608295      -68.5213747      0.930652816      20.6446463       
580.39           0.932170162      20.4088686       0.348753799      -68.7601604      0.348753799      -68.7601604      0.932170162      20.4088686       
586.62           0.933646379      20.1769769       0.344957083      -68.9949558      0.344957083      -68.9949558      0.933646379      20.1769769       
592.85           0.935082857      19.9488731       0.341216884      -69.2258607      0.341216884      -69.2258607      0.935082857      19.9488731       
599.08           0.936480932      19.7244624       0.337531971      -69.452972       0.337531971      -69.452972       0.936480932      19.7244624       
605.31           0.937841888      19.5036525       0.333901143      -69.6763832      0.333901143      -69.6763832      0.937841888      19.5036525       
611.54           0.939166955      19.2863543       0.330323225      -69.8961852      0.330323225      -69.8961852      0.939166955      19.2863543       
617.77           0.940457316      19.0724813       0.326797076      -70.112466       0.326797076      -70.112466       0.940457316      19.0724813       
624              0.941714108      18.8619497       0.323321577      -70.3253107      0.323321577      -70.3253107      0.941714108      18.8619497       
630.23           0.942938422      18.6546782       0.319895641      -70.534802       0.319895641      -70.534802       0.942938422      18.6546782       
636.46           0.944131307      18.4505879       0.316518205      -70.74102        0.316518205      -70.74102        0.944131307      18.4505879       
642.69           0.945293773      18.2496025       0.313188233      -70.9440423      0.313188233      -70.9440423      0.945293773      18.2496025       
648.92           0.94642679       18.0516477       0.309904715      -71.1439443      0.309904715      -71.1439443      0.94642679       18.0516477       
655.15           0.947531289      17.8566517       0.306666665      -71.3407988      0.306666665      -71.3407988      0.947531289      17.8566517       
661.38           0.948608168      17.6645447       0.303473123      -71.5346767      0.303473123      -71.5346767      0.948608168      17.6645447       
667.61           0.949658291      17.4752589       0.300323151      -71.7256468      0.300323151      -71.7256468      0.949658291      17.4752589       
673.84           0.950682489      17.2887286       0.297215835      -71.9137755      0.297215835      -71.9137755      0.950682489      17.2887286       
680.07           0.951681561      17.10489         0.294150284      -72.0991277      0.294150284      -72.0991277      0.951681561      17.10489         
686.3            0.952656277      16.9236812       0.291125627      -72.2817659      0.291125627      -72.2817659      0.952656277      16.9236812       
692.53           0.953607379      16.745042        0.288141017      -72.4617512      0.288141017      -72.4617512      0.953607379      16.745042        
698.76           0.95453558       16.568914        0.285195628      -72.6391426      0.285195628      -72.6391426      0.95453558       16.568914        
704.99           0.95544157       16.3952405       0.282288652      -72.8139975      0.282288652      -72.8139975      0.95544157       16.3952405       
711.22           0.956326011      16.2239664       0.279419302      -72.9863717      0.279419302      -72.9863717      0.956326011      16.2239664       
717.45           0.957189542      16.0550381       0.276586812      -73.1563192      0.276586812      -73.1563192      0.957189542      16.0550381       
723.68           0.958032779      15.8884035       0.273790433      -73.3238926      0.273790433      -73.3238926      0.958032779      15.8884035       
729.91           0.958856316      15.7240122       0.271029435      -73.4891429      0.271029435      -73.4891429      0.958856316      15.7240122       
736.14           0.959660726      15.5618149       0.268303106      -73.6521198      0.268303106      -73.6521198      0.959660726      15.5618149       
742.37           0.960446563      15.4017639       0.26561075       -73.8128713      0.26561075       -73.8128713      0.960446563      15.4017639       
748.6            0.961214358      15.2438127       0.262951691      -73.9714445      0.262951691      -73.9714445      0.961214358      15.2438127       
754.83           0.961964627      15.0879162       0.260325266      -74.1278846      0.260325266      -74.1278846      0.961964627      15.0879162       
761.06           0.962697866      14.9340304       0.25773083       -74.282236       0.25773083       -74.282236       0.962697866      14.9340304       
767.29           0.963414555      14.7821124       0.255167754      -74.4345417      0.255167754      -74.4345417      0.963414555      14.7821124       
773.52           0.964115157      14.6321209       0.252635424      -74.5848435      0.252635424      -74.5848435      0.964115157      14.6321209       
779.75           0.964800119      14.4840153       0.250133239      -74.7331819      0.250133239      -74.7331819      0.964800119      14.4840153       
785.98           0.965469874      14.3377561       0.247660615      -74.8795965      0.247660615      -74.8795965      0.965469874      14.3377561       
792.21           0.966124838      14.1933052       0.24521698       -75.0241258      0.24521698       -75.0241258      0.966124838      14.1933052       
