! Coilcraft 0805CS-100 Chip Inductor				
! 11 June 2002			
# MHZ S MA R 50
!Freq             MagS11           AngS11           MagS21           AngS21           MagS12           AngS12           MagS22           AngS22
1                0.00133121986    28.3978562       0.998829171      -0.0363174317    0.998829171      -0.0363174317    0.00133121986    28.3978562       
21.2             0.0135469853     81.6437337       0.998121241      -0.769413375     0.998121241      -0.769413375     0.0135469853     81.6437337       
41.4             0.0262932372     83.9136186       0.997554866      -1.50184345      0.997554866      -1.50184345      0.0262932372     83.9136186       
61.6             0.0390433058     84.3262598       0.996897412      -2.23355116      0.996897412      -2.23355116      0.0390433058     84.3262598       
81.8             0.0517779056     84.2170538       0.996115782      -2.96438896      0.996115782      -2.96438896      0.0517779056     84.2170538       
102              0.0644886503     83.8843445       0.995197514      -3.69418717      0.995197514      -3.69418717      0.0644886503     83.8843445       
122.2            0.0771691765     83.4344033       0.994136778      -4.42276722      0.994136778      -4.42276722      0.0771691765     83.4344033       
142.4            0.0898137543     82.9151451       0.992930714      -5.14994664      0.992930714      -5.14994664      0.0898137543     82.9151451       
162.6            0.102416934      82.3515834       0.991578076      -5.87554161      0.991578076      -5.87554161      0.102416934      82.3515834       
182.8            0.114973438      81.7581708       0.990078615      -6.59936848      0.990078615      -6.59936848      0.114973438      81.7581708       
203              0.127478122      81.1439095       0.98843277       -7.32124476      0.98843277       -7.32124476      0.127478122      81.1439095       
223.2            0.139925964      80.5147447       0.986641483      -8.0409899       0.986641483      -8.0409899       0.139925964      80.5147447       
243.4            0.152312066      79.874792        0.984706092      -8.75842584      0.984706092      -8.75842584      0.152312066      79.874792        
263.6            0.16463166       79.227014        0.982628256      -9.47337752      0.982628256      -9.47337752      0.16463166       79.227014        
283.8            0.176880108      78.5736154       0.980409906      -10.1856733      0.980409906      -10.1856733      0.176880108      78.5736154       
304              0.189052915      77.9162841       0.97805321       -10.8951452      0.97805321       -10.8951452      0.189052915      77.9162841       
324.2            0.201145734      77.2563448       0.975560537      -11.6016294      0.975560537      -11.6016294      0.201145734      77.2563448       
344.4            0.21315437       76.5948604       0.972934442      -12.3049664      0.972934442      -12.3049664      0.21315437       76.5948604       
364.6            0.225074789      75.9326998       0.97017764       -13.0050012      0.97017764       -13.0050012      0.225074789      75.9326998       
384.8            0.236903119      75.2705856       0.967292989      -13.7015837      0.967292989      -13.7015837      0.236903119      75.2705856       
405              0.248635659      74.6091279       0.96428348       -14.3945687      0.96428348       -14.3945687      0.248635659      74.6091279       
425.2            0.260268881      73.9488484       0.961152215      -15.0838161      0.961152215      -15.0838161      0.260268881      73.9488484       
445.4            0.271799432      73.2901984       0.957902401      -15.7691911      0.957902401      -15.7691911      0.271799432      73.2901984       
465.6            0.283224137      72.6335722       0.954537333      -16.4505643      0.954537333      -16.4505643      0.283224137      72.6335722       
485.8            0.294540003      71.9793171       0.951060383      -17.1278118      0.951060383      -17.1278118      0.294540003      71.9793171       
506              0.305744217      71.3277417       0.94747499       -17.8008153      0.94747499       -17.8008153      0.305744217      71.3277417       
526.2            0.316834148      70.6791212       0.94378465       -18.4694621      0.94378465       -18.4694621      0.316834148      70.6791212       
546.4            0.327807347      70.0337028       0.939992902      -19.133645       0.939992902      -19.133645       0.327807347      70.0337028       
566.6            0.338661547      69.3917095       0.936103323      -19.7932628      0.936103323      -19.7932628      0.338661547      69.3917095       
586.8            0.349394659      68.7533425       0.932119516      -20.4482197      0.932119516      -20.4482197      0.349394659      68.7533425       
607              0.360004774      68.1187847       0.928045102      -21.0984258      0.928045102      -21.0984258      0.360004774      68.1187847       
627.2            0.370490158      67.4882017       0.923883708      -21.7437967      0.923883708      -21.7437967      0.370490158      67.4882017       
647.4            0.38084925       66.8617444       0.919638965      -22.3842536      0.919638965      -22.3842536      0.38084925       66.8617444       
667.6            0.391080661      66.2395497       0.915314496      -23.0197234      0.915314496      -23.0197234      0.391080661      66.2395497       
687.8            0.401183166      65.6217422       0.91091391       -23.6501385      0.91091391       -23.6501385      0.401183166      65.6217422       
708              0.411155704      65.0084349       0.906440795      -24.2754365      0.906440795      -24.2754365      0.411155704      65.0084349       
728.2            0.420997375      64.3997302       0.90189871       -24.8955605      0.90189871       -24.8955605      0.420997375      64.3997302       
748.4            0.430707429      63.7957209       0.897291182      -25.5104589      0.897291182      -25.5104589      0.430707429      63.7957209       
768.6            0.440285269      63.1964904       0.892621698      -26.1200852      0.892621698      -26.1200852      0.440285269      63.1964904       
788.8            0.449730442      62.6021136       0.887893701      -26.7243976      0.887893701      -26.7243976      0.449730442      62.6021136       
809              0.459042634      62.0126576       0.883110585      -27.3233598      0.883110585      -27.3233598      0.459042634      62.0126576       
829.2            0.468221666      61.4281817       0.878275689      -27.9169397      0.878275689      -27.9169397      0.468221666      61.4281817       
849.4            0.477267488      60.8487383       0.873392295      -28.5051101      0.873392295      -28.5051101      0.477267488      60.8487383       
869.6            0.486180175      60.274373        0.868463625      -29.0878484      0.868463625      -29.0878484      0.486180175      60.274373        
889.8            0.494959919      59.7051252       0.863492834      -29.6651361      0.863492834      -29.6651361      0.494959919      59.7051252       
910              0.503607027      59.1410284       0.858483011      -30.2369592      0.858483011      -30.2369592      0.503607027      59.1410284       
930.2            0.51212191       58.5821102       0.853437175      -30.8033075      0.853437175      -30.8033075      0.51212191       58.5821102       
950.4            0.520505084      58.0283933       0.848358272      -31.3641749      0.848358272      -31.3641749      0.520505084      58.0283933       
970.6            0.528757161      57.4798948       0.843249175      -31.919559       0.843249175      -31.919559       0.528757161      57.4798948       
990.8            0.536878843      56.9366276       0.83811268       -32.469461       0.83811268       -32.469461       0.536878843      56.9366276       
1011             0.544870918      56.3985998       0.832951507      -33.0138858      0.832951507      -33.0138858      0.544870918      56.3985998       
1031.2           0.552734256      55.8658152       0.827768297      -33.5528412      0.827768297      -33.5528412      0.552734256      55.8658152       
1051.4           0.560469801      55.3382736       0.822565614      -34.0863386      0.822565614      -34.0863386      0.560469801      55.3382736       
1071.6           0.568078567      54.8159712       0.817345942      -34.6143922      0.817345942      -34.6143922      0.568078567      54.8159712       
1091.8           0.575561634      54.2989004       0.812111685      -35.137019       0.812111685      -35.137019       0.575561634      54.2989004       
1112             0.582920144      53.7870503       0.806865167      -35.6542389      0.806865167      -35.6542389      0.582920144      53.7870503       
1132.2           0.590155292      53.2804067       0.801608635      -36.1660744      0.801608635      -36.1660744      0.590155292      53.2804067       
1152.4           0.597268327      52.7789525       0.796344256      -36.6725504      0.796344256      -36.6725504      0.597268327      52.7789525       
1172.6           0.604260543      52.2826678       0.791074116      -37.173694       0.791074116      -37.173694       0.604260543      52.2826678       
1192.8           0.611133279      51.7915301       0.785800229      -37.6695346      0.785800229      -37.6695346      0.611133279      51.7915301       
1213             0.61788791       51.3055142       0.780524525      -38.1601037      0.780524525      -38.1601037      0.61788791       51.3055142       
1233.2           0.624525849      50.8245928       0.775248865      -38.6454346      0.775248865      -38.6454346      0.624525849      50.8245928       
1253.4           0.631048538      50.3487365       0.76997503       -39.1255624      0.76997503       -39.1255624      0.631048538      50.3487365       
1273.6           0.637457447      49.8779136       0.76470473       -39.600524       0.76470473       -39.600524       0.637457447      49.8779136       
1293.8           0.643754071      49.4120907       0.759439601      -40.0703577      0.759439601      -40.0703577      0.643754071      49.4120907       
1314             0.649939924      48.9512327       0.75418121       -40.5351034      0.75418121       -40.5351034      0.649939924      48.9512327       
1334.2           0.656016539      48.4953029       0.748931053      -40.9948023      0.748931053      -40.9948023      0.656016539      48.4953029       
1354.4           0.661985464      48.044263        0.743690559      -41.4494967      0.743690559      -41.4494967      0.661985464      48.044263        
1374.6           0.667848259      47.5980733       0.738461088      -41.8992301      0.738461088      -41.8992301      0.667848259      47.5980733       
1394.8           0.673606493      47.1566932       0.733243938      -42.3440472      0.733243938      -42.3440472      0.673606493      47.1566932       
1415             0.679261742      46.7200804       0.728040343      -42.7839934      0.728040343      -42.7839934      0.679261742      46.7200804       
1435.2           0.684815586      46.2881921       0.722851475      -43.2191151      0.722851475      -43.2191151      0.684815586      46.2881921       
1455.4           0.690269608      45.8609843       0.717678445      -43.6494593      0.717678445      -43.6494593      0.690269608      45.8609843       
1475.6           0.695625392      45.4384121       0.712522308      -44.0750739      0.712522308      -44.0750739      0.695625392      45.4384121       
1495.8           0.70088452       45.0204299       0.707384062      -44.4960072      0.707384062      -44.4960072      0.70088452       45.0204299       
1516             0.706048568      44.6069915       0.702264648      -44.9123082      0.702264648      -44.9123082      0.706048568      44.6069915       
1536.2           0.711119109      44.19805         0.697164957      -45.3240262      0.697164957      -45.3240262      0.711119109      44.19805         
1556.4           0.716097711      43.7935582       0.692085827      -45.731211       0.692085827      -45.731211       0.716097711      43.7935582       
1576.6           0.720985931      43.3934681       0.687028047      -46.1339127      0.687028047      -46.1339127      0.720985931      43.3934681       
1596.8           0.725785316      42.9977315       0.681992358      -46.5321816      0.681992358      -46.5321816      0.725785316      42.9977315       
1617             0.730497406      42.6063001       0.676979453      -46.9260683      0.676979453      -46.9260683      0.730497406      42.6063001       
1637.2           0.735123724      42.2191251       0.671989984      -47.3156234      0.671989984      -47.3156234      0.735123724      42.2191251       
1657.4           0.739665784      41.8361574       0.667024556      -47.7008977      0.667024556      -47.7008977      0.739665784      41.8361574       
1677.6           0.744125085      41.4573482       0.662083735      -48.0819421      0.662083735      -48.0819421      0.744125085      41.4573482       
1697.8           0.748503109      41.0826481       0.657168046      -48.4588073      0.657168046      -48.4588073      0.748503109      41.0826481       
1718             0.752801325      40.712008        0.652277977      -48.8315443      0.652277977      -48.8315443      0.752801325      40.712008        
1738.2           0.757021186      40.3453788       0.647413978      -49.2002035      0.647413978      -49.2002035      0.757021186      40.3453788       
1758.4           0.761164125      39.9827112       0.642576464      -49.5648357      0.642576464      -49.5648357      0.761164125      39.9827112       
1778.6           0.765231559      39.6239563       0.637765816      -49.9254912      0.637765816      -49.9254912      0.765231559      39.6239563       
1798.8           0.769224889      39.2690651       0.632982383      -50.2822203      0.632982383      -50.2822203      0.769224889      39.2690651       
1819             0.773145494      38.9179889       0.628226481      -50.635073       0.628226481      -50.635073       0.773145494      38.9179889       
1839.2           0.776994736      38.5706791       0.623498399      -50.9840989      0.623498399      -50.9840989      0.776994736      38.5706791       
1859.4           0.780773958      38.2270874       0.618798394      -51.3293475      0.618798394      -51.3293475      0.780773958      38.2270874       
1879.6           0.784484483      37.8871657       0.6141267        -51.6708681      0.6141267        -51.6708681      0.784484483      37.8871657       
1899.8           0.788127613      37.5508662       0.609483521      -52.0087093      0.609483521      -52.0087093      0.788127613      37.5508662       
1920             0.791704632      37.2181414       0.604869038      -52.3429197      0.604869038      -52.3429197      0.791704632      37.2181414       
1940.2           0.795216803      36.8889442       0.600283408      -52.6735473      0.600283408      -52.6735473      0.795216803      36.8889442       
1960.4           0.798665368      36.5632277       0.595726765      -53.0006398      0.595726765      -53.0006398      0.798665368      36.5632277       
1980.6           0.802051552      36.2409455       0.591199222      -53.3242446      0.591199222      -53.3242446      0.802051552      36.2409455       
2000.8           0.805376555      35.9220515       0.586700871      -53.6444085      0.586700871      -53.6444085      0.805376555      35.9220515       
2021             0.80864156       35.6065          0.582231784      -53.9611778      0.582231784      -53.9611778      0.80864156       35.6065          
2041.2           0.811847728      35.2942457       0.577792015      -54.2745987      0.577792015      -54.2745987      0.811847728      35.2942457       
2061.4           0.814996201      34.9852439       0.573381601      -54.5847165      0.573381601      -54.5847165      0.814996201      34.9852439       
2081.6           0.8180881        34.6794501       0.569000561      -54.8915763      0.569000561      -54.8915763      0.8180881        34.6794501       
2101.8           0.821124526      34.3768204       0.564648899      -55.1952228      0.564648899      -55.1952228      0.821124526      34.3768204       
2122             0.824106561      34.0773112       0.560326603      -55.4956999      0.560326603      -55.4956999      0.824106561      34.0773112       
2142.2           0.827035266      33.7808796       0.556033647      -55.7930512      0.556033647      -55.7930512      0.827035266      33.7808796       
2162.4           0.829911682      33.4874829       0.551769992      -56.0873198      0.551769992      -56.0873198      0.829911682      33.4874829       
2182.6           0.832736831      33.1970792       0.547535585      -56.3785482      0.547535585      -56.3785482      0.832736831      33.1970792       
2202.8           0.835511718      32.9096268       0.543330364      -56.6667785      0.543330364      -56.6667785      0.835511718      32.9096268       
2223             0.838237324      32.6250846       0.539154251      -56.9520522      0.539154251      -56.9520522      0.838237324      32.6250846       
2243.2           0.840914615      32.3434121       0.535007161      -57.2344103      0.535007161      -57.2344103      0.840914615      32.3434121       
2263.4           0.843544538      32.064569        0.530888997      -57.5138934      0.530888997      -57.5138934      0.843544538      32.064569        
2283.6           0.846128019      31.7885159       0.526799653      -57.7905412      0.526799653      -57.7905412      0.846128019      31.7885159       
2303.8           0.848665969      31.5152135       0.522739015      -58.0643934      0.522739015      -58.0643934      0.848665969      31.5152135       
2324             0.851159278      31.2446233       0.518706958      -58.3354889      0.518706958      -58.3354889      0.851159278      31.2446233       
2344.2           0.85360882       30.9767071       0.514703352      -58.6038659      0.514703352      -58.6038659      0.85360882       30.9767071       
2364.4           0.856015452      30.7114274       0.510728059      -58.8695623      0.510728059      -58.8695623      0.856015452      30.7114274       
2384.6           0.858380013      30.4487471       0.506780932      -59.1326156      0.506780932      -59.1326156      0.858380013      30.4487471       
2404.8           0.860703324      30.1886295       0.50286182       -59.3930626      0.50286182       -59.3930626      0.860703324      30.1886295       
2425             0.862986191      29.9310385       0.498970565      -59.6509394      0.498970565      -59.6509394      0.862986191      29.9310385       
2445.2           0.865229403      29.6759386       0.495107004      -59.906282       0.495107004      -59.906282       0.865229403      29.6759386       
2465.4           0.867433732      29.4232946       0.491270967      -60.1591255      0.491270967      -60.1591255      0.867433732      29.4232946       
2485.6           0.869599936      29.1730719       0.487462282      -60.4095048      0.487462282      -60.4095048      0.869599936      29.1730719       
2505.8           0.871728755      28.9252364       0.483680771      -60.6574541      0.483680771      -60.6574541      0.871728755      28.9252364       
2526             0.873820916      28.6797544       0.479926252      -60.9030071      0.479926252      -60.9030071      0.873820916      28.6797544       
2546.2           0.875877129      28.4365929       0.476198539      -61.1461971      0.476198539      -61.1461971      0.875877129      28.4365929       
2566.4           0.877898091      28.195719        0.472497443      -61.3870567      0.472497443      -61.3870567      0.877898091      28.195719        
