! Coilcraft 0805CS-271 Chip Inductor				
! 11 June 2002			
# MHZ S MA R 50
!Freq             MagS11           AngS11           MagS21           AngS21           MagS12           AngS12           MagS22           AngS22
1                0.0212946317     48.9970312       0.986159584      -0.933738122     0.986159584      -0.933738122     0.0212946317     48.9970312       
3.99             0.0669587755     71.1935094       0.980465239      -3.7065789       0.980465239      -3.7065789       0.0669587755     71.1935094       
6.98             0.114064674      73.5664798       0.973895453      -6.45007953      0.973895453      -6.45007953      0.114064674      73.5664798       
9.97             0.160571226      73.1308626       0.965707943      -9.15572567      0.965707943      -9.15572567      0.160571226      73.1308626       
12.96            0.20602327       71.780936        0.955834102      -11.8141234      0.955834102      -11.8141234      0.20602327       71.780936        
15.95            0.250136745      70.0409127       0.944351898      -14.416407       0.944351898      -14.416407       0.250136745      70.0409127       
18.94            0.292696639      68.1191934       0.931401494      -16.9546982      0.931401494      -16.9546982      0.292696639      68.1191934       
21.93            0.333538623      66.1174279       0.917154731      -19.4223177      0.917154731      -19.4223177      0.333538623      66.1174279       
24.92            0.372543304      64.0920889       0.901798652      -21.813874       0.901798652      -21.813874       0.372543304      64.0920889       
27.91            0.409632384      62.0773243       0.885524567      -24.1252701      0.885524567      -24.1252701      0.409632384      62.0773243       
30.9             0.4447646        60.0948878       0.868520205      -26.3536512      0.868520205      -26.3536512      0.4447646        60.0948878       
33.89            0.477931146      58.1590016       0.850964059      -28.4973121      0.850964059      -28.4973121      0.477931146      58.1590016       
36.88            0.509150749      56.2789803       0.833021496      -30.5555775      0.833021496      -30.5555775      0.509150749      56.2789803       
39.87            0.538464685      54.4607711       0.814842323      -32.5286681      0.814842323      -32.5286681      0.538464685      54.4607711       
42.86            0.565931978      52.7079241       0.796559542      -34.417563       0.796559542      -34.417563       0.565931978      52.7079241       
45.85            0.591624975      51.0222433       0.778289043      -36.2238642      0.778289043      -36.2238642      0.591624975      51.0222433       
48.84            0.615625426      49.4042446       0.760129998      -37.9496693      0.760129998      -37.9496693      0.615625426      49.4042446       
51.83            0.638021107      47.8534915       0.742165757      -39.5974572      0.742165757      -39.5974572      0.638021107      47.8534915       
54.82            0.658903016      46.3688461       0.724465061      -41.1699854      0.724465061      -41.1699854      0.658903016      46.3688461       
57.81            0.678363102      44.9486624       0.707083444      -42.6702028      0.707083444      -42.6702028      0.678363102      44.9486624       
60.8             0.696492481      43.5909352       0.690064702      -44.1011754      0.690064702      -44.1011754      0.696492481      43.5909352       
63.79            0.713380089      42.2934151       0.673442357      -45.4660252      0.673442357      -45.4660252      0.713380089      42.2934151       
66.78            0.729111692      41.053699        0.657241058      -46.7678808      0.657241058      -46.7678808      0.729111692      41.053699        
69.77            0.743769201      39.8692993       0.641477893      -48.009838       0.641477893      -48.009838       0.743769201      39.8692993       
72.76            0.757430242      38.7376972       0.626163568      -49.1949297      0.626163568      -49.1949297      0.757430242      38.7376972       
75.75            0.770167905      37.6563831       0.611303477      -50.326103       0.611303477      -50.326103       0.770167905      37.6563831       
78.74            0.782050657      36.6228874       0.596898636      -51.4062029      0.596898636      -51.4062029      0.782050657      36.6228874       
81.73            0.793142362      35.6348022       0.582946499      -52.4379607      0.582946499      -52.4379607      0.793142362      35.6348022       
84.72            0.803502384      34.6897974       0.56944166       -53.4239872      0.56944166       -53.4239872      0.803502384      34.6897974       
87.71            0.813185754      33.7856315       0.556376454      -54.3667687      0.556376454      -54.3667687      0.813185754      33.7856315       
90.7             0.822243369      32.9201582       0.543741463      -55.2686658      0.543741463      -55.2686658      0.822243369      32.9201582       
93.69            0.830722221      32.0913307       0.531525943      -56.1319145      0.531525943      -56.1319145      0.830722221      32.0913307       
96.68            0.838665636      31.2972025       0.519718181      -56.9586279      0.519718181      -56.9586279      0.838665636      31.2972025       
99.67            0.84611352       30.5359277       0.508305786      -57.7508002      0.508305786      -57.7508002      0.84611352       30.5359277       
102.66           0.853102599      29.8057589       0.497275932      -58.5103109      0.497275932      -58.5103109      0.853102599      29.8057589       
105.65           0.859666657      29.1050447       0.486615554      -59.2389293      0.486615554      -59.2389293      0.859666657      29.1050447       
108.64           0.86583676       28.4322266       0.476311508      -59.9383198      0.476311508      -59.9383198      0.86583676       28.4322266       
111.63           0.871641471      27.7858353       0.4663507        -60.6100471      0.4663507        -60.6100471      0.871641471      27.7858353       
114.62           0.877107055      27.1644863       0.456720181      -61.2555816      0.456720181      -61.2555816      0.877107055      27.1644863       
117.61           0.882257662      26.5668759       0.44740723       -61.8763046      0.44740723       -61.8763046      0.882257662      26.5668759       
120.6            0.887115507      25.9917773       0.438399414      -62.4735137      0.438399414      -62.4735137      0.887115507      25.9917773       
123.59           0.891701032      25.4380359       0.429684632      -63.0484277      0.429684632      -63.0484277      0.891701032      25.4380359       
126.58           0.896033052      24.9045656       0.421251144      -63.6021912      0.421251144      -63.6021912      0.896033052      24.9045656       
129.57           0.900128898      24.3903444       0.413087602      -64.1358797      0.413087602      -64.1358797      0.900128898      24.3903444       
132.56           0.904004536      23.8944107       0.405183054      -64.6505037      0.405183054      -64.6505037      0.904004536      23.8944107       
135.55           0.907674692      23.4158599       0.397526959      -65.1470128      0.397526959      -65.1470128      0.907674692      23.4158599       
138.54           0.911152948      22.9538404       0.390109187      -65.6262999      0.390109187      -65.6262999      0.911152948      22.9538404       
141.53           0.914451845      22.5075506       0.382920016      -66.0892047      0.382920016      -66.0892047      0.914451845      22.5075506       
144.52           0.91758297       22.0762355       0.375950126      -66.5365172      0.375950126      -66.5365172      0.91758297       22.0762355       
147.51           0.920557033      21.6591841       0.369190594      -66.9689809      0.369190594      -66.9689809      0.920557033      21.6591841       
150.5            0.923383945      21.2557263       0.362632883      -67.387296       0.362632883      -67.387296       0.923383945      21.2557263       
153.49           0.926072882      20.8652303       0.356268831      -67.792122       0.356268831      -67.792122       0.926072882      20.8652303       
156.48           0.928632344      20.4871002       0.350090636      -68.1840807      0.350090636      -68.1840807      0.928632344      20.4871002       
159.47           0.931070216      20.1207739       0.344090848      -68.5637582      0.344090848      -68.5637582      0.931070216      20.1207739       
162.46           0.933393813      19.7657207       0.338262353      -68.9317076      0.338262353      -68.9317076      0.933393813      19.7657207       
165.45           0.93560993       19.4214392       0.332598359      -69.2884511      0.332598359      -69.2884511      0.93560993       19.4214392       
168.44           0.937724881      19.087456        0.327092383      -69.6344816      0.327092383      -69.6344816      0.937724881      19.087456        
171.43           0.93974454       18.7633233       0.32173824       -69.9702651      0.32173824       -69.9702651      0.93974454       18.7633233       
174.42           0.941674373      18.4486175       0.316530024      -70.2962421      0.316530024      -70.2962421      0.941674373      18.4486175       
177.41           0.943519475      18.1429379       0.311462104      -70.6128293      0.311462104      -70.6128293      0.943519475      18.1429379       
180.4            0.945284592      17.8459051       0.306529101      -70.920421       0.306529101      -70.920421       0.945284592      17.8459051       
183.39           0.946974154      17.5571597       0.301725886      -71.2193907      0.301725886      -71.2193907      0.946974154      17.5571597       
186.38           0.948592296      17.2763609       0.297047559      -71.5100922      0.297047559      -71.5100922      0.948592296      17.2763609       
189.37           0.950142884      17.0031857       0.292489446      -71.7928608      0.292489446      -71.7928608      0.950142884      17.0031857       
192.36           0.951629529      16.7373276       0.288047082      -72.0680149      0.288047082      -72.0680149      0.951629529      16.7373276       
195.35           0.953055612      16.4784957       0.283716204      -72.3358561      0.283716204      -72.3358561      0.953055612      16.4784957       
198.34           0.954424298      16.2264138       0.27949274       -72.5966712      0.27949274       -72.5966712      0.954424298      16.2264138       
201.33           0.955738553      15.9808192       0.2753728        -72.8507323      0.2753728        -72.8507323      0.955738553      15.9808192       
204.32           0.957001158      15.7414624       0.271352666      -73.0982983      0.271352666      -73.0982983      0.957001158      15.7414624       
207.31           0.958214722      15.5081061       0.267428785      -73.3396151      0.267428785      -73.3396151      0.958214722      15.5081061       
210.3            0.959381695      15.2805242       0.263597759      -73.574917       0.263597759      -73.574917       0.959381695      15.2805242       
213.29           0.960504378      15.0585019       0.25985634       -73.8044267      0.25985634       -73.8044267      0.960504378      15.0585019       
216.28           0.961584937      14.8418342       0.256201419      -74.0283563      0.256201419      -74.0283563      0.961584937      14.8418342       
219.27           0.962625406      14.6303259       0.252630022      -74.2469081      0.252630022      -74.2469081      0.962625406      14.6303259       
222.26           0.963627702      14.4237909       0.249139303      -74.4602747      0.249139303      -74.4602747      0.963627702      14.4237909       
225.25           0.964593631      14.2220517       0.245726537      -74.6686399      0.245726537      -74.6686399      0.964593631      14.2220517       
228.24           0.965524893      14.0249388       0.242389112      -74.872179       0.242389112      -74.872179       0.965524893      14.0249388       
231.23           0.966423093      13.8322906       0.239124528      -75.0710594      0.239124528      -75.0710594      0.966423093      13.8322906       
234.22           0.967289746      13.6439525       0.23593039       -75.2654409      0.23593039       -75.2654409      0.967289746      13.6439525       
237.21           0.968126281      13.4597768       0.232804398      -75.4554761      0.232804398      -75.4554761      0.968126281      13.4597768       
240.2            0.96893405       13.2796226       0.229744351      -75.6413111      0.229744351      -75.6413111      0.96893405       13.2796226       
243.19           0.969714328      13.1033547       0.226748136      -75.8230852      0.226748136      -75.8230852      0.969714328      13.1033547       
246.18           0.970468324      12.9308441       0.223813725      -76.0009321      0.223813725      -76.0009321      0.970468324      12.9308441       
249.17           0.971197181      12.7619671       0.220939172      -76.1749794      0.220939172      -76.1749794      0.971197181      12.7619671       
252.16           0.97190198       12.5966053       0.218122609      -76.3453494      0.218122609      -76.3453494      0.97190198       12.5966053       
255.15           0.972583747      12.4346454       0.215362242      -76.5121592      0.215362242      -76.5121592      0.972583747      12.4346454       
258.14           0.973243454      12.2759787       0.212656347      -76.6755211      0.212656347      -76.6755211      0.973243454      12.2759787       
261.13           0.973882023      12.120501        0.210003267      -76.8355426      0.210003267      -76.8355426      0.973882023      12.120501        
264.12           0.974500326      11.9681122       0.207401411      -76.9923268      0.207401411      -76.9923268      0.974500326      11.9681122       
267.11           0.975099196      11.8187167       0.204849247      -77.1459727      0.204849247      -77.1459727      0.975099196      11.8187167       
270.1            0.97567942       11.6722222       0.202345303      -77.2965752      0.202345303      -77.2965752      0.97567942       11.6722222       
273.09           0.976241747      11.5285405       0.199888161      -77.4442255      0.199888161      -77.4442255      0.976241747      11.5285405       
276.08           0.976786889      11.3875867       0.197476458      -77.5890109      0.197476458      -77.5890109      0.976786889      11.3875867       
279.07           0.977315524      11.2492792       0.195108882      -77.7310157      0.195108882      -77.7310157      0.977315524      11.2492792       
282.06           0.977828296      11.1135395       0.192784167      -77.8703205      0.192784167      -77.8703205      0.977828296      11.1135395       
285.05           0.978325819      10.9802924       0.190501097      -78.007003       0.190501097      -78.007003       0.978325819      10.9802924       
288.04           0.978808678      10.8494652       0.188258498      -78.1411378      0.188258498      -78.1411378      0.978808678      10.8494652       
291.03           0.979277428      10.7209883       0.186055239      -78.2727968      0.186055239      -78.2727968      0.979277428      10.7209883       
294.02           0.979732601      10.5947944       0.18389023       -78.402049       0.18389023       -78.402049       0.979732601      10.5947944       
297.01           0.980174704      10.4708189       0.181762419      -78.5289609      0.181762419      -78.5289609      0.980174704      10.4708189       
300              0.980604218      10.3489995       0.179670793      -78.6535966      0.179670793      -78.6535966      0.980604218      10.3489995       
302.99           0.981021605      10.2292761       0.177614372      -78.7760177      0.177614372      -78.7760177      0.981021605      10.2292761       
305.98           0.981427306      10.111591        0.175592213      -78.8962837      0.175592213      -78.8962837      0.981427306      10.111591        
308.97           0.981821739      9.99588841       0.173603403      -79.0144516      0.173603403      -79.0144516      0.981821739      9.99588841       
311.96           0.982205308      9.8821145        0.171647063      -79.1305768      0.171647063      -79.1305768      0.982205308      9.8821145        
314.95           0.982578396      9.77021742       0.169722341      -79.2447123      0.169722341      -79.2447123      0.982578396      9.77021742       
317.94           0.98294137       9.66014711       0.167828415      -79.3569095      0.167828415      -79.3569095      0.98294137       9.66014711       
320.93           0.983294582      9.55185526       0.165964493      -79.4672179      0.165964493      -79.4672179      0.983294582      9.55185526       
323.92           0.983638367      9.44529523       0.164129806      -79.5756852      0.164129806      -79.5756852      0.983638367      9.44529523       
326.91           0.983973049      9.34042195       0.162323613      -79.6823575      0.162323613      -79.6823575      0.983973049      9.34042195       
329.9            0.984298934      9.23719191       0.160545195      -79.7872793      0.160545195      -79.7872793      0.984298934      9.23719191       
332.89           0.984616318      9.13556305       0.158793858      -79.8904935      0.158793858      -79.8904935      0.984616318      9.13556305       
335.88           0.984925485      9.03549471       0.157068931      -79.9920416      0.157068931      -79.9920416      0.984925485      9.03549471       
338.87           0.985226706      8.9369476        0.155369762      -80.0919637      0.155369762      -80.0919637      0.985226706      8.9369476        
341.86           0.98552024       8.83988371       0.153695724      -80.1902986      0.153695724      -80.1902986      0.98552024       8.83988371       
344.85           0.985806338      8.74426625       0.152046206      -80.2870837      0.152046206      -80.2870837      0.985806338      8.74426625       
347.84           0.986085239      8.65005967       0.150420617      -80.3823551      0.150420617      -80.3823551      0.986085239      8.65005967       
350.83           0.986357173      8.55722952       0.148818387      -80.4761479      0.148818387      -80.4761479      0.986357173      8.55722952       
353.82           0.986622361      8.46574248       0.147238962      -80.5684958      0.147238962      -80.5684958      0.986622361      8.46574248       
356.81           0.986881016      8.37556626       0.145681803      -80.6594317      0.145681803      -80.6594317      0.986881016      8.37556626       
359.8            0.98713334       8.2866696        0.144146391      -80.7489872      0.144146391      -80.7489872      0.98713334       8.2866696        
362.79           0.98737953       8.19902222       0.142632221      -80.8371928      0.142632221      -80.8371928      0.98737953       8.19902222       
365.78           0.987619774      8.11259477       0.141138804      -80.9240784      0.141138804      -80.9240784      0.987619774      8.11259477       
368.77           0.987854254      8.02735881       0.139665665      -81.0096726      0.139665665      -81.0096726      0.987854254      8.02735881       
371.76           0.988083143      7.94328676       0.138212343      -81.0940031      0.138212343      -81.0940031      0.988083143      7.94328676       
374.75           0.98830661       7.86035188       0.136778391      -81.1770969      0.136778391      -81.1770969      0.98830661       7.86035188       
377.74           0.988524816      7.77852823       0.135363376      -81.2589801      0.135363376      -81.2589801      0.988524816      7.77852823       
380.73           0.988737916      7.69779066       0.133966876      -81.3396778      0.133966876      -81.3396778      0.988737916      7.69779066       
