! Coilcraft 0805CS-060 Chip Inductor				
! 11 June 2002			
# MHZ S MA R 50
!Freq             MagS11           AngS11           MagS21           AngS21           MagS12           AngS12           MagS22           AngS22
1                0.00137171614    17.8790373       0.998694617      -0.0241604211    0.998694617      -0.0241604211    0.00137171614    17.8790373       
27.43            0.0117595414     78.6582498       0.997753982      -0.662116241     0.997753982      -0.662116241     0.0117595414     78.6582498       
53.86            0.0228266855     82.1306539       0.997131107      -1.2993952       0.997131107      -1.2993952       0.0228266855     82.1306539       
80.29            0.033912123      83.0825157       0.996484468      -1.93605092      0.996484468      -1.93605092      0.033912123      83.0825157       
106.72           0.0449909653     83.3171189       0.995767358      -2.57202407      0.995767358      -2.57202407      0.0449909653     83.3171189       
133.15           0.0560550778     83.2417244       0.994961786      -3.20722757      0.994961786      -3.20722757      0.0560550778     83.2417244       
159.58           0.0670994645     83.0023035       0.99405883       -3.84156239      0.99405883       -3.84156239      0.0670994645     83.0023035       
186.01           0.0781200815     82.6649368       0.993053532      -4.47492341      0.993053532      -4.47492341      0.0781200815     82.6649368       
212.44           0.0891132652     82.2642025       0.991943011      -5.10720221      0.991943011      -5.10720221      0.0891132652     82.2642025       
238.87           0.10007554       81.8200933       0.99072562       -5.73828867      0.99072562       -5.73828867      0.10007554       81.8200933       
265.3            0.111003546      81.3450505       0.989400512      -6.36807197      0.989400512      -6.36807197      0.111003546      81.3450505       
291.73           0.121894006      80.8472678       0.987967397      -6.99644126      0.987967397      -6.99644126      0.121894006      80.8472678       
318.16           0.132743717      80.3323911       0.986426394      -7.62328618      0.986426394      -7.62328618      0.132743717      80.3323911       
344.59           0.143549542      79.8044587       0.984777941      -8.24849722      0.984777941      -8.24849722      0.143549542      79.8044587       
371.02           0.154308415      79.2664503       0.983022729      -8.87196605      0.983022729      -8.87196605      0.154308415      79.2664503       
397.45           0.165017336      78.7206241       0.981161658      -9.49358577      0.981161658      -9.49358577      0.165017336      78.7206241       
423.88           0.175673382      78.1687317       0.979195809      -10.1132511      0.979195809      -10.1132511      0.175673382      78.1687317       
450.31           0.1862737        77.6121597       0.977126412      -10.7308587      0.977126412      -10.7308587      0.1862737        77.6121597       
476.74           0.19681552       77.0520256       0.974954836      -11.3463071      0.974954836      -11.3463071      0.19681552       77.0520256       
503.17           0.20729615       76.4892447       0.972682564      -11.9594971      0.972682564      -11.9594971      0.20729615       76.4892447       
529.6            0.217712983      75.9245775       0.970311189      -12.5703316      0.970311189      -12.5703316      0.217712983      75.9245775       
556.03           0.228063499      75.3586641       0.967842396      -13.178716       0.967842396      -13.178716       0.228063499      75.3586641       
582.46           0.238345266      74.7920497       0.965277958      -13.7845583      0.965277958      -13.7845583      0.238345266      74.7920497       
608.89           0.248555944      74.2252035       0.962619724      -14.3877689      0.962619724      -14.3877689      0.248555944      74.2252035       
635.32           0.258693284      73.6585331       0.95986961       -14.9882611      0.95986961       -14.9882611      0.258693284      73.6585331       
661.75           0.268755134      73.0923957       0.957029598      -15.5859505      0.957029598      -15.5859505      0.268755134      73.0923957       
688.18           0.278739435      72.5271067       0.954101723      -16.180756       0.954101723      -16.180756       0.278739435      72.5271067       
714.61           0.288644226      71.9629462       0.95108807       -16.7725991      0.95108807       -16.7725991      0.288644226      71.9629462       
741.04           0.298467642      71.4001649       0.947990768      -17.3614041      0.947990768      -17.3614041      0.298467642      71.4001649       
767.47           0.308207918      70.8389881       0.944811981      -17.9470985      0.944811981      -17.9470985      0.308207918      70.8389881       
793.9            0.317863385      70.2796194       0.941553911      -18.5296125      0.941553911      -18.5296125      0.317863385      70.2796194       
820.33           0.327432472      69.7222432       0.938218783      -19.1088793      0.938218783      -19.1088793      0.327432472      69.7222432       
846.76           0.336913708      69.1670275       0.934808846      -19.6848354      0.934808846      -19.6848354      0.336913708      69.1670275       
873.19           0.346305716      68.6141255       0.931326369      -20.2574199      0.931326369      -20.2574199      0.346305716      68.6141255       
899.62           0.355607219      68.0636773       0.927773632      -20.8265751      0.927773632      -20.8265751      0.355607219      68.0636773       
926.05           0.364817033      67.5158113       0.924152927      -21.3922463      0.924152927      -21.3922463      0.364817033      67.5158113       
952.48           0.37393407       66.9706457       0.920466549      -21.9543816      0.920466549      -21.9543816      0.37393407       66.9706457       
978.91           0.382957336      66.4282885       0.916716797      -22.5129322      0.916716797      -22.5129322      0.382957336      66.4282885       
1005.34          0.391885927      65.8888396       0.912905966      -23.0678524      0.912905966      -23.0678524      0.391885927      65.8888396       
1031.77          0.400719033      65.3523904       0.909036347      -23.619099       0.909036347      -23.619099       0.400719033      65.3523904       
1058.2           0.409455928      64.8190253       0.90511022       -24.1666321      0.90511022       -24.1666321      0.409455928      64.8190253       
1084.63          0.418095978      64.2888217       0.901129855      -24.7104144      0.901129855      -24.7104144      0.418095978      64.2888217       
1111.06          0.426638629      63.7618507       0.897097505      -25.2504114      0.897097505      -25.2504114      0.426638629      63.7618507       
1137.49          0.435083415      63.2381775       0.893015407      -25.7865914      0.893015407      -25.7865914      0.435083415      63.2381775       
1163.92          0.443429947      62.7178617       0.888885776      -26.3189256      0.888885776      -26.3189256      0.443429947      62.7178617       
1190.35          0.451677917      62.2009579       0.884710804      -26.8473875      0.884710804      -26.8473875      0.451677917      62.2009579       
1216.78          0.459827091      61.6875156       0.88049266       -27.3719534      0.88049266       -27.3719534      0.459827091      61.6875156       
1243.21          0.467877311      61.1775799       0.876233481      -27.8926022      0.876233481      -27.8926022      0.467877311      61.1775799       
1269.64          0.47582849       60.6711916       0.871935379      -28.4093153      0.871935379      -28.4093153      0.47582849       60.6711916       
1296.07          0.483680609      60.1683873       0.867600432      -28.9220763      0.867600432      -28.9220763      0.483680609      60.1683873       
1322.5           0.491433716      59.6691996       0.863230686      -29.4308714      0.863230686      -29.4308714      0.491433716      59.6691996       
1348.93          0.499087925      59.1736577       0.858828152      -29.9356891      0.858828152      -29.9356891      0.499087925      59.1736577       
1375.36          0.506643409      58.6817872       0.854394806      -30.43652        0.854394806      -30.43652        0.506643409      58.6817872       
1401.79          0.5141004        58.1936103       0.849932586      -30.933357       0.849932586      -30.933357       0.5141004        58.1936103       
1428.22          0.52145919       57.7091462       0.845443391      -31.426195       0.845443391      -31.426195       0.52145919       57.7091462       
1454.65          0.52872012       57.2284109       0.840929084      -31.9150311      0.840929084      -31.9150311      0.52872012       57.2284109       
1481.08          0.535883585      56.7514179       0.836391484      -32.3998642      0.836391484      -32.3998642      0.535883585      56.7514179       
1507.51          0.542950031      56.2781777       0.831832372      -32.8806953      0.831832372      -32.8806953      0.542950031      56.2781777       
1533.94          0.549919946      55.8086983       0.827253486      -33.3575269      0.827253486      -33.3575269      0.549919946      55.8086983       
1560.37          0.556793866      55.3429852       0.822656523      -33.8303638      0.822656523      -33.8303638      0.556793866      55.3429852       
1586.8           0.563572367      54.8810418       0.818043138      -34.299212       0.818043138      -34.299212       0.563572367      54.8810418       
1613.23          0.570256064      54.4228691       0.813414942      -34.7640793      0.813414942      -34.7640793      0.570256064      54.4228691       
1639.66          0.57684561       53.9684659       0.808773505      -35.2249753      0.808773505      -35.2249753      0.57684561       53.9684659       
1666.09          0.583341692      53.5178293       0.804120352      -35.6819107      0.804120352      -35.6819107      0.583341692      53.5178293       
1692.52          0.58974503       53.0709543       0.799456968      -36.134898       0.799456968      -36.134898       0.58974503       53.0709543       
1718.95          0.596056376      52.627834        0.794784794      -36.5839508      0.794784794      -36.5839508      0.596056376      52.627834        
1745.38          0.602276507      52.1884601       0.790105227      -37.0290843      0.790105227      -37.0290843      0.602276507      52.1884601       
1771.81          0.608406228      51.7528225       0.785419623      -37.4703146      0.785419623      -37.4703146      0.608406228      51.7528225       
1798.24          0.61444637       51.3209095       0.780729296      -37.9076592      0.780729296      -37.9076592      0.61444637       51.3209095       
1824.67          0.620397785      50.8927082       0.776035517      -38.3411368      0.776035517      -38.3411368      0.620397785      50.8927082       
1851.1           0.626261344      50.468204        0.771339516      -38.7707669      0.771339516      -38.7707669      0.626261344      50.468204        
1877.53          0.632037939      50.0473812       0.766642483      -39.1965704      0.766642483      -39.1965704      0.632037939      50.0473812       
1903.96          0.63772848       49.630223        0.761945567      -39.6185687      0.761945567      -39.6185687      0.63772848       49.630223        
1930.39          0.643333888      49.2167113       0.757249877      -40.0367844      0.757249877      -40.0367844      0.643333888      49.2167113       
1956.82          0.648855103      48.8068269       0.752556481      -40.4512409      0.752556481      -40.4512409      0.648855103      48.8068269       
1983.25          0.654293073      48.4005496       0.74786641       -40.8619624      0.74786641       -40.8619624      0.654293073      48.4005496       
2009.68          0.65964876       47.9978584       0.743180658      -41.2689738      0.743180658      -41.2689738      0.65964876       47.9978584       
2036.11          0.664923134      47.5987312       0.738500178      -41.6723007      0.738500178      -41.6723007      0.664923134      47.5987312       
2062.54          0.670117173      47.2031452       0.73382589       -42.0719693      0.73382589       -42.0719693      0.670117173      47.2031452       
2088.97          0.675231861      46.811077        0.729158675      -42.4680065      0.729158675      -42.4680065      0.675231861      46.811077        
2115.4           0.68026819       46.422502        0.72449938       -42.8604397      0.72449938       -42.8604397      0.68026819       46.422502        
2141.83          0.685227153      46.0373954       0.719848817      -43.2492968      0.719848817      -43.2492968      0.685227153      46.0373954       
2168.26          0.690109749      45.6557316       0.715207764      -43.6346064      0.715207764      -43.6346064      0.690109749      45.6557316       
2194.69          0.694916977      45.2774845       0.710576968      -44.0163971      0.710576968      -44.0163971      0.694916977      45.2774845       
2221.12          0.69964984       44.9026273       0.70595714       -44.3946982      0.70595714       -44.3946982      0.69964984       44.9026273       
2247.55          0.704309338      44.5311329       0.701348962      -44.7695394      0.701348962      -44.7695394      0.704309338      44.5311329       
2273.98          0.708896471      44.1629737       0.696753086      -45.1409505      0.696753086      -45.1409505      0.708896471      44.1629737       
2300.41          0.713412241      43.7981218       0.692170131      -45.5089617      0.692170131      -45.5089617      0.713412241      43.7981218       
2326.84          0.717857642      43.4365488       0.687600689      -45.8736035      0.687600689      -45.8736035      0.717857642      43.4365488       
2353.27          0.722233669      43.078226        0.683045324      -46.2349066      0.683045324      -46.2349066      0.722233669      43.078226        
2379.7           0.726541311      42.7231246       0.678504571      -46.5929017      0.678504571      -46.5929017      0.726541311      42.7231246       
2406.13          0.730781555      42.3712152       0.673978939      -46.9476201      0.673978939      -46.9476201      0.730781555      42.3712152       
2432.56          0.73495538       42.0224685       0.669468911      -47.2990928      0.669468911      -47.2990928      0.73495538       42.0224685       
2458.99          0.739063761      41.6768549       0.664974945      -47.647351       0.664974945      -47.647351       0.739063761      41.6768549       
2485.42          0.743107667      41.3343447       0.660497473      -47.9924263      0.660497473      -47.9924263      0.743107667      41.3343447       
2511.85          0.747088059      40.9949079       0.656036905      -48.3343499      0.656036905      -48.3343499      0.747088059      40.9949079       
2538.28          0.751005891      40.6585145       0.651593628      -48.6731534      0.651593628      -48.6731534      0.751005891      40.6585145       
2564.71          0.754862112      40.3251345       0.647168005      -49.0088683      0.647168005      -49.0088683      0.754862112      40.3251345       
2591.14          0.758657659      39.9947377       0.642760378      -49.3415259      0.642760378      -49.3415259      0.758657659      39.9947377       
2617.57          0.762393462      39.667294        0.63837107       -49.6711577      0.63837107       -49.6711577      0.762393462      39.667294        
2644             0.766070445      39.3427731       0.634000382      -49.9977952      0.634000382      -49.9977952      0.766070445      39.3427731       
2670.43          0.769689519      39.0211449       0.629648596      -50.3214696      0.629648596      -50.3214696      0.769689519      39.0211449       
2696.86          0.773251588      38.7023792       0.625315974      -50.6422123      0.625315974      -50.6422123      0.773251588      38.7023792       
2723.29          0.776757545      38.3864459       0.621002763      -50.9600544      0.621002763      -50.9600544      0.776757545      38.3864459       
2749.72          0.780208276      38.073315        0.616709188      -51.2750269      0.616709188      -51.2750269      0.780208276      38.073315        
2776.15          0.783604653      37.7629565       0.612435462      -51.5871608      0.612435462      -51.5871608      0.783604653      37.7629565       
2802.58          0.786947542      37.4553406       0.608181778      -51.8964868      0.608181778      -51.8964868      0.786947542      37.4553406       
2829.01          0.790237794      37.1504373       0.603948315      -52.2030357      0.603948315      -52.2030357      0.790237794      37.1504373       
2855.44          0.793476255      36.8482172       0.599735236      -52.5068378      0.599735236      -52.5068378      0.793476255      36.8482172       
2881.87          0.796663755      36.5486507       0.59554269       -52.8079236      0.59554269       -52.8079236      0.796663755      36.5486507       
2908.3           0.799801118      36.2517083       0.591370813      -53.106323       0.591370813      -53.106323       0.799801118      36.2517083       
2934.73          0.802889153      35.9573609       0.587219725      -53.4020662      0.587219725      -53.4020662      0.802889153      35.9573609       
2961.16          0.805928662      35.6655795       0.583089535      -53.6951827      0.583089535      -53.6951827      0.805928662      35.6655795       
2987.59          0.808920434      35.3763351       0.57898034       -53.9857021      0.57898034       -53.9857021      0.808920434      35.3763351       
3014.02          0.811865246      35.089599        0.574892224      -54.2736537      0.574892224      -54.2736537      0.811865246      35.089599        
3040.45          0.814763868      34.8053428       0.570825259      -54.5590666      0.570825259      -54.5590666      0.814763868      34.8053428       
3066.88          0.817617054      34.5235381       0.566779507      -54.8419697      0.566779507      -54.8419697      0.817617054      34.5235381       
3093.31          0.820425551      34.2441569       0.562755021      -55.1223915      0.562755021      -55.1223915      0.820425551      34.2441569       
3119.74          0.823190093      33.9671712       0.55875184       -55.4003604      0.55875184       -55.4003604      0.823190093      33.9671712       
3146.17          0.825911405      33.6925535       0.554769998      -55.6759045      0.554769998      -55.6759045      0.825911405      33.6925535       
3172.6           0.828590198      33.4202762       0.550809515      -55.9490517      0.550809515      -55.9490517      0.828590198      33.4202762       
3199.03          0.831227175      33.1503122       0.546870407      -56.2198296      0.546870407      -56.2198296      0.831227175      33.1503122       
3225.46          0.833823027      32.8826345       0.542952677      -56.4882656      0.542952677      -56.4882656      0.833823027      32.8826345       
3251.89          0.836378434      32.6172164       0.539056324      -56.7543867      0.539056324      -56.7543867      0.836378434      32.6172164       
3278.32          0.838894067      32.3540313       0.535181336      -57.0182197      0.535181336      -57.0182197      0.838894067      32.3540313       
3304.75          0.841370584      32.0930531       0.531327695      -57.2797911      0.531327695      -57.2797911      0.841370584      32.0930531       
3331.18          0.843808633      31.8342557       0.527495377      -57.5391273      0.527495377      -57.5391273      0.843808633      31.8342557       
3357.61          0.846208854      31.5776135       0.52368435       -57.7962542      0.52368435       -57.7962542      0.846208854      31.5776135       
