! Coilcraft 0805CS-821 Chip Inductor				
! 30 Sept 2008			
# MHZ S MA R 50
!Freq             MagS11           AngS11           MagS21           AngS21           MagS12           AngS12           MagS22           AngS22
 1                0.0592964412     54.2699865       0.966572188     -2.85452453       0.966572188     -2.85452453       0.0592964412     54.2699865      
 1.5              0.0819054187     61.0585765       0.963035796     -4.26834674       0.963035796     -4.26834674       0.0819054187     61.0585765      
 2                0.105145969      64.3987923       0.959264055     -5.67294296       0.959264055     -5.67294296       0.105145969      64.3987923      
 2.5              0.128549869      66.0894239       0.955154379     -7.06730519       0.955154379     -7.06730519       0.128549869      66.0894239      
 3                0.151905949      66.8760846       0.950664031     -8.45030041       0.950664031     -8.45030041       0.151905949      66.8760846      
 3.5              0.175096209      67.1183815       0.94577689      -9.82076239       0.94577689      -9.82076239       0.175096209      67.1183815      
 4                0.198043496      67.01036         0.940491168     -11.1775377       0.940491168     -11.1775377       0.198043496      67.01036        
 4.5              0.220691632      66.6659626       0.934813798     -12.5195125       0.934813798     -12.5195125       0.220691632      66.6659626      
 5                0.242996794      66.1566215       0.928757459     -13.8456299       0.928757459     -13.8456299       0.242996794      66.1566215      
 5.5              0.264923402      65.5295083       0.922338799     -15.1549014       0.922338799     -15.1549014       0.264923402      65.5295083      
 6                0.286441972      64.8171149       0.915577269     -16.4464152       0.915577269     -16.4464152       0.286441972      64.8171149      
 6.5              0.307527913      64.0426105       0.908494295     -17.7193408       0.908494295     -17.7193408       0.307527913      64.0426105      
 7                0.328160799      63.2229986       0.901112654     -18.9729325       0.901112654     -18.9729325       0.328160799      63.2229986      
 7.5              0.348323878      62.3710606       0.893455984     -20.206531        0.893455984     -20.206531        0.348323878      62.3710606      
 8                0.368003719      61.4965977       0.885548379     -21.4195628       0.885548379     -21.4195628       0.368003719      61.4965977      
 8.5              0.387189929      60.6072511       0.877414067     -22.61154         0.877414067     -22.61154         0.387189929      60.6072511      
 9                0.405874904      59.709059        0.869077127     -23.7820575       0.869077127     -23.7820575       0.405874904      59.709059       
 9.5              0.424053603      58.8068451       0.860561264     -24.9307908       0.860561264     -24.9307908       0.424053603      58.8068451      
 10               0.441723338      57.9044954       0.851889617     -26.0574922       0.851889617     -26.0574922       0.441723338      57.9044954      
 10.5             0.458883565      57.00516         0.8430846       -27.161987        0.8430846       -27.161987        0.458883565      57.00516        
 11               0.475535688      56.1114024       0.834167784     -28.2441693       0.834167784     -28.2441693       0.475535688      56.1114024      
 11.5             0.491682861      55.2253132       0.82515979      -29.3039975       0.82515979      -29.3039975       0.491682861      55.2253132      
 12               0.507329803      54.3485967       0.816080223     -30.3414894       0.816080223     -30.3414894       0.507329803      54.3485967      
 12.5             0.522482622      53.4826388       0.806947614     -31.3567178       0.806947614     -31.3567178       0.522482622      53.4826388      
 13               0.537148633      52.6285608       0.797779388     -32.3498053       0.797779388     -32.3498053       0.537148633      52.6285608      
 13.5             0.551336207      51.7872624       0.788591851     -33.3209202       0.788591851     -33.3209202       0.551336207      51.7872624      
 14               0.565054608      50.9594566       0.779400182     -34.2702712       0.779400182     -34.2702712       0.565054608      50.9594566      
 14.5             0.578313857      50.1456987       0.770218447     -35.1981036       0.770218447     -35.1981036       0.578313857      50.1456987      
 15               0.591124596      49.3464097       0.761059615     -36.1046948       0.761059615     -36.1046948       0.591124596      49.3464097      
 15.5             0.603497965      48.5618964       0.751935591     -36.9903503       0.751935591     -36.9903503       0.603497965      48.5618964      
 16               0.615445496      47.7923684       0.742857246     -37.8554          0.742857246     -37.8554          0.615445496      47.7923684      
 16.5             0.626979006      47.0379517       0.733834461     -38.7001943       0.733834461     -38.7001943       0.626979006      47.0379517      
 17               0.63811051       46.2987016       0.724876168     -39.5251015       0.724876168     -39.5251015       0.63811051       46.2987016      
 17.5             0.648852141      45.5746127       0.715990401     -40.3305039       0.715990401     -40.3305039       0.648852141      45.5746127      
 18               0.659216073      44.8656281       0.70718434      -41.1167958       0.70718434      -41.1167958       0.659216073      44.8656281      
 18.5             0.669214463      44.1716469       0.698464364     -41.8843802       0.698464364     -41.8843802       0.669214463      44.1716469      
 19               0.678859393      43.4925312       0.6898361       -42.6336672       0.6898361       -42.6336672       0.678859393      43.4925312      
 19.5             0.688162825      42.828112        0.681304471     -43.3650711       0.681304471     -43.3650711       0.688162825      42.828112       
 20               0.697136555      42.178194        0.672873747     -44.0790093       0.672873747     -44.0790093       0.697136555      42.178194       
 20.5             0.705792185      41.5425604       0.664547593     -44.7758998       0.664547593     -44.7758998       0.705792185      41.5425604      
 21               0.714141089      40.9209767       0.65632911      -45.4561606       0.65632911      -45.4561606       0.714141089      40.9209767      
 21.5             0.722194392      40.3131938       0.648220884     -46.1202074       0.648220884     -46.1202074       0.722194392      40.3131938      
 22               0.729962949      39.7189512       0.640225026     -46.7684531       0.640225026     -46.7684531       0.729962949      39.7189512      
 22.5             0.737457333      39.1379797       0.632343214     -47.4013066       0.632343214     -47.4013066       0.737457333      39.1379797      
 23               0.744687818      38.5700033       0.624576725     -48.0191718       0.624576725     -48.0191718       0.744687818      38.5700033      
 23.5             0.75166438       38.0147414       0.616926478     -48.622447        0.616926478     -48.622447        0.75166438       38.0147414      
 24               0.758396679      37.4719104       0.609393063     -49.2115241       0.609393063     -49.2115241       0.758396679      37.4719104      
 24.5             0.76489407       36.9412252       0.601976772     -49.7867881       0.601976772     -49.7867881       0.76489407       36.9412252      
 25               0.77116559       36.4224003       0.594677632     -50.3486167       0.594677632     -50.3486167       0.77116559       36.4224003      
 25.5             0.777219966      35.9151511       0.587495426     -50.8973801       0.587495426     -50.8973801       0.777219966      35.9151511      
 26               0.783065618      35.4191948       0.580429724     -51.4334401       0.580429724     -51.4334401       0.783065618      35.4191948      
 26.5             0.788710656      34.9342509       0.573479902     -51.9571506       0.573479902     -51.9571506       0.788710656      34.9342509      
 27               0.794162894      34.4600425       0.566645166     -52.4688572       0.566645166     -52.4688572       0.794162894      34.4600425      
 27.5             0.799429849      33.9962961       0.559924571     -52.9688967       0.559924571     -52.9688967       0.799429849      33.9962961      
 28               0.80451875       33.5427425       0.553317038     -53.4575976       0.553317038     -53.4575976       0.80451875       33.5427425      
 28.5             0.809436545      33.0991173       0.546821372     -53.9352797       0.546821372     -53.9352797       0.809436545      33.0991173      
 29               0.81418991       32.6651608       0.540436276     -54.4022544       0.540436276     -54.4022544       0.81418991       32.6651608      
 29.5             0.818785253      32.2406187       0.534160365     -54.8588244       0.534160365     -54.8588244       0.818785253      32.2406187      
 30               0.823228727      31.8252419       0.527992181     -55.305284        0.527992181     -55.305284        0.823228727      31.8252419      
 30.5             0.827526236      31.4187871       0.521930201     -55.7419193       0.521930201     -55.7419193       0.827526236      31.4187871      
 31               0.831683441      31.0210162       0.515972848     -56.1690079       0.515972848     -56.1690079       0.831683441      31.0210162      
 31.5             0.835705774      30.6316973       0.510118504     -56.5868194       0.510118504     -56.5868194       0.835705774      30.6316973      
 32               0.839598441      30.2506039       0.504365514     -56.9956156       0.504365514     -56.9956156       0.839598441      30.2506039      
 32.5             0.843366433      29.8775154       0.498712196     -57.3956502       0.498712196     -57.3956502       0.843366433      29.8775154      
 33               0.847014535      29.512217        0.493156846     -57.7871695       0.493156846     -57.7871695       0.847014535      29.512217       
 33.5             0.850547331      29.1544993       0.487697748     -58.1704122       0.487697748     -58.1704122       0.850547331      29.1544993      
 34               0.853969215      28.8041589       0.482333177     -58.5456096       0.482333177     -58.5456096       0.853969215      28.8041589      
 34.5             0.857284396      28.4609979       0.477061403     -58.9129861       0.477061403     -58.9129861       0.857284396      28.4609979      
 35               0.860496908      28.1248239       0.471880697     -59.272759        0.471880697     -59.272759        0.860496908      28.1248239      
 35.5             0.863610617      27.7954497       0.466789336     -59.6251389       0.466789336     -59.6251389       0.863610617      27.7954497      
 36               0.866629225      27.4726938       0.461785602     -59.9703298       0.461785602     -59.9703298       0.866629225      27.4726938      
 36.5             0.86955628       27.1563796       0.456867793     -60.3085294       0.456867793     -60.3085294       0.86955628       27.1563796      
 37               0.872395182      26.8463359       0.452034216     -60.6399291       0.452034216     -60.6399291       0.872395182      26.8463359      
 37.5             0.875149189      26.5423962       0.447283198     -60.9647144       0.447283198     -60.9647144       0.875149189      26.5423962      
 38               0.877821423      26.2443991       0.442613082     -61.2830649       0.442613082     -61.2830649       0.877821423      26.2443991      
 38.5             0.880414875      25.9521879       0.438022232     -61.5951545       0.438022232     -61.5951545       0.880414875      25.9521879      
 39               0.882932412      25.6656104       0.433509035     -61.9011517       0.433509035     -61.9011517       0.882932412      25.6656104      
 39.5             0.885376785      25.3845192       0.429071899     -62.2012197       0.429071899     -62.2012197       0.885376785      25.3845192      
 40               0.887750626      25.108771        0.424709257     -62.4955165       0.424709257     -62.4955165       0.887750626      25.108771       
 40.5             0.890056463      24.838227        0.420419568     -62.7841951       0.420419568     -62.7841951       0.890056463      24.838227       
 41               0.892296718      24.5727524       0.416201314     -63.0674039       0.416201314     -63.0674039       0.892296718      24.5727524      
 41.5             0.894473713      24.3122165       0.412053007     -63.3452863       0.412053007     -63.3452863       0.894473713      24.3122165      
 42               0.896589676      24.0564925       0.407973183     -63.6179816       0.407973183     -63.6179816       0.896589676      24.0564925      
 42.5             0.898646745      23.8054575       0.403960407     -63.8856245       0.403960407     -63.8856245       0.898646745      23.8054575      
 43               0.900646971      23.5589922       0.400013269     -64.1483455       0.400013269     -64.1483455       0.900646971      23.5589922      
 43.5             0.90259232       23.3169807       0.396130391     -64.406271        0.396130391     -64.406271        0.90259232       23.3169807      
 44               0.904484681      23.079311        0.392310418     -64.6595237       0.392310418     -64.6595237       0.904484681      23.079311       
 44.5             0.906325867      22.845874        0.388552025     -64.9082222       0.388552025     -64.9082222       0.906325867      22.845874       
 45               0.908117618      22.6165642       0.384853914     -65.1524817       0.384853914     -65.1524817       0.908117618      22.6165642      
 45.5             0.909861605      22.391279        0.381214814     -65.3924137       0.381214814     -65.3924137       0.909861605      22.391279       
 46               0.911559432      22.1699189       0.377633482     -65.6281263       0.377633482     -65.6281263       0.911559432      22.1699189      
 46.5             0.913212642      21.9523876       0.374108703     -65.8597243       0.374108703     -65.8597243       0.913212642      21.9523876      
 47               0.914822715      21.7385913       0.370639284     -66.0873093       0.370639284     -66.0873093       0.914822715      21.7385913      
 47.5             0.916391074      21.5284392       0.367224065     -66.3109798       0.367224065     -66.3109798       0.916391074      21.5284392      
 48               0.917919088      21.3218431       0.363861906     -66.5308313       0.363861906     -66.5308313       0.917919088      21.3218431      
 48.5             0.91940807       21.1187175       0.360551696     -66.7469566       0.360551696     -66.7469566       0.91940807       21.1187175      
 49               0.920859286      20.9189792       0.357292349     -66.9594454       0.357292349     -66.9594454       0.920859286      20.9189792      
 49.5             0.92227395       20.7225475       0.354082802     -67.168385        0.354082802     -67.168385        0.92227395       20.7225475      
 50               0.923653234      20.5293443       0.350922019     -67.3738599       0.350922019     -67.3738599       0.923653234      20.5293443      
 50.5             0.92499826       20.3392934       0.347808984     -67.5759522       0.347808984     -67.5759522       0.92499826       20.3392934      
 51               0.926310113      20.152321        0.34474271      -67.7747415       0.34474271      -67.7747415       0.926310113      20.152321       
 51.5             0.927589833      19.9683554       0.341722228     -67.9703052       0.341722228     -67.9703052       0.927589833      19.9683554      
 52               0.928838424      19.787327        0.338746594     -68.1627182       0.338746594     -68.1627182       0.928838424      19.787327       
 52.5             0.930056851      19.6091681       0.335814886     -68.3520535       0.335814886     -68.3520535       0.930056851      19.6091681      
 53               0.931246045      19.4338131       0.332926204     -68.5383817       0.332926204     -68.5383817       0.931246045      19.4338131      
 53.5             0.9324069        19.2611979       0.330079667     -68.7217715       0.330079667     -68.7217715       0.9324069        19.2611979      
 54               0.933540281      19.0912607       0.327274417     -68.9022896       0.327274417     -68.9022896       0.933540281      19.0912607      
 54.5             0.934647017      18.9239411       0.324509616     -69.0800008       0.324509616     -69.0800008       0.934647017      18.9239411      
 55               0.935727911      18.7591804       0.321784445     -69.2549681       0.321784445     -69.2549681       0.935727911      18.7591804      
 55.5             0.936783735      18.5969217       0.319098105     -69.4272527       0.319098105     -69.4272527       0.936783735      18.5969217      
 56               0.937815234      18.4371097       0.316449815     -69.5969138       0.316449815     -69.5969138       0.937815234      18.4371097      
 56.5             0.938823126      18.2796904       0.313838813     -69.7640094       0.313838813     -69.7640094       0.938823126      18.2796904      
 57               0.939808104      18.1246114       0.311264356     -69.9285956       0.311264356     -69.9285956       0.939808104      18.1246114      
 57.5             0.940770835      17.971822        0.308725717     -70.0907269       0.308725717     -70.0907269       0.940770835      17.971822       
 58               0.941711966      17.8212723       0.306222186     -70.2504563       0.306222186     -70.2504563       0.941711966      17.8212723      
 58.5             0.942632117      17.6729144       0.303753072     -70.4078356       0.303753072     -70.4078356       0.942632117      17.6729144      
 59               0.943531891      17.5267013       0.301317699     -70.5629149       0.301317699     -70.5629149       0.943531891      17.5267013      
 59.5             0.944411866      17.3825874       0.298915405     -70.715743        0.298915405     -70.715743        0.944411866      17.3825874      
 60               0.945272604      17.2405282       0.296545547     -70.8663674       0.296545547     -70.8663674       0.945272604      17.2405282      
 60.5             0.946114644      17.1004805       0.294207494     -71.0148344       0.294207494     -71.0148344       0.946114644      17.1004805      
 61               0.94693851       16.9624023       0.291900633     -71.1611887       0.291900633     -71.1611887       0.94693851       16.9624023      
 61.5             0.947744707      16.8262526       0.289624363     -71.3054744       0.289624363     -71.3054744       0.947744707      16.8262526      
 62               0.948533722      16.6919915       0.287378096     -71.4477338       0.287378096     -71.4477338       0.948533722      16.6919915      
 62.5             0.949306027      16.5595802       0.285161262     -71.5880085       0.285161262     -71.5880085       0.949306027      16.5595802      
 63               0.950062078      16.4289808       0.282973299     -71.7263388       0.282973299     -71.7263388       0.950062078      16.4289808      
 63.5             0.950802316      16.3001566       0.280813663     -71.8627642       0.280813663     -71.8627642       0.950802316      16.3001566      
 64               0.951527168      16.1730715       0.278681819     -71.9973227       0.278681819     -71.9973227       0.951527168      16.1730715      
 64.5             0.952237045      16.0476907       0.276577246     -72.1300518       0.276577246     -72.1300518       0.952237045      16.0476907      
