! Infineon Technologies  Discrete & RF Semiconductors
! BFP196
! VCE =  4.0 V,  IC =  10 mA
! Common Emitter S-Parameters:                            Jan 2017
# GHz  S  MA  R  50
!  f         S11            S21            S12            S22
! GHz     MAG   ANG      MAG   ANG      MAG   ANG      MAG   ANG
 0.010  0.7156  -11.7  30.021  174.0  0.0048   85.3  0.9952   -6.0
 0.020  0.7251  -23.1  29.915  168.2  0.0100   84.8  0.9726  -12.0
 0.030  0.6953  -33.2  28.715  163.1  0.0143   74.5  0.9364  -17.0
 0.040  0.6883  -43.7  27.758  157.7  0.0188   69.1  0.9078  -22.3
 0.050  0.7049  -54.2  27.068  151.9  0.0235   65.8  0.8874  -27.9
 0.060  0.6807  -61.6  25.736  148.6  0.0263   61.7  0.8440  -31.1
 0.070  0.6685  -69.4  24.497  145.0  0.0291   58.4  0.8034  -34.6
 0.080  0.6690  -77.3  23.364  141.1  0.0321   55.7  0.7663  -38.5
 0.090  0.6821  -85.1  22.354  136.7  0.0351   53.5  0.7330  -42.8
 0.100  0.7071  -92.4  21.484  132.0  0.0381   51.6  0.7041  -47.4
 0.110  0.6946  -97.0  20.465  129.9  0.0394   49.5  0.6723  -49.4
 0.120  0.6868 -101.8  19.475  127.6  0.0407   47.5  0.6414  -51.6
 0.130  0.6839 -106.7  18.520  125.1  0.0421   45.7  0.6115  -54.0
 0.140  0.6859 -111.5  17.605  122.3  0.0435   43.9  0.5828  -56.6
 0.150  0.6927 -116.3  16.737  119.2  0.0449   42.3  0.5555  -59.5
 0.200  0.6980 -132.0  13.515  110.6  0.0482   38.8  0.4555  -67.6
 0.250  0.6945 -143.0  11.216  104.1  0.0513   36.4  0.3844  -73.0
 0.300  0.6915 -150.9   9.538   99.6  0.0535   35.8  0.3336  -77.4
 0.350  0.6882 -156.5   8.423   96.5  0.0555   36.3  0.3017  -80.2
 0.400  0.6916 -162.1   7.340   92.4  0.0575   36.8  0.2707  -83.6
 0.450  0.6899 -166.2   6.625   90.0  0.0595   37.5  0.2521  -85.9
 0.500  0.6917 -170.2   5.925   87.0  0.0615   38.1  0.2339  -88.5
 0.600  0.6963 -176.5   4.988   82.4  0.0657   39.6  0.2107  -92.9
 0.700  0.6968  178.7   4.287   78.4  0.0696   42.4  0.1958  -96.3
 0.800  0.6987  174.0   3.769   74.5  0.0750   44.1  0.1893 -100.0
 0.900  0.6972  169.9   3.355   71.1  0.0800   45.4  0.1852 -103.5
 1.000  0.7020  166.1   3.038   67.7  0.0848   46.8  0.1828 -107.0
 1.100  0.7043  162.6   2.772   64.5  0.0907   47.9  0.1841 -110.0
 1.200  0.7062  159.1   2.545   61.3  0.0963   48.5  0.1864 -113.3
 1.300  0.7078  155.9   2.357   58.3  0.1020   49.3  0.1903 -116.3
 1.400  0.7128  153.0   2.200   55.3  0.1084   49.7  0.1950 -119.7
 1.500  0.7176  149.8   2.055   52.4  0.1149   50.0  0.2012 -122.9
 1.600  0.7209  146.7   1.935   49.4  0.1211   50.2  0.2084 -125.5
 1.700  0.7244  143.8   1.829   46.7  0.1276   50.3  0.2173 -128.8
 1.800  0.7318  140.8   1.736   43.8  0.1346   50.0  0.2255 -131.7
 1.900  0.7340  138.1   1.646   41.3  0.1406   49.8  0.2346 -134.4
 2.000  0.7368  135.3   1.564   38.5  0.1477   49.4  0.2448 -136.9
 2.100  0.7414  132.5   1.492   36.0  0.1545   49.0  0.2545 -139.5
 2.200  0.7478  129.7   1.424   33.3  0.1613   48.6  0.2646 -141.9
 2.300  0.7507  127.3   1.365   31.0  0.1686   47.9  0.2762 -144.0
 2.400  0.7549  125.0   1.309   28.5  0.1759   47.3  0.2881 -146.0
 2.500  0.7590  122.6   1.257   26.4  0.1829   46.5  0.2994 -148.3
 2.600  0.7645  120.2   1.207   24.1  0.1900   45.7  0.3111 -150.5
 2.700  0.7677  118.0   1.163   22.0  0.1968   44.9  0.3216 -152.5
 2.800  0.7719  115.9   1.121   19.8  0.2037   44.2  0.3325 -154.4
 2.900  0.7756  113.7   1.083   17.9  0.2105   43.2  0.3416 -156.6
 3.000  0.7804  111.5   1.046   15.8  0.2174   42.3  0.3512 -158.7
 3.100  0.7822  109.5   1.015   14.2  0.2242   41.3  0.3588 -160.9
 3.200  0.7850  107.6   0.984   12.6  0.2310   40.3  0.3669 -163.0
 3.300  0.7887  105.6   0.955   10.8  0.2379   39.4  0.3755 -165.0
 3.400  0.7932  103.7   0.926    8.9  0.2449   38.5  0.3845 -167.0
 3.500  0.7987  101.8   0.899    6.9  0.2519   37.7  0.3940 -168.8
 3.600  0.8004  100.1   0.876    5.5  0.2584   36.5  0.4011 -171.2
 3.700  0.8028   98.4   0.854    4.1  0.2650   35.3  0.4089 -173.4
 3.800  0.8059   96.7   0.832    2.6  0.2718   34.2  0.4174 -175.6
 3.900  0.8097   95.0   0.811    1.0  0.2786   33.1  0.4264 -177.7
 4.000  0.8142   93.3   0.790   -0.7  0.2855   32.1  0.4359 -179.7
 4.100  0.8141   91.7   0.772   -1.9  0.2919   30.8  0.4434  177.9
 4.200  0.8147   90.1   0.755   -3.1  0.2984   29.5  0.4517  175.5
 4.300  0.8158   88.5   0.738   -4.4  0.3051   28.3  0.4607  173.3
 4.400  0.8176   87.0   0.721   -5.7  0.3120   27.1  0.4704  171.1
 4.500  0.8200   85.4   0.705   -7.1  0.3189   26.0  0.4808  169.0
 4.600  0.8213   84.0   0.691   -8.0  0.3247   24.7  0.4895  166.9
 4.700  0.8232   82.6   0.678   -8.9  0.3307   23.5  0.4988  164.9
 4.800  0.8255   81.2   0.665   -9.9  0.3368   22.3  0.5088  163.0
 4.900  0.8282   79.9   0.652  -10.9  0.3430   21.2  0.5192  161.2
 5.000  0.8315   78.5   0.639  -12.0  0.3494   20.1  0.5302  159.4
 5.100  0.8303   77.1   0.631  -12.8  0.3546   18.8  0.5393  157.8
 5.200  0.8296   75.8   0.622  -13.6  0.3600   17.5  0.5488  156.3
 5.300  0.8293   74.4   0.614  -14.4  0.3655   16.3  0.5586  154.9
 5.400  0.8295   73.1   0.606  -15.2  0.3712   15.1  0.5688  153.5
 5.500  0.8302   71.7   0.598  -16.1  0.3771   13.9  0.5793  152.1
 5.600  0.8283   70.5   0.590  -16.7  0.3816   12.7  0.5841  150.8
 5.700  0.8268   69.3   0.583  -17.4  0.3863   11.5  0.5892  149.6
 5.800  0.8257   68.0   0.576  -18.0  0.3911   10.3  0.5946  148.3
 5.900  0.8250   66.8   0.568  -18.7  0.3961    9.1  0.6003  147.1
 6.000  0.8246   65.6   0.561  -19.4  0.4013    8.0  0.6062  145.9
!
!  f       NFmin   Gammaopt  rn/50
! GHz       dB    MAG  ANG    -
 0.450      0.99  0.35  147   0.06
 0.900      1.29  0.50  174   0.05
 1.900      2.40  0.70 -139   0.25
 2.400      2.90  0.73 -123   0.68
!
! (c) 2017  Infineon Technologies AG, Munich