! Infineon Technologies  Discrete & RF Semiconductors
! BFP196
! VCE =  2.0 V,  IC =  15 mA
! Common Emitter S-Parameters:                            Jan 2017
# GHz  S  MA  R  50
!  f         S11            S21            S12            S22
! GHz     MAG   ANG      MAG   ANG      MAG   ANG      MAG   ANG
 0.010  0.5948  -17.8  40.986  171.8  0.0055   83.1  0.9849   -9.4
 0.020  0.6084  -34.7  40.396  164.0  0.0103   80.1  0.9519  -18.5
 0.030  0.5785  -48.5  37.783  158.0  0.0146   69.0  0.8900  -25.5
 0.040  0.5845  -62.9  35.645  151.2  0.0191   63.0  0.8432  -33.4
 0.050  0.6255  -76.2  34.070  143.6  0.0238   59.4  0.8140  -42.0
 0.060  0.6089  -84.4  31.843  140.5  0.0257   55.9  0.7593  -45.9
 0.070  0.6051  -92.8  29.724  136.9  0.0278   52.8  0.7087  -50.5
 0.080  0.6145 -101.2  27.737  132.8  0.0299   50.2  0.6633  -55.7
 0.090  0.6364 -109.1  25.912  128.2  0.0320   48.0  0.6241  -61.6
 0.100  0.6696 -116.4  24.286  122.8  0.0342   46.0  0.5923  -68.2
 0.110  0.6645 -120.5  22.943  121.0  0.0352   44.8  0.5616  -70.8
 0.120  0.6629 -124.6  21.624  119.1  0.0362   43.7  0.5321  -73.6
 0.130  0.6648 -128.8  20.334  116.8  0.0372   42.6  0.5041  -76.8
 0.140  0.6701 -132.9  19.079  114.3  0.0383   41.6  0.4778  -80.4
 0.150  0.6788 -136.9  17.867  111.4  0.0393   40.6  0.4536  -84.3
 0.200  0.6902 -149.0  13.989  104.1  0.0421   38.6  0.3738  -95.9
 0.250  0.6946 -157.4  11.426   98.7  0.0446   39.4  0.3222 -104.6
 0.300  0.6942 -163.3   9.626   95.0  0.0476   40.2  0.2878 -112.0
 0.350  0.6950 -167.5   8.469   92.4  0.0502   42.0  0.2677 -117.0
 0.400  0.6994 -171.6   7.335   88.9  0.0528   43.7  0.2500 -122.8
 0.450  0.6986 -174.8   6.612   86.8  0.0559   45.0  0.2398 -126.7
 0.500  0.7000 -177.9   5.899   84.2  0.0590   46.2  0.2308 -130.9
 0.600  0.7035  177.0   4.948   80.2  0.0657   48.4  0.2206 -137.4
 0.700  0.7043  172.9   4.249   76.7  0.0714   50.2  0.2145 -142.1
 0.800  0.7071  169.0   3.729   73.1  0.0791   52.0  0.2133 -145.8
 0.900  0.7066  165.4   3.317   69.9  0.0863   52.5  0.2144 -149.0
 1.000  0.7087  162.2   3.007   66.8  0.0932   53.0  0.2157 -152.0
 1.100  0.7133  158.9   2.741   63.8  0.1010   53.5  0.2194 -154.1
 1.200  0.7141  155.7   2.519   60.8  0.1083   53.4  0.2226 -156.1
 1.300  0.7176  152.6   2.334   58.0  0.1154   53.1  0.2282 -158.0
 1.400  0.7213  149.9   2.181   55.1  0.1233   53.0  0.2345 -160.0
 1.500  0.7244  147.0   2.037   52.4  0.1308   52.5  0.2416 -161.8
 1.600  0.7273  144.0   1.919   49.6  0.1383   51.9  0.2480 -163.1
 1.700  0.7309  141.2   1.816   46.9  0.1463   51.2  0.2571 -164.5
 1.800  0.7372  138.4   1.725   44.1  0.1538   50.5  0.2653 -166.1
 1.900  0.7396  135.7   1.637   41.8  0.1613   49.8  0.2740 -167.5
 2.000  0.7419  133.0   1.557   39.0  0.1687   48.8  0.2829 -168.7
 2.100  0.7452  130.3   1.487   36.6  0.1760   48.0  0.2919 -170.1
 2.200  0.7500  127.7   1.420   34.0  0.1833   47.2  0.3011 -171.4
 2.300  0.7531  125.4   1.363   31.8  0.1909   46.1  0.3108 -172.4
 2.400  0.7574  123.1   1.309   29.5  0.1986   45.1  0.3205 -173.4
 2.500  0.7612  120.8   1.259   27.4  0.2054   44.0  0.3302 -174.7
 2.600  0.7661  118.6   1.211   25.1  0.2122   42.9  0.3400 -176.0
 2.700  0.7692  116.4   1.170   23.1  0.2188   41.8  0.3484 -177.2
 2.800  0.7733  114.3   1.130   21.0  0.2255   40.8  0.3569 -178.4
 2.900  0.7760  112.2   1.093   19.1  0.2321   39.6  0.3648 -179.9
 3.000  0.7797  110.1   1.057   17.1  0.2387   38.5  0.3729  178.7
 3.100  0.7814  108.2   1.027   15.5  0.2448   37.4  0.3793  177.1
 3.200  0.7839  106.3   0.999   13.9  0.2510   36.3  0.3859  175.6
 3.300  0.7872  104.4   0.971   12.1  0.2573   35.2  0.3928  174.1
 3.400  0.7915  102.5   0.944   10.3  0.2637   34.2  0.4000  172.7
 3.500  0.7965  100.7   0.918    8.3  0.2701   33.3  0.4074  171.3
 3.600  0.7978   99.0   0.896    6.9  0.2759   32.1  0.4137  169.5
 3.700  0.7998   97.4   0.875    5.4  0.2819   30.9  0.4204  167.8
 3.800  0.8024   95.7   0.854    3.9  0.2879   29.7  0.4275  166.1
 3.900  0.8057   94.1   0.834    2.3  0.2941   28.6  0.4349  164.5
 4.000  0.8096   92.5   0.814    0.6  0.3004   27.6  0.4427  162.9
 4.100  0.8095   91.0   0.797   -0.6  0.3061   26.3  0.4498  161.0
 4.200  0.8099   89.4   0.780   -1.9  0.3119   25.1  0.4575  159.2
 4.300  0.8110   87.9   0.763   -3.3  0.3178   23.9  0.4655  157.4
 4.400  0.8126   86.3   0.748   -4.7  0.3239   22.7  0.4740  155.7
 4.500  0.8148   84.8   0.732   -6.2  0.3301   21.6  0.4829  154.1
 4.600  0.8157   83.4   0.719   -7.2  0.3351   20.4  0.4910  152.6
 4.700  0.8171   82.1   0.706   -8.2  0.3402   19.2  0.4994  151.1
 4.800  0.8189   80.8   0.693   -9.2  0.3455   18.1  0.5082  149.6
 4.900  0.8211   79.4   0.680  -10.3  0.3510   17.0  0.5172  148.2
 5.000  0.8238   78.1   0.668  -11.4  0.3565   15.9  0.5266  146.9
 5.100  0.8228   76.8   0.660  -12.3  0.3610   14.6  0.5346  145.8
 5.200  0.8222   75.4   0.652  -13.2  0.3657   13.4  0.5427  144.6
 5.300  0.8221   74.1   0.645  -14.1  0.3705   12.2  0.5511  143.6
 5.400  0.8225   72.7   0.637  -15.0  0.3755   11.0  0.5597  142.5
 5.500  0.8233   71.4   0.630  -16.0  0.3806    9.9  0.5684  141.5
 5.600  0.8216   70.2   0.622  -16.7  0.3847    8.8  0.5724  140.5
 5.700  0.8203   69.1   0.615  -17.5  0.3890    7.7  0.5765  139.6
 5.800  0.8194   67.9   0.607  -18.2  0.3934    6.6  0.5808  138.6
 5.900  0.8187   66.8   0.600  -19.0  0.3980    5.5  0.5853  137.7
 6.000  0.8184   65.6   0.593  -19.8  0.4027    4.5  0.5899  136.8
!
!  f       NFmin   Gammaopt  rn/50
! GHz       dB    MAG  ANG    -
!
! noise parameter not available yet for this operation point!
!
! (c) 2017  Infineon Technologies AG, Munich