! Infineon Technologies  Discrete & RF Semiconductors
! BFP196
! VCE =  8.0 V,  IC =  60 mA
! Common Emitter S-Parameters:                            Jan 2017
# GHz  S  MA  R  50
!  f         S11            S21            S12            S22
! GHz     MAG   ANG      MAG   ANG      MAG   ANG      MAG   ANG
 0.010  0.2991  -38.2  83.485  167.3  0.0032   78.2  0.9385  -13.6
 0.020  0.3599  -68.3  79.469  156.2  0.0059   78.0  0.8805  -27.0
 0.030  0.3729  -87.5  71.074  149.7  0.0079   67.8  0.7872  -35.0
 0.040  0.4227 -103.7  63.815  141.7  0.0100   61.9  0.7131  -44.9
 0.050  0.4985 -115.8  58.119  131.8  0.0122   58.0  0.6645  -56.6
 0.060  0.5043 -122.4  53.366  129.3  0.0133   57.4  0.6099  -60.4
 0.070  0.5168 -128.8  48.736  126.3  0.0144   56.9  0.5585  -64.9
 0.080  0.5353 -134.9  44.269  122.6  0.0154   56.5  0.5111  -70.2
 0.090  0.5593 -140.4  40.018  118.2  0.0165   56.1  0.4691  -76.6
 0.100  0.5881 -145.5  36.060  112.8  0.0176   55.8  0.4340  -84.1
 0.110  0.5898 -148.2  33.855  111.5  0.0183   55.6  0.4103  -86.6
 0.120  0.5928 -150.9  31.670  110.0  0.0189   55.4  0.3874  -89.4
 0.130  0.5971 -153.5  29.509  108.3  0.0196   55.2  0.3656  -92.5
 0.140  0.6027 -156.1  27.379  106.3  0.0202   55.0  0.3450  -96.0
 0.150  0.6095 -158.7  25.287  104.0  0.0209   54.8  0.3259 -100.0
 0.200  0.6216 -165.7  19.355   98.4  0.0241   59.8  0.2726 -111.5
 0.250  0.6271 -170.8  15.614   94.5  0.0283   60.3  0.2399 -119.9
 0.300  0.6273 -174.7  13.069   91.7  0.0319   62.4  0.2202 -127.2
 0.350  0.6284 -177.4  11.476   89.7  0.0361   64.1  0.2092 -132.0
 0.400  0.6309  179.9   9.902   87.0  0.0403   65.4  0.1998 -137.2
 0.450  0.6320  177.5   8.914   85.3  0.0445   66.1  0.1948 -140.8
 0.500  0.6342  175.2   7.935   83.2  0.0488   66.6  0.1907 -144.6
 0.600  0.6374  171.4   6.646   79.9  0.0573   66.9  0.1875 -150.2
 0.700  0.6386  168.3   5.700   77.1  0.0653   67.3  0.1841 -154.2
 0.800  0.6422  165.0   4.999   73.9  0.0749   66.8  0.1849 -157.3
 0.900  0.6425  161.8   4.440   71.2  0.0834   65.9  0.1875 -160.0
 1.000  0.6462  158.8   4.017   68.5  0.0918   65.5  0.1896 -162.7
 1.100  0.6487  156.0   3.661   66.0  0.1004   64.7  0.1926 -164.2
 1.200  0.6513  153.0   3.358   63.2  0.1087   63.4  0.1953 -166.1
 1.300  0.6539  150.2   3.110   60.8  0.1171   62.5  0.2002 -167.5
 1.400  0.6576  147.5   2.902   58.2  0.1256   61.6  0.2064 -169.2
 1.500  0.6622  144.9   2.709   55.8  0.1338   60.0  0.2117 -170.5
 1.600  0.6651  142.1   2.551   53.2  0.1417   58.7  0.2171 -171.5
 1.700  0.6682  139.4   2.409   50.8  0.1498   57.6  0.2251 -172.6
 1.800  0.6750  136.7   2.286   48.2  0.1578   56.2  0.2321 -173.9
 1.900  0.6792  134.2   2.168   46.1  0.1654   55.0  0.2395 -175.0
 2.000  0.6798  131.7   2.061   43.5  0.1731   53.6  0.2469 -175.8
 2.100  0.6839  129.1   1.967   41.3  0.1804   52.2  0.2547 -176.9
 2.200  0.6894  126.5   1.876   38.9  0.1878   51.0  0.2626 -178.0
 2.300  0.6930  124.3   1.800   36.8  0.1953   49.6  0.2702 -178.7
 2.400  0.6976  122.1   1.727   34.5  0.2029   48.3  0.2779 -179.4
 2.500  0.7012  119.9   1.661   32.5  0.2095   46.9  0.2865  179.5
 2.600  0.7057  117.8   1.597   30.4  0.2163   45.5  0.2951  178.5
 2.700  0.7104  115.8   1.541   28.5  0.2228   44.2  0.3018  177.5
 2.800  0.7159  113.8   1.486   26.4  0.2295   42.9  0.3085  176.6
 2.900  0.7193  111.7   1.438   24.5  0.2356   41.6  0.3152  175.2
 3.000  0.7237  109.7   1.392   22.5  0.2418   40.3  0.3220  173.9
 3.100  0.7260  107.9   1.353   20.9  0.2474   39.0  0.3268  172.5
 3.200  0.7290  106.0   1.314   19.2  0.2531   37.7  0.3317  171.1
 3.300  0.7328  104.2   1.277   17.4  0.2589   36.5  0.3369  169.8
 3.400  0.7372  102.5   1.241   15.4  0.2649   35.4  0.3422  168.5
 3.500  0.7424  100.7   1.207   13.4  0.2709   34.3  0.3477  167.2
 3.600  0.7448   99.1   1.177   11.9  0.2762   33.0  0.3527  165.6
 3.700  0.7477   97.5   1.149   10.3  0.2816   31.7  0.3580  164.0
 3.800  0.7512   95.9   1.121    8.7  0.2871   30.4  0.3635  162.4
 3.900  0.7553   94.3   1.094    6.9  0.2928   29.2  0.3694  160.9
 4.000  0.7599   92.8   1.068    5.1  0.2986   28.1  0.3754  159.5
 4.100  0.7608   91.3   1.045    3.7  0.3036   26.8  0.3815  157.8
 4.200  0.7622   89.9   1.022    2.3  0.3087   25.5  0.3879  156.1
 4.300  0.7641   88.4   1.000    0.7  0.3140   24.3  0.3946  154.5
 4.400  0.7665   86.9   0.979   -0.8  0.3194   23.1  0.4017  152.9
 4.500  0.7694   85.5   0.959   -2.5  0.3250   22.0  0.4090  151.4
 4.600  0.7714   84.2   0.941   -3.7  0.3295   20.8  0.4161  150.0
 4.700  0.7738   82.8   0.922   -4.9  0.3341   19.7  0.4235  148.7
 4.800  0.7766   81.5   0.905   -6.2  0.3389   18.5  0.4311  147.5
 4.900  0.7799   80.2   0.888   -7.5  0.3438   17.5  0.4388  146.3
 5.000  0.7835   78.9   0.871   -8.9  0.3488   16.4  0.4468  145.1
 5.100  0.7832   77.6   0.858  -10.0  0.3530   15.2  0.4542  144.2
 5.200  0.7832   76.3   0.846  -11.2  0.3573   14.0  0.4616  143.4
 5.300  0.7837   75.0   0.834  -12.4  0.3618   12.8  0.4692  142.6
 5.400  0.7845   73.7   0.822  -13.6  0.3664   11.7  0.4769  141.8
 5.500  0.7858   72.4   0.811  -14.9  0.3712   10.6  0.4846  141.0
 5.600  0.7848   71.2   0.799  -15.9  0.3750    9.5  0.4882  140.2
 5.700  0.7841   70.0   0.787  -16.9  0.3789    8.4  0.4918  139.4
 5.800  0.7838   68.9   0.776  -18.0  0.3830    7.3  0.4956  138.7
 5.900  0.7838   67.7   0.765  -19.1  0.3872    6.2  0.4994  137.9
 6.000  0.7841   66.5   0.754  -20.2  0.3915    5.2  0.5033  137.2
!
!  f       NFmin   Gammaopt  rn/50
! GHz       dB    MAG  ANG    -
 0.450      1.56  0.41 -174   0.06
 0.900      1.72  0.48 -162   0.08
 1.900      2.54  0.68 -132   0.35
 2.400      2.93  0.70 -119   0.72
!
! (c) 2017  Infineon Technologies AG, Munich