! Infineon Technologies  Discrete & RF Semiconductors
! BFP196
! VCE =  8.0 V,  IC =  70 mA
! Common Emitter S-Parameters:                            Jan 2017
# GHz  S  MA  R  50
!  f         S11            S21            S12            S22
! GHz     MAG   ANG      MAG   ANG      MAG   ANG      MAG   ANG
 0.010  0.2717  -43.3  87.400  166.7  0.0033   78.9  0.9290  -14.3
 0.020  0.3433  -74.6  82.274  155.2  0.0064   73.4  0.8697  -28.3
 0.030  0.3647  -93.9  73.261  148.7  0.0081   65.3  0.7723  -36.4
 0.040  0.4209 -109.5  65.442  140.5  0.0100   60.1  0.6945  -46.6
 0.050  0.5002 -120.8  59.291  130.4  0.0119   56.6  0.6434  -58.8
 0.060  0.5075 -127.0  54.355  127.9  0.0128   56.0  0.5896  -62.6
 0.070  0.5205 -133.0  49.538  125.0  0.0137   55.4  0.5389  -67.1
 0.080  0.5389 -138.6  44.879  121.5  0.0147   54.9  0.4921  -72.5
 0.090  0.5622 -143.8  40.433  117.1  0.0156   54.5  0.4506  -78.9
 0.100  0.5897 -148.6  36.277  111.7  0.0165   54.1  0.4160  -86.6
 0.110  0.5917 -151.1  34.038  110.4  0.0173   54.8  0.3935  -89.1
 0.120  0.5949 -153.6  31.819  109.0  0.0181   55.5  0.3719  -91.9
 0.130  0.5991 -156.0  29.623  107.3  0.0189   56.1  0.3513  -95.1
 0.140  0.6044 -158.4  27.457  105.4  0.0197   56.6  0.3319  -98.6
 0.150  0.6108 -160.8  25.327  103.1  0.0205   57.1  0.3139 -102.6
 0.200  0.6235 -167.3  19.318   97.8  0.0233   60.6  0.2640 -114.1
 0.250  0.6291 -172.3  15.589   93.9  0.0280   62.4  0.2343 -122.6
 0.300  0.6303 -175.7  13.040   91.2  0.0315   64.5  0.2165 -129.7
 0.350  0.6308 -178.4  11.448   89.2  0.0357   65.5  0.2068 -134.4
 0.400  0.6327  179.0   9.875   86.6  0.0400   66.2  0.1986 -139.6
 0.450  0.6339  176.7   8.890   85.0  0.0444   67.1  0.1942 -143.1
 0.500  0.6361  174.4   7.913   83.0  0.0488   67.9  0.1905 -146.7
 0.600  0.6390  170.8   6.626   79.7  0.0579   67.2  0.1874 -152.2
 0.700  0.6417  167.7   5.681   76.9  0.0654   68.1  0.1847 -156.2
 0.800  0.6430  164.7   4.981   73.8  0.0751   67.7  0.1864 -158.9
 0.900  0.6438  161.3   4.427   71.1  0.0835   66.9  0.1883 -161.4
 1.000  0.6480  158.5   4.004   68.4  0.0918   65.9  0.1913 -164.2
 1.100  0.6523  155.6   3.649   65.9  0.1009   65.2  0.1935 -165.4
 1.200  0.6533  152.7   3.348   63.1  0.1091   64.1  0.1969 -167.3
 1.300  0.6560  150.0   3.100   60.7  0.1172   62.8  0.2020 -168.6
 1.400  0.6596  147.3   2.893   58.1  0.1262   61.6  0.2075 -170.3
 1.500  0.6644  144.7   2.699   55.6  0.1340   60.4  0.2132 -171.6
 1.600  0.6671  141.8   2.542   53.1  0.1427   59.1  0.2185 -172.4
 1.700  0.6698  139.1   2.401   50.7  0.1506   57.9  0.2266 -173.6
 1.800  0.6763  136.5   2.279   48.1  0.1589   56.7  0.2338 -174.7
 1.900  0.6796  133.9   2.161   46.0  0.1661   55.1  0.2404 -175.9
 2.000  0.6824  131.5   2.053   43.4  0.1738   53.8  0.2479 -176.6
 2.100  0.6862  128.9   1.960   41.2  0.1811   52.4  0.2559 -177.7
 2.200  0.6913  126.4   1.871   38.8  0.1885   51.1  0.2639 -178.8
 2.300  0.6942  124.2   1.795   36.7  0.1961   49.7  0.2714 -179.5
 2.400  0.6981  122.0   1.722   34.5  0.2038   48.4  0.2789  179.8
 2.500  0.7024  119.8   1.656   32.5  0.2106   47.0  0.2873  178.7
 2.600  0.7077  117.6   1.593   30.3  0.2176   45.6  0.2958  177.7
 2.700  0.7121  115.6   1.537   28.4  0.2237   44.2  0.3024  176.8
 2.800  0.7174  113.6   1.483   26.3  0.2300   42.9  0.3090  175.9
 2.900  0.7200  111.6   1.435   24.4  0.2360   41.5  0.3158  174.5
 3.000  0.7234  109.6   1.388   22.4  0.2422   40.2  0.3228  173.2
 3.100  0.7258  107.7   1.349   20.8  0.2478   38.9  0.3274  171.8
 3.200  0.7289  105.9   1.311   19.1  0.2536   37.6  0.3322  170.4
 3.300  0.7328  104.1   1.274   17.3  0.2595   36.4  0.3372  169.1
 3.400  0.7375  102.3   1.238   15.3  0.2655   35.3  0.3423  167.8
 3.500  0.7428  100.5   1.204   13.3  0.2716   34.2  0.3476  166.6
 3.600  0.7450   98.9   1.174   11.8  0.2768   32.9  0.3528  165.0
 3.700  0.7478   97.3   1.146   10.2  0.2822   31.6  0.3582  163.4
 3.800  0.7511   95.8   1.118    8.6  0.2877   30.3  0.3639  161.9
 3.900  0.7550   94.2   1.091    6.8  0.2933   29.1  0.3698  160.4
 4.000  0.7594   92.7   1.065    5.0  0.2991   28.0  0.3760  159.0
 4.100  0.7604   91.2   1.042    3.6  0.3041   26.7  0.3820  157.3
 4.200  0.7620   89.7   1.019    2.2  0.3092   25.5  0.3883  155.6
 4.300  0.7641   88.2   0.997    0.6  0.3145   24.3  0.3949  154.0
 4.400  0.7666   86.8   0.976   -0.9  0.3199   23.1  0.4019  152.4
 4.500  0.7697   85.3   0.956   -2.6  0.3254   22.0  0.4091  150.9
 4.600  0.7719   84.0   0.938   -3.8  0.3299   20.8  0.4161  149.6
 4.700  0.7746   82.7   0.920   -5.0  0.3346   19.6  0.4234  148.3
 4.800  0.7776   81.4   0.902   -6.3  0.3394   18.5  0.4308  147.1
 4.900  0.7811   80.1   0.885   -7.6  0.3443   17.4  0.4385  145.9
 5.000  0.7849   78.8   0.869   -9.0  0.3494   16.3  0.4463  144.7
 5.100  0.7842   77.5   0.856  -10.1  0.3535   15.1  0.4536  143.8
 5.200  0.7840   76.2   0.844  -11.3  0.3578   13.9  0.4609  143.0
 5.300  0.7841   74.9   0.832  -12.5  0.3623   12.7  0.4684  142.2
 5.400  0.7847   73.6   0.821  -13.7  0.3669   11.6  0.4760  141.4
 5.500  0.7856   72.3   0.810  -15.0  0.3716   10.5  0.4836  140.6
 5.600  0.7848   71.2   0.798  -16.0  0.3753    9.4  0.4872  139.9
 5.700  0.7843   70.0   0.787  -17.0  0.3792    8.3  0.4908  139.1
 5.800  0.7841   68.9   0.776  -18.0  0.3833    7.2  0.4945  138.4
 5.900  0.7843   67.7   0.765  -19.1  0.3874    6.1  0.4983  137.7
 6.000  0.7847   66.6   0.754  -20.2  0.3917    5.1  0.5022  137.0
!
!  f       NFmin   Gammaopt  rn/50
! GHz       dB    MAG  ANG    -
 0.450      1.68  0.46 -172   0.06
 0.900      1.84  0.50 -159   0.09
 1.900      2.66  0.69 -131   0.36
 2.400      3.05  0.70 -117   0.79
!
! (c) 2017  Infineon Technologies AG, Munich