! Infineon Technologies  Discrete & RF Semiconductors
! BFP196
! VCE =  2.0 V,  IC =  75 mA
! Common Emitter S-Parameters:                            Jan 2017
# GHz  S  MA  R  50
!  f         S11            S21            S12            S22
! GHz     MAG   ANG      MAG   ANG      MAG   ANG      MAG   ANG
 0.010  0.2036 -103.4  89.745  163.3  0.0037   79.2  0.8917  -21.4
 0.020  0.3676 -119.5  81.210  149.0  0.0067   69.6  0.8087  -41.2
 0.030  0.4288 -131.6  70.219  142.7  0.0084   64.0  0.6961  -51.4
 0.040  0.5040 -140.3  60.369  134.3  0.0101   60.2  0.6131  -64.8
 0.050  0.5879 -146.7  52.310  122.9  0.0119   57.6  0.5727  -81.3
 0.060  0.6000 -150.4  47.605  120.8  0.0127   57.6  0.5283  -86.3
 0.070  0.6145 -153.9  42.976  118.3  0.0136   57.6  0.4885  -92.1
 0.080  0.6312 -157.3  38.449  115.2  0.0144   57.7  0.4546  -98.8
 0.090  0.6500 -160.5  34.066  111.3  0.0153   57.7  0.4280 -106.5
 0.100  0.6707 -163.5  29.891  106.2  0.0161   57.7  0.4101 -115.1
 0.110  0.6734 -165.1  27.984  105.2  0.0170   58.2  0.3963 -118.2
 0.120  0.6766 -166.6  26.087  104.0  0.0179   58.6  0.3836 -121.5
 0.130  0.6802 -168.1  24.203  102.7  0.0188   58.9  0.3724 -125.0
 0.140  0.6844 -169.6  22.335  101.1  0.0197   59.3  0.3626 -128.7
 0.150  0.6890 -171.1  20.487   99.2  0.0206   59.6  0.3544 -132.6
 0.200  0.6984 -175.2  15.522   94.6  0.0242   64.2  0.3330 -143.5
 0.250  0.7034 -178.6  12.468   91.3  0.0292   65.5  0.3208 -150.5
 0.300  0.7027  179.0  10.425   88.8  0.0341   67.2  0.3145 -155.9
 0.350  0.7028  176.8   9.140   87.0  0.0387   68.4  0.3117 -159.3
 0.400  0.7038  174.7   7.868   84.5  0.0434   69.4  0.3101 -162.8
 0.450  0.7047  172.9   7.081   83.0  0.0483   69.6  0.3091 -165.1
 0.500  0.7062  171.1   6.300   81.1  0.0532   69.8  0.3085 -167.4
 0.600  0.7087  167.8   5.273   77.9  0.0633   69.2  0.3098 -171.1
 0.700  0.7111  165.1   4.525   75.2  0.0727   68.9  0.3092 -173.9
 0.800  0.7131  162.1   3.968   72.1  0.0832   68.5  0.3119 -176.0
 0.900  0.7131  159.1   3.525   69.4  0.0925   67.3  0.3145 -177.8
 1.000  0.7153  156.4   3.192   66.7  0.1017   66.0  0.3174 -179.7
 1.100  0.7189  153.5   2.913   64.1  0.1118   64.9  0.3205  178.8
 1.200  0.7212  150.9   2.675   61.4  0.1211   63.5  0.3223  177.3
 1.300  0.7217  148.2   2.479   58.9  0.1300   62.2  0.3270  176.2
 1.400  0.7245  145.5   2.317   56.3  0.1395   60.9  0.3325  174.8
 1.500  0.7282  143.0   2.164   53.8  0.1483   59.4  0.3371  173.6
 1.600  0.7305  140.1   2.042   51.2  0.1577   57.9  0.3415  172.7
 1.700  0.7335  137.5   1.932   48.8  0.1665   56.5  0.3479  171.7
 1.800  0.7392  134.8   1.837   46.2  0.1753   55.1  0.3542  170.6
 1.900  0.7408  132.4   1.744   44.0  0.1832   53.4  0.3600  169.5
 2.000  0.7418  129.9   1.659   41.5  0.1912   52.0  0.3660  168.8
 2.100  0.7445  127.3   1.586   39.3  0.1990   50.4  0.3725  167.7
 2.200  0.7488  124.7   1.516   36.8  0.2070   49.0  0.3792  166.7
 2.300  0.7509  122.5   1.457   34.8  0.2149   47.5  0.3848  166.0
 2.400  0.7541  120.4   1.400   32.6  0.2229   46.2  0.3905  165.3
 2.500  0.7574  118.2   1.349   30.6  0.2299   44.6  0.3976  164.3
 2.600  0.7619  116.0   1.300   28.5  0.2370   43.0  0.4048  163.4
 2.700  0.7645  114.0   1.257   26.6  0.2436   41.6  0.4096  162.5
 2.800  0.7679  112.1   1.215   24.6  0.2504   40.2  0.4145  161.6
 2.900  0.7699  110.0   1.177   22.8  0.2563   38.8  0.4200  160.4
 3.000  0.7728  108.0   1.141   20.9  0.2624   37.4  0.4257  159.2
 3.100  0.7738  106.2   1.111   19.3  0.2680   36.0  0.4290  157.9
 3.200  0.7756  104.4   1.082   17.7  0.2737   34.7  0.4326  156.7
 3.300  0.7781  102.6   1.053   16.0  0.2796   33.5  0.4363  155.5
 3.400  0.7814  100.8   1.026   14.1  0.2856   32.3  0.4403  154.3
 3.500  0.7855   99.0   1.000   12.2  0.2917   31.1  0.4444  153.1
 3.600  0.7867   97.4   0.978   10.8  0.2967   29.7  0.4484  151.7
 3.700  0.7885   95.8   0.956    9.2  0.3019   28.4  0.4527  150.3
 3.800  0.7909   94.2   0.935    7.7  0.3072   27.1  0.4573  148.9
 3.900  0.7939   92.7   0.915    6.0  0.3127   25.9  0.4621  147.5
 4.000  0.7975   91.1   0.896    4.3  0.3183   24.7  0.4672  146.2
 4.100  0.7974   89.6   0.879    3.0  0.3231   23.4  0.4723  144.7
 4.200  0.7977   88.2   0.862    1.6  0.3281   22.1  0.4776  143.3
 4.300  0.7986   86.7   0.845    0.2  0.3332   20.9  0.4833  141.8
 4.400  0.8001   85.3   0.829   -1.3  0.3385   19.7  0.4893  140.5
 4.500  0.8020   83.8   0.814   -2.8  0.3439   18.5  0.4955  139.1
 4.600  0.8032   82.5   0.800   -3.9  0.3481   17.3  0.5012  138.0
 4.700  0.8049   81.2   0.787   -5.0  0.3525   16.1  0.5071  136.9
 4.800  0.8069   79.9   0.773   -6.2  0.3570   15.0  0.5132  135.8
 4.900  0.8094   78.7   0.761   -7.4  0.3616   13.9  0.5195  134.7
 5.000  0.8122   77.4   0.748   -8.6  0.3664   12.8  0.5259  133.7
 5.100  0.8109   76.1   0.739   -9.7  0.3702   11.6  0.5315  132.9
 5.200  0.8100   74.8   0.731  -10.7  0.3741   10.4  0.5372  132.2
 5.300  0.8095   73.6   0.723  -11.8  0.3782    9.2  0.5429  131.5
 5.400  0.8094   72.3   0.715  -13.0  0.3824    8.1  0.5488  130.8
 5.500  0.8097   71.0   0.708  -14.1  0.3868    7.0  0.5547  130.1
 5.600  0.8082   69.9   0.700  -15.0  0.3902    5.9  0.5565  129.4
 5.700  0.8069   68.7   0.691  -16.0  0.3937    4.8  0.5584  128.7
 5.800  0.8060   67.6   0.683  -16.9  0.3973    3.7  0.5603  128.0
 5.900  0.8055   66.4   0.676  -17.9  0.4011    2.6  0.5624  127.3
 6.000  0.8052   65.3   0.668  -18.9  0.4050    1.6  0.5645  126.6
!
!  f       NFmin   Gammaopt  rn/50
! GHz       dB    MAG  ANG    -
 0.450      1.73  0.48 -171   0.06
 0.900      1.89  0.51 -158   0.09
 1.900      2.72  0.70 -130   0.38
 2.400      3.12  0.70 -117   0.83
!
! (c) 2017  Infineon Technologies AG, Munich