! Infineon Technologies  Discrete & RF Semiconductors
! BFP196
! VCE =  1.0 V,  IC =  25 mA
! Common Emitter S-Parameters:                            Jan 2017
# GHz  S  MA  R  50
!  f         S11            S21            S12            S22
! GHz     MAG   ANG      MAG   ANG      MAG   ANG      MAG   ANG
 0.010  0.4238  -33.5  56.756  167.8  0.0060   80.6  0.9563  -16.0
 0.020  0.4746  -61.2  53.958  156.6  0.0115   71.6  0.9006  -31.2
 0.030  0.4696  -80.0  48.372  150.0  0.0147   61.9  0.8032  -40.9
 0.040  0.5133  -97.4  43.587  141.8  0.0183   55.9  0.7345  -52.8
 0.050  0.5951 -111.0  39.890  131.9  0.0219   51.8  0.7027  -66.4
 0.060  0.5967 -118.0  36.628  129.3  0.0232   49.8  0.6481  -71.4
 0.070  0.6070 -124.8  33.455  126.2  0.0245   48.0  0.5993  -77.3
 0.080  0.6256 -131.4  30.397  122.5  0.0258   46.4  0.5578  -84.1
 0.090  0.6518 -137.4  27.495  118.0  0.0271   44.9  0.5254  -91.9
 0.100  0.6848 -143.0  24.803  112.5  0.0285   43.6  0.5039 -100.5
 0.110  0.6855 -145.9  23.284  111.2  0.0293   43.3  0.4834 -103.8
 0.120  0.6879 -148.7  21.779  109.7  0.0301   43.0  0.4645 -107.4
 0.130  0.6919 -151.5  20.291  107.9  0.0310   42.8  0.4477 -111.2
 0.140  0.6976 -154.3  18.825  105.9  0.0318   42.5  0.4330 -115.4
 0.150  0.7049 -157.0  17.385  103.6  0.0326   42.3  0.4208 -119.8
 0.200  0.7169 -164.5  13.293   97.8  0.0354   44.3  0.3835 -132.4
 0.250  0.7217 -170.1  10.731   93.7  0.0391   46.8  0.3617 -140.9
 0.300  0.7212 -174.1   8.995   90.7  0.0429   49.1  0.3496 -147.5
 0.350  0.7221 -177.1   7.894   88.6  0.0467   51.5  0.3432 -151.8
 0.400  0.7250  179.9   6.808   85.8  0.0506   53.6  0.3387 -156.2
 0.450  0.7259  177.5   6.128   84.0  0.0547   54.7  0.3362 -159.1
 0.500  0.7281  175.2   5.455   81.8  0.0588   55.6  0.3346 -162.0
 0.600  0.7298  171.3   4.571   78.2  0.0679   56.9  0.3343 -166.4
 0.700  0.7327  168.1   3.923   75.2  0.0758   58.2  0.3328 -169.7
 0.800  0.7336  164.6   3.443   71.8  0.0858   58.9  0.3347 -172.3
 0.900  0.7317  161.4   3.064   68.9  0.0951   58.3  0.3371 -174.5
 1.000  0.7345  158.5   2.777   66.0  0.1037   58.2  0.3400 -176.7
 1.100  0.7387  155.5   2.534   63.2  0.1134   57.8  0.3426 -178.3
 1.200  0.7393  152.6   2.329   60.3  0.1215   57.1  0.3455 -180.0
 1.300  0.7406  149.7   2.162   57.7  0.1308   56.3  0.3502  178.8
 1.400  0.7435  146.9   2.022   54.9  0.1399   55.4  0.3557  177.2
 1.500  0.7480  144.2   1.891   52.4  0.1489   54.2  0.3606  175.9
 1.600  0.7496  141.4   1.784   49.7  0.1575   53.2  0.3656  174.8
 1.700  0.7534  138.6   1.690   47.1  0.1661   52.1  0.3722  173.7
 1.800  0.7578  135.9   1.608   44.5  0.1747   50.9  0.3788  172.5
 1.900  0.7606  133.3   1.528   42.2  0.1825   49.7  0.3851  171.4
 2.000  0.7606  130.7   1.455   39.6  0.1909   48.4  0.3911  170.5
 2.100  0.7634  128.1   1.393   37.3  0.1985   47.0  0.3979  169.3
 2.200  0.7678  125.5   1.333   34.8  0.2063   45.8  0.4049  168.2
 2.300  0.7696  123.2   1.282   32.7  0.2141   44.5  0.4110  167.4
 2.400  0.7726  121.0   1.233   30.4  0.2221   43.3  0.4172  166.7
 2.500  0.7746  118.8   1.188   28.5  0.2290   41.9  0.4244  165.6
 2.600  0.7778  116.6   1.145   26.4  0.2361   40.5  0.4317  164.6
 2.700  0.7808  114.5   1.108   24.5  0.2427   39.2  0.4369  163.6
 2.800  0.7849  112.5   1.072   22.4  0.2494   37.9  0.4423  162.7
 2.900  0.7872  110.4   1.039   20.6  0.2556   36.6  0.4479  161.5
 3.000  0.7905  108.4   1.008   18.7  0.2620   35.3  0.4536  160.3
 3.100  0.7911  106.5   0.982   17.2  0.2677   34.0  0.4573  159.0
 3.200  0.7926  104.7   0.957   15.5  0.2734   32.8  0.4613  157.7
 3.300  0.7949  102.8   0.933   13.8  0.2794   31.6  0.4655  156.4
 3.400  0.7980  101.0   0.910   12.0  0.2854   30.5  0.4699  155.1
 3.500  0.8019   99.2   0.888   10.1  0.2915   29.4  0.4746  153.9
 3.600  0.8027   97.6   0.868    8.7  0.2968   28.1  0.4790  152.5
 3.700  0.8041   96.0   0.849    7.2  0.3023   26.9  0.4836  151.1
 3.800  0.8061   94.4   0.831    5.7  0.3079   25.7  0.4886  149.7
 3.900  0.8087   92.8   0.813    4.1  0.3136   24.5  0.4938  148.3
 4.000  0.8120   91.2   0.796    2.4  0.3195   23.4  0.4993  147.0
 4.100  0.8115   89.7   0.781    1.2  0.3243   22.1  0.5047  145.5
 4.200  0.8116   88.2   0.767   -0.1  0.3293   20.9  0.5104  144.0
 4.300  0.8123   86.7   0.753   -1.4  0.3345   19.7  0.5164  142.6
 4.400  0.8135   85.2   0.740   -2.7  0.3398   18.5  0.5227  141.2
 4.500  0.8153   83.7   0.727   -4.1  0.3452   17.4  0.5294  139.8
 4.600  0.8163   82.4   0.715   -5.1  0.3496   16.2  0.5354  138.6
 4.700  0.8177   81.1   0.704   -6.2  0.3541   15.1  0.5417  137.4
 4.800  0.8195   79.8   0.693   -7.2  0.3587   14.0  0.5482  136.3
 4.900  0.8217   78.6   0.682   -8.3  0.3635   12.9  0.5549  135.2
 5.000  0.8243   77.3   0.671   -9.5  0.3684   11.8  0.5618  134.1
 5.100  0.8226   76.0   0.664  -10.5  0.3723   10.6  0.5676  133.3
 5.200  0.8213   74.7   0.658  -11.5  0.3764    9.4  0.5735  132.4
 5.300  0.8205   73.3   0.652  -12.6  0.3807    8.2  0.5795  131.6
 5.400  0.8201   72.0   0.646  -13.6  0.3851    7.0  0.5857  130.9
 5.500  0.8201   70.7   0.640  -14.7  0.3897    5.9  0.5919  130.1
 5.600  0.8183   69.6   0.633  -15.5  0.3932    4.8  0.5938  129.3
 5.700  0.8167   68.4   0.627  -16.3  0.3969    3.8  0.5957  128.6
 5.800  0.8155   67.3   0.620  -17.2  0.4007    2.7  0.5978  127.9
 5.900  0.8147   66.1   0.614  -18.0  0.4046    1.7  0.5999  127.1
 6.000  0.8141   65.0   0.608  -18.9  0.4087    0.7  0.6022  126.4
!
!  f       NFmin   Gammaopt  rn/50
! GHz       dB    MAG  ANG    -
 0.450      1.15  0.34  164   0.05
 0.900      1.34  0.45 -176   0.06
 1.900      2.21  0.68 -136   0.24
 2.400      2.64  0.71 -122   0.59
!
! (c) 2017  Infineon Technologies AG, Munich