! Infineon Technologies  Discrete & RF Semiconductors
! BFP196
! VCE =  6.0 V,  IC =  50 mA
! Common Emitter S-Parameters:                            Jan 2017
# GHz  S  MA  R  50
!  f         S11            S21            S12            S22
! GHz     MAG   ANG      MAG   ANG      MAG   ANG      MAG   ANG
 0.010  0.2982  -38.1  79.364  167.6  0.0032   79.3  0.9485  -13.7
 0.020  0.3595  -67.6  75.355  156.7  0.0065   72.2  0.8925  -27.1
 0.030  0.3730  -87.1  67.631  150.2  0.0088   65.3  0.7987  -35.2
 0.040  0.4244 -103.5  60.991  142.2  0.0112   61.3  0.7249  -45.3
 0.050  0.5022 -115.6  55.824  132.4  0.0136   58.7  0.6778  -57.1
 0.060  0.5087 -122.3  51.300  129.8  0.0145   57.6  0.6227  -61.0
 0.070  0.5219 -128.7  46.899  126.8  0.0153   56.6  0.5710  -65.6
 0.080  0.5413 -134.7  42.658  123.1  0.0162   55.8  0.5238  -71.1
 0.090  0.5662 -140.3  38.631  118.7  0.0170   55.0  0.4824  -77.7
 0.100  0.5960 -145.3  34.890  113.2  0.0179   54.3  0.4483  -85.3
 0.110  0.5978 -148.0  32.756  111.9  0.0187   54.2  0.4243  -87.9
 0.120  0.6010 -150.6  30.642  110.3  0.0195   54.1  0.4014  -90.9
 0.130  0.6054 -153.3  28.553  108.6  0.0203   54.0  0.3796  -94.1
 0.140  0.6111 -155.9  26.495  106.6  0.0211   53.9  0.3592  -97.8
 0.150  0.6180 -158.4  24.475  104.2  0.0219   53.8  0.3404 -101.9
 0.200  0.6309 -165.6  18.738   98.6  0.0248   57.3  0.2873 -113.8
 0.250  0.6365 -170.8  15.117   94.6  0.0295   59.4  0.2553 -122.4
 0.300  0.6376 -174.6  12.663   91.7  0.0330   61.1  0.2362 -129.8
 0.350  0.6393 -177.4  11.121   89.7  0.0371   62.8  0.2253 -134.6
 0.400  0.6426  179.8   9.597   87.0  0.0413   64.2  0.2161 -139.9
 0.450  0.6430  177.6   8.640   85.3  0.0455   64.9  0.2114 -143.4
 0.500  0.6444  175.4   7.692   83.2  0.0497   65.4  0.2076 -147.1
 0.600  0.6485  171.4   6.444   79.9  0.0581   66.0  0.2044 -152.7
 0.700  0.6496  168.3   5.524   77.0  0.0667   66.6  0.2014 -156.8
 0.800  0.6522  164.8   4.845   73.9  0.0757   66.6  0.2026 -159.7
 0.900  0.6506  161.7   4.305   71.2  0.0844   65.3  0.2046 -162.3
 1.000  0.6573  158.8   3.895   68.4  0.0931   64.9  0.2073 -165.0
 1.100  0.6604  155.9   3.550   65.9  0.1019   63.9  0.2099 -166.5
 1.200  0.6615  153.0   3.257   63.1  0.1100   63.1  0.2127 -168.5
 1.300  0.6644  150.1   3.016   60.6  0.1188   62.0  0.2177 -169.8
 1.400  0.6676  147.5   2.816   58.1  0.1270   61.0  0.2233 -171.4
 1.500  0.6716  144.9   2.628   55.6  0.1352   59.7  0.2291 -172.7
 1.600  0.6741  142.0   2.474   53.0  0.1434   58.3  0.2340 -173.7
 1.700  0.6784  139.3   2.337   50.6  0.1519   57.1  0.2421 -174.8
 1.800  0.6847  136.6   2.218   48.0  0.1599   55.9  0.2491 -176.0
 1.900  0.6874  134.2   2.104   45.8  0.1674   54.5  0.2560 -177.1
 2.000  0.6889  131.5   2.000   43.3  0.1753   53.2  0.2632 -178.0
 2.100  0.6932  129.0   1.909   41.1  0.1827   51.8  0.2710 -179.2
 2.200  0.6989  126.5   1.822   38.6  0.1902   50.5  0.2789  179.7
 2.300  0.7019  124.3   1.749   36.5  0.1976   49.2  0.2863  179.0
 2.400  0.7060  122.1   1.678   34.3  0.2051   47.9  0.2938  178.4
 2.500  0.7098  119.9   1.614   32.3  0.2118   46.4  0.3021  177.3
 2.600  0.7146  117.8   1.552   30.1  0.2187   45.0  0.3106  176.3
 2.700  0.7183  115.7   1.498   28.2  0.2252   43.6  0.3172  175.4
 2.800  0.7229  113.6   1.445   26.1  0.2319   42.3  0.3239  174.5
 2.900  0.7267  111.5   1.398   24.3  0.2380   41.0  0.3304  173.1
 3.000  0.7315  109.5   1.353   22.3  0.2442   39.7  0.3371  171.8
 3.100  0.7336  107.7   1.315   20.7  0.2498   38.4  0.3417  170.4
 3.200  0.7365  105.8   1.278   19.0  0.2555   37.2  0.3465  169.0
 3.300  0.7401  104.0   1.242   17.2  0.2614   36.0  0.3515  167.7
 3.400  0.7445  102.3   1.207   15.2  0.2673   34.9  0.3567  166.4
 3.500  0.7495  100.5   1.174   13.2  0.2734   33.8  0.3621  165.2
 3.600  0.7516   98.9   1.146   11.7  0.2786   32.5  0.3671  163.6
 3.700  0.7543   97.3   1.118   10.1  0.2840   31.2  0.3724  162.0
 3.800  0.7575   95.8   1.091    8.5  0.2896   29.9  0.3780  160.5
 3.900  0.7613   94.2   1.066    6.7  0.2952   28.7  0.3838  159.0
 4.000  0.7657   92.7   1.041    4.9  0.3010   27.6  0.3899  157.6
 4.100  0.7666   91.2   1.018    3.5  0.3060   26.3  0.3959  155.9
 4.200  0.7681   89.7   0.997    2.1  0.3112   25.0  0.4023  154.2
 4.300  0.7700   88.2   0.975    0.6  0.3165   23.8  0.4090  152.6
 4.400  0.7725   86.8   0.955   -1.0  0.3219   22.6  0.4160  151.1
 4.500  0.7755   85.3   0.935   -2.6  0.3275   21.5  0.4233  149.6
 4.600  0.7774   84.0   0.917   -3.8  0.3320   20.3  0.4303  148.3
 4.700  0.7798   82.6   0.900   -5.0  0.3366   19.2  0.4375  147.0
 4.800  0.7825   81.3   0.883   -6.2  0.3413   18.0  0.4449  145.8
 4.900  0.7857   80.0   0.866   -7.5  0.3462   17.0  0.4525  144.6
 5.000  0.7893   78.7   0.850   -8.9  0.3512   15.9  0.4603  143.5
 5.100  0.7886   77.4   0.838  -10.0  0.3554   14.7  0.4675  142.6
 5.200  0.7882   76.1   0.827  -11.2  0.3597   13.5  0.4747  141.7
 5.300  0.7883   74.8   0.815  -12.3  0.3642   12.3  0.4821  140.9
 5.400  0.7888   73.5   0.804  -13.6  0.3689   11.1  0.4896  140.1
 5.500  0.7897   72.2   0.794  -14.8  0.3737   10.0  0.4972  139.3
 5.600  0.7888   71.0   0.783  -15.7  0.3774    8.9  0.5005  138.6
 5.700  0.7882   69.9   0.772  -16.7  0.3811    7.8  0.5040  137.8
 5.800  0.7879   68.7   0.761  -17.7  0.3851    6.8  0.5075  137.1
 5.900  0.7879   67.6   0.750  -18.7  0.3891    5.7  0.5110  136.4
 6.000  0.7883   66.4   0.740  -19.7  0.3933    4.7  0.5147  135.7
!
!  f       NFmin   Gammaopt  rn/50
! GHz       dB    MAG  ANG    -
 0.450      1.45  0.40 -176   0.06
 0.900      1.60  0.47 -164   0.08
 1.900      2.42  0.68 -132   0.32
 2.400      2.82  0.70 -119   0.66
!
! (c) 2017  Infineon Technologies AG, Munich