! Infineon Technologies  Discrete & RF Semiconductors
! BFP196
! VCE =  6.0 V,  IC =  65 mA
! Common Emitter S-Parameters:                            Jan 2017
# GHz  S  MA  R  50
!  f         S11            S21            S12            S22
! GHz     MAG   ANG      MAG   ANG      MAG   ANG      MAG   ANG
 0.010  0.2444  -49.6  87.161  166.5  0.0032   78.5  0.9332  -15.1
 0.020  0.3316  -80.8  81.882  154.7  0.0058   74.7  0.8725  -29.7
 0.030  0.3609  -99.8  72.702  148.2  0.0077   66.8  0.7716  -38.1
 0.040  0.4222 -114.6  64.715  140.0  0.0096   62.0  0.6918  -48.7
 0.050  0.5039 -125.1  58.413  129.7  0.0116   58.8  0.6411  -61.5
 0.060  0.5134 -131.0  53.503  127.3  0.0127   58.3  0.5879  -65.5
 0.070  0.5281 -136.6  48.706  124.4  0.0138   57.9  0.5380  -70.3
 0.080  0.5476 -141.9  44.061  120.9  0.0150   57.5  0.4927  -75.9
 0.090  0.5713 -146.7  39.619  116.6  0.0161   57.2  0.4531  -82.7
 0.100  0.5989 -151.2  35.458  111.2  0.0172   56.9  0.4209  -90.6
 0.110  0.6014 -153.5  33.261  109.9  0.0178   56.6  0.3990  -93.3
 0.120  0.6049 -155.8  31.082  108.5  0.0185   56.4  0.3781  -96.3
 0.130  0.6094 -158.0  28.925  106.9  0.0191   56.2  0.3583  -99.6
 0.140  0.6147 -160.2  26.797  104.9  0.0198   56.0  0.3399 -103.4
 0.150  0.6210 -162.4  24.703  102.7  0.0204   55.8  0.3231 -107.5
 0.200  0.6327 -168.6  18.859   97.5  0.0241   61.1  0.2773 -119.4
 0.250  0.6385 -173.2  15.185   93.7  0.0278   61.7  0.2502 -128.0
 0.300  0.6393 -176.6  12.711   91.0  0.0321   65.0  0.2344 -135.2
 0.350  0.6404 -179.3  11.156   89.0  0.0364   66.4  0.2257 -139.9
 0.400  0.6428  178.1   9.619   86.4  0.0408   67.5  0.2186 -144.9
 0.450  0.6438  176.0   8.659   84.8  0.0452   67.7  0.2148 -148.1
 0.500  0.6456  174.0   7.708   82.8  0.0496   67.9  0.2118 -151.5
 0.600  0.6482  170.5   6.458   79.5  0.0587   67.7  0.2106 -156.6
 0.700  0.6516  167.3   5.537   76.7  0.0673   68.4  0.2079 -160.5
 0.800  0.6540  164.1   4.853   73.6  0.0764   67.8  0.2093 -163.3
 0.900  0.6545  161.2   4.312   71.0  0.0849   66.6  0.2120 -165.5
 1.000  0.6562  158.2   3.902   68.3  0.0941   65.7  0.2144 -168.1
 1.100  0.6603  155.3   3.556   65.8  0.1025   65.1  0.2173 -169.5
 1.200  0.6612  152.5   3.263   63.0  0.1108   63.9  0.2201 -171.1
 1.300  0.6653  149.7   3.020   60.6  0.1200   62.5  0.2252 -172.4
 1.400  0.6683  147.0   2.820   58.0  0.1287   61.4  0.2314 -174.1
 1.500  0.6724  144.5   2.633   55.5  0.1366   60.1  0.2364 -175.3
 1.600  0.6764  141.7   2.480   53.0  0.1452   58.9  0.2415 -176.2
 1.700  0.6791  138.9   2.342   50.6  0.1538   57.5  0.2493 -177.2
 1.800  0.6848  136.2   2.223   48.0  0.1614   56.1  0.2565 -178.3
 1.900  0.6879  133.8   2.108   45.9  0.1689   54.9  0.2628 -179.4
 2.000  0.6903  131.2   2.004   43.4  0.1772   53.3  0.2700  179.8
 2.100  0.6942  128.6   1.913   41.2  0.1844   51.9  0.2776  178.7
 2.200  0.6995  126.1   1.825   38.7  0.1917   50.7  0.2854  177.6
 2.300  0.7024  123.9   1.752   36.6  0.1994   49.2  0.2925  177.0
 2.400  0.7064  121.7   1.681   34.4  0.2073   47.9  0.2996  176.4
 2.500  0.7101  119.5   1.617   32.4  0.2141   46.5  0.3076  175.4
 2.600  0.7149  117.4   1.555   30.3  0.2210   45.1  0.3157  174.4
 2.700  0.7182  115.3   1.501   28.4  0.2273   43.7  0.3222  173.4
 2.800  0.7225  113.3   1.449   26.3  0.2338   42.4  0.3287  172.5
 2.900  0.7263  111.3   1.402   24.4  0.2398   41.0  0.3350  171.2
 3.000  0.7310  109.4   1.356   22.4  0.2460   39.6  0.3415  169.9
 3.100  0.7331  107.5   1.318   20.8  0.2516   38.3  0.3460  168.5
 3.200  0.7360  105.7   1.281   19.1  0.2573   37.0  0.3506  167.2
 3.300  0.7396  103.9   1.245   17.3  0.2631   35.8  0.3555  165.9
 3.400  0.7440  102.1   1.211   15.4  0.2691   34.7  0.3605  164.6
 3.500  0.7491  100.3   1.178   13.4  0.2751   33.6  0.3657  163.4
 3.600  0.7512   98.7   1.150   11.9  0.2804   32.3  0.3706  161.8
 3.700  0.7539   97.1   1.122   10.3  0.2858   31.0  0.3757  160.3
 3.800  0.7572   95.6   1.095    8.7  0.2914   29.7  0.3811  158.8
 3.900  0.7610   94.0   1.070    6.9  0.2971   28.5  0.3867  157.4
 4.000  0.7654   92.5   1.045    5.1  0.3029   27.4  0.3926  156.0
 4.100  0.7660   91.0   1.023    3.7  0.3078   26.1  0.3986  154.3
 4.200  0.7671   89.6   1.001    2.3  0.3129   24.8  0.4048  152.7
 4.300  0.7688   88.1   0.980    0.8  0.3181   23.6  0.4114  151.2
 4.400  0.7709   86.6   0.960   -0.7  0.3235   22.4  0.4183  149.7
 4.500  0.7735   85.2   0.940   -2.3  0.3290   21.3  0.4255  148.2
 4.600  0.7756   83.8   0.922   -3.5  0.3334   20.1  0.4322  146.9
 4.700  0.7781   82.5   0.904   -4.7  0.3380   18.9  0.4392  145.7
 4.800  0.7810   81.1   0.887   -6.0  0.3427   17.8  0.4463  144.5
 4.900  0.7843   79.8   0.870   -7.3  0.3475   16.7  0.4536  143.3
 5.000  0.7881   78.5   0.854   -8.7  0.3525   15.6  0.4611  142.2
 5.100  0.7876   77.2   0.842   -9.8  0.3565   14.4  0.4680  141.4
 5.200  0.7875   75.9   0.831  -11.0  0.3606   13.2  0.4750  140.5
 5.300  0.7878   74.7   0.820  -12.2  0.3649   12.0  0.4821  139.7
 5.400  0.7885   73.4   0.809  -13.4  0.3694   10.8  0.4893  139.0
 5.500  0.7896   72.1   0.799  -14.7  0.3740    9.7  0.4966  138.2
 5.600  0.7883   70.9   0.788  -15.7  0.3777    8.6  0.4998  137.5
 5.700  0.7874   69.8   0.776  -16.7  0.3815    7.5  0.5030  136.7
 5.800  0.7867   68.6   0.765  -17.7  0.3855    6.4  0.5063  136.0
 5.900  0.7864   67.5   0.755  -18.7  0.3896    5.3  0.5097  135.3
 6.000  0.7864   66.3   0.744  -19.8  0.3938    4.3  0.5132  134.6
!
!  f       NFmin   Gammaopt  rn/50
! GHz       dB    MAG  ANG    -
 0.450      1.62  0.43 -173   0.06
 0.900      1.78  0.49 -160   0.08
 1.900      2.59  0.69 -131   0.35
 2.400      3.00  0.70 -118   0.75
!
! (c) 2017  Infineon Technologies AG, Munich