! Infineon Technologies  Discrete & RF Semiconductors
! BFP196
! VCE =  9.0 V,  IC =  30 mA
! Common Emitter S-Parameters:                            Jan 2017
# GHz  S  MA  R  50
!  f         S11            S21            S12            S22
! GHz     MAG   ANG      MAG   ANG      MAG   ANG      MAG   ANG
 0.010  0.4742  -21.1  61.161  170.4  0.0032   82.6  0.9679   -9.8
 0.020  0.4920  -41.3  59.565  161.8  0.0071   76.8  0.9265  -19.7
 0.030  0.4706  -57.0  55.030  155.6  0.0098   68.7  0.8574  -26.6
 0.040  0.4861  -72.9  51.247  148.4  0.0126   64.1  0.8028  -34.6
 0.050  0.5353  -86.8  48.393  140.2  0.0155   61.2  0.7657  -43.5
 0.060  0.5270  -94.9  44.967  137.3  0.0168   58.6  0.7108  -47.0
 0.070  0.5293 -103.0  41.678  133.9  0.0182   56.3  0.6591  -51.1
 0.080  0.5421 -110.9  38.562  129.9  0.0196   54.4  0.6113  -55.9
 0.090  0.5647 -118.4  35.664  125.2  0.0210   52.8  0.5684  -61.4
 0.100  0.5960 -125.1  33.040  119.8  0.0224   51.3  0.5317  -67.8
 0.110  0.5938 -128.9  31.142  118.2  0.0232   50.5  0.5024  -70.0
 0.120  0.5942 -132.6  29.272  116.4  0.0240   49.8  0.4739  -72.4
 0.130  0.5972 -136.4  27.436  114.3  0.0248   49.1  0.4465  -75.2
 0.140  0.6027 -140.1  25.641  111.9  0.0257   48.5  0.4201  -78.3
 0.150  0.6106 -143.7  23.896  109.2  0.0265   47.9  0.3952  -81.8
 0.200  0.6242 -154.3  18.548  102.6  0.0287   49.3  0.3186  -91.8
 0.250  0.6285 -161.7  15.079   97.8  0.0322   50.6  0.2697  -99.1
 0.300  0.6295 -166.8  12.665   94.4  0.0352   53.0  0.2370 -105.5
 0.350  0.6296 -170.6  11.141   92.1  0.0385   55.1  0.2173 -110.0
 0.400  0.6324 -174.3   9.641   89.0  0.0419   56.9  0.1992 -115.3
 0.450  0.6334 -177.2   8.685   87.1  0.0459   57.7  0.1889 -118.9
 0.500  0.6361  179.9   7.741   84.8  0.0499   58.4  0.1794 -123.0
 0.600  0.6391  175.5   6.488   81.1  0.0574   59.7  0.1686 -129.4
 0.700  0.6413  171.7   5.567   78.0  0.0639   61.8  0.1613 -134.2
 0.800  0.6431  167.9   4.885   74.7  0.0729   61.9  0.1595 -138.1
 0.900  0.6433  164.5   4.340   71.8  0.0798   61.8  0.1600 -141.7
 1.000  0.6479  161.4   3.927   68.9  0.0877   61.5  0.1606 -145.1
 1.100  0.6517  158.1   3.581   66.3  0.0960   61.0  0.1628 -147.2
 1.200  0.6531  155.1   3.286   63.4  0.1035   60.7  0.1655 -149.5
 1.300  0.6558  152.1   3.041   60.8  0.1115   60.0  0.1705 -151.5
 1.400  0.6589  149.3   2.838   58.2  0.1192   59.2  0.1758 -153.8
 1.500  0.6641  146.6   2.649   55.6  0.1270   58.4  0.1817 -155.7
 1.600  0.6678  143.8   2.495   53.0  0.1347   57.3  0.1875 -157.1
 1.700  0.6721  140.9   2.356   50.5  0.1424   56.4  0.1958 -158.8
 1.800  0.6777  138.2   2.236   47.9  0.1501   55.3  0.2034 -160.4
 1.900  0.6802  135.6   2.119   45.6  0.1572   54.2  0.2110 -162.0
 2.000  0.6824  133.0   2.014   43.0  0.1649   53.1  0.2196 -163.2
 2.100  0.6870  130.4   1.922   40.7  0.1718   51.9  0.2279 -164.8
 2.200  0.6930  127.8   1.834   38.2  0.1788   50.7  0.2363 -166.2
 2.300  0.6964  125.5   1.760   36.1  0.1862   49.5  0.2451 -167.2
 2.400  0.7008  123.3   1.688   33.8  0.1937   48.4  0.2540 -168.1
 2.500  0.7046  121.1   1.622   31.7  0.2003   47.1  0.2633 -169.5
 2.600  0.7095  118.9   1.558   29.5  0.2070   45.9  0.2728 -170.8
 2.700  0.7142  116.8   1.503   27.6  0.2132   44.7  0.2805 -172.0
 2.800  0.7199  114.7   1.450   25.5  0.2194   43.5  0.2883 -173.2
 2.900  0.7232  112.6   1.402   23.6  0.2258   42.3  0.2956 -174.8
 3.000  0.7274  110.5   1.355   21.5  0.2323   41.1  0.3032 -176.3
 3.100  0.7300  108.7   1.316   19.9  0.2381   39.9  0.3089 -177.9
 3.200  0.7333  106.8   1.278   18.1  0.2440   38.7  0.3148 -179.4
 3.300  0.7374  105.0   1.241   16.3  0.2500   37.6  0.3209  179.2
 3.400  0.7422  103.3   1.206   14.4  0.2561   36.5  0.3272  177.7
 3.500  0.7477  101.5   1.172   12.3  0.2623   35.5  0.3337  176.4
 3.600  0.7501   99.9   1.143   10.8  0.2678   34.2  0.3393  174.6
 3.700  0.7531   98.2   1.115    9.2  0.2734   33.0  0.3453  172.8
 3.800  0.7568   96.6   1.088    7.5  0.2791   31.8  0.3515  171.1
 3.900  0.7610   95.0   1.061    5.7  0.2850   30.7  0.3581  169.4
 4.000  0.7658   93.4   1.036    3.9  0.2909   29.6  0.3650  167.8
 4.100  0.7668   91.9   1.013    2.5  0.2962   28.3  0.3717  165.9
 4.200  0.7683   90.4   0.990    1.1  0.3016   27.1  0.3788  164.0
 4.300  0.7703   88.9   0.969   -0.5  0.3072   25.9  0.3863  162.2
 4.400  0.7729   87.4   0.947   -2.0  0.3129   24.7  0.3942  160.5
 4.500  0.7760   85.9   0.927   -3.7  0.3187   23.6  0.4024  158.8
 4.600  0.7783   84.5   0.908   -4.8  0.3235   22.4  0.4104  157.2
 4.700  0.7810   83.2   0.890   -6.0  0.3285   21.3  0.4188  155.7
 4.800  0.7841   81.8   0.872   -7.3  0.3336   20.1  0.4273  154.3
 4.900  0.7876   80.5   0.855   -8.6  0.3389   19.1  0.4362  152.9
 5.000  0.7916   79.2   0.838   -9.9  0.3442   18.0  0.4453  151.6
 5.100  0.7911   77.9   0.826  -11.0  0.3487   16.8  0.4536  150.5
 5.200  0.7911   76.6   0.813  -12.2  0.3533   15.5  0.4620  149.5
 5.300  0.7914   75.2   0.802  -13.3  0.3582   14.4  0.4706  148.5
 5.400  0.7922   73.9   0.790  -14.6  0.3631   13.2  0.4793  147.5
 5.500  0.7934   72.6   0.779  -15.8  0.3682   12.1  0.4882  146.6
 5.600  0.7926   71.4   0.767  -16.7  0.3722   11.0  0.4929  145.7
 5.700  0.7922   70.2   0.756  -17.7  0.3763    9.8  0.4977  144.8
 5.800  0.7921   69.1   0.744  -18.7  0.3805    8.7  0.5026  144.0
 5.900  0.7923   67.9   0.733  -19.7  0.3849    7.7  0.5077  143.1
 6.000  0.7929   66.7   0.722  -20.7  0.3894    6.6  0.5128  142.3
!
!  f       NFmin   Gammaopt  rn/50
! GHz       dB    MAG  ANG    -
 0.450      1.22  0.34  169   0.05
 0.900      1.38  0.45 -172   0.06
 1.900      2.24  0.68 -135   0.25
 2.400      2.64  0.71 -121   0.60
!
! (c) 2017  Infineon Technologies AG, Munich