! Infineon Technologies  Discrete & RF Semiconductors
! BFP196
! VCE =  3.0 V,  IC =  95 mA
! Common Emitter S-Parameters:                            Jan 2017
# GHz  S  MA  R  50
!  f         S11            S21            S12            S22
! GHz     MAG   ANG      MAG   ANG      MAG   ANG      MAG   ANG
 0.010  0.2003 -111.7  95.057  163.3  0.0029   74.2  0.8781  -20.5
 0.020  0.3600 -123.7  85.965  149.0  0.0059   67.6  0.7989  -40.0
 0.030  0.4218 -134.7  74.278  142.7  0.0075   61.5  0.6864  -49.6
 0.040  0.4950 -142.7  63.806  134.2  0.0091   57.6  0.6002  -62.5
 0.050  0.5752 -148.5  55.242  122.8  0.0107   54.8  0.5530  -78.6
 0.060  0.5882 -152.0  50.276  120.7  0.0116   56.1  0.5085  -83.3
 0.070  0.6033 -155.3  45.390  118.2  0.0125   57.2  0.4680  -88.8
 0.080  0.6203 -158.5  40.610  115.1  0.0134   58.2  0.4326  -95.3
 0.090  0.6391 -161.5  35.981  111.2  0.0143   59.1  0.4038 -102.9
 0.100  0.6596 -164.3  31.568  106.2  0.0152   59.8  0.3829 -111.4
 0.110  0.6624 -165.7  29.551  105.2  0.0160   60.2  0.3684 -114.4
 0.120  0.6656 -167.2  27.546  104.0  0.0167   60.6  0.3550 -117.7
 0.130  0.6693 -168.6  25.553  102.7  0.0175   61.0  0.3429 -121.2
 0.140  0.6733 -170.0  23.577  101.1  0.0182   61.3  0.3322 -125.0
 0.150  0.6778 -171.4  21.623   99.2  0.0190   61.6  0.3230 -129.0
 0.200  0.6843 -175.7  16.376   94.6  0.0233   66.9  0.2987 -140.1
 0.250  0.6888 -178.9  13.145   91.3  0.0274   67.7  0.2858 -147.3
 0.300  0.6881  178.7  10.997   88.9  0.0327   69.0  0.2788 -153.2
 0.350  0.6891  176.6   9.644   87.1  0.0373   69.9  0.2753 -156.7
 0.400  0.6910  174.6   8.303   84.7  0.0420   70.6  0.2729 -160.2
 0.450  0.6923  172.8   7.471   83.1  0.0470   70.5  0.2721 -162.6
 0.500  0.6942  171.1   6.646   81.2  0.0520   70.5  0.2718 -165.1
 0.600  0.6960  167.9   5.562   78.1  0.0616   69.9  0.2728 -168.8
 0.700  0.6973  165.0   4.771   75.3  0.0705   70.7  0.2717 -171.8
 0.800  0.7000  162.0   4.184   72.2  0.0804   69.7  0.2742 -173.8
 0.900  0.6994  159.2   3.719   69.6  0.0896   68.2  0.2775 -175.7
 1.000  0.7041  156.5   3.366   66.9  0.0989   67.4  0.2807 -177.6
 1.100  0.7066  153.7   3.069   64.4  0.1088   65.8  0.2836 -178.9
 1.200  0.7083  150.9   2.820   61.6  0.1176   64.4  0.2859  179.6
 1.300  0.7104  148.2   2.612   59.2  0.1265   63.1  0.2908  178.5
 1.400  0.7119  145.6   2.439   56.6  0.1359   61.7  0.2962  177.2
 1.500  0.7165  143.0   2.279   54.1  0.1449   60.4  0.3014  176.0
 1.600  0.7191  140.4   2.149   51.5  0.1537   58.8  0.3055  175.2
 1.700  0.7216  137.6   2.031   49.1  0.1625   57.5  0.3127  174.3
 1.800  0.7267  135.0   1.930   46.5  0.1712   55.8  0.3199  173.3
 1.900  0.7295  132.5   1.831   44.4  0.1788   54.4  0.3253  172.2
 2.000  0.7293  129.9   1.742   41.8  0.1875   52.9  0.3319  171.5
 2.100  0.7332  127.4   1.665   39.6  0.1948   51.4  0.3387  170.4
 2.200  0.7385  125.0   1.590   37.1  0.2023   50.0  0.3457  169.4
 2.300  0.7407  122.8   1.528   35.1  0.2102   48.5  0.3518  168.8
 2.400  0.7440  120.6   1.468   32.9  0.2183   47.1  0.3580  168.2
 2.500  0.7466  118.4   1.413   30.9  0.2251   45.5  0.3654  167.2
 2.600  0.7503  116.2   1.360   28.8  0.2321   44.0  0.3729  166.3
 2.700  0.7537  114.2   1.314   26.9  0.2386   42.6  0.3783  165.4
 2.800  0.7579  112.3   1.269   24.8  0.2452   41.2  0.3837  164.5
 2.900  0.7603  110.2   1.229   23.0  0.2515   39.8  0.3897  163.3
 3.000  0.7637  108.2   1.191   21.1  0.2579   38.4  0.3958  162.1
 3.100  0.7650  106.4   1.159   19.5  0.2634   37.0  0.3994  160.8
 3.200  0.7670  104.5   1.128   17.9  0.2691   35.7  0.4032  159.6
 3.300  0.7699  102.7   1.098   16.1  0.2750   34.4  0.4073  158.4
 3.400  0.7735  100.9   1.070   14.3  0.2809   33.2  0.4114  157.2
 3.500  0.7779   99.1   1.042   12.3  0.2870   32.0  0.4158  156.0
 3.600  0.7793   97.5   1.018   10.8  0.2921   30.7  0.4202  154.5
 3.700  0.7812   96.0   0.995    9.3  0.2973   29.4  0.4248  153.1
 3.800  0.7838   94.4   0.972    7.7  0.3027   28.1  0.4297  151.7
 3.900  0.7869   92.9   0.951    6.0  0.3082   27.0  0.4348  150.3
 4.000  0.7905   91.4   0.930    4.3  0.3139   25.8  0.4402  149.0
 4.100  0.7905   89.9   0.911    3.0  0.3187   24.5  0.4457  147.5
 4.200  0.7911   88.5   0.893    1.6  0.3236   23.2  0.4515  146.0
 4.300  0.7921   87.0   0.876    0.2  0.3287   22.0  0.4576  144.6
 4.400  0.7937   85.6   0.858   -1.3  0.3339   20.8  0.4640  143.2
 4.500  0.7958   84.1   0.842   -2.9  0.3393   19.6  0.4706  141.8
 4.600  0.7972   82.8   0.827   -4.0  0.3435   18.4  0.4766  140.6
 4.700  0.7990   81.5   0.813   -5.1  0.3479   17.2  0.4828  139.5
 4.800  0.8012   80.2   0.798   -6.3  0.3524   16.0  0.4892  138.4
 4.900  0.8039   78.9   0.784   -7.5  0.3570   14.9  0.4958  137.3
 5.000  0.8069   77.6   0.771   -8.8  0.3618   13.8  0.5025  136.2
 5.100  0.8058   76.3   0.762   -9.9  0.3658   12.6  0.5086  135.4
 5.200  0.8052   75.0   0.753  -11.0  0.3699   11.4  0.5147  134.7
 5.300  0.8049   73.7   0.744  -12.1  0.3742   10.2  0.5210  133.9
 5.400  0.8051   72.4   0.735  -13.3  0.3787    9.1  0.5273  133.2
 5.500  0.8057   71.1   0.727  -14.5  0.3833    8.0  0.5337  132.5
 5.600  0.8042   70.0   0.718  -15.4  0.3867    6.9  0.5360  131.8
 5.700  0.8029   68.8   0.709  -16.4  0.3902    5.8  0.5383  131.1
 5.800  0.8020   67.7   0.701  -17.4  0.3939    4.7  0.5407  130.4
 5.900  0.8015   66.5   0.692  -18.4  0.3977    3.6  0.5432  129.8
 6.000  0.8012   65.4   0.684  -19.4  0.4016    2.6  0.5458  129.1
!
!  f       NFmin   Gammaopt  rn/50
! GHz       dB    MAG  ANG    -
!
! noise parameter not available yet for this operation point!
!
! (c) 2017  Infineon Technologies AG, Munich