! Infineon Technologies  Discrete & RF Semiconductors
! BFP196
! VCE =  3.0 V,  IC =  85 mA
! Common Emitter S-Parameters:                            Jan 2017
# GHz  S  MA  R  50
!  f         S11            S21            S12            S22
! GHz     MAG   ANG      MAG   ANG      MAG   ANG      MAG   ANG
 0.010  0.1901 -101.3  93.603  163.9  0.0031   76.2  0.8950  -19.7
 0.020  0.3470 -118.6  85.366  150.0  0.0057   72.2  0.8143  -38.3
 0.030  0.4073 -130.6  74.082  143.7  0.0073   63.7  0.7034  -47.9
 0.040  0.4806 -139.2  64.022  135.2  0.0091   58.5  0.6192  -60.6
 0.050  0.5618 -145.4  55.848  123.9  0.0109   54.9  0.5735  -76.3
 0.060  0.5748 -149.2  50.873  121.8  0.0117   56.1  0.5269  -80.9
 0.070  0.5901 -152.8  45.981  119.2  0.0126   57.1  0.4844  -86.4
 0.080  0.6077 -156.3  41.203  116.1  0.0134   57.9  0.4472  -92.9
 0.090  0.6274 -159.5  36.584  112.1  0.0143   58.7  0.4166 -100.4
 0.100  0.6489 -162.5  32.190  107.0  0.0151   59.4  0.3942 -108.9
 0.110  0.6518 -164.1  30.145  105.9  0.0161   60.0  0.3786 -111.9
 0.120  0.6553 -165.7  28.112  104.7  0.0171   60.6  0.3641 -115.2
 0.130  0.6593 -167.3  26.093  103.3  0.0181   61.1  0.3510 -118.8
 0.140  0.6637 -168.9  24.092  101.7  0.0191   61.6  0.3393 -122.6
 0.150  0.6687 -170.4  22.114   99.8  0.0201   62.0  0.3292 -126.7
 0.200  0.6763 -174.7  16.765   95.1  0.0231   65.2  0.3026 -138.1
 0.250  0.6824 -178.2  13.458   91.7  0.0284   66.8  0.2878 -145.6
 0.300  0.6802  179.4  11.261   89.2  0.0330   68.9  0.2802 -151.6
 0.350  0.6819  177.2   9.876   87.3  0.0376   69.8  0.2763 -155.3
 0.400  0.6845  175.1   8.505   84.9  0.0422   70.5  0.2735 -159.1
 0.450  0.6846  173.2   7.654   83.4  0.0468   70.7  0.2722 -161.6
 0.500  0.6855  171.4   6.809   81.5  0.0515   70.9  0.2715 -164.2
 0.600  0.6892  168.2   5.701   78.3  0.0618   69.9  0.2722 -168.0
 0.700  0.6902  165.4   4.889   75.6  0.0698   70.3  0.2715 -171.0
 0.800  0.6923  162.3   4.288   72.5  0.0812   69.4  0.2740 -173.3
 0.900  0.6918  159.5   3.808   69.9  0.0897   68.0  0.2769 -175.1
 1.000  0.6963  156.7   3.446   67.2  0.0991   66.9  0.2802 -177.2
 1.100  0.6991  153.8   3.144   64.6  0.1084   65.5  0.2825 -178.5
 1.200  0.7010  151.0   2.887   61.9  0.1177   64.2  0.2852 -180.0
 1.300  0.7039  148.3   2.675   59.5  0.1263   62.9  0.2903  178.9
 1.400  0.7057  145.8   2.498   56.9  0.1362   61.7  0.2956  177.4
 1.500  0.7095  143.2   2.331   54.4  0.1446   60.2  0.3008  176.3
 1.600  0.7126  140.4   2.199   51.8  0.1535   58.8  0.3049  175.5
 1.700  0.7148  138.0   2.078   49.4  0.1621   57.2  0.3118  174.5
 1.800  0.7213  135.1   1.974   46.9  0.1705   55.8  0.3181  173.4
 1.900  0.7225  132.7   1.873   44.7  0.1785   54.4  0.3242  172.4
 2.000  0.7245  130.1   1.782   42.2  0.1868   52.8  0.3307  171.6
 2.100  0.7279  127.6   1.703   40.0  0.1944   51.3  0.3375  170.6
 2.200  0.7326  125.1   1.627   37.5  0.2021   49.9  0.3445  169.6
 2.300  0.7345  122.9   1.563   35.5  0.2098   48.4  0.3508  169.0
 2.400  0.7375  120.7   1.501   33.3  0.2177   47.0  0.3571  168.4
 2.500  0.7411  118.5   1.446   31.3  0.2246   45.5  0.3644  167.4
 2.600  0.7457  116.4   1.392   29.2  0.2317   44.0  0.3719  166.4
 2.700  0.7490  114.4   1.344   27.3  0.2381   42.5  0.3772  165.5
 2.800  0.7533  112.4   1.298   25.2  0.2446   41.1  0.3825  164.7
 2.900  0.7555  110.3   1.257   23.4  0.2509   39.7  0.3886  163.4
 3.000  0.7587  108.2   1.218   21.5  0.2573   38.3  0.3948  162.2
 3.100  0.7602  106.4   1.185   19.9  0.2628   36.9  0.3984  160.9
 3.200  0.7624  104.6   1.153   18.2  0.2685   35.6  0.4023  159.6
 3.300  0.7654  102.9   1.122   16.5  0.2743   34.4  0.4063  158.4
 3.400  0.7690  101.1   1.093   14.6  0.2802   33.2  0.4105  157.2
 3.500  0.7734   99.4   1.064   12.6  0.2862   32.0  0.4149  156.0
 3.600  0.7748   97.8   1.039   11.1  0.2913   30.6  0.4193  154.6
 3.700  0.7768   96.2   1.016    9.6  0.2966   29.3  0.4239  153.1
 3.800  0.7794   94.6   0.993    8.0  0.3020   28.1  0.4288  151.8
 3.900  0.7825   93.1   0.970    6.3  0.3076   26.9  0.4339  150.4
 4.000  0.7863   91.5   0.949    4.6  0.3133   25.7  0.4393  149.1
 4.100  0.7864   90.0   0.930    3.3  0.3181   24.4  0.4447  147.6
 4.200  0.7871   88.6   0.911    1.9  0.3230   23.1  0.4504  146.1
 4.300  0.7882   87.1   0.893    0.4  0.3281   21.9  0.4564  144.6
 4.400  0.7899   85.6   0.875   -1.1  0.3334   20.7  0.4627  143.2
 4.500  0.7921   84.2   0.858   -2.7  0.3388   19.5  0.4693  141.8
 4.600  0.7937   82.9   0.843   -3.8  0.3431   18.3  0.4753  140.6
 4.700  0.7958   81.6   0.828   -4.9  0.3475   17.1  0.4814  139.5
 4.800  0.7982   80.3   0.814   -6.1  0.3521   16.0  0.4878  138.4
 4.900  0.8011   79.1   0.800   -7.3  0.3568   14.9  0.4943  137.3
 5.000  0.8043   77.8   0.786   -8.6  0.3617   13.8  0.5010  136.2
 5.100  0.8031   76.5   0.776   -9.7  0.3656   12.6  0.5070  135.4
 5.200  0.8023   75.2   0.767  -10.8  0.3696   11.4  0.5131  134.7
 5.300  0.8019   73.8   0.758  -12.0  0.3738   10.2  0.5193  133.9
 5.400  0.8019   72.5   0.749  -13.2  0.3781    9.0  0.5256  133.2
 5.500  0.8024   71.2   0.741  -14.4  0.3826    7.9  0.5319  132.5
 5.600  0.8012   70.1   0.732  -15.3  0.3860    6.8  0.5342  131.8
 5.700  0.8004   68.9   0.723  -16.3  0.3896    5.7  0.5366  131.1
 5.800  0.7998   67.8   0.714  -17.3  0.3933    4.6  0.5391  130.4
 5.900  0.7996   66.6   0.705  -18.3  0.3972    3.5  0.5416  129.8
 6.000  0.7997   65.5   0.697  -19.3  0.4012    2.5  0.5442  129.1
!
!  f       NFmin   Gammaopt  rn/50
! GHz       dB    MAG  ANG    -
 0.450      1.85  0.51 -169   0.06
 0.900      2.01  0.54 -157   0.10
 1.900      2.88  0.70 -129   0.43
 2.400      3.28  0.70 -116   0.89
!
! (c) 2017  Infineon Technologies AG, Munich