! Infineon Technologies  Discrete & RF Semiconductors
! BFP196
! VCE =  5.0 V,  IC =  40 mA
! Common Emitter S-Parameters:                            Jan 2017
# GHz  S  MA  R  50
!  f         S11            S21            S12            S22
! GHz     MAG   ANG      MAG   ANG      MAG   ANG      MAG   ANG
 0.010  0.3380  -33.3  72.555  168.4  0.0037   81.2  0.9577  -13.1
 0.020  0.3855  -61.3  69.812  157.9  0.0074   75.4  0.9042  -25.7
 0.030  0.3915  -80.2  62.973  151.5  0.0097   65.9  0.8153  -33.8
 0.040  0.4367  -96.9  57.116  143.6  0.0122   60.1  0.7462  -43.5
 0.050  0.5108 -109.6  52.570  134.1  0.0147   56.3  0.7027  -54.9
 0.060  0.5146 -116.7  48.399  131.4  0.0157   55.2  0.6467  -58.8
 0.070  0.5262 -123.6  44.352  128.3  0.0168   54.3  0.5943  -63.5
 0.080  0.5449 -130.1  40.464  124.5  0.0178   53.4  0.5466  -69.0
 0.090  0.5702 -136.1  36.788  120.0  0.0189   52.7  0.5050  -75.5
 0.100  0.6011 -141.5  33.392  114.5  0.0199   52.0  0.4709  -83.1
 0.110  0.6027 -144.4  31.384  113.1  0.0206   51.9  0.4457  -85.7
 0.120  0.6059 -147.3  29.396  111.5  0.0213   51.8  0.4216  -88.7
 0.130  0.6106 -150.2  27.435  109.7  0.0221   51.7  0.3987  -92.0
 0.140  0.6169 -153.0  25.505  107.6  0.0228   51.6  0.3773  -95.7
 0.150  0.6245 -155.7  23.614  105.2  0.0235   51.5  0.3577  -99.8
 0.200  0.6375 -163.5  18.117   99.4  0.0263   54.5  0.3006 -111.8
 0.250  0.6437 -169.2  14.640   95.1  0.0307   56.1  0.2660 -120.5
 0.300  0.6468 -173.2  12.264   92.2  0.0340   57.8  0.2452 -128.0
 0.350  0.6481 -176.2  10.773   90.1  0.0380   59.7  0.2332 -132.9
 0.400  0.6512 -179.1   9.302   87.3  0.0420   61.2  0.2230 -138.2
 0.450  0.6514  178.5   8.375   85.6  0.0461   62.5  0.2177 -141.9
 0.500  0.6527  176.1   7.457   83.4  0.0502   63.6  0.2133 -145.8
 0.600  0.6579  172.1   6.248   80.0  0.0590   64.2  0.2092 -151.3
 0.700  0.6570  168.8   5.359   77.0  0.0670   65.2  0.2061 -155.6
 0.800  0.6612  165.4   4.699   73.9  0.0759   65.0  0.2068 -158.7
 0.900  0.6605  162.2   4.177   71.1  0.0845   64.3  0.2088 -161.3
 1.000  0.6646  159.3   3.779   68.3  0.0929   64.0  0.2114 -164.0
 1.100  0.6661  156.3   3.443   65.7  0.1019   62.9  0.2134 -165.7
 1.200  0.6690  153.2   3.161   62.9  0.1100   62.0  0.2164 -167.5
 1.300  0.6709  150.4   2.927   60.4  0.1181   61.1  0.2218 -168.9
 1.400  0.6751  147.8   2.733   57.8  0.1271   60.1  0.2272 -170.7
 1.500  0.6787  145.1   2.550   55.3  0.1351   58.9  0.2330 -172.1
 1.600  0.6834  142.3   2.403   52.7  0.1432   57.7  0.2385 -173.1
 1.700  0.6861  139.6   2.269   50.2  0.1513   56.7  0.2460 -174.2
 1.800  0.6910  136.8   2.155   47.7  0.1592   55.3  0.2532 -175.5
 1.900  0.6960  134.3   2.042   45.4  0.1672   54.0  0.2602 -176.5
 2.000  0.6973  131.7   1.943   42.9  0.1752   52.7  0.2680 -177.5
 2.100  0.7017  129.1   1.855   40.7  0.1823   51.3  0.2756 -178.7
 2.200  0.7074  126.6   1.770   38.2  0.1895   50.1  0.2834 -179.8
 2.300  0.7099  124.4   1.699   36.1  0.1972   48.7  0.2910  179.5
 2.400  0.7134  122.2   1.630   33.8  0.2051   47.5  0.2986  178.8
 2.500  0.7167  120.0   1.568   31.8  0.2119   46.1  0.3070  177.7
 2.600  0.7210  117.8   1.509   29.6  0.2188   44.8  0.3156  176.7
 2.700  0.7255  115.7   1.456   27.7  0.2250   43.4  0.3222  175.7
 2.800  0.7310  113.7   1.405   25.6  0.2314   42.1  0.3289  174.7
 2.900  0.7342  111.6   1.359   23.8  0.2376   40.8  0.3356  173.4
 3.000  0.7384  109.6   1.315   21.8  0.2439   39.5  0.3425  172.1
 3.100  0.7404  107.7   1.278   20.2  0.2496   38.2  0.3473  170.7
 3.200  0.7432  105.9   1.242   18.5  0.2554   37.0  0.3522  169.3
 3.300  0.7468  104.1   1.207   16.7  0.2613   35.8  0.3574  168.0
 3.400  0.7511  102.3   1.174   14.7  0.2673   34.7  0.3627  166.7
 3.500  0.7561  100.5   1.142   12.7  0.2734   33.6  0.3682  165.5
 3.600  0.7580   98.9   1.115   11.2  0.2787   32.3  0.3733  163.9
 3.700  0.7605   97.3   1.088    9.7  0.2841   31.0  0.3787  162.3
 3.800  0.7635   95.7   1.062    8.0  0.2897   29.8  0.3844  160.7
 3.900  0.7672   94.2   1.037    6.3  0.2954   28.6  0.3903  159.2
 4.000  0.7714   92.6   1.013    4.5  0.3012   27.5  0.3965  157.8
 4.100  0.7722   91.1   0.991    3.1  0.3062   26.2  0.4027  156.1
 4.200  0.7734   89.6   0.969    1.7  0.3114   24.9  0.4093  154.5
 4.300  0.7752   88.1   0.949    0.2  0.3168   23.7  0.4161  152.9
 4.400  0.7776   86.7   0.928   -1.4  0.3223   22.5  0.4233  151.4
 4.500  0.7804   85.2   0.909   -3.0  0.3279   21.4  0.4308  149.9
 4.600  0.7823   83.9   0.892   -4.1  0.3325   20.2  0.4379  148.6
 4.700  0.7847   82.5   0.875   -5.3  0.3373   19.1  0.4451  147.3
 4.800  0.7874   81.2   0.859   -6.5  0.3422   17.9  0.4527  146.0
 4.900  0.7906   79.9   0.843   -7.8  0.3472   16.9  0.4604  144.8
 5.000  0.7942   78.6   0.827   -9.1  0.3524   15.8  0.4683  143.6
 5.100  0.7937   77.3   0.816  -10.2  0.3565   14.6  0.4755  142.7
 5.200  0.7936   76.0   0.804  -11.4  0.3607   13.4  0.4829  141.8
 5.300  0.7939   74.7   0.794  -12.5  0.3650   12.2  0.4903  141.0
 5.400  0.7946   73.4   0.783  -13.8  0.3695   11.1  0.4979  140.2
 5.500  0.7957   72.1   0.773  -15.0  0.3742   10.0  0.5055  139.4
 5.600  0.7946   70.9   0.762  -15.9  0.3780    8.9  0.5090  138.6
 5.700  0.7939   69.8   0.752  -16.9  0.3820    7.7  0.5126  137.8
 5.800  0.7935   68.6   0.741  -17.9  0.3861    6.6  0.5163  137.1
 5.900  0.7934   67.5   0.731  -18.9  0.3904    5.6  0.5200  136.3
 6.000  0.7936   66.3   0.721  -20.0  0.3948    4.5  0.5239  135.6
!
!  f       NFmin   Gammaopt  rn/50
! GHz       dB    MAG  ANG    -
 0.450      1.34  0.36  177   0.05
 0.900      1.49  0.46 -167   0.07
 1.900      2.31  0.68 -133   0.28
 2.400      2.71  0.70 -120   0.62
!
! (c) 2017  Infineon Technologies AG, Munich