! Infineon Technologies  Discrete & RF Semiconductors
! BFP196
! VCE =  4.0 V,  IC =  50 mA
! Common Emitter S-Parameters:                            Jan 2017
# GHz  S  MA  R  50
!  f         S11            S21            S12            S22
! GHz     MAG   ANG      MAG   ANG      MAG   ANG      MAG   ANG
 0.010  0.2602  -46.4  80.130  167.0  0.0034   77.2  0.9447  -15.1
 0.020  0.3401  -77.9  75.624  155.5  0.0064   72.2  0.8863  -29.7
 0.030  0.3684  -97.0  67.377  149.0  0.0086   63.5  0.7861  -38.3
 0.040  0.4302 -112.1  60.239  140.7  0.0109   58.4  0.7085  -49.1
 0.050  0.5136 -122.8  54.648  130.6  0.0132   55.1  0.6615  -62.0
 0.060  0.5231 -128.9  50.107  128.1  0.0141   54.5  0.6072  -66.2
 0.070  0.5382 -134.6  45.678  125.2  0.0150   54.0  0.5567  -71.1
 0.080  0.5584 -140.1  41.396  121.6  0.0160   53.5  0.5112  -77.1
 0.090  0.5833 -145.0  37.312  117.2  0.0169   53.1  0.4721  -84.0
 0.100  0.6122 -149.6  33.498  111.8  0.0178   52.7  0.4412  -92.1
 0.110  0.6146 -152.0  31.430  110.5  0.0186   53.1  0.4193  -95.0
 0.120  0.6182 -154.5  29.381  109.1  0.0194   53.6  0.3986  -98.2
 0.130  0.6228 -156.8  27.352  107.4  0.0201   53.9  0.3793 -101.7
 0.140  0.6285 -159.2  25.351  105.5  0.0209   54.3  0.3615 -105.5
 0.150  0.6352 -161.5  23.384  103.2  0.0217   54.6  0.3456 -109.8
 0.200  0.6489 -168.0  17.860   97.8  0.0255   57.8  0.2998 -122.0
 0.250  0.6535 -172.7  14.398   93.9  0.0297   59.3  0.2727 -130.7
 0.300  0.6558 -176.1  12.067   91.1  0.0334   61.6  0.2582 -137.9
 0.350  0.6565 -178.8  10.589   89.1  0.0377   63.4  0.2495 -142.5
 0.400  0.6586  178.6   9.128   86.4  0.0421   64.9  0.2426 -147.4
 0.450  0.6599  176.3   8.216   84.8  0.0466   65.6  0.2391 -150.7
 0.500  0.6622  174.1   7.312   82.7  0.0511   66.2  0.2364 -154.0
 0.600  0.6654  170.4   6.123   79.5  0.0601   66.4  0.2349 -159.0
 0.700  0.6653  167.5   5.251   76.6  0.0685   66.8  0.2331 -162.8
 0.800  0.6677  164.3   4.606   73.5  0.0779   66.6  0.2348 -165.6
 0.900  0.6687  161.1   4.095   70.7  0.0867   65.5  0.2369 -167.8
 1.000  0.6729  158.3   3.703   68.0  0.0952   64.8  0.2396 -170.2
 1.100  0.6762  155.3   3.376   65.4  0.1047   63.9  0.2424 -171.8
 1.200  0.6776  152.5   3.098   62.7  0.1135   62.6  0.2451 -173.5
 1.300  0.6790  149.7   2.870   60.2  0.1220   61.7  0.2498 -174.8
 1.400  0.6837  146.9   2.680   57.6  0.1306   60.6  0.2557 -176.3
 1.500  0.6872  144.3   2.502   55.2  0.1392   59.3  0.2611 -177.6
 1.600  0.6903  141.5   2.356   52.6  0.1477   58.0  0.2661 -178.5
 1.700  0.6927  138.9   2.227   50.1  0.1556   56.9  0.2733 -179.6
 1.800  0.6998  136.2   2.115   47.6  0.1640   55.5  0.2802  179.3
 1.900  0.7021  133.7   2.006   45.4  0.1722   54.0  0.2867  178.2
 2.000  0.7045  131.2   1.907   42.9  0.1799   52.5  0.2935  177.3
 2.100  0.7081  128.6   1.821   40.7  0.1873   51.2  0.3010  176.2
 2.200  0.7131  126.0   1.738   38.2  0.1947   50.0  0.3086  175.2
 2.300  0.7162  123.8   1.669   36.1  0.2025   48.5  0.3155  174.5
 2.400  0.7204  121.7   1.602   33.9  0.2105   47.1  0.3225  173.9
 2.500  0.7234  119.5   1.541   31.9  0.2171   45.7  0.3305  172.9
 2.600  0.7275  117.3   1.482   29.7  0.2238   44.3  0.3386  171.9
 2.700  0.7312  115.3   1.432   27.8  0.2304   42.9  0.3447  170.9
 2.800  0.7358  113.3   1.383   25.7  0.2371   41.5  0.3509  170.0
 2.900  0.7391  111.2   1.338   23.9  0.2433   40.2  0.3573  168.7
 3.000  0.7433  109.1   1.294   21.9  0.2496   39.0  0.3639  167.5
 3.100  0.7450  107.3   1.258   20.3  0.2552   37.7  0.3681  166.2
 3.200  0.7474  105.5   1.223   18.6  0.2610   36.4  0.3725  164.8
 3.300  0.7506  103.7   1.190   16.9  0.2668   35.2  0.3771  163.6
 3.400  0.7545  101.9   1.157   15.0  0.2728   34.0  0.3819  162.3
 3.500  0.7591  100.2   1.126   13.0  0.2789   32.9  0.3868  161.1
 3.600  0.7610   98.6   1.099   11.5  0.2841   31.6  0.3916  159.5
 3.700  0.7635   97.0   1.073   10.0  0.2895   30.3  0.3966  158.0
 3.800  0.7667   95.4   1.048    8.3  0.2950   29.0  0.4019  156.5
 3.900  0.7703   93.9   1.024    6.6  0.3006   27.8  0.4075  155.1
 4.000  0.7746   92.3   1.001    4.8  0.3064   26.7  0.4133  153.7
 4.100  0.7751   90.8   0.980    3.4  0.3113   25.4  0.4191  152.1
 4.200  0.7761   89.3   0.959    2.0  0.3163   24.1  0.4252  150.5
 4.300  0.7777   87.8   0.939    0.5  0.3214   22.9  0.4317  149.0
 4.400  0.7798   86.3   0.920   -1.0  0.3267   21.7  0.4384  147.5
 4.500  0.7824   84.8   0.901   -2.6  0.3322   20.5  0.4454  146.1
 4.600  0.7843   83.5   0.884   -3.7  0.3366   19.3  0.4521  144.8
 4.700  0.7867   82.2   0.868   -4.9  0.3412   18.2  0.4590  143.6
 4.800  0.7894   80.9   0.852   -6.1  0.3458   17.0  0.4661  142.5
 4.900  0.7926   79.7   0.836   -7.4  0.3507   16.0  0.4734  141.3
 5.000  0.7961   78.4   0.821   -8.7  0.3556   14.9  0.4809  140.2
 5.100  0.7951   77.1   0.810   -9.8  0.3597   13.7  0.4876  139.4
 5.200  0.7946   75.8   0.800  -10.9  0.3639   12.5  0.4943  138.6
 5.300  0.7944   74.4   0.790  -12.1  0.3683   11.3  0.5012  137.8
 5.400  0.7947   73.1   0.780  -13.3  0.3728   10.1  0.5082  137.0
 5.500  0.7954   71.8   0.771  -14.5  0.3775    9.0  0.5152  136.3
 5.600  0.7944   70.7   0.760  -15.5  0.3812    7.9  0.5181  135.6
 5.700  0.7936   69.5   0.750  -16.5  0.3850    6.8  0.5211  134.8
 5.800  0.7932   68.4   0.740  -17.5  0.3889    5.8  0.5241  134.1
 5.900  0.7931   67.2   0.730  -18.5  0.3930    4.7  0.5273  133.4
 6.000  0.7933   66.1   0.720  -19.6  0.3972    3.7  0.5305  132.7
!
!  f       NFmin   Gammaopt  rn/50
! GHz       dB    MAG  ANG    -
 0.450      1.45  0.40 -176   0.06
 0.900      1.60  0.47 -164   0.08
 1.900      2.42  0.68 -132   0.32
 2.400      2.82  0.70 -119   0.66
!
! (c) 2017  Infineon Technologies AG, Munich