! Infineon Technologies  Discrete & RF Semiconductors
! BFP196
! VCE =  1.0 V,  IC =  35 mA
! Common Emitter S-Parameters:                            Jan 2017
# GHz  S  MA  R  50
!  f         S11            S21            S12            S22
! GHz     MAG   ANG      MAG   ANG      MAG   ANG      MAG   ANG
 0.010  0.3183  -49.0  67.507  165.6  0.0050   77.2  0.9346  -19.2
 0.020  0.4154  -81.2  62.837  152.8  0.0096   66.5  0.8695  -37.5
 0.030  0.4393 -100.2  55.243  146.3  0.0125   58.6  0.7609  -47.9
 0.040  0.5041 -115.7  48.576  137.9  0.0156   53.8  0.6845  -61.0
 0.050  0.5968 -127.1  43.269  127.1  0.0188   50.6  0.6517  -76.5
 0.060  0.6049 -132.8  39.528  124.8  0.0198   49.4  0.6023  -81.8
 0.070  0.6188 -138.3  35.865  122.0  0.0208   48.4  0.5589  -87.9
 0.080  0.6380 -143.5  32.307  118.6  0.0218   47.5  0.5228  -94.9
 0.090  0.6622 -148.3  28.891  114.3  0.0229   46.6  0.4958 -102.9
 0.100  0.6908 -152.8  25.675  109.0  0.0239   45.8  0.4793 -111.6
 0.110  0.6929 -155.0  24.066  107.8  0.0247   46.1  0.4631 -114.8
 0.120  0.6959 -157.2  22.468  106.5  0.0254   46.5  0.4484 -118.3
 0.130  0.7001 -159.4  20.885  105.0  0.0262   46.8  0.4355 -122.0
 0.140  0.7052 -161.6  19.318  103.2  0.0269   47.0  0.4245 -125.9
 0.150  0.7113 -163.7  17.774  101.1  0.0277   47.3  0.4156 -130.0
 0.200  0.7217 -169.8  13.515   95.9  0.0310   50.2  0.3893 -141.5
 0.250  0.7268 -174.3  10.879   92.2  0.0352   53.3  0.3751 -149.0
 0.300  0.7246 -177.6   9.102   89.5  0.0395   55.8  0.3670 -154.8
 0.350  0.7259  179.8   7.985   87.5  0.0439   57.6  0.3630 -158.5
 0.400  0.7286  177.3   6.881   84.9  0.0483   59.0  0.3605 -162.2
 0.450  0.7292  175.2   6.192   83.3  0.0530   60.1  0.3592 -164.7
 0.500  0.7307  173.1   5.509   81.2  0.0578   61.1  0.3586 -167.2
 0.600  0.7339  169.6   4.615   77.8  0.0673   62.0  0.3591 -171.0
 0.700  0.7333  166.5   3.960   74.9  0.0763   62.9  0.3587 -173.9
 0.800  0.7355  163.1   3.475   71.7  0.0870   62.5  0.3610 -176.3
 0.900  0.7355  160.1   3.090   68.8  0.0965   62.0  0.3629 -178.3
 1.000  0.7380  157.4   2.802   66.1  0.1060   61.3  0.3656  179.7
 1.100  0.7410  154.4   2.558   63.4  0.1152   60.6  0.3686  178.2
 1.200  0.7429  151.5   2.350   60.5  0.1244   59.5  0.3706  176.5
 1.300  0.7428  148.8   2.181   58.0  0.1336   58.2  0.3751  175.2
 1.400  0.7463  146.0   2.041   55.3  0.1429   57.2  0.3802  173.8
 1.500  0.7497  143.3   1.908   52.8  0.1524   56.0  0.3850  172.5
 1.600  0.7533  140.7   1.801   50.1  0.1614   54.6  0.3895  171.4
 1.700  0.7547  137.9   1.706   47.6  0.1705   53.6  0.3953  170.3
 1.800  0.7607  135.2   1.624   45.0  0.1794   52.0  0.4016  169.2
 1.900  0.7616  132.6   1.543   42.8  0.1871   50.7  0.4065  168.0
 2.000  0.7624  130.1   1.470   40.2  0.1957   49.1  0.4126  167.1
 2.100  0.7652  127.5   1.407   38.0  0.2035   47.7  0.4188  166.0
 2.200  0.7696  124.9   1.346   35.5  0.2115   46.4  0.4252  164.9
 2.300  0.7712  122.7   1.295   33.4  0.2194   44.9  0.4306  164.1
 2.400  0.7740  120.5   1.246   31.2  0.2275   43.6  0.4360  163.3
 2.500  0.7762  118.3   1.202   29.2  0.2345   42.1  0.4424  162.3
 2.600  0.7795  116.1   1.159   27.1  0.2416   40.7  0.4490  161.4
 2.700  0.7820  114.0   1.122   25.2  0.2480   39.3  0.4536  160.4
 2.800  0.7856  112.0   1.086   23.2  0.2546   38.0  0.4584  159.4
 2.900  0.7874  109.9   1.053   21.4  0.2608   36.6  0.4636  158.2
 3.000  0.7902  107.9   1.022   19.5  0.2672   35.2  0.4691  157.0
 3.100  0.7907  106.1   0.996   18.0  0.2728   33.9  0.4721  155.7
 3.200  0.7921  104.2   0.972   16.4  0.2785   32.6  0.4753  154.5
 3.300  0.7943  102.4   0.947   14.7  0.2843   31.4  0.4787  153.2
 3.400  0.7972  100.6   0.924   12.9  0.2902   30.2  0.4823  152.0
 3.500  0.8010   98.8   0.902   11.0  0.2963   29.1  0.4862  150.8
 3.600  0.8019   97.2   0.883    9.6  0.3015   27.8  0.4900  149.4
 3.700  0.8033   95.6   0.864    8.1  0.3068   26.5  0.4940  148.0
 3.800  0.8054   94.0   0.846    6.6  0.3122   25.3  0.4984  146.6
 3.900  0.8081   92.5   0.829    5.0  0.3178   24.1  0.5030  145.3
 4.000  0.8114   90.9   0.812    3.3  0.3235   23.0  0.5079  144.0
 4.100  0.8107   89.4   0.797    2.1  0.3283   21.7  0.5129  142.5
 4.200  0.8105   87.9   0.782    0.8  0.3333   20.4  0.5182  141.1
 4.300  0.8109   86.5   0.768   -0.6  0.3384   19.2  0.5239  139.7
 4.400  0.8118   85.0   0.754   -2.0  0.3437   18.0  0.5298  138.3
 4.500  0.8132   83.5   0.741   -3.4  0.3491   16.8  0.5361  137.0
 4.600  0.8143   82.2   0.730   -4.4  0.3533   15.6  0.5415  135.9
 4.700  0.8159   80.9   0.719   -5.5  0.3576   14.5  0.5472  134.8
 4.800  0.8179   79.6   0.708   -6.5  0.3620   13.4  0.5530  133.7
 4.900  0.8203   78.3   0.697   -7.7  0.3666   12.3  0.5591  132.6
 5.000  0.8231   77.0   0.687   -8.8  0.3713   11.2  0.5653  131.6
 5.100  0.8214   75.7   0.680   -9.8  0.3750   10.0  0.5705  130.8
 5.200  0.8200   74.4   0.674  -10.9  0.3789    8.8  0.5758  130.0
 5.300  0.8191   73.2   0.667  -11.9  0.3829    7.7  0.5813  129.3
 5.400  0.8186   71.9   0.661  -13.0  0.3871    6.6  0.5868  128.5
 5.500  0.8185   70.6   0.655  -14.1  0.3914    5.5  0.5924  127.8
 5.600  0.8168   69.5   0.648  -15.0  0.3949    4.4  0.5938  127.1
 5.700  0.8154   68.4   0.641  -15.8  0.3985    3.3  0.5953  126.4
 5.800  0.8144   67.2   0.635  -16.7  0.4023    2.2  0.5969  125.7
 5.900  0.8136   66.1   0.628  -17.7  0.4062    1.1  0.5985  125.0
 6.000  0.8132   65.0   0.622  -18.6  0.4102    0.1  0.6003  124.3
!
!  f       NFmin   Gammaopt  rn/50
! GHz       dB    MAG  ANG    -
 0.450      1.28  0.35  173   0.05
 0.900      1.44  0.45 -169   0.07
 1.900      2.27  0.68 -134   0.27
 2.400      2.68  0.71 -121   0.61
!
! (c) 2017  Infineon Technologies AG, Munich