! Infineon Technologies  Discrete & RF Semiconductors
! BFP196
! VCE =  5.0 V,  IC =  35 mA
! Common Emitter S-Parameters:                            Jan 2017
# GHz  S  MA  R  50
!  f         S11            S21            S12            S22
! GHz     MAG   ANG      MAG   ANG      MAG   ANG      MAG   ANG
 0.010  0.3754  -29.4  68.015  169.0  0.0037   81.8  0.9638  -12.3
 0.020  0.4150  -54.6  65.395  159.1  0.0070   73.5  0.9194  -24.3
 0.030  0.4104  -73.0  59.448  152.6  0.0097   66.0  0.8335  -32.1
 0.040  0.4465  -90.0  54.419  144.9  0.0125   61.8  0.7661  -41.4
 0.050  0.5149 -103.5  50.580  135.7  0.0154   59.2  0.7226  -52.2
 0.060  0.5163 -111.0  46.676  133.0  0.0164   57.3  0.6663  -56.1
 0.070  0.5264 -118.4  42.899  129.7  0.0175   55.6  0.6135  -60.6
 0.080  0.5448 -125.4  39.283  125.9  0.0185   54.1  0.5653  -66.0
 0.090  0.5708 -131.8  35.878  121.3  0.0196   52.7  0.5230  -72.3
 0.100  0.6032 -137.6  32.751  115.8  0.0207   51.5  0.4881  -79.6
 0.110  0.6039 -140.7  30.797  114.4  0.0215   51.1  0.4617  -82.2
 0.120  0.6064 -143.9  28.866  112.7  0.0222   50.7  0.4363  -85.1
 0.130  0.6106 -147.0  26.962  110.8  0.0230   50.3  0.4122  -88.4
 0.140  0.6167 -150.0  25.090  108.7  0.0237   50.0  0.3896  -92.0
 0.150  0.6244 -153.0  23.260  106.2  0.0245   49.7  0.3688  -96.1
 0.200  0.6392 -161.2  17.901  100.1  0.0274   53.2  0.3067 -107.8
 0.250  0.6453 -167.5  14.482   95.7  0.0316   54.4  0.2690 -116.6
 0.300  0.6454 -171.7  12.147   92.7  0.0347   56.6  0.2451 -123.9
 0.350  0.6467 -174.9  10.672   90.5  0.0385   58.5  0.2318 -128.9
 0.400  0.6500 -178.1   9.218   87.6  0.0423   60.0  0.2205 -134.4
 0.450  0.6513  179.4   8.300   85.9  0.0463   60.7  0.2141 -138.1
 0.500  0.6538  177.0   7.391   83.7  0.0503   61.2  0.2086 -142.0
 0.600  0.6567  172.9   6.192   80.2  0.0590   62.1  0.2034 -148.1
 0.700  0.6573  169.4   5.314   77.2  0.0668   63.6  0.1995 -152.4
 0.800  0.6619  165.9   4.660   73.9  0.0758   64.0  0.1999 -155.7
 0.900  0.6608  162.7   4.140   71.1  0.0839   62.9  0.2016 -158.5
 1.000  0.6654  159.6   3.747   68.3  0.0925   62.9  0.2040 -161.4
 1.100  0.6690  156.6   3.415   65.7  0.1009   62.3  0.2066 -163.1
 1.200  0.6704  153.7   3.136   62.9  0.1087   61.5  0.2094 -164.9
 1.300  0.6734  150.9   2.904   60.3  0.1170   60.5  0.2144 -166.6
 1.400  0.6765  148.1   2.711   57.7  0.1255   59.5  0.2202 -168.4
 1.500  0.6812  145.4   2.530   55.2  0.1335   58.5  0.2260 -169.7
 1.600  0.6831  142.6   2.384   52.6  0.1421   57.1  0.2314 -170.8
 1.700  0.6879  139.8   2.251   50.1  0.1501   56.3  0.2395 -172.0
 1.800  0.6930  137.1   2.137   47.5  0.1579   55.0  0.2468 -173.3
 1.900  0.6967  134.5   2.027   45.2  0.1655   53.9  0.2540 -174.5
 2.000  0.6988  132.0   1.926   42.7  0.1735   52.5  0.2614 -175.4
 2.100  0.7028  129.4   1.839   40.4  0.1807   51.3  0.2693 -176.6
 2.200  0.7083  126.8   1.756   37.9  0.1880   50.1  0.2773 -177.8
 2.300  0.7108  124.6   1.685   35.8  0.1955   48.8  0.2852 -178.5
 2.400  0.7144  122.4   1.617   33.6  0.2031   47.6  0.2932 -179.2
 2.500  0.7185  120.2   1.555   31.6  0.2099   46.2  0.3017  179.7
 2.600  0.7237  118.0   1.495   29.4  0.2168   44.8  0.3104  178.6
 2.700  0.7276  115.9   1.443   27.4  0.2232   43.5  0.3173  177.6
 2.800  0.7324  113.8   1.393   25.3  0.2297   42.2  0.3243  176.6
 2.900  0.7353  111.8   1.348   23.4  0.2357   40.9  0.3312  175.2
 3.000  0.7391  109.8   1.304   21.4  0.2419   39.6  0.3383  173.9
 3.100  0.7412  107.9   1.267   19.8  0.2477   38.3  0.3433  172.5
 3.200  0.7440  106.1   1.232   18.1  0.2536   37.1  0.3484  171.1
 3.300  0.7476  104.3   1.197   16.3  0.2596   36.0  0.3538  169.7
 3.400  0.7520  102.5   1.164   14.4  0.2658   34.9  0.3594  168.4
 3.500  0.7571  100.7   1.132   12.4  0.2720   33.8  0.3651  167.1
 3.600  0.7592   99.1   1.104   10.9  0.2773   32.5  0.3704  165.5
 3.700  0.7620   97.5   1.077    9.3  0.2827   31.3  0.3760  163.9
 3.800  0.7653   95.9   1.051    7.7  0.2882   30.1  0.3818  162.3
 3.900  0.7691   94.4   1.026    5.9  0.2939   28.9  0.3879  160.8
 4.000  0.7736   92.8   1.002    4.1  0.2997   27.8  0.3943  159.4
 4.100  0.7742   91.3   0.980    2.7  0.3048   26.5  0.4006  157.7
 4.200  0.7753   89.8   0.959    1.3  0.3100   25.2  0.4073  156.0
 4.300  0.7770   88.3   0.939   -0.1  0.3154   24.0  0.4143  154.4
 4.400  0.7792   86.8   0.919   -1.7  0.3209   22.8  0.4217  152.8
 4.500  0.7819   85.3   0.900   -3.3  0.3265   21.7  0.4293  151.3
 4.600  0.7840   84.0   0.883   -4.4  0.3312   20.5  0.4366  149.9
 4.700  0.7865   82.6   0.866   -5.6  0.3360   19.4  0.4442  148.6
 4.800  0.7895   81.3   0.850   -6.8  0.3410   18.2  0.4520  147.3
 4.900  0.7928   80.0   0.834   -8.1  0.3461   17.2  0.4601  146.1
 5.000  0.7966   78.7   0.818   -9.4  0.3513   16.1  0.4683  144.9
 5.100  0.7960   77.4   0.807  -10.5  0.3555   14.9  0.4757  144.0
 5.200  0.7958   76.1   0.796  -11.6  0.3599   13.7  0.4833  143.1
 5.300  0.7961   74.8   0.785  -12.8  0.3645   12.5  0.4910  142.2
 5.400  0.7967   73.5   0.775  -14.0  0.3692   11.4  0.4988  141.3
 5.500  0.7978   72.2   0.765  -15.2  0.3740   10.3  0.5067  140.5
 5.600  0.7966   71.0   0.754  -16.1  0.3778    9.2  0.5104  139.7
 5.700  0.7957   69.9   0.744  -17.1  0.3817    8.1  0.5141  138.9
 5.800  0.7951   68.7   0.734  -18.1  0.3858    7.0  0.5180  138.1
 5.900  0.7949   67.6   0.724  -19.1  0.3900    5.9  0.5220  137.4
 6.000  0.7950   66.4   0.714  -20.2  0.3943    4.9  0.5260  136.6
!
!  f       NFmin   Gammaopt  rn/50
! GHz       dB    MAG  ANG    -
 0.450      1.28  0.35  173   0.05
 0.900      1.44  0.45 -169   0.07
 1.900      2.27  0.68 -134   0.27
 2.400      2.68  0.71 -121   0.61
!
! (c) 2017  Infineon Technologies AG, Munich