! Infineon Technologies  Discrete & RF Semiconductors
! BFP196
! VCE =  9.0 V,  IC =  5.0 mA
! Common Emitter S-Parameters:                            Jan 2017
# GHz  S  MA  R  50
!  f         S11            S21            S12            S22
! GHz     MAG   ANG      MAG   ANG      MAG   ANG      MAG   ANG
 0.010  0.8634   -7.0  16.079  176.2  0.0045   86.0  1.0000   -3.0
 0.020  0.8730  -13.7  16.233  172.5  0.0095   83.5  0.9937   -6.2
 0.030  0.8518  -20.0  15.908  168.9  0.0140   77.8  0.9780   -8.9
 0.040  0.8414  -26.6  15.650  165.1  0.0187   74.9  0.9646  -11.7
 0.050  0.8424  -33.3  15.462  161.2  0.0233   73.2  0.9535  -14.6
 0.060  0.8222  -38.9  15.039  158.3  0.0269   69.0  0.9310  -16.8
 0.070  0.8102  -44.7  14.657  155.2  0.0306   65.7  0.9098  -19.0
 0.080  0.8068  -50.6  14.320  152.0  0.0343   63.2  0.8902  -21.4
 0.090  0.8120  -56.5  14.030  148.6  0.0381   61.2  0.8721  -23.8
 0.100  0.8256  -62.3  13.791  145.1  0.0420   59.5  0.8557  -26.4
 0.110  0.8083  -66.7  13.353  142.8  0.0443   56.9  0.8325  -27.9
 0.120  0.7960  -71.2  12.939  140.4  0.0466   54.6  0.8098  -29.5
 0.130  0.7887  -75.9  12.549  137.8  0.0490   52.4  0.7879  -31.2
 0.140  0.7868  -80.6  12.187  135.0  0.0515   50.5  0.7666  -33.0
 0.150  0.7902  -85.3  11.854  132.1  0.0540   48.8  0.7462  -34.9
 0.200  0.7736 -103.3  10.197  122.3  0.0611   41.8  0.6570  -40.4
 0.250  0.7575 -117.1   8.806  114.2  0.0663   36.5  0.5834  -43.9
 0.300  0.7453 -127.7   7.678  108.5  0.0690   33.1  0.5279  -46.3
 0.350  0.7332 -135.5   6.858  104.3  0.0708   30.9  0.4903  -47.6
 0.400  0.7349 -143.4   6.084   99.1  0.0726   28.9  0.4529  -49.1
 0.450  0.7267 -149.0   5.526   95.9  0.0732   28.0  0.4302  -50.0
 0.500  0.7255 -154.7   4.988   92.1  0.0739   27.2  0.4077  -51.1
 0.600  0.7248 -163.3   4.229   86.4  0.0754   26.6  0.3792  -52.9
 0.700  0.7222 -170.0   3.655   81.5  0.0760   27.2  0.3604  -54.7
 0.800  0.7248 -176.0   3.227   76.8  0.0769   27.8  0.3492  -56.9
 0.900  0.7231  178.8   2.875   72.7  0.0783   29.3  0.3411  -59.5
 1.000  0.7260  174.1   2.607   68.8  0.0791   31.0  0.3348  -62.2
 1.100  0.7281  169.9   2.382   65.2  0.0806   33.0  0.3331  -65.1
 1.200  0.7305  165.7   2.190   61.5  0.0825   34.8  0.3311  -68.2
 1.300  0.7323  162.0   2.027   58.1  0.0848   37.1  0.3316  -71.6
 1.400  0.7378  158.3   1.892   54.8  0.0870   39.1  0.3317  -75.1
 1.500  0.7411  154.9   1.766   51.6  0.0904   41.0  0.3335  -78.6
 1.600  0.7461  151.6   1.661   48.3  0.0940   43.0  0.3382  -82.0
 1.700  0.7492  148.3   1.569   45.3  0.0986   45.1  0.3414  -86.1
 1.800  0.7571  144.9   1.489   42.3  0.1040   46.4  0.3459  -89.8
 1.900  0.7603  141.9   1.410   39.6  0.1085   48.2  0.3514  -93.5
 2.000  0.7633  138.8   1.338   36.6  0.1143   49.2  0.3584  -97.0
 2.100  0.7674  135.7   1.275   34.0  0.1203   50.1  0.3654 -100.8
 2.200  0.7736  132.7   1.214   31.1  0.1264   50.9  0.3739 -104.4
 2.300  0.7769  130.1   1.162   28.8  0.1339   51.5  0.3833 -107.9
 2.400  0.7818  127.6   1.112   26.2  0.1414   52.0  0.3940 -111.3
 2.500  0.7860  125.0   1.066   24.0  0.1487   51.8  0.4033 -114.8
 2.600  0.7917  122.5   1.021   21.6  0.1561   51.7  0.4141 -118.2
 2.700  0.7952  120.1   0.982   19.6  0.1639   51.4  0.4238 -121.3
 2.800  0.8001  117.7   0.944   17.4  0.1718   51.2  0.4348 -124.3
 2.900  0.8026  115.3   0.909   15.5  0.1799   50.5  0.4429 -127.5
 3.000  0.8065  113.0   0.875   13.4  0.1880   49.9  0.4522 -130.5
 3.100  0.8083  110.9   0.847   12.0  0.1964   49.0  0.4582 -133.6
 3.200  0.8111  108.8   0.820   10.5  0.2049   48.1  0.4656 -136.6
 3.300  0.8150  106.7   0.794    8.9  0.2134   47.4  0.4742 -139.5
 3.400  0.8200  104.6   0.768    7.1  0.2220   46.7  0.4839 -142.3
 3.500  0.8261  102.6   0.743    5.3  0.2306   46.0  0.4948 -145.0
 3.600  0.8270  100.8   0.723    4.2  0.2388   44.6  0.4995 -148.1
 3.700  0.8286   99.0   0.704    3.0  0.2472   43.4  0.5056 -151.0
 3.800  0.8311   97.2   0.685    1.7  0.2557   42.2  0.5131 -154.0
 3.900  0.8345   95.4   0.666    0.4  0.2642   41.0  0.5218 -156.8
 4.000  0.8386   93.6   0.648   -1.0  0.2729   40.0  0.5318 -159.5
 4.100  0.8378   91.9   0.634   -1.9  0.2807   38.4  0.5366 -162.6
 4.200  0.8377   90.3   0.620   -2.8  0.2886   37.0  0.5430 -165.6
 4.300  0.8383   88.6   0.606   -3.8  0.2967   35.6  0.5508 -168.5
 4.400  0.8396   87.0   0.592   -4.8  0.3050   34.2  0.5600 -171.4
 4.500  0.8416   85.3   0.579   -5.9  0.3135   33.0  0.5706 -174.1
 4.600  0.8419   83.9   0.569   -6.5  0.3204   31.5  0.5769 -176.8
 4.700  0.8427   82.4   0.558   -7.1  0.3275   30.1  0.5844 -179.4
 4.800  0.8441   81.0   0.548   -7.7  0.3348   28.7  0.5931  178.0
 4.900  0.8460   79.5   0.538   -8.3  0.3423   27.4  0.6029  175.5
 5.000  0.8484   78.1   0.528   -9.0  0.3499   26.2  0.6139  173.1
 5.100  0.8464   76.7   0.523   -9.5  0.3558   24.7  0.6213  171.0
 5.200  0.8449   75.3   0.518  -10.0  0.3620   23.2  0.6295  168.9
 5.300  0.8439   73.9   0.513  -10.5  0.3684   21.7  0.6385  166.9
 5.400  0.8434   72.5   0.509  -11.1  0.3750   20.3  0.6483  164.9
 5.500  0.8434   71.1   0.504  -11.6  0.3818   19.0  0.6588  163.0
 5.600  0.8414   69.8   0.500  -12.0  0.3869   17.6  0.6625  161.3
 5.700  0.8398   68.6   0.496  -12.3  0.3922   16.2  0.6667  159.7
 5.800  0.8386   67.3   0.493  -12.7  0.3978   14.9  0.6715  158.0
 5.900  0.8379   66.1   0.489  -13.1  0.4035   13.6  0.6768  156.4
 6.000  0.8375   64.8   0.485  -13.5  0.4095   12.4  0.6827  154.8
!
!  f       NFmin   Gammaopt  rn/50
! GHz       dB    MAG  ANG    -
 0.450      1.01  0.42  127   0.08
 0.900      1.47  0.55  170   0.06
 1.900      2.90  0.74 -142   0.31
 2.400      3.55  0.76 -125   0.95
!
! (c) 2017  Infineon Technologies AG, Munich