! Infineon Technologies  Discrete & RF Semiconductors
! BFP196
! VCE =  7.0 V,  IC =  65 mA
! Common Emitter S-Parameters:                            Jan 2017
# GHz  S  MA  R  50
!  f         S11            S21            S12            S22
! GHz     MAG   ANG      MAG   ANG      MAG   ANG      MAG   ANG
 0.010  0.2638  -44.4  86.430  166.7  0.0033   80.3  0.9344  -14.5
 0.020  0.3399  -76.5  81.955  155.1  0.0059   75.0  0.8766  -28.7
 0.030  0.3644  -95.6  72.876  148.7  0.0078   66.0  0.7778  -36.9
 0.040  0.4224 -110.8  64.969  140.5  0.0098   60.5  0.6991  -47.1
 0.050  0.5024 -121.8  58.709  130.4  0.0118   56.9  0.6478  -59.5
 0.060  0.5105 -127.9  53.828  127.9  0.0128   56.6  0.5941  -63.4
 0.070  0.5242 -133.8  49.065  125.0  0.0137   56.4  0.5437  -68.0
 0.080  0.5430 -139.3  44.458  121.5  0.0147   56.2  0.4975  -73.5
 0.090  0.5665 -144.3  40.062  117.1  0.0156   56.0  0.4567  -80.0
 0.100  0.5941 -149.0  35.954  111.7  0.0166   55.8  0.4230  -87.7
 0.110  0.5959 -151.5  33.730  110.4  0.0173   56.1  0.4004  -90.3
 0.120  0.5987 -153.9  31.525  109.0  0.0180   56.3  0.3788  -93.3
 0.130  0.6027 -156.4  29.344  107.3  0.0187   56.5  0.3583  -96.5
 0.140  0.6077 -158.8  27.191  105.4  0.0194   56.7  0.3391 -100.2
 0.150  0.6138 -161.1  25.075  103.1  0.0201   56.9  0.3215 -104.3
 0.200  0.6271 -167.5  19.138   97.8  0.0238   59.9  0.2717 -116.1
 0.250  0.6328 -172.4  15.424   94.0  0.0279   62.8  0.2431 -124.7
 0.300  0.6335 -175.9  12.918   91.2  0.0321   64.1  0.2255 -131.8
 0.350  0.6342 -178.6  11.340   89.2  0.0361   65.5  0.2159 -136.5
 0.400  0.6362  178.8   9.779   86.6  0.0401   66.7  0.2078 -141.6
 0.450  0.6374  176.7   8.803   85.0  0.0444   67.3  0.2038 -145.0
 0.500  0.6395  174.6   7.835   83.0  0.0488   67.8  0.2005 -148.5
 0.600  0.6418  170.8   6.560   79.7  0.0582   67.8  0.1979 -153.9
 0.700  0.6454  167.5   5.628   76.9  0.0665   68.1  0.1956 -157.8
 0.800  0.6480  164.5   4.935   73.8  0.0758   67.9  0.1964 -160.8
 0.900  0.6478  161.4   4.385   71.1  0.0845   66.7  0.1989 -163.2
 1.000  0.6513  158.3   3.965   68.4  0.0925   65.9  0.2020 -165.7
 1.100  0.6559  155.5   3.614   65.9  0.1016   65.0  0.2046 -167.1
 1.200  0.6580  152.7   3.318   63.2  0.1099   63.6  0.2073 -168.9
 1.300  0.6591  149.9   3.070   60.7  0.1186   62.7  0.2126 -170.2
 1.400  0.6626  147.2   2.866   58.1  0.1272   61.6  0.2183 -172.0
 1.500  0.6671  144.6   2.675   55.7  0.1352   60.2  0.2237 -173.3
 1.600  0.6715  141.7   2.519   53.1  0.1436   58.9  0.2289 -174.0
 1.700  0.6735  139.1   2.378   50.7  0.1514   57.7  0.2365 -175.1
 1.800  0.6791  136.3   2.259   48.1  0.1598   56.3  0.2435 -176.3
 1.900  0.6840  133.9   2.142   46.0  0.1674   55.0  0.2508 -177.4
 2.000  0.6854  131.4   2.035   43.4  0.1750   53.5  0.2580 -178.2
 2.100  0.6893  128.8   1.942   41.2  0.1824   52.1  0.2656 -179.3
 2.200  0.6945  126.3   1.853   38.8  0.1898   50.9  0.2732  179.6
 2.300  0.6973  124.1   1.778   36.7  0.1976   49.5  0.2807  178.9
 2.400  0.7010  122.0   1.706   34.5  0.2055   48.2  0.2882  178.3
 2.500  0.7048  119.8   1.641   32.5  0.2120   46.7  0.2965  177.3
 2.600  0.7096  117.6   1.579   30.3  0.2187   45.3  0.3049  176.3
 2.700  0.7141  115.6   1.524   28.4  0.2250   43.9  0.3115  175.3
 2.800  0.7194  113.6   1.471   26.3  0.2315   42.6  0.3182  174.4
 2.900  0.7227  111.5   1.422   24.5  0.2377   41.3  0.3247  173.0
 3.000  0.7269  109.4   1.375   22.5  0.2441   40.0  0.3314  171.7
 3.100  0.7290  107.6   1.336   20.9  0.2497   38.7  0.3360  170.3
 3.200  0.7319  105.7   1.299   19.2  0.2554   37.4  0.3408  169.0
 3.300  0.7355  103.9   1.262   17.4  0.2613   36.2  0.3458  167.7
 3.400  0.7398  102.2   1.228   15.4  0.2672   35.1  0.3509  166.4
 3.500  0.7448  100.4   1.194   13.4  0.2733   34.0  0.3562  165.2
 3.600  0.7471   98.8   1.165   11.9  0.2785   32.7  0.3611  163.6
 3.700  0.7499   97.2   1.137   10.3  0.2839   31.4  0.3663  162.0
 3.800  0.7533   95.7   1.110    8.7  0.2894   30.1  0.3718  160.5
 3.900  0.7573   94.1   1.084    6.9  0.2950   28.9  0.3775  159.0
 4.000  0.7618   92.6   1.059    5.1  0.3008   27.8  0.3835  157.6
 4.100  0.7626   91.1   1.036    3.7  0.3057   26.5  0.3895  155.9
 4.200  0.7639   89.7   1.013    2.3  0.3108   25.2  0.3958  154.3
 4.300  0.7657   88.2   0.991    0.7  0.3160   24.0  0.4025  152.7
 4.400  0.7680   86.7   0.970   -0.8  0.3214   22.8  0.4094  151.2
 4.500  0.7708   85.3   0.950   -2.5  0.3269   21.6  0.4166  149.7
 4.600  0.7730   84.0   0.932   -3.7  0.3314   20.4  0.4235  148.4
 4.700  0.7756   82.6   0.914   -4.9  0.3361   19.3  0.4307  147.1
 4.800  0.7786   81.3   0.896   -6.1  0.3409   18.1  0.4380  145.9
 4.900  0.7820   80.0   0.879   -7.4  0.3458   17.1  0.4456  144.7
 5.000  0.7858   78.7   0.863   -8.8  0.3508   16.0  0.4533  143.6
 5.100  0.7852   77.4   0.851   -9.9  0.3549   14.8  0.4604  142.7
 5.200  0.7849   76.1   0.839  -11.1  0.3592   13.6  0.4675  141.9
 5.300  0.7851   74.8   0.828  -12.2  0.3636   12.4  0.4748  141.1
 5.400  0.7856   73.5   0.817  -13.5  0.3682   11.2  0.4822  140.3
 5.500  0.7866   72.2   0.806  -14.7  0.3729   10.1  0.4896  139.5
 5.600  0.7857   71.0   0.795  -15.7  0.3765    9.0  0.4930  138.8
 5.700  0.7851   69.9   0.784  -16.7  0.3803    7.9  0.4964  138.0
 5.800  0.7848   68.7   0.773  -17.7  0.3842    6.8  0.5000  137.3
 5.900  0.7848   67.6   0.762  -18.8  0.3882    5.7  0.5036  136.6
 6.000  0.7852   66.4   0.752  -19.9  0.3924    4.7  0.5073  135.9
!
!  f       NFmin   Gammaopt  rn/50
! GHz       dB    MAG  ANG    -
 0.450      1.62  0.43 -173   0.06
 0.900      1.78  0.49 -160   0.08
 1.900      2.59  0.69 -131   0.35
 2.400      3.00  0.70 -118   0.75
!
! (c) 2017  Infineon Technologies AG, Munich