! Infineon Technologies  Discrete & RF Semiconductors
! BFP196
! VCE =  12. V,  IC =  40 mA
! Common Emitter S-Parameters:                            Jan 2017
# GHz  S  MA  R  50
!  f         S11            S21            S12            S22
! GHz     MAG   ANG      MAG   ANG      MAG   ANG      MAG   ANG
 0.010  0.4358  -23.4  67.924  169.5  0.0034   68.4  0.9147  -10.5
 0.020  0.4596  -45.7  66.047  160.4  0.0071   71.3  0.8734  -21.1
 0.030  0.4430  -62.3  60.510  154.2  0.0095   63.8  0.8021  -28.2
 0.040  0.4645  -78.7  55.819  146.8  0.0120   59.5  0.7455  -36.6
 0.050  0.5194  -92.7  52.205  138.3  0.0146   56.6  0.7071  -46.1
 0.060  0.5135 -100.6  48.348  135.5  0.0157   55.5  0.6544  -49.7
 0.070  0.5175 -108.5  44.631  132.1  0.0169   54.5  0.6046  -53.8
 0.080  0.5310 -116.1  41.092  128.2  0.0180   53.7  0.5585  -58.7
 0.090  0.5535 -123.3  37.780  123.6  0.0192   53.0  0.5172  -64.4
 0.100  0.5839 -129.8  34.761  118.1  0.0203   52.3  0.4819  -71.0
 0.110  0.5826 -133.3  32.734  116.6  0.0211   51.7  0.4551  -73.3
 0.120  0.5835 -136.9  30.734  114.8  0.0219   51.2  0.4291  -75.8
 0.130  0.5867 -140.4  28.766  112.8  0.0226   50.7  0.4040  -78.6
 0.140  0.5920 -143.9  26.839  110.5  0.0234   50.2  0.3801  -81.9
 0.150  0.5995 -147.3  24.960  107.9  0.0242   49.8  0.3575  -85.5
 0.200  0.6128 -156.9  19.303  101.6  0.0270   51.9  0.2899  -95.6
 0.250  0.6185 -163.9  15.649   97.0  0.0301   53.7  0.2467 -103.2
 0.300  0.6172 -168.5  13.137   93.8  0.0335   55.2  0.2181 -109.9
 0.350  0.6191 -172.1  11.549   91.5  0.0373   57.7  0.2013 -114.5
 0.400  0.6234 -175.6   9.985   88.5  0.0412   59.7  0.1859 -119.8
 0.450  0.6235 -178.4   8.994   86.7  0.0448   60.3  0.1776 -123.5
 0.500  0.6251  178.9   8.013   84.5  0.0484   60.8  0.1702 -127.5
 0.600  0.6288  174.5   6.713   81.0  0.0567   62.3  0.1616 -133.9
 0.700  0.6309  170.8   5.760   77.9  0.0637   63.3  0.1557 -138.7
 0.800  0.6330  167.1   5.053   74.7  0.0725   63.4  0.1552 -142.3
 0.900  0.6323  163.9   4.492   71.8  0.0798   63.1  0.1557 -145.7
 1.000  0.6374  160.7   4.064   69.1  0.0884   62.9  0.1571 -149.0
 1.100  0.6399  157.6   3.703   66.4  0.0964   62.3  0.1597 -150.8
 1.200  0.6436  154.6   3.398   63.6  0.1040   61.4  0.1625 -153.2
 1.300  0.6457  151.7   3.144   61.1  0.1117   60.8  0.1675 -155.1
 1.400  0.6491  149.0   2.936   58.5  0.1202   60.1  0.1732 -157.2
 1.500  0.6536  146.3   2.739   56.0  0.1278   58.8  0.1786 -159.1
 1.600  0.6575  143.4   2.579   53.3  0.1357   57.8  0.1848 -160.1
 1.700  0.6606  140.6   2.434   50.9  0.1436   56.8  0.1928 -161.6
 1.800  0.6672  137.8   2.313   48.3  0.1513   55.5  0.2004 -163.3
 1.900  0.6709  135.3   2.190   46.1  0.1582   54.5  0.2076 -164.7
 2.000  0.6736  132.7   2.082   43.5  0.1660   53.3  0.2159 -165.8
 2.100  0.6777  130.1   1.987   41.3  0.1729   52.1  0.2241 -167.3
 2.200  0.6832  127.5   1.896   38.8  0.1799   51.0  0.2324 -168.6
 2.300  0.6867  125.2   1.819   36.7  0.1874   49.8  0.2410 -169.5
 2.400  0.6913  123.0   1.744   34.4  0.1950   48.6  0.2496 -170.3
 2.500  0.6958  120.8   1.677   32.3  0.2016   47.2  0.2584 -171.6
 2.600  0.7013  118.7   1.613   30.1  0.2084   45.9  0.2673 -172.8
 2.700  0.7056  116.6   1.556   28.2  0.2148   44.7  0.2750 -173.9
 2.800  0.7108  114.6   1.500   26.1  0.2212   43.5  0.2829 -175.0
 2.900  0.7147  112.5   1.450   24.2  0.2273   42.1  0.2900 -176.5
 3.000  0.7195  110.4   1.402   22.1  0.2335   40.8  0.2972 -178.0
 3.100  0.7220  108.6   1.361   20.5  0.2392   39.6  0.3026 -179.5
 3.200  0.7253  106.7   1.322   18.7  0.2450   38.4  0.3081  179.0
 3.300  0.7292  104.9   1.284   16.9  0.2509   37.3  0.3139  177.5
 3.400  0.7339  103.2   1.247   15.0  0.2569   36.2  0.3199  176.1
 3.500  0.7393  101.4   1.212   12.9  0.2630   35.2  0.3260  174.8
 3.600  0.7418   99.8   1.182   11.4  0.2685   33.9  0.3314  173.0
 3.700  0.7449   98.2   1.153    9.8  0.2741   32.7  0.3371  171.3
 3.800  0.7485   96.6   1.124    8.1  0.2798   31.5  0.3432  169.6
 3.900  0.7528   95.0   1.097    6.3  0.2857   30.4  0.3494  168.0
 4.000  0.7576   93.4   1.071    4.4  0.2916   29.3  0.3560  166.5
 4.100  0.7584   91.9   1.047    3.0  0.2967   28.0  0.3625  164.6
 4.200  0.7597   90.4   1.024    1.6  0.3019   26.8  0.3695  162.8
 4.300  0.7616   88.9   1.002    0.0  0.3073   25.6  0.3767  161.0
 4.400  0.7639   87.4   0.980   -1.5  0.3128   24.4  0.3844  159.3
 4.500  0.7668   85.9   0.959   -3.2  0.3184   23.3  0.3923  157.7
 4.600  0.7696   84.6   0.940   -4.4  0.3231   22.1  0.4001  156.2
 4.700  0.7727   83.2   0.921   -5.6  0.3280   21.0  0.4081  154.7
 4.800  0.7763   81.9   0.903   -6.9  0.3330   19.8  0.4163  153.3
 4.900  0.7803   80.6   0.885   -8.3  0.3382   18.8  0.4249  152.0
 5.000  0.7847   79.3   0.868   -9.7  0.3434   17.7  0.4336  150.7
 5.100  0.7843   78.0   0.855  -10.8  0.3478   16.5  0.4417  149.7
 5.200  0.7842   76.7   0.842  -12.0  0.3523   15.3  0.4500  148.7
 5.300  0.7846   75.4   0.830  -13.1  0.3569   14.1  0.4583  147.8
 5.400  0.7854   74.1   0.818  -14.3  0.3618   13.0  0.4668  146.9
 5.500  0.7866   72.8   0.806  -15.6  0.3667   11.9  0.4754  146.0
 5.600  0.7857   71.6   0.794  -16.6  0.3706   10.8  0.4798  145.1
 5.700  0.7852   70.4   0.782  -17.5  0.3746    9.6  0.4843  144.3
 5.800  0.7849   69.3   0.770  -18.6  0.3788    8.5  0.4890  143.5
 5.900  0.7851   68.1   0.758  -19.6  0.3831    7.5  0.4937  142.7
 6.000  0.7855   66.9   0.747  -20.7  0.3875    6.4  0.4985  141.9
!
!  f       NFmin   Gammaopt  rn/50
! GHz       dB    MAG  ANG    -
 0.450      1.34  0.36  177   0.05
 0.900      1.49  0.46 -167   0.07
 1.900      2.31  0.68 -133   0.28
 2.400      2.71  0.70 -120   0.62
!
! (c) 2017  Infineon Technologies AG, Munich