! Infineon Technologies  Discrete & RF Semiconductors
! BFP196
! VCE =  2.0 V,  IC =  95 mA
! Common Emitter S-Parameters:                            Jan 2017
# GHz  S  MA  R  50
!  f         S11            S21            S12            S22
! GHz     MAG   ANG      MAG   ANG      MAG   ANG      MAG   ANG
 0.010  0.2413 -124.4  91.611  161.5  0.0031   74.9  0.8387  -24.1
 0.020  0.4207 -132.8  81.500  146.0  0.0057   68.6  0.7494  -46.1
 0.030  0.4818 -141.7  69.575  140.0  0.0074   60.5  0.6386  -56.7
 0.040  0.5517 -148.5  58.720  131.6  0.0092   55.6  0.5581  -71.1
 0.050  0.6277 -153.7  49.641  119.9  0.0110   52.2  0.5220  -88.7
 0.060  0.6390 -156.7  45.083  118.0  0.0118   53.9  0.4839  -93.8
 0.070  0.6520 -159.6  40.585  115.7  0.0127   55.3  0.4502  -99.7
 0.080  0.6665 -162.3  36.171  112.8  0.0135   56.6  0.4221 -106.4
 0.090  0.6826 -165.0  31.874  109.1  0.0143   57.7  0.4005 -114.0
 0.100  0.7000 -167.5  27.749  104.3  0.0152   58.7  0.3867 -122.3
 0.110  0.7023 -168.8  25.960  103.4  0.0161   59.3  0.3761 -125.3
 0.120  0.7050 -170.0  24.178  102.3  0.0170   59.9  0.3666 -128.5
 0.130  0.7080 -171.3  22.407  101.0  0.0179   60.4  0.3583 -131.8
 0.140  0.7113 -172.5  20.648   99.5  0.0188   60.8  0.3512 -135.3
 0.150  0.7150 -173.7  18.906   97.8  0.0197   61.2  0.3455 -138.9
 0.200  0.7219 -177.3  14.292   93.4  0.0240   66.2  0.3301 -148.8
 0.250  0.7248  179.7  11.478   90.3  0.0288   67.8  0.3206 -155.0
 0.300  0.7245  177.4   9.586   87.9  0.0336   68.6  0.3168 -159.8
 0.350  0.7247  175.5   8.402   86.1  0.0385   69.8  0.3148 -162.8
 0.400  0.7256  173.7   7.229   83.8  0.0434   70.7  0.3136 -165.9
 0.450  0.7262  171.9   6.507   82.2  0.0484   70.7  0.3135 -167.9
 0.500  0.7274  170.2   5.790   80.3  0.0533   70.7  0.3137 -169.9
 0.600  0.7297  167.1   4.845   77.2  0.0636   70.5  0.3156 -173.2
 0.700  0.7320  164.4   4.157   74.4  0.0725   69.9  0.3149 -175.7
 0.800  0.7332  161.4   3.646   71.3  0.0837   69.1  0.3179 -177.6
 0.900  0.7337  158.5   3.244   68.6  0.0929   67.8  0.3208 -179.3
 1.000  0.7350  155.8   2.938   65.9  0.1022   66.9  0.3241  179.0
 1.100  0.7379  153.0   2.681   63.3  0.1122   65.7  0.3260  177.6
 1.200  0.7387  150.2   2.463   60.5  0.1218   64.1  0.3287  176.3
 1.300  0.7401  147.6   2.284   58.0  0.1305   62.7  0.3336  175.1
 1.400  0.7449  145.0   2.135   55.4  0.1405   61.3  0.3391  173.8
 1.500  0.7470  142.5   1.997   52.9  0.1497   59.7  0.3437  172.7
 1.600  0.7502  139.8   1.884   50.3  0.1588   58.4  0.3479  171.8
 1.700  0.7520  137.0   1.783   47.8  0.1675   56.8  0.3543  170.9
 1.800  0.7574  134.3   1.696   45.2  0.1764   55.3  0.3613  169.8
 1.900  0.7601  132.0   1.611   43.0  0.1841   53.8  0.3663  168.8
 2.000  0.7601  129.3   1.535   40.4  0.1926   52.3  0.3724  167.9
 2.100  0.7629  126.8   1.468   38.2  0.2002   50.7  0.3789  166.9
 2.200  0.7672  124.3   1.403   35.8  0.2079   49.2  0.3855  166.0
 2.300  0.7684  122.1   1.350   33.8  0.2160   47.6  0.3910  165.3
 2.400  0.7707  120.0   1.298   31.6  0.2243   46.2  0.3965  164.6
 2.500  0.7734  117.8   1.251   29.6  0.2312   44.7  0.4038  163.7
 2.600  0.7772  115.7   1.205   27.4  0.2383   43.2  0.4111  162.8
 2.700  0.7794  113.6   1.165   25.6  0.2449   41.7  0.4158  161.9
 2.800  0.7826  111.5   1.127   23.6  0.2517   40.3  0.4205  161.1
 2.900  0.7843  109.5   1.092   21.8  0.2578   38.8  0.4261  159.8
 3.000  0.7870  107.5   1.059   19.9  0.2640   37.4  0.4319  158.6
 3.100  0.7877  105.7   1.032   18.4  0.2696   36.0  0.4351  157.4
 3.200  0.7892  103.9   1.006   16.7  0.2753   34.7  0.4386  156.1
 3.300  0.7915  102.1   0.981   15.0  0.2811   33.5  0.4422  154.9
 3.400  0.7946  100.3   0.956   13.2  0.2871   32.3  0.4460  153.8
 3.500  0.7984   98.5   0.933   11.3  0.2932   31.1  0.4500  152.6
 3.600  0.7994   96.9   0.913    9.9  0.2984   29.7  0.4541  151.2
 3.700  0.8009   95.4   0.893    8.4  0.3037   28.4  0.4585  149.8
 3.800  0.8031   93.8   0.873    6.8  0.3091   27.2  0.4632  148.5
 3.900  0.8059   92.2   0.855    5.2  0.3148   26.0  0.4681  147.2
 4.000  0.8092   90.7   0.837    3.5  0.3205   24.8  0.4732  145.9
 4.100  0.8087   89.2   0.821    2.2  0.3252   23.5  0.4784  144.4
 4.200  0.8088   87.8   0.806    0.9  0.3300   22.2  0.4840  143.0
 4.300  0.8094   86.3   0.791   -0.4  0.3350   20.9  0.4898  141.5
 4.400  0.8105   84.9   0.776   -1.8  0.3402   19.7  0.4960  140.2
 4.500  0.8121   83.4   0.762   -3.3  0.3455   18.5  0.5024  138.8
 4.600  0.8129   82.1   0.750   -4.3  0.3498   17.3  0.5080  137.7
 4.700  0.8141   80.8   0.738   -5.4  0.3542   16.1  0.5138  136.6
 4.800  0.8157   79.5   0.726   -6.6  0.3587   15.0  0.5198  135.5
 4.900  0.8177   78.2   0.715   -7.7  0.3634   13.9  0.5260  134.4
 5.000  0.8202   76.9   0.704   -8.9  0.3682   12.8  0.5323  133.4
 5.100  0.8192   75.6   0.697   -9.9  0.3720   11.6  0.5380  132.6
 5.200  0.8185   74.3   0.690  -11.0  0.3760   10.4  0.5437  131.9
 5.300  0.8183   73.0   0.683  -12.0  0.3802    9.2  0.5496  131.1
 5.400  0.8186   71.7   0.676  -13.1  0.3845    8.0  0.5556  130.4
 5.500  0.8192   70.4   0.670  -14.2  0.3890    6.9  0.5616  129.7
 5.600  0.8172   69.3   0.662  -15.1  0.3924    5.8  0.5634  129.0
 5.700  0.8155   68.2   0.655  -16.0  0.3959    4.7  0.5654  128.3
 5.800  0.8141   67.1   0.647  -17.0  0.3996    3.6  0.5674  127.6
 5.900  0.8131   65.9   0.640  -17.9  0.4034    2.5  0.5694  127.0
 6.000  0.8123   64.8   0.633  -18.9  0.4074    1.5  0.5716  126.3
!
!  f       NFmin   Gammaopt  rn/50
! GHz       dB    MAG  ANG    -
!
! noise parameter not available yet for this operation point!
!
! (c) 2017  Infineon Technologies AG, Munich