! Infineon Technologies  Discrete & RF Semiconductors
! BFP196
! VCE =  5.0 V,  IC =  75 mA
! Common Emitter S-Parameters:                            Jan 2017
# GHz  S  MA  R  50
!  f         S11            S21            S12            S22
! GHz     MAG   ANG      MAG   ANG      MAG   ANG      MAG   ANG
 0.010  0.2034  -65.4  91.315  165.6  0.0032   82.2  0.9210  -16.6
 0.020  0.3196  -95.7  84.973  153.0  0.0056   76.1  0.8505  -32.4
 0.030  0.3652 -112.6  74.791  146.5  0.0075   66.0  0.7457  -41.2
 0.040  0.4346 -124.9  65.849  138.2  0.0096   60.1  0.6637  -52.5
 0.050  0.5183 -133.6  58.718  127.5  0.0117   56.3  0.6136  -66.2
 0.060  0.5302 -138.6  53.668  125.2  0.0125   56.8  0.5621  -70.4
 0.070  0.5459 -143.3  48.722  122.4  0.0134   57.3  0.5141  -75.3
 0.080  0.5651 -147.8  43.915  119.1  0.0142   57.6  0.4707  -81.2
 0.090  0.5874 -151.9  39.298  114.9  0.0151   58.0  0.4334  -88.3
 0.100  0.6126 -155.7  34.946  109.6  0.0159   58.3  0.4037  -96.5
 0.110  0.6150 -157.8  32.755  108.4  0.0167   58.3  0.3841  -99.4
 0.120  0.6182 -159.8  30.580  107.1  0.0174   58.3  0.3655 -102.5
 0.130  0.6222 -161.8  28.425  105.5  0.0182   58.4  0.3481 -106.0
 0.140  0.6269 -163.8  26.294  103.7  0.0189   58.4  0.3322 -109.8
 0.150  0.6324 -165.8  24.193  101.6  0.0197   58.4  0.3179 -114.0
 0.200  0.6442 -171.0  18.408   96.6  0.0233   62.7  0.2785 -126.0
 0.250  0.6502 -175.3  14.812   92.9  0.0279   64.8  0.2565 -134.4
 0.300  0.6479 -178.2  12.384   90.3  0.0323   67.0  0.2438 -141.3
 0.350  0.6494  179.4  10.870   88.4  0.0367   68.0  0.2369 -145.6
 0.400  0.6520  177.0   9.371   85.9  0.0412   68.8  0.2313 -150.1
 0.450  0.6537  175.0   8.435   84.3  0.0455   69.2  0.2289 -153.1
 0.500  0.6562  173.1   7.507   82.3  0.0498   69.5  0.2271 -156.2
 0.600  0.6585  169.5   6.285   79.1  0.0587   69.2  0.2264 -161.0
 0.700  0.6600  166.5   5.389   76.4  0.0676   68.7  0.2252 -164.5
 0.800  0.6638  163.4   4.725   73.3  0.0773   68.6  0.2269 -167.0
 0.900  0.6630  160.4   4.198   70.6  0.0867   67.4  0.2294 -169.1
 1.000  0.6668  157.6   3.797   68.0  0.0950   66.6  0.2327 -171.4
 1.100  0.6705  154.7   3.463   65.5  0.1048   65.7  0.2349 -172.9
 1.200  0.6732  152.0   3.178   62.7  0.1131   64.3  0.2377 -174.4
 1.300  0.6730  149.2   2.941   60.3  0.1221   62.8  0.2430 -175.6
 1.400  0.6780  146.6   2.747   57.7  0.1310   61.7  0.2488 -177.1
 1.500  0.6813  143.9   2.565   55.3  0.1387   60.4  0.2540 -178.4
 1.600  0.6845  141.1   2.415   52.8  0.1474   58.9  0.2587 -179.2
 1.700  0.6877  138.6   2.282   50.3  0.1559   57.8  0.2662  179.8
 1.800  0.6939  135.9   2.167   47.8  0.1642   56.2  0.2733  178.8
 1.900  0.6971  133.3   2.054   45.6  0.1720   54.9  0.2796  177.7
 2.000  0.6977  130.9   1.953   43.1  0.1799   53.4  0.2867  177.0
 2.100  0.7018  128.3   1.865   40.9  0.1873   51.9  0.2939  175.9
 2.200  0.7073  125.8   1.781   38.5  0.1949   50.5  0.3012  174.8
 2.300  0.7102  123.6   1.710   36.4  0.2026   49.0  0.3081  174.2
 2.400  0.7141  121.4   1.641   34.2  0.2104   47.7  0.3151  173.6
 2.500  0.7173  119.2   1.578   32.2  0.2172   46.2  0.3231  172.6
 2.600  0.7215  117.1   1.518   30.1  0.2241   44.8  0.3312  171.6
 2.700  0.7251  115.0   1.465   28.2  0.2306   43.4  0.3371  170.7
 2.800  0.7297  113.0   1.414   26.1  0.2372   42.1  0.3431  169.9
 2.900  0.7330  111.0   1.369   24.3  0.2432   40.7  0.3494  168.6
 3.000  0.7371  109.0   1.325   22.3  0.2493   39.4  0.3559  167.4
 3.100  0.7392  107.2   1.288   20.7  0.2549   38.0  0.3601  166.1
 3.200  0.7419  105.4   1.253   19.0  0.2607   36.7  0.3646  164.7
 3.300  0.7454  103.6   1.218   17.2  0.2666   35.5  0.3692  163.5
 3.400  0.7497  101.8   1.185   15.3  0.2726   34.3  0.3740  162.2
 3.500  0.7546  100.1   1.153   13.3  0.2787   33.1  0.3790  161.0
 3.600  0.7566   98.5   1.125   11.8  0.2838   31.8  0.3836  159.5
 3.700  0.7591   96.9   1.099   10.3  0.2891   30.5  0.3885  158.0
 3.800  0.7622   95.3   1.073    8.6  0.2945   29.2  0.3937  156.5
 3.900  0.7659   93.8   1.048    6.9  0.3000   28.0  0.3991  155.1
 4.000  0.7702   92.2   1.024    5.1  0.3057   26.9  0.4047  153.7
 4.100  0.7707   90.7   1.002    3.7  0.3106   25.6  0.4104  152.1
 4.200  0.7718   89.3   0.981    2.3  0.3157   24.3  0.4165  150.5
 4.300  0.7733   87.8   0.961    0.8  0.3210   23.1  0.4228  149.0
 4.400  0.7754   86.3   0.941   -0.7  0.3264   21.9  0.4295  147.5
 4.500  0.7779   84.9   0.922   -2.3  0.3319   20.7  0.4364  146.1
 4.600  0.7798   83.6   0.905   -3.5  0.3363   19.5  0.4429  144.8
 4.700  0.7820   82.3   0.888   -4.6  0.3408   18.4  0.4497  143.6
 4.800  0.7847   81.0   0.872   -5.9  0.3454   17.2  0.4566  142.5
 4.900  0.7878   79.7   0.856   -7.2  0.3502   16.2  0.4637  141.3
 5.000  0.7913   78.4   0.841   -8.5  0.3551   15.1  0.4710  140.2
 5.100  0.7908   77.1   0.830   -9.6  0.3591   13.9  0.4776  139.4
 5.200  0.7908   75.8   0.818  -10.8  0.3632   12.7  0.4843  138.6
 5.300  0.7911   74.5   0.808  -11.9  0.3675   11.5  0.4911  137.9
 5.400  0.7918   73.2   0.797  -13.2  0.3720   10.3  0.4980  137.1
 5.500  0.7930   71.9   0.787  -14.4  0.3766    9.2  0.5049  136.4
 5.600  0.7918   70.7   0.777  -15.4  0.3802    8.1  0.5078  135.7
 5.700  0.7909   69.6   0.766  -16.4  0.3839    7.0  0.5107  134.9
 5.800  0.7903   68.4   0.756  -17.4  0.3878    5.9  0.5138  134.2
 5.900  0.7901   67.3   0.747  -18.4  0.3918    4.8  0.5169  133.5
 6.000  0.7902   66.1   0.737  -19.5  0.3959    3.8  0.5201  132.8
!
!  f       NFmin   Gammaopt  rn/50
! GHz       dB    MAG  ANG    -
 0.450      1.73  0.48 -171   0.06
 0.900      1.89  0.51 -158   0.09
 1.900      2.72  0.70 -130   0.38
 2.400      3.12  0.70 -117   0.83
!
! (c) 2017  Infineon Technologies AG, Munich