! Infineon Technologies  Discrete & RF Semiconductors
! BFP196
! VCE =  3.0 V,  IC = 0.13 A
! Common Emitter S-Parameters:                            Jan 2017
# GHz  S  MA  R  50
!  f         S11            S21            S12            S22
! GHz     MAG   ANG      MAG   ANG      MAG   ANG      MAG   ANG
 0.010  0.2735 -133.3  91.410  160.5  0.0033   75.0  0.7655  -24.8
 0.020  0.4486 -138.6  80.164  144.6  0.0058   60.6  0.6794  -47.4
 0.030  0.5087 -146.3  68.048  138.7  0.0071   57.2  0.5753  -57.7
 0.040  0.5760 -152.2  56.960  130.4  0.0084   54.9  0.4973  -71.9
 0.050  0.6482 -156.9  47.624  118.4  0.0097   53.2  0.4588  -89.7
 0.060  0.6588 -159.6  43.199  116.6  0.0106   54.7  0.4249  -94.6
 0.070  0.6708 -162.1  38.828  114.4  0.0115   56.0  0.3945 -100.3
 0.080  0.6841 -164.6  34.528  111.6  0.0124   57.0  0.3687 -106.9
 0.090  0.6987 -167.0  30.333  108.1  0.0133   58.0  0.3485 -114.3
 0.100  0.7144 -169.3  26.290  103.4  0.0142   58.8  0.3347 -122.5
 0.110  0.7166 -170.4  24.592  102.5  0.0151   60.2  0.3253 -125.4
 0.120  0.7191 -171.6  22.900  101.4  0.0159   61.5  0.3167 -128.5
 0.130  0.7219 -172.7  21.219  100.2  0.0168   62.6  0.3092 -131.8
 0.140  0.7250 -173.8  19.548   98.7  0.0177   63.7  0.3027 -135.2
 0.150  0.7283 -174.9  17.893   97.0  0.0186   64.6  0.2973 -138.8
 0.200  0.7326 -178.2  13.500   92.9  0.0224   67.7  0.2838 -148.4
 0.250  0.7365  178.9  10.838   89.7  0.0276   69.4  0.2758 -154.5
 0.300  0.7366  176.7   9.045   87.5  0.0327   70.5  0.2718 -159.3
 0.350  0.7369  174.8   7.929   85.7  0.0373   71.4  0.2703 -162.1
 0.400  0.7379  173.0   6.823   83.3  0.0420   72.1  0.2694 -165.0
 0.450  0.7376  171.3   6.140   81.8  0.0468   72.1  0.2696 -166.9
 0.500  0.7380  169.7   5.463   79.9  0.0515   72.1  0.2700 -168.8
 0.600  0.7415  166.7   4.571   76.8  0.0615   71.5  0.2721 -171.8
 0.700  0.7418  164.0   3.924   74.0  0.0703   70.9  0.2723 -174.1
 0.800  0.7428  161.1   3.443   70.8  0.0808   70.5  0.2747 -175.8
 0.900  0.7413  158.2   3.063   68.1  0.0902   68.8  0.2789 -177.2
 1.000  0.7453  155.6   2.773   65.3  0.0997   67.8  0.2826 -178.9
 1.100  0.7480  152.8   2.532   62.7  0.1095   66.4  0.2850  180.0
 1.200  0.7496  149.9   2.328   59.9  0.1178   65.0  0.2880  178.7
 1.300  0.7509  147.3   2.160   57.4  0.1274   63.7  0.2933  177.8
 1.400  0.7533  144.8   2.019   54.7  0.1365   62.3  0.2992  176.6
 1.500  0.7569  142.3   1.889   52.2  0.1453   60.9  0.3047  175.5
 1.600  0.7601  139.5   1.783   49.5  0.1545   59.2  0.3091  174.8
 1.700  0.7621  136.8   1.686   47.0  0.1630   57.9  0.3169  174.1
 1.800  0.7674  134.2   1.605   44.4  0.1717   56.3  0.3237  172.9
 1.900  0.7691  131.7   1.525   42.2  0.1795   54.9  0.3296  172.0
 2.000  0.7698  129.2   1.452   39.6  0.1879   53.3  0.3360  171.4
 2.100  0.7722  126.6   1.389   37.4  0.1956   51.7  0.3436  170.4
 2.200  0.7762  124.0   1.329   34.9  0.2035   50.3  0.3513  169.4
 2.300  0.7779  121.8   1.278   32.9  0.2114   48.8  0.3572  168.8
 2.400  0.7807  119.7   1.229   30.7  0.2195   47.4  0.3632  168.2
 2.500  0.7824  117.5   1.185   28.7  0.2263   45.8  0.3712  167.3
 2.600  0.7853  115.4   1.143   26.5  0.2333   44.3  0.3792  166.4
 2.700  0.7880  113.3   1.105   24.7  0.2402   42.9  0.3845  165.6
 2.800  0.7918  111.3   1.069   22.7  0.2472   41.5  0.3899  164.8
 2.900  0.7937  109.2   1.036   20.9  0.2532   40.0  0.3962  163.6
 3.000  0.7966  107.2   1.005   19.0  0.2594   38.6  0.4027  162.4
 3.100  0.7971  105.4   0.979   17.5  0.2650   37.2  0.4065  161.2
 3.200  0.7983  103.6   0.954   15.8  0.2708   35.9  0.4105  159.9
 3.300  0.8004  101.8   0.930   14.1  0.2766   34.7  0.4147  158.7
 3.400  0.8033  100.0   0.906   12.3  0.2827   33.5  0.4191  157.6
 3.500  0.8069   98.2   0.884   10.4  0.2888   32.3  0.4236  156.4
 3.600  0.8077   96.6   0.865    9.0  0.2941   30.9  0.4284  155.0
 3.700  0.8091   95.1   0.847    7.6  0.2995   29.6  0.4336  153.5
 3.800  0.8111   93.5   0.829    6.0  0.3050   28.4  0.4389  152.2
 3.900  0.8137   91.9   0.812    4.5  0.3108   27.2  0.4445  150.8
 4.000  0.8169   90.4   0.795    2.8  0.3166   26.0  0.4504  149.5
 4.100  0.8159   88.9   0.780    1.6  0.3215   24.7  0.4562  148.0
 4.200  0.8154   87.4   0.765    0.3  0.3265   23.4  0.4624  146.5
 4.300  0.8154   86.0   0.751   -1.1  0.3317   22.1  0.4688  145.0
 4.400  0.8161   84.5   0.737   -2.5  0.3371   20.9  0.4756  143.6
 4.500  0.8172   83.0   0.723   -3.9  0.3426   19.7  0.4826  142.2
 4.600  0.8182   81.7   0.712   -4.9  0.3470   18.5  0.4887  141.0
 4.700  0.8197   80.4   0.701   -6.0  0.3515   17.3  0.4951  139.8
 4.800  0.8216   79.1   0.690   -7.0  0.3561   16.1  0.5016  138.7
 4.900  0.8238   77.9   0.679   -8.2  0.3610   15.0  0.5084  137.6
 5.000  0.8265   76.6   0.669   -9.3  0.3659   13.9  0.5153  136.5
 5.100  0.8252   75.3   0.662  -10.3  0.3699   12.6  0.5217  135.7
 5.200  0.8242   74.0   0.655  -11.3  0.3740   11.4  0.5282  134.9
 5.300  0.8237   72.7   0.649  -12.3  0.3783   10.2  0.5348  134.2
 5.400  0.8237   71.4   0.642  -13.3  0.3828    9.0  0.5414  133.4
 5.500  0.8240   70.1   0.636  -14.4  0.3874    7.9  0.5482  132.7
 5.600  0.8222   69.0   0.629  -15.2  0.3910    6.8  0.5506  132.0
 5.700  0.8208   67.8   0.622  -16.0  0.3947    5.7  0.5530  131.3
 5.800  0.8197   66.7   0.616  -16.9  0.3986    4.7  0.5555  130.6
 5.900  0.8189   65.5   0.609  -17.7  0.4026    3.6  0.5581  129.9
 6.000  0.8184   64.4   0.603  -18.6  0.4067    2.6  0.5608  129.2
!
!  f       NFmin   Gammaopt  rn/50
! GHz       dB    MAG  ANG    -
!
! noise parameter not available yet for this operation point!
!
! (c) 2017  Infineon Technologies AG, Munich