! Infineon Technologies  Discrete & RF Semiconductors
! BFP196
! VCE =  10. V,  IC =  40 mA
! Common Emitter S-Parameters:                            Jan 2017
# GHz  S  MA  R  50
!  f         S11            S21            S12            S22
! GHz     MAG   ANG      MAG   ANG      MAG   ANG      MAG   ANG
 0.010  0.4163  -25.2  69.705  169.2  0.0033   79.8  0.9490  -11.1
 0.020  0.4423  -48.4  67.425  159.8  0.0072   72.9  0.9042  -22.0
 0.030  0.4290  -65.6  61.611  153.5  0.0094   65.4  0.8268  -29.3
 0.040  0.4546  -82.3  56.685  146.0  0.0117   60.8  0.7652  -37.9
 0.050  0.5134  -96.2  52.897  137.3  0.0140   57.7  0.7236  -47.7
 0.060  0.5100 -104.0  48.923  134.5  0.0152   56.2  0.6687  -51.3
 0.070  0.5161 -111.9  45.086  131.2  0.0165   54.9  0.6168  -55.5
 0.080  0.5315 -119.3  41.426  127.3  0.0178   53.9  0.5689  -60.5
 0.090  0.5554 -126.3  37.993  122.7  0.0190   52.9  0.5261  -66.3
 0.100  0.5868 -132.6  34.855  117.2  0.0203   52.1  0.4896  -73.1
 0.110  0.5861 -136.0  32.801  115.7  0.0210   51.8  0.4622  -75.4
 0.120  0.5874 -139.4  30.773  114.0  0.0218   51.4  0.4356  -77.9
 0.130  0.5908 -142.7  28.776  112.1  0.0225   51.1  0.4100  -80.8
 0.140  0.5962 -146.1  26.816  109.9  0.0233   50.9  0.3855  -84.0
 0.150  0.6035 -149.3  24.902  107.3  0.0240   50.6  0.3625  -87.7
 0.200  0.6148 -158.4  19.222  101.0  0.0264   53.5  0.2952  -98.1
 0.250  0.6217 -165.2  15.565   96.5  0.0304   54.9  0.2518 -105.9
 0.300  0.6223 -169.6  13.053   93.4  0.0335   56.3  0.2238 -112.8
 0.350  0.6227 -173.0  11.476   91.2  0.0371   58.7  0.2076 -117.5
 0.400  0.6253 -176.4   9.921   88.3  0.0407   60.6  0.1930 -123.0
 0.450  0.6269 -179.0   8.937   86.5  0.0446   61.5  0.1847 -126.7
 0.500  0.6297  178.4   7.963   84.3  0.0486   62.2  0.1772 -130.7
 0.600  0.6318  174.1   6.671   80.8  0.0568   62.9  0.1695 -137.0
 0.700  0.6341  170.5   5.722   77.8  0.0642   64.2  0.1638 -141.8
 0.800  0.6358  166.7   5.021   74.5  0.0728   64.4  0.1632 -145.4
 0.900  0.6377  163.5   4.461   71.7  0.0808   63.4  0.1641 -148.6
 1.000  0.6413  160.5   4.035   68.9  0.0890   63.3  0.1653 -151.8
 1.100  0.6446  157.4   3.678   66.3  0.0968   62.7  0.1678 -153.7
 1.200  0.6466  154.4   3.376   63.5  0.1047   61.8  0.1709 -155.9
 1.300  0.6498  151.4   3.124   61.0  0.1129   61.1  0.1758 -157.7
 1.400  0.6524  148.7   2.915   58.4  0.1215   60.1  0.1815 -159.7
 1.500  0.6577  145.9   2.721   55.9  0.1284   59.0  0.1873 -161.2
 1.600  0.6612  143.1   2.561   53.3  0.1369   58.1  0.1929 -162.6
 1.700  0.6647  140.3   2.419   50.8  0.1448   57.0  0.2012 -164.0
 1.800  0.6704  137.6   2.296   48.2  0.1524   55.8  0.2086 -165.5
 1.900  0.6742  135.2   2.177   46.1  0.1603   54.5  0.2162 -166.8
 2.000  0.6759  132.5   2.069   43.5  0.1675   53.3  0.2243 -167.9
 2.100  0.6799  129.9   1.974   41.2  0.1746   52.1  0.2324 -169.2
 2.200  0.6854  127.3   1.883   38.7  0.1817   51.0  0.2406 -170.5
 2.300  0.6898  125.1   1.807   36.6  0.1892   49.7  0.2490 -171.4
 2.400  0.6953  122.9   1.733   34.4  0.1968   48.5  0.2574 -172.2
 2.500  0.6987  120.7   1.665   32.3  0.2034   47.1  0.2662 -173.5
 2.600  0.7031  118.5   1.600   30.1  0.2102   45.8  0.2751 -174.7
 2.700  0.7079  116.4   1.545   28.1  0.2165   44.5  0.2826 -175.8
 2.800  0.7137  114.4   1.491   26.0  0.2229   43.3  0.2901 -176.8
 2.900  0.7171  112.4   1.442   24.2  0.2288   42.0  0.2971 -178.3
 3.000  0.7213  110.4   1.394   22.2  0.2348   40.8  0.3044 -179.8
 3.100  0.7237  108.5   1.354   20.6  0.2406   39.5  0.3097  178.7
 3.200  0.7269  106.7   1.315   18.8  0.2466   38.4  0.3152  177.2
 3.300  0.7308  104.8   1.277   17.0  0.2526   37.2  0.3209  175.9
 3.400  0.7355  103.0   1.241   15.1  0.2588   36.1  0.3268  174.5
 3.500  0.7409  101.2   1.206   13.0  0.2650   35.1  0.3328  173.2
 3.600  0.7436   99.6   1.176   11.5  0.2703   33.8  0.3382  171.4
 3.700  0.7469   98.0   1.147    9.9  0.2758   32.6  0.3438  169.7
 3.800  0.7508   96.4   1.119    8.2  0.2814   31.4  0.3498  168.0
 3.900  0.7553   94.8   1.092    6.4  0.2872   30.2  0.3561  166.4
 4.000  0.7603   93.3   1.066    4.6  0.2930   29.1  0.3626  164.9
 4.100  0.7611   91.8   1.042    3.2  0.2981   27.8  0.3691  163.0
 4.200  0.7624   90.3   1.019    1.7  0.3034   26.6  0.3760  161.3
 4.300  0.7643   88.8   0.997    0.2  0.3089   25.4  0.3832  159.5
 4.400  0.7666   87.4   0.976   -1.4  0.3144   24.2  0.3908  157.9
 4.500  0.7695   85.9   0.955   -3.1  0.3201   23.1  0.3987  156.3
 4.600  0.7719   84.5   0.936   -4.3  0.3248   21.9  0.4063  154.8
 4.700  0.7748   83.2   0.917   -5.5  0.3296   20.8  0.4142  153.4
 4.800  0.7781   81.8   0.899   -6.7  0.3345   19.6  0.4223  152.1
 4.900  0.7819   80.5   0.881   -8.0  0.3395   18.6  0.4306  150.8
 5.000  0.7860   79.2   0.864   -9.4  0.3447   17.5  0.4392  149.5
 5.100  0.7856   77.9   0.851  -10.5  0.3490   16.3  0.4472  148.5
 5.200  0.7855   76.6   0.839  -11.7  0.3535   15.0  0.4553  147.5
 5.300  0.7859   75.2   0.827  -12.9  0.3582   13.9  0.4635  146.6
 5.400  0.7868   73.9   0.815  -14.1  0.3630   12.7  0.4718  145.7
 5.500  0.7880   72.6   0.804  -15.4  0.3679   11.6  0.4803  144.8
 5.600  0.7872   71.4   0.792  -16.4  0.3718   10.5  0.4846  144.0
 5.700  0.7867   70.3   0.780  -17.4  0.3758    9.4  0.4890  143.2
 5.800  0.7866   69.1   0.768  -18.4  0.3800    8.3  0.4935  142.4
 5.900  0.7867   68.0   0.757  -19.5  0.3843    7.2  0.4981  141.6
 6.000  0.7872   66.8   0.746  -20.6  0.3887    6.2  0.5028  140.8
!
!  f       NFmin   Gammaopt  rn/50
! GHz       dB    MAG  ANG    -
 0.450      1.34  0.36  177   0.05
 0.900      1.49  0.46 -167   0.07
 1.900      2.31  0.68 -133   0.28
 2.400      2.71  0.70 -120   0.62
!
! (c) 2017  Infineon Technologies AG, Munich