! Infineon Technologies  Discrete & RF Semiconductors
! BFP196
! VCE =  5.0 V,  IC = 0.10 A
! Common Emitter S-Parameters:                            Jan 2017
# GHz  S  MA  R  50
!  f         S11            S21            S12            S22
! GHz     MAG   ANG      MAG   ANG      MAG   ANG      MAG   ANG
 0.010  0.1858  -88.0  96.529  164.3  0.0029   74.5  0.8911  -17.9
 0.020  0.3287 -110.4  88.549  150.9  0.0054   71.5  0.8186  -35.3
 0.030  0.3849 -124.4  77.145  144.5  0.0071   63.4  0.7093  -44.2
 0.040  0.4577 -134.4  67.023  136.0  0.0089   58.4  0.6228  -55.9
 0.050  0.5406 -141.5  58.850  124.9  0.0108   55.2  0.5694  -70.5
 0.060  0.5527 -145.7  53.662  122.7  0.0115   56.2  0.5212  -74.7
 0.070  0.5677 -149.8  48.568  120.1  0.0123   57.1  0.4763  -79.7
 0.080  0.5854 -153.6  43.598  116.9  0.0130   57.9  0.4358  -85.7
 0.090  0.6055 -157.2  38.802  112.8  0.0138   58.6  0.4010  -92.9
 0.100  0.6278 -160.5  34.253  107.7  0.0145   59.2  0.3736 -101.2
 0.110  0.6303 -162.2  32.078  106.6  0.0153   59.6  0.3563 -104.0
 0.120  0.6335 -164.0  29.916  105.4  0.0162   60.0  0.3399 -107.2
 0.130  0.6372 -165.7  27.770  103.9  0.0170   60.3  0.3246 -110.6
 0.140  0.6414 -167.3  25.645  102.3  0.0179   60.6  0.3106 -114.3
 0.150  0.6462 -169.0  23.545  100.3  0.0187   60.9  0.2981 -118.4
 0.200  0.6559 -173.5  17.865   95.5  0.0222   66.1  0.2653 -130.2
 0.250  0.6611 -177.2  14.368   92.0  0.0273   67.6  0.2469 -138.3
 0.300  0.6594 -179.8  12.013   89.6  0.0315   68.1  0.2368 -144.7
 0.350  0.6613  177.9  10.536   87.7  0.0360   69.2  0.2313 -148.7
 0.400  0.6642  175.7   9.073   85.3  0.0406   70.1  0.2269 -152.9
 0.450  0.6649  173.8   8.164   83.7  0.0452   70.3  0.2251 -155.7
 0.500  0.6664  171.9   7.262   81.8  0.0498   70.5  0.2239 -158.6
 0.600  0.6700  168.7   6.083   78.6  0.0596   70.1  0.2241 -162.8
 0.700  0.6695  165.8   5.217   75.9  0.0679   70.7  0.2228 -166.2
 0.800  0.6731  162.9   4.574   72.8  0.0779   69.5  0.2251 -168.4
 0.900  0.6729  159.8   4.061   70.1  0.0865   68.4  0.2282 -170.3
 1.000  0.6766  157.1   3.675   67.5  0.0959   67.2  0.2314 -172.5
 1.100  0.6794  154.3   3.352   65.0  0.1049   66.3  0.2341 -173.9
 1.200  0.6817  151.5   3.075   62.3  0.1135   64.6  0.2369 -175.3
 1.300  0.6848  148.8   2.847   59.8  0.1222   63.7  0.2424 -176.4
 1.400  0.6858  146.2   2.658   57.2  0.1311   62.3  0.2479 -177.8
 1.500  0.6916  143.5   2.483   54.8  0.1395   60.8  0.2536 -179.0
 1.600  0.6926  140.8   2.339   52.2  0.1481   59.4  0.2580 -179.7
 1.700  0.6975  138.1   2.210   49.8  0.1567   58.1  0.2654  179.4
 1.800  0.7026  135.5   2.098   47.2  0.1650   56.7  0.2730  178.2
 1.900  0.7048  133.0   1.990   45.1  0.1724   55.1  0.2792  177.2
 2.000  0.7082  130.4   1.892   42.5  0.1802   53.6  0.2855  176.6
 2.100  0.7115  127.9   1.807   40.3  0.1879   52.2  0.2933  175.5
 2.200  0.7161  125.4   1.725   37.8  0.1957   50.9  0.3012  174.5
 2.300  0.7189  123.2   1.656   35.8  0.2034   49.4  0.3079  173.9
 2.400  0.7227  121.1   1.590   33.6  0.2112   48.0  0.3147  173.4
 2.500  0.7255  118.9   1.530   31.6  0.2180   46.5  0.3227  172.4
 2.600  0.7293  116.8   1.472   29.5  0.2250   45.1  0.3308  171.4
 2.700  0.7332  114.7   1.421   27.6  0.2313   43.7  0.3367  170.5
 2.800  0.7381  112.7   1.372   25.5  0.2378   42.3  0.3427  169.7
 2.900  0.7412  110.7   1.328   23.7  0.2439   40.9  0.3493  168.4
 3.000  0.7453  108.7   1.285   21.7  0.2502   39.5  0.3560  167.1
 3.100  0.7471  106.9   1.250   20.1  0.2558   38.1  0.3602  165.8
 3.200  0.7497  105.1   1.215   18.4  0.2615   36.9  0.3645  164.5
 3.300  0.7530  103.3   1.182   16.6  0.2674   35.6  0.3690  163.3
 3.400  0.7570  101.5   1.150   14.7  0.2734   34.4  0.3737  162.1
 3.500  0.7617   99.8   1.119   12.7  0.2795   33.3  0.3786  160.9
 3.600  0.7634   98.2   1.093   11.2  0.2846   31.9  0.3833  159.4
 3.700  0.7656   96.6   1.067    9.6  0.2899   30.6  0.3883  157.9
 3.800  0.7685   95.0   1.042    8.0  0.2953   29.4  0.3936  156.5
 3.900  0.7719   93.5   1.018    6.3  0.3009   28.2  0.3991  155.1
 4.000  0.7759   91.9   0.995    4.5  0.3066   27.0  0.4048  153.7
 4.100  0.7764   90.4   0.974    3.2  0.3115   25.7  0.4106  152.1
 4.200  0.7774   89.0   0.954    1.8  0.3166   24.4  0.4167  150.5
 4.300  0.7789   87.5   0.935    0.3  0.3218   23.2  0.4232  149.0
 4.400  0.7810   86.0   0.916   -1.2  0.3272   22.0  0.4299  147.5
 4.500  0.7835   84.6   0.898   -2.8  0.3327   20.9  0.4369  146.1
 4.600  0.7855   83.3   0.881   -3.9  0.3371   19.7  0.4433  144.9
 4.700  0.7880   82.0   0.865   -5.1  0.3416   18.5  0.4499  143.7
 4.800  0.7908   80.7   0.849   -6.3  0.3462   17.4  0.4567  142.5
 4.900  0.7941   79.4   0.834   -7.6  0.3510   16.3  0.4637  141.4
 5.000  0.7977   78.1   0.819   -8.9  0.3559   15.2  0.4709  140.3
 5.100  0.7967   76.8   0.808  -10.0  0.3599   13.9  0.4776  139.5
 5.200  0.7960   75.5   0.797  -11.2  0.3640   12.7  0.4844  138.7
 5.300  0.7958   74.2   0.787  -12.3  0.3683   11.5  0.4913  138.0
 5.400  0.7960   72.9   0.777  -13.6  0.3727   10.3  0.4983  137.2
 5.500  0.7966   71.6   0.767  -14.8  0.3773    9.2  0.5054  136.5
 5.600  0.7955   70.5   0.757  -15.8  0.3809    8.1  0.5083  135.8
 5.700  0.7946   69.4   0.746  -16.8  0.3847    7.1  0.5113  135.0
 5.800  0.7941   68.3   0.736  -17.8  0.3886    6.0  0.5143  134.3
 5.900  0.7939   67.2   0.727  -18.9  0.3926    5.0  0.5175  133.6
 6.000  0.7939   66.1   0.717  -20.0  0.3968    4.0  0.5207  132.9
!
!  f       NFmin   Gammaopt  rn/50
! GHz       dB    MAG  ANG    -
 0.450      2.04  0.54 -169   0.07
 0.900      2.24  0.56 -156   0.12
 1.900      3.18  0.71 -128   0.52
 2.400      3.65  0.70 -115   1.08
!
! (c) 2017  Infineon Technologies AG, Munich