! Infineon Technologies  Discrete & RF Semiconductors
! BFP196
! VCE =  9.0 V,  IC =  15 mA
! Common Emitter S-Parameters:                            Jan 2017
# GHz  S  MA  R  50
!  f         S11            S21            S12            S22
! GHz     MAG   ANG      MAG   ANG      MAG   ANG      MAG   ANG
 0.010  0.6500  -13.3  39.859  173.1  0.0040   81.9  0.9874   -6.6
 0.020  0.6595  -26.2  39.534  166.7  0.0085   79.6  0.9605  -13.3
 0.030  0.6292  -37.3  37.625  161.3  0.0119   71.0  0.9178  -18.6
 0.040  0.6244  -49.1  36.081  155.4  0.0155   66.3  0.8838  -24.4
 0.050  0.6458  -60.6  34.948  149.1  0.0191   63.4  0.8594  -30.6
 0.060  0.6233  -68.3  33.019  145.9  0.0212   60.2  0.8124  -33.8
 0.070  0.6127  -76.4  31.205  142.3  0.0233   57.5  0.7682  -37.3
 0.080  0.6147  -84.6  29.529  138.3  0.0254   55.3  0.7273  -41.3
 0.090  0.6291  -92.6  28.013  133.8  0.0276   53.5  0.6903  -45.7
 0.100  0.6550 -100.1  26.687  128.9  0.0298   51.9  0.6578  -50.6
 0.110  0.6456 -104.6  25.344  126.9  0.0308   50.4  0.6261  -52.5
 0.120  0.6403 -109.3  24.034  124.8  0.0319   48.9  0.5951  -54.6
 0.130  0.6392 -113.9  22.763  122.3  0.0329   47.6  0.5651  -57.0
 0.140  0.6424 -118.6  21.537  119.6  0.0340   46.3  0.5361  -59.6
 0.150  0.6498 -123.2  20.365  116.6  0.0351   45.1  0.5084  -62.5
 0.200  0.6556 -137.8  16.238  108.5  0.0377   42.3  0.4124  -70.2
 0.250  0.6555 -148.0  13.384  102.5  0.0405   41.4  0.3457  -75.3
 0.300  0.6523 -155.1  11.342   98.5  0.0429   42.2  0.2985  -79.6
 0.350  0.6520 -160.2  10.001   95.6  0.0450   43.3  0.2691  -82.2
 0.400  0.6568 -165.3   8.693   91.8  0.0471   44.3  0.2404  -85.4
 0.450  0.6548 -169.0   7.845   89.6  0.0500   45.5  0.2232  -87.7
 0.500  0.6557 -172.8   7.012   86.8  0.0530   46.5  0.2065  -90.3
 0.600  0.6595 -178.7   5.890   82.6  0.0587   48.5  0.1853  -94.6
 0.700  0.6602  176.8   5.060   79.0  0.0635   50.9  0.1709  -98.1
 0.800  0.6619  172.4   4.445   75.3  0.0704   52.6  0.1647 -101.5
 0.900  0.6628  168.5   3.951   72.1  0.0766   53.0  0.1602 -105.1
 1.000  0.6668  164.9   3.578   69.0  0.0828   54.2  0.1573 -108.6
 1.100  0.6705  161.6   3.261   66.0  0.0893   54.6  0.1585 -111.7
 1.200  0.6726  158.1   2.996   63.0  0.0959   54.9  0.1591 -114.7
 1.300  0.6737  154.9   2.772   60.2  0.1023   54.7  0.1630 -117.9
 1.400  0.6784  152.0   2.587   57.3  0.1093   54.9  0.1669 -121.3
 1.500  0.6824  149.0   2.416   54.6  0.1160   54.7  0.1720 -124.4
 1.600  0.6865  146.0   2.275   51.8  0.1230   54.2  0.1784 -126.9
 1.700  0.6889  143.0   2.146   49.2  0.1303   54.0  0.1858 -130.0
 1.800  0.6965  140.3   2.039   46.3  0.1370   53.2  0.1933 -132.9
 1.900  0.7006  137.6   1.933   44.0  0.1436   52.5  0.2016 -135.5
 2.000  0.7028  134.9   1.836   41.3  0.1509   52.0  0.2102 -137.9
 2.100  0.7077  132.1   1.752   38.9  0.1575   51.2  0.2190 -140.5
 2.200  0.7143  129.4   1.671   36.3  0.1642   50.4  0.2282 -142.8
 2.300  0.7172  127.0   1.603   34.0  0.1715   49.6  0.2386 -144.8
 2.400  0.7213  124.7   1.537   31.6  0.1788   48.8  0.2492 -146.6
 2.500  0.7253  122.4   1.476   29.5  0.1852   47.8  0.2596 -148.8
 2.600  0.7304  120.2   1.417   27.2  0.1917   46.8  0.2703 -150.9
 2.700  0.7345  118.0   1.366   25.1  0.1984   45.8  0.2796 -152.7
 2.800  0.7397  115.8   1.317   22.9  0.2051   44.8  0.2892 -154.4
 2.900  0.7440  113.6   1.272   21.0  0.2115   43.8  0.2975 -156.6
 3.000  0.7493  111.5   1.229   18.9  0.2180   42.8  0.3061 -158.6
 3.100  0.7517  109.6   1.193   17.3  0.2243   41.7  0.3130 -160.7
 3.200  0.7550  107.7   1.157   15.5  0.2307   40.7  0.3202 -162.7
 3.300  0.7591  105.8   1.123   13.7  0.2371   39.7  0.3278 -164.6
 3.400  0.7640  103.9   1.090   11.7  0.2436   38.8  0.3358 -166.4
 3.500  0.7697  102.1   1.058    9.6  0.2502   37.9  0.3441 -168.1
 3.600  0.7718  100.4   1.031    8.1  0.2563   36.7  0.3506 -170.4
 3.700  0.7746   98.7   1.004    6.6  0.2625   35.5  0.3577 -172.5
 3.800  0.7780   97.1   0.978    4.9  0.2687   34.4  0.3652 -174.6
 3.900  0.7821   95.4   0.953    3.2  0.2751   33.3  0.3732 -176.6
 4.000  0.7868   93.8   0.929    1.4  0.2816   32.3  0.3816 -178.5
 4.100  0.7876   92.2   0.908    0.1  0.2876   31.0  0.3889  179.1
 4.200  0.7890   90.7   0.887   -1.3  0.2937   29.8  0.3968  176.8
 4.300  0.7909   89.2   0.867   -2.8  0.2999   28.6  0.4053  174.6
 4.400  0.7934   87.6   0.847   -4.3  0.3063   27.5  0.4145  172.5
 4.500  0.7965   86.1   0.828   -5.9  0.3128   26.4  0.4241  170.5
 4.600  0.7984   84.7   0.811   -7.0  0.3183   25.2  0.4329  168.5
 4.700  0.8007   83.3   0.794   -8.1  0.3239   24.0  0.4422  166.6
 4.800  0.8035   81.9   0.778   -9.2  0.3297   22.9  0.4520  164.7
 4.900  0.8068   80.6   0.762  -10.4  0.3356   21.8  0.4622  163.0
 5.000  0.8105   79.2   0.746  -11.7  0.3416   20.7  0.4728  161.3
 5.100  0.8100   77.8   0.735  -12.7  0.3466   19.4  0.4822  159.8
 5.200  0.8100   76.5   0.723  -13.6  0.3518   18.1  0.4919  158.4
 5.300  0.8104   75.1   0.712  -14.7  0.3571   16.9  0.5019  157.1
 5.400  0.8113   73.8   0.702  -15.7  0.3626   15.7  0.5122  155.8
 5.500  0.8127   72.4   0.691  -16.8  0.3683   14.5  0.5227  154.5
 5.600  0.8114   71.2   0.681  -17.6  0.3728   13.3  0.5282  153.3
 5.700  0.8105   70.0   0.670  -18.3  0.3774   12.2  0.5339  152.1
 5.800  0.8099   68.9   0.660  -19.1  0.3821   11.1  0.5399  151.0
 5.900  0.8096   67.7   0.650  -20.0  0.3871   10.0  0.5460  149.9
 6.000  0.8097   66.5   0.640  -20.8  0.3921    8.9  0.5524  148.8
!
!  f       NFmin   Gammaopt  rn/50
! GHz       dB    MAG  ANG    -
!
! noise parameter not available yet for this operation point!
!
! (c) 2017  Infineon Technologies AG, Munich