! Infineon Technologies  Discrete & RF Semiconductors
! BFP196
! VCE =  6.0 V,  IC =  40 mA
! Common Emitter S-Parameters:                            Jan 2017
# GHz  S  MA  R  50
!  f         S11            S21            S12            S22
! GHz     MAG   ANG      MAG   ANG      MAG   ANG      MAG   ANG
 0.010  0.3548  -30.9  72.126  168.6  0.0036   78.4  0.9584  -12.5
 0.020  0.3970  -57.3  69.163  158.5  0.0070   77.0  0.9087  -24.7
 0.030  0.3963  -76.1  62.673  152.0  0.0093   67.2  0.8222  -32.5
 0.040  0.4362  -93.2  57.157  144.2  0.0118   61.4  0.7543  -42.0
 0.050  0.5071 -106.5  52.921  134.9  0.0143   57.6  0.7105  -52.9
 0.060  0.5097 -113.8  48.781  132.2  0.0153   56.2  0.6543  -56.7
 0.070  0.5204 -121.0  44.769  129.0  0.0164   55.0  0.6015  -61.3
 0.080  0.5389 -127.7  40.920  125.2  0.0175   53.9  0.5532  -66.6
 0.090  0.5643 -134.0  37.288  120.7  0.0185   52.9  0.5107  -72.9
 0.100  0.5958 -139.6  33.940  115.2  0.0196   52.1  0.4754  -80.3
 0.110  0.5969 -142.6  31.904  113.8  0.0204   52.0  0.4495  -82.8
 0.120  0.5997 -145.6  29.890  112.2  0.0212   51.8  0.4246  -85.7
 0.130  0.6041 -148.6  27.903  110.3  0.0219   51.7  0.4009  -88.9
 0.140  0.6101 -151.5  25.950  108.2  0.0227   51.6  0.3786  -92.5
 0.150  0.6176 -154.3  24.039  105.7  0.0235   51.5  0.3579  -96.5
 0.200  0.6306 -162.3  18.473   99.8  0.0264   54.5  0.2977 -108.0
 0.250  0.6378 -168.2  14.933   95.5  0.0302   55.4  0.2610 -116.5
 0.300  0.6374 -172.3  12.516   92.5  0.0332   57.8  0.2376 -124.0
 0.350  0.6388 -175.5  10.996   90.3  0.0373   59.8  0.2245 -128.9
 0.400  0.6421 -178.6   9.496   87.5  0.0414   61.4  0.2132 -134.4
 0.450  0.6434  179.0   8.549   85.8  0.0456   62.1  0.2072 -138.0
 0.500  0.6458  176.6   7.611   83.6  0.0499   62.7  0.2021 -141.9
 0.600  0.6498  172.7   6.380   80.2  0.0586   63.7  0.1969 -147.9
 0.700  0.6513  169.2   5.475   77.2  0.0667   64.8  0.1930 -152.3
 0.800  0.6538  165.7   4.801   74.1  0.0754   64.9  0.1938 -155.6
 0.900  0.6533  162.5   4.264   71.2  0.0837   64.0  0.1958 -158.4
 1.000  0.6578  159.5   3.858   68.5  0.0918   63.6  0.1977 -161.2
 1.100  0.6600  156.5   3.516   65.9  0.1005   62.9  0.2000 -162.8
 1.200  0.6626  153.5   3.229   63.1  0.1085   62.1  0.2028 -164.9
 1.300  0.6646  150.7   2.988   60.6  0.1167   61.0  0.2080 -166.3
 1.400  0.6683  148.0   2.789   58.0  0.1254   60.0  0.2138 -168.1
 1.500  0.6733  145.3   2.605   55.5  0.1333   59.0  0.2199 -169.6
 1.600  0.6764  142.5   2.453   52.9  0.1415   57.9  0.2248 -170.5
 1.700  0.6800  139.8   2.316   50.4  0.1494   56.7  0.2329 -171.7
 1.800  0.6864  137.1   2.197   47.9  0.1576   55.6  0.2403 -173.1
 1.900  0.6889  134.4   2.086   45.6  0.1651   54.2  0.2472 -174.2
 2.000  0.6905  131.9   1.982   43.1  0.1728   53.0  0.2553 -175.1
 2.100  0.6948  129.3   1.892   40.9  0.1802   51.6  0.2631 -176.3
 2.200  0.7005  126.8   1.805   38.4  0.1877   50.3  0.2711 -177.5
 2.300  0.7033  124.6   1.733   36.3  0.1951   49.0  0.2787 -178.2
 2.400  0.7072  122.4   1.663   34.0  0.2026   47.8  0.2864 -178.9
 2.500  0.7111  120.2   1.599   32.0  0.2093   46.4  0.2949  180.0
 2.600  0.7160  118.0   1.537   29.8  0.2161   45.1  0.3036  178.9
 2.700  0.7203  116.0   1.483   27.9  0.2226   43.8  0.3106  177.9
 2.800  0.7255  114.0   1.431   25.8  0.2293   42.6  0.3177  176.9
 2.900  0.7280  111.8   1.384   23.9  0.2354   41.2  0.3244  175.5
 3.000  0.7316  109.7   1.339   21.9  0.2416   39.9  0.3312  174.2
 3.100  0.7340  107.9   1.301   20.3  0.2473   38.6  0.3361  172.8
 3.200  0.7371  106.1   1.264   18.6  0.2531   37.4  0.3412  171.4
 3.300  0.7410  104.3   1.229   16.8  0.2590   36.2  0.3465  170.1
 3.400  0.7455  102.5   1.195   14.8  0.2651   35.1  0.3520  168.8
 3.500  0.7508  100.8   1.162   12.8  0.2712   34.0  0.3577  167.5
 3.600  0.7532   99.2   1.134   11.3  0.2764   32.7  0.3629  165.8
 3.700  0.7562   97.6   1.106    9.7  0.2818   31.5  0.3685  164.2
 3.800  0.7598   96.0   1.079    8.1  0.2873   30.3  0.3743  162.7
 3.900  0.7639   94.4   1.054    6.3  0.2930   29.1  0.3804  161.2
 4.000  0.7686   92.9   1.029    4.5  0.2987   28.0  0.3867  159.7
 4.100  0.7693   91.4   1.007    3.1  0.3039   26.7  0.3930  157.9
 4.200  0.7706   89.9   0.985    1.7  0.3092   25.4  0.3996  156.3
 4.300  0.7724   88.4   0.964    0.2  0.3147   24.2  0.4065  154.6
 4.400  0.7747   86.9   0.944   -1.4  0.3203   23.0  0.4138  153.0
 4.500  0.7775   85.4   0.924   -3.0  0.3260   21.9  0.4214  151.5
 4.600  0.7795   84.1   0.906   -4.1  0.3307   20.7  0.4287  150.1
 4.700  0.7820   82.7   0.888   -5.3  0.3354   19.6  0.4362  148.8
 4.800  0.7849   81.4   0.871   -6.6  0.3404   18.4  0.4440  147.5
 4.900  0.7882   80.1   0.854   -7.9  0.3454   17.4  0.4519  146.3
 5.000  0.7919   78.8   0.838   -9.2  0.3506   16.3  0.4601  145.1
 5.100  0.7914   77.5   0.826  -10.3  0.3547   15.1  0.4675  144.2
 5.200  0.7914   76.2   0.815  -11.4  0.3589   13.9  0.4750  143.3
 5.300  0.7917   74.9   0.804  -12.6  0.3633   12.7  0.4826  142.4
 5.400  0.7924   73.6   0.793  -13.8  0.3679   11.5  0.4904  141.6
 5.500  0.7936   72.3   0.783  -15.0  0.3726   10.4  0.4982  140.8
 5.600  0.7925   71.1   0.772  -16.0  0.3764    9.3  0.5018  140.0
 5.700  0.7918   70.0   0.761  -17.0  0.3803    8.2  0.5056  139.2
 5.800  0.7914   68.8   0.750  -18.0  0.3843    7.1  0.5094  138.5
 5.900  0.7913   67.7   0.740  -19.0  0.3885    6.0  0.5133  137.7
 6.000  0.7915   66.5   0.730  -20.1  0.3928    5.0  0.5173  137.0
!
!  f       NFmin   Gammaopt  rn/50
! GHz       dB    MAG  ANG    -
 0.450      1.34  0.36  177   0.05
 0.900      1.49  0.46 -167   0.07
 1.900      2.31  0.68 -133   0.28
 2.400      2.71  0.70 -120   0.62
!
! (c) 2017  Infineon Technologies AG, Munich