! Infineon Technologies  Discrete & RF Semiconductors
! BFP196
! VCE =  3.0 V,  IC = 0.11 A
! Common Emitter S-Parameters:                            Jan 2017
# GHz  S  MA  R  50
!  f         S11            S21            S12            S22
! GHz     MAG   ANG      MAG   ANG      MAG   ANG      MAG   ANG
 0.010  0.2257 -123.2  95.406  162.2  0.0032   76.8  0.8429  -22.0
 0.020  0.3915 -131.1  85.146  147.3  0.0057   69.5  0.7561  -42.4
 0.030  0.4539 -140.4  73.081  141.1  0.0071   62.5  0.6458  -52.3
 0.040  0.5252 -147.3  62.187  132.7  0.0085   57.8  0.5621  -65.7
 0.050  0.6023 -152.5  53.187  121.0  0.0100   54.5  0.5181  -82.5
 0.060  0.6141 -155.6  48.342  119.1  0.0109   56.2  0.4772  -87.2
 0.070  0.6275 -158.5  43.565  116.7  0.0118   57.7  0.4402  -92.8
 0.080  0.6425 -161.3  38.881  113.7  0.0127   59.0  0.4081  -99.4
 0.090  0.6590 -164.0  34.329  110.0  0.0137   60.1  0.3821 -106.9
 0.100  0.6768 -166.5  29.968  105.1  0.0146   61.0  0.3637 -115.4
 0.110  0.6793 -167.8  28.042  104.1  0.0156   61.7  0.3511 -118.4
 0.120  0.6821 -169.2  26.125  103.0  0.0166   62.4  0.3395 -121.6
 0.130  0.6854 -170.5  24.220  101.7  0.0175   62.9  0.3290 -125.1
 0.140  0.6890 -171.8  22.330  100.1  0.0185   63.4  0.3198 -128.7
 0.150  0.6929 -173.1  20.459   98.3  0.0195   63.9  0.3120 -132.6
 0.200  0.7008 -176.8  15.472   93.9  0.0229   67.0  0.2924 -143.2
 0.250  0.7037 -179.9  12.406   90.7  0.0283   67.7  0.2808 -150.0
 0.300  0.7040  177.9  10.378   88.3  0.0323   69.9  0.2753 -155.5
 0.350  0.7045  175.9   9.099   86.5  0.0371   70.9  0.2724 -158.7
 0.400  0.7059  174.0   7.831   84.1  0.0420   71.7  0.2704 -162.0
 0.450  0.7066  172.2   7.047   82.6  0.0468   71.7  0.2701 -164.2
 0.500  0.7079  170.4   6.269   80.7  0.0516   71.7  0.2702 -166.5
 0.600  0.7116  167.4   5.248   77.6  0.0615   71.1  0.2719 -170.0
 0.700  0.7128  164.6   4.499   74.8  0.0704   70.5  0.2719 -172.7
 0.800  0.7138  161.7   3.947   71.8  0.0808   70.1  0.2736 -174.6
 0.900  0.7129  158.8   3.509   69.0  0.0901   68.6  0.2774 -176.2
 1.000  0.7172  156.1   3.176   66.3  0.0991   67.2  0.2801 -178.3
 1.100  0.7191  153.4   2.897   63.8  0.1090   66.2  0.2836 -179.4
 1.200  0.7215  150.6   2.661   61.0  0.1178   64.7  0.2858  179.3
 1.300  0.7229  147.8   2.467   58.5  0.1265   63.4  0.2910  178.3
 1.400  0.7246  145.2   2.304   55.9  0.1359   62.3  0.2969  176.9
 1.500  0.7296  142.8   2.154   53.4  0.1452   60.6  0.3019  175.8
 1.600  0.7335  140.0   2.031   50.9  0.1540   59.1  0.3058  175.0
 1.700  0.7349  137.2   1.920   48.3  0.1624   57.7  0.3134  174.2
 1.800  0.7411  134.6   1.826   45.8  0.1710   56.1  0.3200  173.1
 1.900  0.7429  132.2   1.733   43.6  0.1793   54.6  0.3257  172.2
 2.000  0.7437  129.7   1.648   41.0  0.1877   53.0  0.3324  171.4
 2.100  0.7463  127.1   1.576   38.8  0.1952   51.5  0.3394  170.4
 2.200  0.7504  124.6   1.506   36.4  0.2028   50.2  0.3465  169.5
 2.300  0.7528  122.4   1.447   34.3  0.2106   48.6  0.3527  168.8
 2.400  0.7562  120.3   1.391   32.1  0.2186   47.2  0.3590  168.2
 2.500  0.7590  118.1   1.340   30.1  0.2256   45.7  0.3666  167.2
 2.600  0.7628  116.0   1.290   27.9  0.2327   44.2  0.3744  166.3
 2.700  0.7656  113.9   1.246   26.1  0.2391   42.7  0.3797  165.5
 2.800  0.7694  111.9   1.204   24.1  0.2457   41.3  0.3851  164.7
 2.900  0.7716  109.9   1.167   22.3  0.2519   39.9  0.3912  163.4
 3.000  0.7747  107.9   1.131   20.3  0.2583   38.5  0.3974  162.2
 3.100  0.7758  106.1   1.101   18.7  0.2639   37.1  0.4011  161.0
 3.200  0.7777  104.3   1.072   17.1  0.2696   35.8  0.4049  159.7
 3.300  0.7804  102.5   1.044   15.3  0.2755   34.6  0.4089  158.5
 3.400  0.7838  100.7   1.017   13.5  0.2815   33.4  0.4131  157.4
 3.500  0.7880   98.9   0.991   11.5  0.2876   32.2  0.4175  156.2
 3.600  0.7891   97.3   0.969   10.1  0.2927   30.8  0.4221  154.8
 3.700  0.7908   95.7   0.947    8.6  0.2980   29.5  0.4269  153.3
 3.800  0.7931   94.1   0.926    7.0  0.3034   28.2  0.4320  152.0
 3.900  0.7960   92.6   0.906    5.4  0.3090   27.0  0.4373  150.6
 4.000  0.7995   91.0   0.886    3.7  0.3147   25.8  0.4429  149.3
 4.100  0.7992   89.5   0.868    2.4  0.3195   24.5  0.4485  147.8
 4.200  0.7993   88.1   0.851    1.0  0.3244   23.2  0.4543  146.3
 4.300  0.8000   86.6   0.835   -0.4  0.3295   22.0  0.4605  144.8
 4.400  0.8013   85.2   0.819   -1.9  0.3348   20.8  0.4670  143.4
 4.500  0.8030   83.7   0.803   -3.4  0.3402   19.6  0.4737  142.0
 4.600  0.8045   82.4   0.789   -4.5  0.3446   18.4  0.4798  140.8
 4.700  0.8065   81.1   0.775   -5.6  0.3491   17.2  0.4860  139.7
 4.800  0.8088   79.8   0.762   -6.7  0.3538   16.1  0.4925  138.6
 4.900  0.8116   78.6   0.749   -7.9  0.3586   15.0  0.4991  137.5
 5.000  0.8147   77.3   0.736   -9.1  0.3635   13.9  0.5059  136.4
 5.100  0.8133   76.0   0.728  -10.2  0.3674   12.7  0.5121  135.6
 5.200  0.8124   74.7   0.720  -11.2  0.3714   11.5  0.5183  134.9
 5.300  0.8118   73.4   0.712  -12.3  0.3756   10.3  0.5247  134.1
 5.400  0.8117   72.1   0.704  -13.5  0.3800    9.1  0.5311  133.4
 5.500  0.8120   70.8   0.697  -14.6  0.3845    8.0  0.5376  132.7
 5.600  0.8104   69.7   0.688  -15.5  0.3880    6.9  0.5400  132.0
 5.700  0.8091   68.5   0.680  -16.5  0.3917    5.8  0.5424  131.3
 5.800  0.8081   67.4   0.672  -17.4  0.3955    4.7  0.5449  130.6
 5.900  0.8074   66.2   0.664  -18.4  0.3994    3.6  0.5475  129.9
 6.000  0.8071   65.1   0.656  -19.4  0.4035    2.6  0.5502  129.2
!
!  f       NFmin   Gammaopt  rn/50
! GHz       dB    MAG  ANG    -
!
! noise parameter not available yet for this operation point!
!
! (c) 2017  Infineon Technologies AG, Munich