! Infineon Technologies  Discrete & RF Semiconductors
! BFP196
! VCE =  6.0 V,  IC =  15 mA
! Common Emitter S-Parameters:                            Jan 2017
# GHz  S  MA  R  50
!  f         S11            S21            S12            S22
! GHz     MAG   ANG      MAG   ANG      MAG   ANG      MAG   ANG
 0.010  0.6284  -14.5  40.436  172.9  0.0043   83.4  0.9892   -7.2
 0.020  0.6406  -28.3  40.288  166.1  0.0085   80.5  0.9616  -14.5
 0.030  0.6101  -40.1  38.125  160.6  0.0122   72.6  0.9139  -20.2
 0.040  0.6076  -52.6  36.356  154.5  0.0160   68.4  0.8762  -26.4
 0.050  0.6333  -64.6  35.041  147.8  0.0199   65.8  0.8496  -33.1
 0.060  0.6124  -72.5  33.018  144.6  0.0219   61.4  0.8004  -36.4
 0.070  0.6039  -80.8  31.111  141.0  0.0239   57.7  0.7542  -40.2
 0.080  0.6082  -89.1  29.344  136.9  0.0261   54.6  0.7118  -44.5
 0.090  0.6251  -97.2  27.742  132.4  0.0283   52.0  0.6737  -49.2
 0.100  0.6536 -104.7  26.336  127.3  0.0306   49.8  0.6408  -54.5
 0.110  0.6450 -109.1  24.972  125.4  0.0316   48.4  0.6088  -56.5
 0.120  0.6404 -113.6  23.638  123.3  0.0326   47.2  0.5776  -58.8
 0.130  0.6398 -118.2  22.341  120.9  0.0337   46.0  0.5475  -61.3
 0.140  0.6432 -122.7  21.088  118.2  0.0347   44.9  0.5186  -64.2
 0.150  0.6506 -127.2  19.886  115.2  0.0358   43.8  0.4910  -67.3
 0.200  0.6625 -141.0  15.778  107.3  0.0385   41.4  0.3967  -75.8
 0.250  0.6623 -150.7  12.955  101.5  0.0413   41.6  0.3331  -81.8
 0.300  0.6628 -157.5  10.975   97.6  0.0439   42.0  0.2883  -86.7
 0.350  0.6612 -162.4   9.671   94.8  0.0462   43.2  0.2605  -90.0
 0.400  0.6644 -167.2   8.398   91.1  0.0485   44.3  0.2337  -94.1
 0.450  0.6641 -170.8   7.574   88.9  0.0512   45.7  0.2179  -96.9
 0.500  0.6664 -174.4   6.764   86.2  0.0540   47.0  0.2027 -100.2
 0.600  0.6699 -179.9   5.680   82.0  0.0599   48.7  0.1833 -105.4
 0.700  0.6705  175.7   4.878   78.4  0.0651   51.2  0.1712 -109.6
 0.800  0.6724  171.5   4.286   74.8  0.0720   52.7  0.1654 -113.4
 0.900  0.6725  167.8   3.811   71.6  0.0785   53.4  0.1629 -117.2
 1.000  0.6764  164.2   3.451   68.4  0.0849   54.0  0.1612 -121.0
 1.100  0.6791  160.7   3.145   65.5  0.0917   54.8  0.1630 -123.6
 1.200  0.6810  157.5   2.888   62.4  0.0987   54.5  0.1647 -126.5
 1.300  0.6846  154.4   2.673   59.6  0.1054   54.7  0.1695 -129.3
 1.400  0.6873  151.3   2.497   56.8  0.1125   54.7  0.1742 -132.5
 1.500  0.6920  148.5   2.331   54.1  0.1194   54.4  0.1803 -135.2
 1.600  0.6963  145.5   2.195   51.3  0.1269   53.8  0.1872 -137.2
 1.700  0.6990  142.6   2.071   48.6  0.1337   53.5  0.1953 -139.8
 1.800  0.7055  139.7   1.968   45.8  0.1411   52.8  0.2034 -142.5
 1.900  0.7094  137.0   1.866   43.5  0.1475   52.1  0.2120 -144.6
 2.000  0.7117  134.3   1.772   40.8  0.1551   51.3  0.2212 -146.6
 2.100  0.7162  131.6   1.691   38.4  0.1618   50.6  0.2304 -148.8
 2.200  0.7223  128.9   1.613   35.7  0.1685   49.9  0.2400 -150.8
 2.300  0.7255  126.6   1.547   33.5  0.1759   49.0  0.2504 -152.5
 2.400  0.7299  124.3   1.484   31.1  0.1833   48.1  0.2609 -154.0
 2.500  0.7339  122.0   1.426   29.0  0.1900   47.0  0.2712 -155.9
 2.600  0.7390  119.8   1.370   26.7  0.1968   45.9  0.2818 -157.7
 2.700  0.7430  117.6   1.322   24.7  0.2033   44.9  0.2912 -159.4
 2.800  0.7480  115.4   1.275   22.5  0.2098   43.9  0.3009 -160.9
 2.900  0.7524  113.3   1.231   20.5  0.2163   42.9  0.3093 -162.9
 3.000  0.7578  111.2   1.189   18.4  0.2229   41.9  0.3181 -164.7
 3.100  0.7597  109.3   1.154   16.8  0.2292   40.8  0.3249 -166.6
 3.200  0.7625  107.3   1.120   15.0  0.2356   39.7  0.3321 -168.5
 3.300  0.7661  105.4   1.088   13.2  0.2420   38.7  0.3396 -170.2
 3.400  0.7705  103.6   1.056   11.3  0.2485   37.7  0.3474 -171.9
 3.500  0.7758  101.7   1.026    9.2  0.2551   36.8  0.3555 -173.5
 3.600  0.7778  100.0   1.000    7.8  0.2612   35.6  0.3621 -175.6
 3.700  0.7805   98.4   0.975    6.2  0.2673   34.4  0.3693 -177.7
 3.800  0.7838   96.7   0.950    4.6  0.2736   33.3  0.3768 -179.6
 3.900  0.7877   95.1   0.926    3.0  0.2800   32.2  0.3848  178.5
 4.000  0.7923   93.5   0.903    1.2  0.2865   31.2  0.3932  176.7
 4.100  0.7928   91.9   0.883   -0.1  0.2923   29.9  0.4007  174.4
 4.200  0.7938   90.4   0.863   -1.5  0.2982   28.7  0.4087  172.3
 4.300  0.7954   88.9   0.843   -2.9  0.3043   27.5  0.4173  170.2
 4.400  0.7976   87.3   0.824   -4.4  0.3105   26.3  0.4265  168.2
 4.500  0.8004   85.8   0.806   -6.0  0.3168   25.2  0.4361  166.3
 4.600  0.8023   84.4   0.790   -7.0  0.3223   24.0  0.4447  164.4
 4.700  0.8048   83.1   0.774   -8.1  0.3279   22.8  0.4538  162.6
 4.800  0.8076   81.7   0.758   -9.2  0.3336   21.7  0.4633  160.9
 4.900  0.8109   80.3   0.742  -10.4  0.3394   20.6  0.4733  159.2
 5.000  0.8147   79.0   0.727  -11.6  0.3454   19.6  0.4836  157.6
 5.100  0.8137   77.6   0.717  -12.5  0.3502   18.3  0.4928  156.2
 5.200  0.8132   76.3   0.706  -13.5  0.3553   17.1  0.5022  154.9
 5.300  0.8131   74.9   0.696  -14.5  0.3605   15.8  0.5119  153.6
 5.400  0.8135   73.6   0.687  -15.5  0.3658   14.6  0.5218  152.4
 5.500  0.8143   72.2   0.677  -16.6  0.3713   13.5  0.5320  151.2
 5.600  0.8130   71.0   0.667  -17.4  0.3757   12.3  0.5372  150.1
 5.700  0.8122   69.8   0.658  -18.2  0.3802   11.2  0.5426  148.9
 5.800  0.8116   68.5   0.648  -19.0  0.3849   10.1  0.5482  147.8
 5.900  0.8115   67.3   0.639  -19.8  0.3897    9.0  0.5540  146.8
 6.000  0.8117   66.1   0.630  -20.7  0.3947    7.9  0.5600  145.7
!
!  f       NFmin   Gammaopt  rn/50
! GHz       dB    MAG  ANG    -
!
! noise parameter not available yet for this operation point!
!
! (c) 2017  Infineon Technologies AG, Munich