! Infineon Technologies  Discrete & RF Semiconductors
! BFP196
! VCE =  8.0 V,  IC =  45 mA
! Common Emitter S-Parameters:                            Jan 2017
# GHz  S  MA  R  50
!  f         S11            S21            S12            S22
! GHz     MAG   ANG      MAG   ANG      MAG   ANG      MAG   ANG
 0.010  0.3596  -30.1  74.878  168.5  0.0032   78.7  0.9533  -12.2
 0.020  0.4000  -56.8  72.160  158.3  0.0063   73.0  0.9042  -24.3
 0.030  0.3984  -75.2  65.284  151.9  0.0089   64.9  0.8182  -31.9
 0.040  0.4359  -92.1  59.400  144.2  0.0115   60.5  0.7499  -41.2
 0.050  0.5039 -105.3  54.827  134.9  0.0142   57.8  0.7046  -51.9
 0.060  0.5050 -112.7  50.533  132.2  0.0152   56.7  0.6489  -55.6
 0.070  0.5144 -119.9  46.371  129.0  0.0162   55.8  0.5964  -60.0
 0.080  0.5316 -126.8  42.379  125.2  0.0172   55.0  0.5480  -65.2
 0.090  0.5559 -133.1  38.611  120.7  0.0183   54.3  0.5050  -71.3
 0.100  0.5865 -138.9  35.137  115.2  0.0193   53.6  0.4688  -78.5
 0.110  0.5873 -142.0  33.030  113.8  0.0200   53.4  0.4429  -80.9
 0.120  0.5897 -145.0  30.947  112.2  0.0207   53.2  0.4179  -83.6
 0.130  0.5939 -148.0  28.892  110.3  0.0213   53.0  0.3940  -86.7
 0.140  0.5996 -151.0  26.871  108.2  0.0220   52.8  0.3713  -90.1
 0.150  0.6069 -153.9  24.894  105.7  0.0227   52.6  0.3501  -94.0
 0.200  0.6212 -162.0  19.130   99.8  0.0253   54.6  0.2876 -105.2
 0.250  0.6271 -168.0  15.463   95.6  0.0295   56.5  0.2501 -113.4
 0.300  0.6280 -172.1  12.959   92.6  0.0326   59.0  0.2259 -120.6
 0.350  0.6289 -175.3  11.388   90.4  0.0365   60.8  0.2124 -125.5
 0.400  0.6318 -178.4   9.838   87.6  0.0404   62.2  0.2007 -131.1
 0.450  0.6320  179.1   8.857   85.9  0.0446   63.3  0.1941 -134.8
 0.500  0.6334  176.7   7.885   83.8  0.0489   64.2  0.1884 -138.7
 0.600  0.6370  172.8   6.607   80.3  0.0575   64.3  0.1825 -144.7
 0.700  0.6403  169.3   5.670   77.4  0.0654   65.2  0.1780 -149.3
 0.800  0.6419  165.9   4.972   74.2  0.0741   65.4  0.1788 -152.5
 0.900  0.6427  162.6   4.415   71.4  0.0822   64.6  0.1805 -155.5
 1.000  0.6462  159.7   3.994   68.7  0.0900   63.9  0.1822 -158.4
 1.100  0.6495  156.7   3.641   66.2  0.0991   63.5  0.1847 -160.2
 1.200  0.6504  153.6   3.342   63.4  0.1076   62.5  0.1879 -162.1
 1.300  0.6553  150.9   3.093   60.9  0.1154   61.7  0.1923 -163.6
 1.400  0.6577  148.1   2.887   58.3  0.1239   60.6  0.1986 -165.5
 1.500  0.6620  145.4   2.694   55.8  0.1317   59.5  0.2042 -167.0
 1.600  0.6665  142.6   2.537   53.2  0.1399   58.4  0.2099 -168.0
 1.700  0.6689  139.9   2.395   50.8  0.1476   57.1  0.2174 -169.2
 1.800  0.6749  137.2   2.273   48.2  0.1555   55.8  0.2250 -170.7
 1.900  0.6784  134.7   2.156   46.0  0.1629   54.6  0.2319 -171.7
 2.000  0.6811  132.2   2.048   43.4  0.1710   53.4  0.2401 -172.8
 2.100  0.6851  129.5   1.955   41.2  0.1783   52.1  0.2479 -174.0
 2.200  0.6906  126.9   1.866   38.8  0.1856   50.9  0.2559 -175.2
 2.300  0.6939  124.7   1.790   36.7  0.1930   49.5  0.2639 -175.9
 2.400  0.6983  122.5   1.717   34.4  0.2005   48.3  0.2719 -176.6
 2.500  0.7020  120.3   1.651   32.4  0.2071   46.9  0.2805 -177.8
 2.600  0.7068  118.1   1.588   30.2  0.2138   45.5  0.2892 -178.9
 2.700  0.7113  116.1   1.533   28.3  0.2203   44.2  0.2962 -179.9
 2.800  0.7166  114.1   1.479   26.2  0.2269   42.9  0.3032  179.1
 2.900  0.7207  112.0   1.431   24.3  0.2330   41.6  0.3103  177.7
 3.000  0.7258  109.9   1.384   22.3  0.2392   40.4  0.3175  176.3
 3.100  0.7279  108.1   1.344   20.7  0.2449   39.1  0.3225  174.8
 3.200  0.7308  106.2   1.306   18.9  0.2507   37.9  0.3276  173.4
 3.300  0.7344  104.4   1.268   17.1  0.2566   36.7  0.3330  172.0
 3.400  0.7387  102.7   1.232   15.2  0.2627   35.6  0.3386  170.7
 3.500  0.7437  100.9   1.198   13.1  0.2688   34.5  0.3443  169.4
 3.600  0.7462   99.3   1.169   11.6  0.2741   33.2  0.3496  167.7
 3.700  0.7492   97.7   1.140   10.0  0.2795   31.9  0.3551  166.1
 3.800  0.7528   96.1   1.112    8.4  0.2850   30.7  0.3609  164.5
 3.900  0.7570   94.5   1.086    6.6  0.2907   29.5  0.3670  163.0
 4.000  0.7618   93.0   1.060    4.8  0.2965   28.4  0.3734  161.5
 4.100  0.7627   91.5   1.037    3.4  0.3016   27.1  0.3797  159.7
 4.200  0.7640   90.0   1.015    2.0  0.3068   25.9  0.3863  158.0
 4.300  0.7659   88.5   0.993    0.4  0.3122   24.7  0.3933  156.3
 4.400  0.7683   87.1   0.972   -1.1  0.3177   23.5  0.4006  154.7
 4.500  0.7712   85.6   0.952   -2.8  0.3233   22.4  0.4082  153.2
 4.600  0.7736   84.2   0.933   -4.0  0.3279   21.2  0.4155  151.8
 4.700  0.7765   82.9   0.915   -5.2  0.3327   20.1  0.4231  150.5
 4.800  0.7798   81.5   0.897   -6.4  0.3376   18.9  0.4308  149.2
 4.900  0.7835   80.2   0.880   -7.7  0.3426   17.9  0.4388  147.9
 5.000  0.7876   78.9   0.863   -9.1  0.3478   16.8  0.4470  146.7
 5.100  0.7869   77.6   0.850  -10.2  0.3520   15.6  0.4546  145.8
 5.200  0.7866   76.3   0.838  -11.4  0.3563   14.4  0.4623  144.9
 5.300  0.7867   75.1   0.826  -12.6  0.3607   13.2  0.4701  144.0
 5.400  0.7871   73.8   0.815  -13.8  0.3653   12.0  0.4780  143.1
 5.500  0.7880   72.5   0.804  -15.1  0.3701   10.9  0.4860  142.3
 5.600  0.7871   71.4   0.792  -16.0  0.3739    9.8  0.4899  141.5
 5.700  0.7864   70.2   0.780  -17.0  0.3779    8.7  0.4939  140.7
 5.800  0.7861   69.1   0.768  -18.0  0.3820    7.6  0.4980  140.0
 5.900  0.7861   67.9   0.757  -19.0  0.3862    6.5  0.5022  139.2
 6.000  0.7864   66.8   0.746  -20.1  0.3906    5.5  0.5065  138.5
!
!  f       NFmin   Gammaopt  rn/50
! GHz       dB    MAG  ANG    -
 0.450      1.39  0.37 -180   0.06
 0.900      1.55  0.46 -166   0.07
 1.900      2.36  0.68 -133   0.30
 2.400      2.76  0.70 -120   0.65
!
! (c) 2017  Infineon Technologies AG, Munich