! Infineon Technologies  Discrete & RF Semiconductors
! BFP196
! VCE =  3.0 V,  IC =  5.0 mA
! Common Emitter S-Parameters:                            Jan 2017
# GHz  S  MA  R  50
!  f         S11            S21            S12            S22
! GHz     MAG   ANG      MAG   ANG      MAG   ANG      MAG   ANG
 0.010  0.8459   -7.9  16.512  175.8  0.0056   84.6  1.0000   -3.7
 0.020  0.8550  -15.7  16.568  171.6  0.0118   83.0  0.9911   -7.7
 0.030  0.8316  -22.9  16.196  167.6  0.0174   75.9  0.9711  -11.0
 0.040  0.8218  -30.3  15.907  163.4  0.0231   72.3  0.9545  -14.5
 0.050  0.8260  -37.8  15.706  159.1  0.0288   70.1  0.9415  -18.1
 0.060  0.8033  -43.9  15.199  156.0  0.0328   66.1  0.9134  -20.7
 0.070  0.7901  -50.3  14.738  152.7  0.0370   62.9  0.8872  -23.4
 0.080  0.7869  -56.8  14.330  149.2  0.0412   60.4  0.8632  -26.3
 0.090  0.7939  -63.2  13.977  145.6  0.0455   58.4  0.8414  -29.3
 0.100  0.8107  -69.5  13.685  141.7  0.0499   56.7  0.8222  -32.5
 0.110  0.7935  -74.0  13.195  139.4  0.0522   54.0  0.7955  -34.2
 0.120  0.7814  -78.8  12.728  136.9  0.0546   51.5  0.7695  -36.1
 0.130  0.7748  -83.6  12.286  134.3  0.0571   49.2  0.7445  -38.1
 0.140  0.7738  -88.4  11.873  131.4  0.0597   47.1  0.7203  -40.2
 0.150  0.7783  -93.3  11.491  128.4  0.0623   45.2  0.6973  -42.5
 0.200  0.7679 -111.0   9.698  118.7  0.0691   38.8  0.6003  -49.1
 0.250  0.7554 -124.4   8.279  110.9  0.0742   33.4  0.5240  -53.5
 0.300  0.7487 -134.6   7.160  105.3  0.0768   30.1  0.4667  -56.7
 0.350  0.7389 -141.8   6.373  101.3  0.0783   28.4  0.4288  -58.5
 0.400  0.7408 -149.0   5.624   96.3  0.0798   26.7  0.3915  -60.7
 0.450  0.7361 -154.2   5.095   93.3  0.0810   25.8  0.3688  -62.1
 0.500  0.7374 -159.4   4.584   89.6  0.0823   25.0  0.3463  -63.7
 0.600  0.7367 -167.2   3.878   84.0  0.0830   24.9  0.3182  -66.4
 0.700  0.7345 -173.4   3.347   79.2  0.0838   25.4  0.3005  -68.9
 0.800  0.7373 -179.0   2.950   74.5  0.0848   26.3  0.2909  -71.8
 0.900  0.7361  176.0   2.630   70.4  0.0860   27.8  0.2842  -74.9
 1.000  0.7391  171.7   2.383   66.5  0.0872   29.2  0.2801  -78.2
 1.100  0.7434  167.6   2.176   62.9  0.0896   30.9  0.2804  -81.5
 1.200  0.7430  163.7   1.999   59.2  0.0914   32.7  0.2814  -85.1
 1.300  0.7463  160.2   1.852   55.9  0.0940   34.5  0.2844  -88.7
 1.400  0.7511  156.8   1.729   52.5  0.0970   36.9  0.2883  -92.5
 1.500  0.7562  153.4   1.616   49.3  0.1005   38.7  0.2929  -96.3
 1.600  0.7590  150.0   1.520   46.0  0.1045   40.3  0.3001  -99.8
 1.700  0.7634  146.9   1.435   43.0  0.1089   42.0  0.3073 -103.9
 1.800  0.7709  143.6   1.364   39.9  0.1141   43.5  0.3149 -107.7
 1.900  0.7742  140.7   1.291   37.3  0.1195   44.6  0.3238 -111.3
 2.000  0.7780  137.7   1.226   34.2  0.1255   45.6  0.3337 -114.8
 2.100  0.7816  134.7   1.168   31.6  0.1317   46.4  0.3437 -118.4
 2.200  0.7873  131.8   1.113   28.8  0.1379   47.1  0.3549 -121.7
 2.300  0.7902  129.2   1.065   26.5  0.1456   47.5  0.3673 -124.9
 2.400  0.7947  126.6   1.019   24.0  0.1534   47.9  0.3807 -127.9
 2.500  0.7980  124.1   0.977   21.8  0.1608   47.7  0.3923 -131.1
 2.600  0.8028  121.6   0.936   19.5  0.1683   47.5  0.4051 -134.2
 2.700  0.8069  119.2   0.901   17.5  0.1763   47.1  0.4167 -137.0
 2.800  0.8123  116.9   0.867   15.4  0.1843   46.8  0.4293 -139.7
 2.900  0.8150  114.6   0.837   13.6  0.1924   46.2  0.4389 -142.6
 3.000  0.8190  112.4   0.807   11.7  0.2005   45.6  0.4495 -145.3
 3.100  0.8201  110.3   0.782   10.4  0.2087   44.6  0.4570 -148.2
 3.200  0.8223  108.2   0.757    8.9  0.2170   43.8  0.4657 -151.0
 3.300  0.8256  106.0   0.733    7.4  0.2253   43.0  0.4754 -153.7
 3.400  0.8301  104.0   0.710    5.7  0.2336   42.2  0.4861 -156.2
 3.500  0.8356  101.9   0.687    4.0  0.2420   41.5  0.4977 -158.7
 3.600  0.8362  100.1   0.670    3.0  0.2500   40.2  0.5038 -161.5
 3.700  0.8375   98.3   0.653    1.9  0.2582   38.9  0.5112 -164.3
 3.800  0.8398   96.5   0.636    0.7  0.2665   37.7  0.5197 -167.0
 3.900  0.8428   94.7   0.620   -0.5  0.2748   36.6  0.5293 -169.6
 4.000  0.8467   92.9   0.604   -1.8  0.2833   35.6  0.5399 -172.1
 4.100  0.8453   91.3   0.592   -2.6  0.2907   34.1  0.5459 -174.9
 4.200  0.8447   89.7   0.580   -3.4  0.2984   32.7  0.5532 -177.7
 4.300  0.8447   88.0   0.568   -4.3  0.3062   31.4  0.5618  179.6
 4.400  0.8453   86.4   0.557   -5.2  0.3141   30.1  0.5716  177.0
 4.500  0.8467   84.8   0.545   -6.1  0.3222   28.9  0.5825  174.5
 4.600  0.8470   83.4   0.537   -6.6  0.3287   27.4  0.5894  172.1
 4.700  0.8479   81.9   0.528   -7.2  0.3354   26.1  0.5973  169.7
 4.800  0.8493   80.5   0.520   -7.8  0.3424   24.7  0.6062  167.4
 4.900  0.8512   79.1   0.512   -8.4  0.3494   23.4  0.6161  165.2
 5.000  0.8536   77.7   0.504   -9.0  0.3567   22.2  0.6269  163.0
 5.100  0.8515   76.3   0.501   -9.5  0.3624   20.7  0.6343  161.1
 5.200  0.8498   75.0   0.497   -9.9  0.3683   19.3  0.6423  159.3
 5.300  0.8487   73.6   0.494  -10.4  0.3744   18.0  0.6510  157.5
 5.400  0.8480   72.3   0.491  -10.9  0.3808   16.7  0.6602  155.8
 5.500  0.8478   70.9   0.488  -11.4  0.3873   15.4  0.6701  154.1
 5.600  0.8453   69.7   0.485  -11.8  0.3920   14.1  0.6733  152.6
 5.700  0.8431   68.4   0.482  -12.2  0.3970   12.7  0.6771  151.1
 5.800  0.8414   67.2   0.479  -12.6  0.4021   11.5  0.6812  149.7
 5.900  0.8400   65.9   0.476  -13.0  0.4075   10.2  0.6858  148.2
 6.000  0.8391   64.7   0.473  -13.4  0.4130    9.0  0.6908  146.8
!
!  f       NFmin   Gammaopt  rn/50
! GHz       dB    MAG  ANG    -
 0.450      1.01  0.42  127   0.08
 0.900      1.47  0.55  170   0.06
 1.900      2.90  0.74 -142   0.31
 2.400      3.55  0.76 -125   0.95
!
! (c) 2017  Infineon Technologies AG, Munich