! Infineon Technologies  Discrete & RF Semiconductors
! BFP196
! VCE =  7.0 V,  IC =  60 mA
! Common Emitter S-Parameters:                            Jan 2017
# GHz  S  MA  R  50
!  f         S11            S21            S12            S22
! GHz     MAG   ANG      MAG   ANG      MAG   ANG      MAG   ANG
 0.010  0.2803  -41.3  84.258  167.1  0.0029   80.2  0.9390  -14.1
 0.020  0.3490  -72.5  79.961  155.8  0.0062   74.1  0.8828  -28.0
 0.030  0.3675  -91.7  71.339  149.3  0.0082   65.8  0.7859  -36.1
 0.040  0.4213 -107.5  63.868  141.2  0.0103   60.7  0.7087  -46.2
 0.050  0.4992 -119.1  57.994  131.2  0.0124   57.4  0.6584  -58.3
 0.060  0.5069 -125.5  53.223  128.7  0.0134   56.8  0.6041  -62.2
 0.070  0.5207 -131.6  48.573  125.7  0.0144   56.2  0.5530  -66.7
 0.080  0.5400 -137.3  44.083  122.1  0.0154   55.8  0.5061  -72.2
 0.090  0.5644 -142.6  39.806  117.7  0.0164   55.4  0.4648  -78.7
 0.100  0.5931 -147.4  35.818  112.3  0.0174   55.0  0.4306  -86.4
 0.110  0.5948 -150.0  33.613  111.0  0.0181   55.3  0.4077  -89.0
 0.120  0.5976 -152.5  31.427  109.5  0.0188   55.6  0.3857  -91.9
 0.130  0.6017 -155.1  29.264  107.8  0.0194   55.9  0.3648  -95.1
 0.140  0.6069 -157.6  27.132  105.9  0.0201   56.2  0.3452  -98.8
 0.150  0.6132 -160.0  25.036  103.6  0.0208   56.4  0.3272 -102.8
 0.200  0.6258 -166.7  19.131   98.2  0.0241   59.2  0.2757 -114.5
 0.250  0.6311 -171.7  15.432   94.2  0.0283   61.3  0.2455 -123.0
 0.300  0.6327 -175.2  12.918   91.4  0.0324   62.9  0.2269 -130.2
 0.350  0.6334 -178.0  11.343   89.4  0.0365   64.7  0.2165 -135.0
 0.400  0.6356  179.2   9.785   86.8  0.0407   66.1  0.2078 -140.3
 0.450  0.6374  176.9   8.807   85.2  0.0450   66.4  0.2032 -143.8
 0.500  0.6401  174.7   7.839   83.1  0.0494   66.6  0.1993 -147.4
 0.600  0.6428  171.2   6.565   79.8  0.0580   67.3  0.1966 -152.8
 0.700  0.6441  167.8   5.631   77.0  0.0659   67.5  0.1945 -156.8
 0.800  0.6468  164.5   4.938   73.9  0.0753   67.5  0.1955 -159.7
 0.900  0.6487  161.6   4.387   71.1  0.0840   66.8  0.1972 -162.2
 1.000  0.6504  158.6   3.966   68.5  0.0925   65.7  0.2005 -165.0
 1.100  0.6545  155.7   3.615   65.9  0.1013   64.7  0.2027 -166.5
 1.200  0.6553  152.8   3.320   63.2  0.1097   63.4  0.2059 -168.2
 1.300  0.6585  150.0   3.072   60.7  0.1181   62.5  0.2107 -169.5
 1.400  0.6622  147.4   2.867   58.2  0.1267   61.3  0.2167 -171.2
 1.500  0.6668  144.7   2.677   55.7  0.1351   60.0  0.2220 -172.5
 1.600  0.6703  142.0   2.520   53.1  0.1431   58.9  0.2276 -173.4
 1.700  0.6738  139.2   2.379   50.7  0.1514   57.6  0.2350 -174.4
 1.800  0.6797  136.6   2.260   48.2  0.1595   56.3  0.2425 -175.8
 1.900  0.6819  134.1   2.142   46.0  0.1671   54.9  0.2491 -176.8
 2.000  0.6843  131.6   2.035   43.4  0.1748   53.5  0.2565 -177.6
 2.100  0.6884  129.0   1.943   41.2  0.1821   52.1  0.2643 -178.7
 2.200  0.6940  126.4   1.854   38.8  0.1895   50.8  0.2721 -179.8
 2.300  0.6971  124.2   1.779   36.7  0.1970   49.4  0.2795  179.5
 2.400  0.7012  122.0   1.707   34.5  0.2047   48.2  0.2869  178.8
 2.500  0.7045  119.8   1.642   32.5  0.2114   46.7  0.2954  177.7
 2.600  0.7087  117.7   1.579   30.3  0.2182   45.3  0.3039  176.7
 2.700  0.7131  115.7   1.524   28.4  0.2246   44.0  0.3106  175.8
 2.800  0.7184  113.7   1.471   26.3  0.2312   42.7  0.3174  174.9
 2.900  0.7217  111.6   1.423   24.5  0.2372   41.4  0.3240  173.5
 3.000  0.7260  109.5   1.376   22.5  0.2434   40.1  0.3307  172.1
 3.100  0.7284  107.7   1.337   20.9  0.2490   38.8  0.3353  170.7
 3.200  0.7315  105.8   1.299   19.2  0.2548   37.5  0.3400  169.4
 3.300  0.7354  104.0   1.263   17.4  0.2607   36.3  0.3450  168.1
 3.400  0.7400  102.3   1.228   15.4  0.2667   35.1  0.3501  166.8
 3.500  0.7453  100.5   1.194   13.4  0.2728   34.0  0.3554  165.6
 3.600  0.7475   98.9   1.165   11.9  0.2781   32.7  0.3604  164.0
 3.700  0.7503   97.3   1.137   10.3  0.2835   31.4  0.3657  162.4
 3.800  0.7537   95.8   1.110    8.7  0.2890   30.1  0.3713  160.9
 3.900  0.7576   94.2   1.084    6.9  0.2947   28.9  0.3771  159.4
 4.000  0.7621   92.7   1.059    5.1  0.3005   27.8  0.3832  158.0
 4.100  0.7629   91.2   1.036    3.7  0.3054   26.5  0.3891  156.3
 4.200  0.7641   89.7   1.014    2.3  0.3104   25.2  0.3954  154.6
 4.300  0.7659   88.2   0.992    0.7  0.3156   24.0  0.4020  153.0
 4.400  0.7682   86.8   0.971   -0.8  0.3209   22.8  0.4089  151.5
 4.500  0.7710   85.3   0.951   -2.5  0.3264   21.7  0.4161  150.0
 4.600  0.7734   84.0   0.933   -3.7  0.3309   20.5  0.4231  148.7
 4.700  0.7762   82.6   0.915   -4.9  0.3356   19.3  0.4303  147.4
 4.800  0.7794   81.3   0.897   -6.1  0.3405   18.2  0.4377  146.2
 4.900  0.7830   80.0   0.880   -7.4  0.3454   17.1  0.4452  145.0
 5.000  0.7870   78.7   0.863   -8.8  0.3505   16.0  0.4530  143.9
 5.100  0.7863   77.4   0.851   -9.9  0.3546   14.8  0.4602  143.0
 5.200  0.7860   76.1   0.840  -11.1  0.3589   13.6  0.4674  142.2
 5.300  0.7861   74.9   0.828  -12.3  0.3633   12.4  0.4748  141.4
 5.400  0.7866   73.6   0.817  -13.5  0.3679   11.3  0.4823  140.6
 5.500  0.7875   72.3   0.807  -14.8  0.3726   10.2  0.4898  139.8
 5.600  0.7866   71.1   0.795  -15.8  0.3762    9.1  0.4932  139.0
 5.700  0.7861   69.9   0.783  -16.8  0.3799    8.0  0.4967  138.3
 5.800  0.7859   68.8   0.772  -17.8  0.3838    6.9  0.5004  137.5
 5.900  0.7860   67.6   0.761  -18.9  0.3878    5.8  0.5040  136.8
 6.000  0.7865   66.4   0.750  -20.0  0.3919    4.8  0.5078  136.1
!
!  f       NFmin   Gammaopt  rn/50
! GHz       dB    MAG  ANG    -
 0.450      1.56  0.41 -174   0.06
 0.900      1.72  0.48 -162   0.08
 1.900      2.54  0.68 -132   0.35
 2.400      2.93  0.70 -119   0.72
!
! (c) 2017  Infineon Technologies AG, Munich