! Infineon Technologies  Discrete & RF Semiconductors
! BFP196
! VCE =  6.0 V,  IC =  10 mA
! Common Emitter S-Parameters:                            Jan 2017
# GHz  S  MA  R  50
!  f         S11            S21            S12            S22
! GHz     MAG   ANG      MAG   ANG      MAG   ANG      MAG   ANG
 0.010  0.7258  -11.0  29.831  174.3  0.0044   83.2  0.9958   -5.5
 0.020  0.7362  -21.8  29.974  168.7  0.0093   79.4  0.9774  -11.0
 0.030  0.7073  -31.2  28.789  163.8  0.0135   72.5  0.9437  -15.6
 0.040  0.6989  -41.2  27.828  158.6  0.0177   68.9  0.9165  -20.5
 0.050  0.7117  -51.1  27.117  153.0  0.0220   66.7  0.8964  -25.7
 0.060  0.6868  -58.3  25.844  149.8  0.0247   62.7  0.8554  -28.7
 0.070  0.6735  -65.9  24.662  146.2  0.0275   59.4  0.8171  -32.0
 0.080  0.6725  -73.7  23.583  142.3  0.0303   56.8  0.7817  -35.7
 0.090  0.6838  -81.4  22.623  138.1  0.0332   54.6  0.7498  -39.6
 0.100  0.7069  -88.7  21.798  133.5  0.0362   52.8  0.7217  -43.9
 0.110  0.6937  -93.4  20.803  131.4  0.0374   50.7  0.6906  -45.8
 0.120  0.6854  -98.2  19.839  129.1  0.0387   48.8  0.6602  -47.8
 0.130  0.6820 -103.1  18.911  126.5  0.0400   47.0  0.6308  -50.1
 0.140  0.6836 -108.0  18.024  123.7  0.0414   45.3  0.6024  -52.5
 0.150  0.6902 -112.9  17.185  120.6  0.0428   43.7  0.5753  -55.2
 0.200  0.6901 -128.9  13.950  111.9  0.0467   39.7  0.4747  -62.5
 0.250  0.6878 -140.4  11.617  105.2  0.0500   36.9  0.4017  -67.1
 0.300  0.6848 -148.6   9.898  100.7  0.0515   36.8  0.3496  -70.8
 0.350  0.6809 -154.3   8.749   97.5  0.0534   36.9  0.3162  -73.0
 0.400  0.6838 -160.1   7.636   93.3  0.0553   37.0  0.2834  -75.7
 0.450  0.6817 -164.3   6.898   90.8  0.0572   37.8  0.2640  -77.5
 0.500  0.6833 -168.6   6.176   87.7  0.0591   38.6  0.2449  -79.5
 0.600  0.6847 -175.1   5.196   83.1  0.0635   40.5  0.2204  -82.8
 0.700  0.6862  179.8   4.469   79.1  0.0676   42.4  0.2037  -85.5
 0.800  0.6878  175.1   3.928   75.2  0.0723   44.7  0.1961  -88.7
 0.900  0.6877  170.9   3.495   71.7  0.0776   46.0  0.1904  -91.9
 1.000  0.6925  167.0   3.165   68.3  0.0824   47.0  0.1867  -95.3
 1.100  0.6953  163.4   2.888   65.2  0.0877   48.1  0.1872  -98.1
 1.200  0.6970  159.8   2.652   61.9  0.0931   49.2  0.1878 -101.5
 1.300  0.6998  156.5   2.455   59.0  0.0988   49.9  0.1910 -104.9
 1.400  0.7024  153.5   2.292   55.9  0.1048   50.4  0.1945 -108.5
 1.500  0.7075  150.4   2.139   53.1  0.1111   50.7  0.1995 -112.0
 1.600  0.7123  147.2   2.015   50.1  0.1173   50.7  0.2056 -114.9
 1.700  0.7154  144.2   1.904   47.4  0.1236   51.0  0.2130 -118.5
 1.800  0.7233  141.2   1.808   44.5  0.1307   50.9  0.2206 -121.7
 1.900  0.7270  138.6   1.711   42.0  0.1367   50.8  0.2290 -124.8
 2.000  0.7277  135.7   1.627   39.2  0.1430   50.3  0.2382 -127.7
 2.100  0.7321  132.9   1.552   36.7  0.1496   49.9  0.2475 -130.7
 2.200  0.7382  130.2   1.480   34.0  0.1562   49.6  0.2575 -133.4
 2.300  0.7415  127.8   1.419   31.7  0.1636   49.0  0.2685 -135.9
 2.400  0.7461  125.4   1.360   29.2  0.1711   48.5  0.2799 -138.2
 2.500  0.7505  123.0   1.306   27.0  0.1779   47.7  0.2908 -140.8
 2.600  0.7561  120.7   1.255   24.7  0.1848   46.9  0.3023 -143.2
 2.700  0.7606  118.4   1.209   22.7  0.1915   46.1  0.3127 -145.5
 2.800  0.7662  116.2   1.165   20.5  0.1982   45.3  0.3235 -147.6
 2.900  0.7695  114.0   1.124   18.5  0.2053   44.4  0.3323 -150.0
 3.000  0.7739  111.8   1.084   16.4  0.2124   43.6  0.3417 -152.2
 3.100  0.7759  109.8   1.051   14.8  0.2191   42.6  0.3492 -154.6
 3.200  0.7788  107.9   1.019   13.1  0.2259   41.6  0.3573 -156.8
 3.300  0.7827  105.9   0.989   11.3  0.2327   40.7  0.3659 -159.0
 3.400  0.7874  104.0   0.959    9.3  0.2396   39.8  0.3750 -161.0
 3.500  0.7930  102.1   0.930    7.3  0.2466   39.0  0.3846 -163.0
 3.600  0.7946  100.4   0.906    5.9  0.2533   37.8  0.3915 -165.5
 3.700  0.7970   98.6   0.883    4.5  0.2601   36.6  0.3991 -167.9
 3.800  0.8000   96.9   0.860    2.9  0.2670   35.5  0.4074 -170.2
 3.900  0.8038   95.2   0.837    1.3  0.2740   34.5  0.4163 -172.4
 4.000  0.8083   93.5   0.816   -0.4  0.2811   33.5  0.4258 -174.5
 4.100  0.8084   91.9   0.797   -1.6  0.2876   32.2  0.4331 -177.1
 4.200  0.8092   90.3   0.778   -2.9  0.2941   30.9  0.4413 -179.6
 4.300  0.8105   88.7   0.760   -4.2  0.3009   29.7  0.4504  178.0
 4.400  0.8125   87.2   0.742   -5.6  0.3077   28.6  0.4601  175.7
 4.500  0.8151   85.6   0.725   -7.1  0.3147   27.5  0.4706  173.5
 4.600  0.8169   84.2   0.710   -8.0  0.3206   26.2  0.4793  171.3
 4.700  0.8191   82.8   0.696   -8.9  0.3267   25.0  0.4886  169.2
 4.800  0.8218   81.4   0.682   -9.9  0.3330   23.8  0.4986  167.2
 4.900  0.8250   80.1   0.668  -10.9  0.3394   22.6  0.5092  165.3
 5.000  0.8287   78.7   0.654  -12.0  0.3459   21.5  0.5203  163.4
 5.100  0.8273   77.3   0.645  -12.8  0.3512   20.2  0.5295  161.7
 5.200  0.8264   75.9   0.636  -13.6  0.3566   18.9  0.5391  160.1
 5.300  0.8260   74.6   0.628  -14.5  0.3622   17.6  0.5492  158.5
 5.400  0.8261   73.2   0.619  -15.3  0.3680   16.4  0.5597  157.0
 5.500  0.8266   71.8   0.611  -16.2  0.3740   15.2  0.5705  155.5
 5.600  0.8248   70.6   0.603  -16.8  0.3787   13.9  0.5758  154.2
 5.700  0.8233   69.4   0.595  -17.5  0.3835   12.7  0.5813  152.9
 5.800  0.8222   68.2   0.587  -18.1  0.3886   11.5  0.5872  151.6
 5.900  0.8215   67.0   0.579  -18.8  0.3937   10.3  0.5934  150.3
 6.000  0.8211   65.8   0.571  -19.5  0.3991    9.2  0.5998  149.1
!
!  f       NFmin   Gammaopt  rn/50
! GHz       dB    MAG  ANG    -
 0.450      0.99  0.35  147   0.06
 0.900      1.29  0.50  174   0.05
 1.900      2.40  0.70 -139   0.25
 2.400      2.90  0.73 -123   0.68
!
! (c) 2017  Infineon Technologies AG, Munich