! Infineon Technologies  Discrete & RF Semiconductors
! BFP196
! VCE =  3.0 V,  IC =  30 mA
! Common Emitter S-Parameters:                            Jan 2017
# GHz  S  MA  R  50
!  f         S11            S21            S12            S22
! GHz     MAG   ANG      MAG   ANG      MAG   ANG      MAG   ANG
 0.010  0.3883  -29.6  63.189  169.0  0.0041   81.3  0.9661  -12.8
 0.020  0.4301  -55.2  60.860  159.0  0.0083   76.3  0.9164  -25.1
 0.030  0.4250  -73.6  55.274  152.5  0.0111   66.9  0.8304  -33.3
 0.040  0.4623  -90.7  50.546  144.7  0.0140   61.3  0.7649  -43.1
 0.050  0.5331 -104.2  46.936  135.5  0.0170   57.7  0.7254  -54.3
 0.060  0.5349 -111.7  43.294  132.8  0.0181   55.4  0.6685  -58.4
 0.070  0.5456 -119.0  39.769  129.5  0.0193   53.4  0.6158  -63.3
 0.080  0.5647 -125.9  36.393  125.7  0.0205   51.6  0.5684  -69.1
 0.090  0.5914 -132.2  33.214  121.1  0.0217   50.0  0.5277  -75.8
 0.100  0.6248 -138.0  30.291  115.6  0.0229   48.6  0.4953  -83.5
 0.110  0.6256 -141.1  28.482  114.1  0.0236   48.5  0.4696  -86.3
 0.120  0.6282 -144.2  26.693  112.5  0.0244   48.3  0.4451  -89.4
 0.130  0.6326 -147.3  24.930  110.6  0.0251   48.2  0.4220  -92.8
 0.140  0.6389 -150.3  23.198  108.4  0.0259   48.1  0.4007  -96.7
 0.150  0.6469 -153.3  21.505  105.9  0.0266   48.0  0.3813 -100.9
 0.200  0.6615 -161.6  16.546   99.8  0.0300   49.8  0.3234 -113.3
 0.250  0.6663 -167.8  13.381   95.5  0.0332   51.2  0.2886 -122.3
 0.300  0.6685 -171.9  11.235   92.4  0.0366   54.1  0.2675 -129.8
 0.350  0.6695 -175.1   9.865   90.2  0.0406   55.7  0.2554 -134.7
 0.400  0.6725 -178.3   8.515   87.3  0.0447   57.1  0.2453 -140.1
 0.450  0.6739  179.2   7.668   85.5  0.0486   58.4  0.2398 -143.8
 0.500  0.6765  176.7   6.830   83.2  0.0525   59.5  0.2354 -147.6
 0.600  0.6788  172.6   5.721   79.7  0.0610   60.6  0.2314 -153.2
 0.700  0.6818  169.2   4.909   76.7  0.0690   62.0  0.2288 -157.3
 0.800  0.6816  165.8   4.306   73.4  0.0781   62.4  0.2292 -160.4
 0.900  0.6832  162.5   3.828   70.5  0.0861   61.7  0.2314 -163.1
 1.000  0.6865  159.5   3.463   67.7  0.0947   61.5  0.2337 -165.7
 1.100  0.6885  156.5   3.158   65.0  0.1033   60.8  0.2366 -167.4
 1.200  0.6913  153.4   2.901   62.2  0.1118   60.2  0.2394 -169.2
 1.300  0.6928  150.7   2.686   59.6  0.1200   59.4  0.2445 -170.7
 1.400  0.6953  147.8   2.510   56.9  0.1289   58.5  0.2502 -172.3
 1.500  0.7001  145.2   2.344   54.4  0.1369   57.2  0.2565 -173.6
 1.600  0.7034  142.4   2.207   51.7  0.1452   56.3  0.2616 -174.7
 1.700  0.7060  139.6   2.087   49.2  0.1537   55.1  0.2691 -175.8
 1.800  0.7133  136.9   1.982   46.6  0.1615   53.9  0.2763 -177.1
 1.900  0.7154  134.4   1.881   44.4  0.1692   52.8  0.2835 -178.2
 2.000  0.7169  131.8   1.788   41.8  0.1773   51.4  0.2911 -179.1
 2.100  0.7208  129.2   1.709   39.5  0.1846   50.2  0.2987  179.7
 2.200  0.7261  126.6   1.632   37.0  0.1920   49.1  0.3065  178.6
 2.300  0.7286  124.3   1.566   34.9  0.1997   47.7  0.3141  177.8
 2.400  0.7322  122.1   1.502   32.6  0.2075   46.5  0.3218  177.1
 2.500  0.7360  119.9   1.446   30.6  0.2143   45.1  0.3300  176.0
 2.600  0.7409  117.7   1.392   28.4  0.2213   43.7  0.3383  175.0
 2.700  0.7443  115.6   1.344   26.4  0.2276   42.5  0.3451  174.0
 2.800  0.7487  113.6   1.297   24.3  0.2339   41.3  0.3520  173.0
 2.900  0.7521  111.5   1.255   22.5  0.2400   39.9  0.3585  171.7
 3.000  0.7564  109.5   1.215   20.5  0.2462   38.6  0.3652  170.5
 3.100  0.7580  107.6   1.181   18.9  0.2521   37.3  0.3700  169.1
 3.200  0.7605  105.8   1.149   17.2  0.2580   36.1  0.3750  167.8
 3.300  0.7637  103.9   1.117   15.4  0.2641   35.0  0.3803  166.4
 3.400  0.7677  102.1   1.086   13.5  0.2703   33.9  0.3857  165.1
 3.500  0.7725  100.3   1.057   11.5  0.2766   32.8  0.3913  163.9
 3.600  0.7739   98.7   1.032   10.0  0.2820   31.5  0.3965  162.3
 3.700  0.7760   97.1   1.007    8.5  0.2875   30.2  0.4020  160.7
 3.800  0.7786   95.5   0.984    6.9  0.2932   29.0  0.4079  159.2
 3.900  0.7819   93.9   0.961    5.2  0.2990   27.8  0.4139  157.7
 4.000  0.7857   92.3   0.939    3.4  0.3049   26.7  0.4203  156.3
 4.100  0.7861   90.8   0.919    2.1  0.3099   25.4  0.4266  154.6
 4.200  0.7871   89.3   0.900    0.7  0.3151   24.2  0.4332  153.0
 4.300  0.7886   87.8   0.881   -0.8  0.3205   23.0  0.4401  151.5
 4.400  0.7907   86.4   0.863   -2.3  0.3259   21.9  0.4473  150.0
 4.500  0.7932   84.9   0.846   -3.9  0.3315   20.8  0.4549  148.5
 4.600  0.7950   83.6   0.830   -5.0  0.3361   19.6  0.4620  147.2
 4.700  0.7973   82.2   0.815   -6.1  0.3408   18.4  0.4694  145.9
 4.800  0.8000   80.9   0.800   -7.3  0.3456   17.3  0.4770  144.7
 4.900  0.8032   79.6   0.785   -8.5  0.3506   16.2  0.4848  143.5
 5.000  0.8067   78.3   0.771   -9.7  0.3557   15.1  0.4928  142.3
 5.100  0.8055   77.0   0.761  -10.8  0.3599   13.9  0.5000  141.4
 5.200  0.8047   75.7   0.751  -11.9  0.3642   12.7  0.5072  140.5
 5.300  0.8043   74.4   0.742  -13.0  0.3687   11.5  0.5146  139.6
 5.400  0.8044   73.1   0.733  -14.1  0.3733   10.4  0.5222  138.7
 5.500  0.8048   71.8   0.724  -15.3  0.3781    9.3  0.5298  137.9
 5.600  0.8035   70.6   0.714  -16.2  0.3819    8.2  0.5331  137.1
 5.700  0.8026   69.5   0.705  -17.1  0.3858    7.1  0.5366  136.4
 5.800  0.8020   68.3   0.695  -18.0  0.3899    6.0  0.5401  135.6
 5.900  0.8017   67.2   0.686  -19.0  0.3941    4.9  0.5438  134.8
 6.000  0.8017   66.0   0.677  -20.0  0.3984    3.9  0.5475  134.1
!
!  f       NFmin   Gammaopt  rn/50
! GHz       dB    MAG  ANG    -
 0.450      1.22  0.34  169   0.05
 0.900      1.38  0.45 -172   0.06
 1.900      2.24  0.68 -135   0.25
 2.400      2.64  0.71 -121   0.60
!
! (c) 2017  Infineon Technologies AG, Munich