! Infineon Technologies  Discrete & RF Semiconductors
! BFP196
! VCE =  4.0 V,  IC =  65 mA
! Common Emitter S-Parameters:                            Jan 2017
# GHz  S  MA  R  50
!  f         S11            S21            S12            S22
! GHz     MAG   ANG      MAG   ANG      MAG   ANG      MAG   ANG
 0.010  0.2089  -63.7  87.894  165.8  0.0035   79.9  0.9281  -16.7
 0.020  0.3231  -94.3  82.034  153.3  0.0061   74.2  0.8639  -32.8
 0.030  0.3681 -111.3  72.300  146.8  0.0078   64.6  0.7576  -41.7
 0.040  0.4376 -123.8  63.761  138.5  0.0097   58.5  0.6750  -53.1
 0.050  0.5220 -132.6  56.958  127.9  0.0116   54.4  0.6254  -66.9
 0.060  0.5340 -137.8  52.071  125.6  0.0126   54.9  0.5735  -71.2
 0.070  0.5502 -142.7  47.287  122.8  0.0137   55.4  0.5254  -76.3
 0.080  0.5701 -147.2  42.642  119.4  0.0147   55.8  0.4823  -82.4
 0.090  0.5934 -151.5  38.185  115.1  0.0158   56.1  0.4457  -89.6
 0.100  0.6197 -155.4  33.991  109.8  0.0168   56.4  0.4173  -97.9
 0.110  0.6222 -157.4  31.866  108.6  0.0175   56.5  0.3976 -100.8
 0.120  0.6255 -159.5  29.756  107.3  0.0182   56.7  0.3790 -104.0
 0.130  0.6296 -161.5  27.665  105.7  0.0188   56.8  0.3617 -107.6
 0.140  0.6344 -163.5  25.598  103.9  0.0195   56.9  0.3459 -111.5
 0.150  0.6400 -165.4  23.560  101.8  0.0202   57.0  0.3319 -115.7
 0.200  0.6511 -170.9  17.935   96.7  0.0237   61.2  0.2932 -127.8
 0.250  0.6572 -175.1  14.436   93.0  0.0282   63.1  0.2720 -136.2
 0.300  0.6566 -178.2  12.084   90.4  0.0325   65.4  0.2595 -143.1
 0.350  0.6580  179.5  10.601   88.5  0.0370   66.7  0.2528 -147.3
 0.400  0.6605  177.2   9.135   85.9  0.0416   67.7  0.2476 -151.8
 0.450  0.6624  175.1   8.222   84.3  0.0462   68.2  0.2454 -154.8
 0.500  0.6651  173.0   7.317   82.3  0.0509   68.6  0.2438 -157.9
 0.600  0.6668  169.5   6.125   79.1  0.0604   68.3  0.2430 -162.4
 0.700  0.6691  166.5   5.255   76.3  0.0688   68.5  0.2411 -165.8
 0.800  0.6718  163.4   4.605   73.2  0.0785   68.0  0.2432 -168.4
 0.900  0.6706  160.3   4.093   70.6  0.0876   66.7  0.2459 -170.6
 1.000  0.6747  157.6   3.702   67.9  0.0969   66.0  0.2493 -172.9
 1.100  0.6778  154.7   3.376   65.3  0.1056   65.0  0.2513 -174.4
 1.200  0.6797  151.9   3.098   62.6  0.1140   63.7  0.2544 -175.9
 1.300  0.6805  149.2   2.869   60.2  0.1234   62.3  0.2593 -177.1
 1.400  0.6857  146.6   2.679   57.6  0.1322   61.3  0.2647 -178.6
 1.500  0.6893  143.9   2.503   55.2  0.1409   60.0  0.2705 -179.8
 1.600  0.6916  141.2   2.358   52.6  0.1494   58.6  0.2748  179.4
 1.700  0.6941  138.4   2.226   50.2  0.1578   57.2  0.2819  178.3
 1.800  0.7003  135.8   2.116   47.6  0.1663   55.7  0.2889  177.2
 1.900  0.7037  133.2   2.006   45.5  0.1741   54.4  0.2952  176.2
 2.000  0.7054  130.8   1.907   42.9  0.1821   53.0  0.3020  175.3
 2.100  0.7091  128.2   1.822   40.7  0.1896   51.5  0.3092  174.2
 2.200  0.7143  125.6   1.739   38.3  0.1972   50.1  0.3166  173.2
 2.300  0.7169  123.4   1.670   36.2  0.2048   48.6  0.3231  172.6
 2.400  0.7205  121.3   1.603   34.0  0.2126   47.2  0.3297  172.0
 2.500  0.7236  119.1   1.542   32.0  0.2193   45.7  0.3375  171.0
 2.600  0.7278  117.0   1.483   29.9  0.2262   44.3  0.3455  170.0
 2.700  0.7317  115.0   1.433   28.0  0.2327   42.9  0.3513  169.1
 2.800  0.7364  113.0   1.384   26.0  0.2394   41.6  0.3571  168.2
 2.900  0.7396  110.9   1.339   24.1  0.2455   40.2  0.3634  166.9
 3.000  0.7437  108.9   1.296   22.1  0.2518   38.8  0.3699  165.7
 3.100  0.7454  107.1   1.260   20.5  0.2574   37.5  0.3740  164.4
 3.200  0.7478  105.3   1.225   18.8  0.2631   36.2  0.3782  163.1
 3.300  0.7510  103.5   1.192   17.0  0.2690   35.0  0.3827  161.8
 3.400  0.7549  101.7   1.159   15.1  0.2749   33.8  0.3873  160.6
 3.500  0.7596   99.9   1.128   13.1  0.2810   32.7  0.3921  159.4
 3.600  0.7613   98.3   1.101   11.6  0.2862   31.3  0.3966  157.9
 3.700  0.7636   96.7   1.076   10.1  0.2915   30.0  0.4014  156.4
 3.800  0.7665   95.2   1.050    8.5  0.2970   28.8  0.4065  155.0
 3.900  0.7699   93.6   1.026    6.9  0.3026   27.6  0.4118  153.6
 4.000  0.7739   92.1   1.003    5.1  0.3083   26.4  0.4174  152.2
 4.100  0.7744   90.6   0.982    3.7  0.3131   25.1  0.4230  150.6
 4.200  0.7755   89.1   0.962    2.3  0.3181   23.8  0.4290  149.1
 4.300  0.7771   87.6   0.942    0.8  0.3233   22.6  0.4352  147.6
 4.400  0.7792   86.1   0.923   -0.8  0.3286   21.4  0.4418  146.1
 4.500  0.7819   84.6   0.905   -2.4  0.3340   20.3  0.4486  144.7
 4.600  0.7838   83.3   0.888   -3.5  0.3384   19.1  0.4550  143.5
 4.700  0.7861   82.1   0.872   -4.7  0.3429   17.9  0.4615  142.3
 4.800  0.7887   80.8   0.856   -5.9  0.3475   16.8  0.4683  141.1
 4.900  0.7918   79.5   0.841   -7.2  0.3523   15.7  0.4753  140.0
 5.000  0.7952   78.3   0.826   -8.5  0.3572   14.6  0.4824  138.9
 5.100  0.7941   77.0   0.815   -9.6  0.3612   13.4  0.4888  138.1
 5.200  0.7935   75.7   0.805  -10.7  0.3653   12.2  0.4954  137.3
 5.300  0.7933   74.4   0.795  -11.9  0.3695   11.0  0.5020  136.6
 5.400  0.7934   73.1   0.785  -13.1  0.3739    9.9  0.5087  135.8
 5.500  0.7940   71.8   0.776  -14.3  0.3785    8.8  0.5155  135.1
 5.600  0.7931   70.7   0.766  -15.3  0.3820    7.7  0.5182  134.4
 5.700  0.7925   69.5   0.755  -16.3  0.3857    6.6  0.5210  133.7
 5.800  0.7922   68.4   0.745  -17.3  0.3895    5.5  0.5238  133.0
 5.900  0.7922   67.2   0.736  -18.3  0.3935    4.4  0.5268  132.3
 6.000  0.7925   66.1   0.726  -19.4  0.3976    3.4  0.5298  131.6
!
!  f       NFmin   Gammaopt  rn/50
! GHz       dB    MAG  ANG    -
 0.450      1.62  0.43 -173   0.06
 0.900      1.78  0.49 -160   0.08
 1.900      2.59  0.69 -131   0.35
 2.400      3.00  0.70 -118   0.75
!
! (c) 2017  Infineon Technologies AG, Munich