! Infineon Technologies  Discrete & RF Semiconductors
! BFP196
! VCE =  1.0 V,  IC = 0.11 A
! Common Emitter S-Parameters:                            Jan 2017
# GHz  S  MA  R  50
!  f         S11            S21            S12            S22
! GHz     MAG   ANG      MAG   ANG      MAG   ANG      MAG   ANG
 0.010  0.4636 -143.2  64.798  150.5  0.0055   60.5  0.5036  -57.3
 0.020  0.6750 -151.9  49.562  131.4  0.0080   50.5  0.4992  -95.7
 0.030  0.7157 -157.6  40.673  126.9  0.0095   48.7  0.4634 -110.1
 0.040  0.7627 -162.7  32.179  119.9  0.0109   47.3  0.4602 -125.7
 0.050  0.8149 -167.1  24.494  108.2  0.0124   46.3  0.4902 -140.4
 0.060  0.8200 -168.8  22.112  106.9  0.0132   48.7  0.4853 -144.4
 0.070  0.8259 -170.5  19.743  105.3  0.0141   50.7  0.4828 -148.4
 0.080  0.8325 -172.2  17.394  103.3  0.0149   52.6  0.4827 -152.4
 0.090  0.8398 -173.8  15.074  100.6  0.0158   54.2  0.4850 -156.4
 0.100  0.8477 -175.4  12.798   97.0  0.0167   55.7  0.4896 -160.4
 0.110  0.8487 -176.2  11.954   96.3  0.0176   56.9  0.4886 -161.9
 0.120  0.8498 -176.9  11.112   95.6  0.0186   58.0  0.4878 -163.3
 0.130  0.8510 -177.7  10.272   94.7  0.0196   59.0  0.4874 -164.8
 0.140  0.8524 -178.4   9.435   93.6  0.0205   59.9  0.4874 -166.2
 0.150  0.8540 -179.2   8.602   92.4  0.0215   60.7  0.4876 -167.7
 0.200  0.8543  178.3   6.461   88.8  0.0267   65.2  0.4883 -171.8
 0.250  0.8554  176.0   5.170   86.2  0.0328   66.5  0.4873 -174.4
 0.300  0.8522  174.2   4.313   84.0  0.0378   68.2  0.4873 -176.6
 0.350  0.8515  172.6   3.783   82.3  0.0435   69.3  0.4875 -178.1
 0.400  0.8516  170.9   3.258   80.0  0.0492   70.2  0.4880 -179.5
 0.450  0.8512  169.3   2.935   78.4  0.0547   70.1  0.4883  179.4
 0.500  0.8515  167.7   2.615   76.5  0.0602   70.0  0.4887  178.3
 0.600  0.8531  164.7   2.197   73.1  0.0717   69.2  0.4909  176.3
 0.700  0.8526  162.2   1.895   70.2  0.0818   68.6  0.4899  174.4
 0.800  0.8515  159.3   1.671   66.9  0.0939   67.8  0.4923  172.9
 0.900  0.8483  156.5   1.496   63.9  0.1047   66.3  0.4950  171.6
 1.000  0.8514  153.7   1.365   61.0  0.1157   65.1  0.4977  170.0
 1.100  0.8535  150.9   1.255   58.2  0.1265   63.7  0.4995  168.7
 1.200  0.8531  148.3   1.163   55.4  0.1372   62.1  0.5003  167.4
 1.300  0.8549  145.6   1.088   52.8  0.1471   60.6  0.5040  166.2
 1.400  0.8548  142.9   1.026   50.0  0.1575   59.1  0.5086  164.9
 1.500  0.8564  140.2   0.967   47.5  0.1676   57.5  0.5123  163.6
 1.600  0.8581  137.5   0.922   44.8  0.1774   55.7  0.5150  162.6
 1.700  0.8590  134.8   0.881   42.3  0.1869   54.3  0.5200  161.6
 1.800  0.8627  132.1   0.848   39.8  0.1963   52.5  0.5250  160.4
 1.900  0.8634  129.6   0.810   37.7  0.2049   50.9  0.5281  159.2
 2.000  0.8599  127.0   0.780   35.2  0.2142   49.4  0.5328  158.3
 2.100  0.8605  124.4   0.753   33.1  0.2222   47.6  0.5373  157.2
 2.200  0.8629  121.8   0.727   30.8  0.2303   46.0  0.5420  156.1
 2.300  0.8621  119.6   0.707   29.0  0.2386   44.4  0.5451  155.2
 2.400  0.8625  117.4   0.688   27.0  0.2471   42.9  0.5484  154.4
 2.500  0.8622  115.2   0.670   25.2  0.2542   41.3  0.5535  153.4
 2.600  0.8632  113.0   0.652   23.4  0.2615   39.7  0.5587  152.4
 2.700  0.8634  110.9   0.636   21.8  0.2681   38.1  0.5607  151.4
 2.800  0.8648  108.9   0.621   20.1  0.2748   36.6  0.5629  150.4
 2.900  0.8643  106.9   0.609   18.6  0.2810   35.1  0.5668  149.2
 3.000  0.8648  104.9   0.597   17.0  0.2873   33.7  0.5710  148.1
 3.100  0.8631  103.1   0.587   15.7  0.2928   32.3  0.5722  146.9
 3.200  0.8623  101.3   0.578   14.4  0.2984   30.9  0.5736  145.6
 3.300  0.8623   99.4   0.569   13.0  0.3042   29.6  0.5753  144.4
 3.400  0.8632   97.6   0.560   11.6  0.3101   28.3  0.5773  143.2
 3.500  0.8650   95.8   0.552   10.1  0.3162   27.1  0.5795  142.0
 3.600  0.8638   94.2   0.545    9.0  0.3211   25.7  0.5820  140.7
 3.700  0.8633   92.6   0.539    7.8  0.3261   24.4  0.5848  139.4
 3.800  0.8635   91.1   0.533    6.6  0.3314   23.1  0.5880  138.2
 3.900  0.8643   89.5   0.527    5.4  0.3367   21.8  0.5913  136.9
 4.000  0.8658   87.9   0.521    4.2  0.3423   20.6  0.5950  135.7
 4.100  0.8633   86.5   0.516    3.2  0.3468   19.3  0.5988  134.3
 4.200  0.8612   85.0   0.511    2.2  0.3514   18.0  0.6028  133.0
 4.300  0.8598   83.6   0.507    1.1  0.3562   16.8  0.6072  131.7
 4.400  0.8589   82.1   0.502    0.1  0.3612   15.6  0.6120  130.4
 4.500  0.8585   80.7   0.498   -1.0  0.3663   14.4  0.6170  129.1
 4.600  0.8580   79.5   0.495   -1.8  0.3702   13.2  0.6209  128.0
 4.700  0.8580   78.2   0.492   -2.6  0.3742   12.0  0.6251  127.0
 4.800  0.8583   77.0   0.489   -3.4  0.3784   10.9  0.6295  125.9
 4.900  0.8591   75.7   0.487   -4.2  0.3827    9.8  0.6340  124.9
 5.000  0.8602   74.5   0.484   -5.0  0.3872    8.7  0.6388  123.9
 5.100  0.8577   73.2   0.484   -5.9  0.3908    7.5  0.6425  123.2
 5.200  0.8556   71.9   0.484   -6.8  0.3946    6.3  0.6463  122.4
 5.300  0.8540   70.6   0.484   -7.7  0.3986    5.1  0.6503  121.7
 5.400  0.8528   69.3   0.484   -8.6  0.4027    3.9  0.6543  121.0
 5.500  0.8521   68.0   0.484   -9.5  0.4070    2.8  0.6584  120.3
 5.600  0.8493   66.9   0.483  -10.2  0.4101    1.7  0.6582  119.6
 5.700  0.8468   65.8   0.482  -10.9  0.4133    0.6  0.6581  118.9
 5.800  0.8446   64.7   0.481  -11.7  0.4167   -0.4  0.6582  118.2
 5.900  0.8427   63.6   0.481  -12.4  0.4202   -1.5  0.6583  117.5
 6.000  0.8411   62.5   0.480  -13.1  0.4238   -2.5  0.6585  116.8
!
!  f       NFmin   Gammaopt  rn/50
! GHz       dB    MAG  ANG    -
!
! noise parameter not available yet for this operation point!
!
! (c) 2017  Infineon Technologies AG, Munich