! Infineon Technologies  Discrete & RF Semiconductors
! BFP196
! VCE =  6.0 V,  IC =  75 mA
! Common Emitter S-Parameters:                            Jan 2017
# GHz  S  MA  R  50
!  f         S11            S21            S12            S22
! GHz     MAG   ANG      MAG   ANG      MAG   ANG      MAG   ANG
 0.010  0.2207  -57.2  90.759  165.9  0.0030   80.0  0.9235  -15.7
 0.020  0.3233  -88.2  84.659  153.7  0.0058   73.4  0.8554  -31.0
 0.030  0.3604 -106.5  74.783  147.2  0.0076   63.8  0.7529  -39.5
 0.040  0.4262 -120.3  66.155  138.8  0.0094   57.9  0.6721  -50.5
 0.050  0.5097 -130.0  59.319  128.3  0.0114   54.0  0.6214  -63.7
 0.060  0.5204 -135.4  54.269  126.0  0.0123   54.9  0.5691  -67.7
 0.070  0.5354 -140.5  49.327  123.2  0.0132   55.6  0.5202  -72.5
 0.080  0.5546 -145.3  44.530  119.7  0.0141   56.2  0.4756  -78.2
 0.090  0.5773 -149.8  39.930  115.5  0.0150   56.8  0.4366  -85.0
 0.100  0.6033 -153.9  35.603  110.2  0.0159   57.3  0.4050  -93.0
 0.110  0.6060 -156.0  33.377  109.0  0.0167   57.7  0.3845  -95.8
 0.120  0.6095 -158.1  31.167  107.6  0.0174   58.0  0.3649  -98.8
 0.130  0.6138 -160.2  28.978  106.0  0.0182   58.3  0.3465 -102.3
 0.140  0.6189 -162.2  26.816  104.2  0.0189   58.6  0.3295 -106.0
 0.150  0.6247 -164.2  24.686  102.0  0.0197   58.9  0.3141 -110.2
 0.200  0.6364 -170.0  18.802   96.9  0.0237   62.0  0.2713 -122.1
 0.250  0.6436 -174.4  15.135   93.2  0.0278   64.3  0.2468 -130.4
 0.300  0.6413 -177.5  12.656   90.6  0.0318   65.5  0.2320 -137.6
 0.350  0.6419 -180.0  11.108   88.7  0.0361   67.0  0.2243 -142.1
 0.400  0.6437  177.6   9.577   86.1  0.0404   68.2  0.2180 -146.8
 0.450  0.6454  175.5   8.621   84.5  0.0449   68.4  0.2146 -150.0
 0.500  0.6480  173.4   7.674   82.5  0.0495   68.6  0.2119 -153.2
 0.600  0.6515  169.9   6.426   79.3  0.0589   68.6  0.2107 -158.2
 0.700  0.6519  166.9   5.510   76.6  0.0673   69.0  0.2094 -161.9
 0.800  0.6546  163.7   4.831   73.5  0.0770   68.2  0.2108 -164.5
 0.900  0.6548  160.8   4.294   70.8  0.0856   67.3  0.2137 -166.6
 1.000  0.6594  157.9   3.884   68.2  0.0941   66.3  0.2164 -169.1
 1.100  0.6624  155.0   3.538   65.6  0.1028   65.5  0.2192 -170.6
 1.200  0.6650  152.3   3.250   62.9  0.1116   64.0  0.2226 -172.1
 1.300  0.6682  149.4   3.007   60.5  0.1198   63.1  0.2271 -173.4
 1.400  0.6694  146.8   2.807   57.9  0.1289   61.8  0.2331 -175.0
 1.500  0.6752  144.1   2.621   55.4  0.1372   60.5  0.2388 -176.1
 1.600  0.6780  141.4   2.468   52.9  0.1455   59.1  0.2431 -177.1
 1.700  0.6808  138.7   2.330   50.5  0.1544   57.8  0.2508 -177.9
 1.800  0.6872  136.1   2.214   47.9  0.1618   56.4  0.2576 -179.2
 1.900  0.6903  133.5   2.099   45.8  0.1699   55.1  0.2643  179.9
 2.000  0.6921  131.0   1.995   43.3  0.1775   53.5  0.2718  179.1
 2.100  0.6958  128.5   1.904   41.1  0.1850   52.1  0.2795  178.0
 2.200  0.7009  126.0   1.817   38.6  0.1927   50.8  0.2872  177.0
 2.300  0.7039  123.8   1.744   36.5  0.2002   49.3  0.2942  176.4
 2.400  0.7080  121.6   1.674   34.3  0.2078   48.0  0.3013  175.8
 2.500  0.7111  119.4   1.610   32.3  0.2146   46.5  0.3093  174.7
 2.600  0.7153  117.3   1.549   30.2  0.2215   45.1  0.3174  173.7
 2.700  0.7197  115.2   1.495   28.3  0.2279   43.7  0.3236  172.8
 2.800  0.7250  113.2   1.443   26.2  0.2345   42.4  0.3299  171.9
 2.900  0.7285  111.2   1.396   24.4  0.2406   41.0  0.3364  170.6
 3.000  0.7328  109.2   1.351   22.4  0.2468   39.7  0.3431  169.3
 3.100  0.7347  107.4   1.313   20.8  0.2524   38.3  0.3475  168.0
 3.200  0.7374  105.6   1.276   19.1  0.2582   37.1  0.3520  166.6
 3.300  0.7408  103.7   1.240   17.3  0.2641   35.8  0.3568  165.4
 3.400  0.7449  102.0   1.206   15.4  0.2701   34.6  0.3617  164.1
 3.500  0.7497  100.2   1.173   13.4  0.2762   33.5  0.3668  162.9
 3.600  0.7518   98.6   1.145   11.9  0.2814   32.2  0.3716  161.4
 3.700  0.7544   97.0   1.117   10.3  0.2867   30.9  0.3767  159.9
 3.800  0.7576   95.5   1.091    8.7  0.2922   29.6  0.3820  158.4
 3.900  0.7613   93.9   1.065    6.9  0.2979   28.4  0.3875  157.0
 4.000  0.7656   92.4   1.041    5.1  0.3036   27.3  0.3933  155.6
 4.100  0.7663   90.9   1.019    3.7  0.3084   26.0  0.3991  153.9
 4.200  0.7674   89.4   0.997    2.3  0.3134   24.7  0.4053  152.3
 4.300  0.7691   87.9   0.976    0.8  0.3185   23.5  0.4118  150.7
 4.400  0.7713   86.5   0.956   -0.8  0.3238   22.3  0.4186  149.2
 4.500  0.7740   85.0   0.936   -2.4  0.3292   21.2  0.4257  147.7
 4.600  0.7761   83.7   0.919   -3.5  0.3337   20.0  0.4323  146.4
 4.700  0.7786   82.4   0.902   -4.7  0.3383   18.8  0.4392  145.2
 4.800  0.7815   81.1   0.885   -6.0  0.3431   17.7  0.4462  144.0
 4.900  0.7848   79.8   0.869   -7.3  0.3480   16.6  0.4534  142.9
 5.000  0.7885   78.5   0.853   -8.6  0.3530   15.5  0.4608  141.8
 5.100  0.7880   77.2   0.841   -9.7  0.3570   14.3  0.4677  141.0
 5.200  0.7879   75.9   0.830  -10.9  0.3611   13.1  0.4747  140.2
 5.300  0.7882   74.6   0.818  -12.1  0.3654   11.9  0.4818  139.4
 5.400  0.7889   73.3   0.807  -13.3  0.3698   10.8  0.4890  138.6
 5.500  0.7900   72.0   0.797  -14.6  0.3744    9.7  0.4963  137.9
 5.600  0.7889   70.8   0.786  -15.6  0.3780    8.6  0.4994  137.2
 5.700  0.7882   69.7   0.775  -16.6  0.3818    7.5  0.5027  136.4
 5.800  0.7878   68.5   0.764  -17.7  0.3858    6.4  0.5060  135.7
 5.900  0.7877   67.4   0.754  -18.8  0.3898    5.3  0.5093  135.0
 6.000  0.7879   66.2   0.744  -19.9  0.3940    4.3  0.5128  134.3
!
!  f       NFmin   Gammaopt  rn/50
! GHz       dB    MAG  ANG    -
 0.450      1.73  0.48 -171   0.06
 0.900      1.89  0.51 -158   0.09
 1.900      2.72  0.70 -130   0.38
 2.400      3.12  0.70 -117   0.83
!
! (c) 2017  Infineon Technologies AG, Munich