! Infineon Technologies  Discrete & RF Semiconductors
! BFP196
! VCE =  9.0 V,  IC =  40 mA
! Common Emitter S-Parameters:                            Jan 2017
# GHz  S  MA  R  50
!  f         S11            S21            S12            S22
! GHz     MAG   ANG      MAG   ANG      MAG   ANG      MAG   ANG
 0.010  0.4041  -26.3  70.495  169.1  0.0032   80.5  0.9563  -11.3
 0.020  0.4334  -49.9  67.902  159.6  0.0069   75.8  0.9133  -22.6
 0.030  0.4219  -67.4  61.961  153.2  0.0093   66.6  0.8326  -29.9
 0.040  0.4500  -84.3  56.935  145.7  0.0117   61.3  0.7682  -38.7
 0.050  0.5111  -98.2  53.085  136.8  0.0143   57.8  0.7246  -48.7
 0.060  0.5087 -106.0  49.059  134.0  0.0154   56.3  0.6688  -52.3
 0.070  0.5156 -113.6  45.168  130.8  0.0166   55.0  0.6162  -56.6
 0.080  0.5315 -121.0  41.451  126.9  0.0178   53.9  0.5676  -61.6
 0.090  0.5556 -127.8  37.960  122.3  0.0189   53.0  0.5240  -67.4
 0.100  0.5868 -134.0  34.761  116.8  0.0201   52.1  0.4870  -74.3
 0.110  0.5867 -137.3  32.706  115.3  0.0208   51.6  0.4600  -76.6
 0.120  0.5885 -140.6  30.676  113.6  0.0215   51.1  0.4339  -79.2
 0.130  0.5923 -143.9  28.676  111.7  0.0222   50.7  0.4088  -82.1
 0.140  0.5980 -147.1  26.714  109.5  0.0229   50.3  0.3848  -85.4
 0.150  0.6056 -150.3  24.798  106.9  0.0236   49.9  0.3623  -89.1
 0.200  0.6188 -159.2  19.119  100.8  0.0265   53.4  0.2952  -99.8
 0.250  0.6237 -165.8  15.484   96.3  0.0301   54.7  0.2533 -107.8
 0.300  0.6241 -170.3  12.992   93.2  0.0335   57.0  0.2259 -114.8
 0.350  0.6258 -173.6  11.416   91.0  0.0370   58.8  0.2104 -119.5
 0.400  0.6296 -176.9   9.862   88.1  0.0405   60.3  0.1966 -124.9
 0.450  0.6303 -179.5   8.881   86.3  0.0449   61.5  0.1886 -128.7
 0.500  0.6322  178.0   7.911   84.1  0.0493   62.5  0.1815 -132.9
 0.600  0.6358  173.7   6.630   80.6  0.0570   63.1  0.1739 -139.3
 0.700  0.6381  170.2   5.688   77.7  0.0645   64.2  0.1688 -143.9
 0.800  0.6406  166.7   4.988   74.5  0.0736   64.3  0.1682 -147.5
 0.900  0.6405  163.3   4.435   71.6  0.0814   63.9  0.1696 -150.5
 1.000  0.6442  160.2   4.011   68.9  0.0893   63.4  0.1708 -153.8
 1.100  0.6467  157.2   3.654   66.3  0.0975   63.0  0.1734 -155.6
 1.200  0.6493  154.3   3.355   63.5  0.1058   62.1  0.1766 -157.6
 1.300  0.6523  151.2   3.105   60.9  0.1135   61.2  0.1814 -159.4
 1.400  0.6555  148.6   2.896   58.3  0.1220   60.4  0.1871 -161.4
 1.500  0.6603  145.9   2.705   55.8  0.1299   59.1  0.1926 -163.1
 1.600  0.6648  143.1   2.546   53.2  0.1379   58.1  0.1982 -164.0
 1.700  0.6670  140.3   2.404   50.8  0.1458   56.9  0.2063 -165.4
 1.800  0.6743  137.6   2.281   48.2  0.1538   55.8  0.2142 -167.0
 1.900  0.6757  135.0   2.163   46.0  0.1608   54.5  0.2208 -168.2
 2.000  0.6789  132.3   2.056   43.4  0.1686   53.3  0.2292 -169.3
 2.100  0.6828  129.7   1.962   41.2  0.1756   52.0  0.2373 -170.6
 2.200  0.6881  127.2   1.872   38.7  0.1826   50.8  0.2456 -171.9
 2.300  0.6916  125.0   1.796   36.6  0.1901   49.6  0.2539 -172.7
 2.400  0.6961  122.8   1.723   34.3  0.1977   48.4  0.2623 -173.5
 2.500  0.6999  120.6   1.656   32.3  0.2045   47.0  0.2711 -174.7
 2.600  0.7047  118.4   1.592   30.1  0.2114   45.7  0.2800 -175.9
 2.700  0.7095  116.3   1.537   28.2  0.2176   44.4  0.2874 -177.0
 2.800  0.7153  114.3   1.483   26.1  0.2239   43.2  0.2949 -178.0
 2.900  0.7187  112.2   1.434   24.2  0.2301   41.9  0.3018 -179.5
 3.000  0.7231  110.2   1.386   22.1  0.2365   40.6  0.3089  179.1
 3.100  0.7256  108.3   1.346   20.5  0.2422   39.3  0.3141  177.6
 3.200  0.7288  106.5   1.308   18.8  0.2480   38.2  0.3195  176.2
 3.300  0.7328  104.7   1.270   17.0  0.2540   37.0  0.3251  174.8
 3.400  0.7375  102.9   1.234   15.0  0.2600   35.9  0.3308  173.4
 3.500  0.7429  101.1   1.200   13.0  0.2661   34.9  0.3368  172.1
 3.600  0.7454   99.5   1.170   11.5  0.2714   33.6  0.3422  170.4
 3.700  0.7486   97.9   1.142    9.9  0.2769   32.4  0.3480  168.7
 3.800  0.7523   96.3   1.114    8.2  0.2825   31.2  0.3540  167.1
 3.900  0.7566   94.7   1.087    6.4  0.2882   30.0  0.3603  165.5
 4.000  0.7614   93.2   1.061    4.6  0.2940   28.9  0.3669  164.0
 4.100  0.7624   91.7   1.038    3.2  0.2992   27.6  0.3733  162.2
 4.200  0.7639   90.2   1.015    1.8  0.3046   26.4  0.3801  160.4
 4.300  0.7659   88.7   0.993    0.2  0.3101   25.2  0.3872  158.6
 4.400  0.7685   87.2   0.972   -1.3  0.3157   24.0  0.3947  157.0
 4.500  0.7716   85.7   0.951   -3.0  0.3215   22.9  0.4025  155.4
 4.600  0.7738   84.4   0.932   -4.2  0.3261   21.7  0.4101  154.0
 4.700  0.7764   83.0   0.913   -5.4  0.3309   20.5  0.4180  152.6
 4.800  0.7794   81.7   0.895   -6.7  0.3357   19.4  0.4262  151.2
 4.900  0.7829   80.4   0.877   -8.0  0.3408   18.3  0.4345  149.9
 5.000  0.7867   79.1   0.860   -9.4  0.3459   17.2  0.4431  148.7
 5.100  0.7860   77.8   0.848  -10.5  0.3502   16.0  0.4509  147.7
 5.200  0.7858   76.5   0.835  -11.7  0.3546   14.8  0.4588  146.8
 5.300  0.7860   75.1   0.824  -12.8  0.3591   13.6  0.4669  145.8
 5.400  0.7866   73.8   0.812  -14.1  0.3639   12.5  0.4750  145.0
 5.500  0.7876   72.5   0.801  -15.3  0.3687   11.4  0.4833  144.1
 5.600  0.7868   71.3   0.789  -16.3  0.3727   10.3  0.4874  143.3
 5.700  0.7864   70.1   0.777  -17.2  0.3768    9.2  0.4917  142.5
 5.800  0.7862   69.0   0.765  -18.3  0.3811    8.1  0.4960  141.7
 5.900  0.7865   67.8   0.754  -19.3  0.3855    7.0  0.5005  140.9
 6.000  0.7870   66.6   0.743  -20.4  0.3900    6.0  0.5050  140.1
!
!  f       NFmin   Gammaopt  rn/50
! GHz       dB    MAG  ANG    -
 0.450      1.34  0.36  177   0.05
 0.900      1.49  0.46 -167   0.07
 1.900      2.31  0.68 -133   0.28
 2.400      2.71  0.70 -120   0.62
!
! (c) 2017  Infineon Technologies AG, Munich