! Infineon Technologies  Discrete & RF Semiconductors
! BFP196
! VCE =  2.0 V,  IC =  45 mA
! Common Emitter S-Parameters:                            Jan 2017
# GHz  S  MA  R  50
!  f         S11            S21            S12            S22
! GHz     MAG   ANG      MAG   ANG      MAG   ANG      MAG   ANG
 0.010  0.2540  -53.8  76.554  166.2  0.0040   76.3  0.9397  -17.2
 0.020  0.3572  -86.1  71.853  153.8  0.0075   69.4  0.8767  -33.7
 0.030  0.3937 -104.3  63.462  147.3  0.0098   61.4  0.7706  -43.1
 0.040  0.4618 -118.3  56.128  138.9  0.0122   56.4  0.6913  -55.1
 0.050  0.5500 -128.3  50.316  128.4  0.0146   53.1  0.6487  -69.3
 0.060  0.5601 -133.9  46.029  126.0  0.0156   52.8  0.5963  -74.0
 0.070  0.5753 -139.2  41.835  123.2  0.0166   52.5  0.5487  -79.6
 0.080  0.5952 -144.2  37.768  119.7  0.0175   52.2  0.5072  -86.1
 0.090  0.6193 -148.9  33.871  115.5  0.0185   52.0  0.4734  -93.7
 0.100  0.6473 -153.2  30.211  110.1  0.0195   51.8  0.4491 -102.3
 0.110  0.6500 -155.4  28.325  108.9  0.0202   52.0  0.4301 -105.4
 0.120  0.6537 -157.6  26.454  107.5  0.0209   52.2  0.4125 -108.8
 0.130  0.6583 -159.7  24.600  105.9  0.0217   52.4  0.3964 -112.5
 0.140  0.6638 -161.8  22.768  104.1  0.0224   52.6  0.3822 -116.5
 0.150  0.6702 -163.9  20.964  101.9  0.0231   52.8  0.3699 -120.8
 0.200  0.6815 -169.8  15.969   96.7  0.0265   56.6  0.3347 -133.0
 0.250  0.6876 -174.3  12.851   93.0  0.0313   58.1  0.3151 -141.2
 0.300  0.6881 -177.4  10.765   90.3  0.0356   60.5  0.3046 -147.7
 0.350  0.6890  180.0   9.443   88.3  0.0398   62.3  0.2990 -151.8
 0.400  0.6913  177.4   8.136   85.7  0.0441   63.8  0.2949 -156.0
 0.450  0.6921  175.3   7.322   84.1  0.0487   64.3  0.2924 -158.8
 0.500  0.6938  173.2   6.516   82.0  0.0533   64.8  0.2907 -161.7
 0.600  0.6970  169.9   5.459   78.7  0.0631   65.2  0.2909 -166.0
 0.700  0.6989  166.7   4.683   75.8  0.0724   65.8  0.2896 -169.4
 0.800  0.7012  163.5   4.106   72.7  0.0820   65.6  0.2917 -171.8
 0.900  0.6988  160.4   3.650   69.9  0.0906   64.6  0.2945 -173.9
 1.000  0.7035  157.6   3.304   67.2  0.1001   64.0  0.2975 -176.1
 1.100  0.7069  154.7   3.014   64.6  0.1094   63.0  0.2996 -177.7
 1.200  0.7081  151.8   2.768   61.8  0.1182   61.7  0.3025 -179.2
 1.300  0.7105  149.2   2.564   59.3  0.1276   60.8  0.3076  179.5
 1.400  0.7129  146.4   2.396   56.7  0.1368   59.4  0.3124  178.0
 1.500  0.7160  143.7   2.239   54.2  0.1452   58.2  0.3179  176.8
 1.600  0.7199  140.9   2.110   51.5  0.1543   56.9  0.3222  175.8
 1.700  0.7212  138.3   1.996   49.1  0.1631   55.5  0.3289  174.9
 1.800  0.7281  135.6   1.896   46.5  0.1713   54.2  0.3356  173.7
 1.900  0.7305  133.1   1.800   44.3  0.1793   52.9  0.3416  172.6
 2.000  0.7308  130.5   1.713   41.7  0.1874   51.3  0.3481  171.7
 2.100  0.7344  128.0   1.637   39.5  0.1950   49.9  0.3547  170.6
 2.200  0.7393  125.5   1.564   37.1  0.2028   48.6  0.3614  169.6
 2.300  0.7415  123.2   1.503   35.0  0.2107   47.1  0.3679  168.9
 2.400  0.7448  121.0   1.444   32.8  0.2188   45.8  0.3744  168.2
 2.500  0.7481  118.8   1.391   30.8  0.2256   44.3  0.3814  167.2
 2.600  0.7524  116.7   1.339   28.7  0.2325   42.8  0.3885  166.3
 2.700  0.7554  114.6   1.294   26.8  0.2390   41.4  0.3941  165.3
 2.800  0.7595  112.5   1.250   24.7  0.2456   40.1  0.3999  164.4
 2.900  0.7618  110.5   1.211   22.9  0.2518   38.7  0.4055  163.2
 3.000  0.7651  108.5   1.173   20.9  0.2582   37.4  0.4112  162.0
 3.100  0.7665  106.7   1.142   19.3  0.2638   36.1  0.4150  160.7
 3.200  0.7687  104.9   1.111   17.7  0.2695   34.8  0.4190  159.4
 3.300  0.7716  103.1   1.082   15.9  0.2754   33.5  0.4233  158.1
 3.400  0.7753  101.3   1.053   14.1  0.2814   32.3  0.4277  156.9
 3.500  0.7797   99.5   1.026   12.1  0.2875   31.2  0.4323  155.7
 3.600  0.7809   97.9   1.003   10.6  0.2926   29.9  0.4366  154.2
 3.700  0.7827   96.3   0.980    9.1  0.2979   28.6  0.4411  152.8
 3.800  0.7851   94.7   0.958    7.5  0.3033   27.3  0.4459  151.3
 3.900  0.7881   93.2   0.936    5.8  0.3089   26.2  0.4510  150.0
 4.000  0.7917   91.6   0.916    4.1  0.3146   25.0  0.4564  148.6
 4.100  0.7917   90.1   0.898    2.8  0.3195   23.7  0.4618  147.1
 4.200  0.7922   88.6   0.880    1.5  0.3245   22.4  0.4676  145.6
 4.300  0.7933   87.1   0.863    0.1  0.3297   21.2  0.4736  144.2
 4.400  0.7949   85.7   0.846   -1.4  0.3350   20.0  0.4800  142.8
 4.500  0.7970   84.2   0.830   -2.9  0.3405   18.8  0.4866  141.4
 4.600  0.7986   82.9   0.816   -4.0  0.3448   17.6  0.4927  140.2
 4.700  0.8006   81.6   0.801   -5.2  0.3492   16.5  0.4990  139.1
 4.800  0.8030   80.3   0.788   -6.4  0.3538   15.4  0.5055  138.0
 4.900  0.8058   79.0   0.774   -7.6  0.3585   14.3  0.5122  136.9
 5.000  0.8090   77.7   0.761   -8.9  0.3633   13.2  0.5191  135.8
 5.100  0.8078   76.4   0.752  -10.0  0.3672   12.0  0.5251  135.0
 5.200  0.8070   75.1   0.744  -11.0  0.3712   10.8  0.5312  134.2
 5.300  0.8066   73.9   0.736  -12.1  0.3754    9.6  0.5374  133.5
 5.400  0.8066   72.6   0.728  -13.3  0.3798    8.5  0.5436  132.7
 5.500  0.8070   71.3   0.720  -14.4  0.3843    7.4  0.5500  132.0
 5.600  0.8056   70.1   0.711  -15.3  0.3878    6.3  0.5522  131.3
 5.700  0.8046   69.0   0.702  -16.2  0.3915    5.2  0.5545  130.5
 5.800  0.8039   67.8   0.694  -17.2  0.3953    4.1  0.5568  129.8
 5.900  0.8035   66.7   0.685  -18.1  0.3993    3.0  0.5593  129.1
 6.000  0.8035   65.5   0.677  -19.1  0.4034    2.0  0.5618  128.4
!
!  f       NFmin   Gammaopt  rn/50
! GHz       dB    MAG  ANG    -
 0.450      1.39  0.37 -180   0.06
 0.900      1.55  0.46 -166   0.07
 1.900      2.36  0.68 -133   0.30
 2.400      2.76  0.70 -120   0.65
!
! (c) 2017  Infineon Technologies AG, Munich