! Infineon Technologies  Discrete & RF Semiconductors
! BFP196
! VCE =  1.0 V,  IC = 0.12 A
! Common Emitter S-Parameters:                            Jan 2017
# GHz  S  MA  R  50
!  f         S11            S21            S12            S22
! GHz     MAG   ANG      MAG   ANG      MAG   ANG      MAG   ANG
 0.010  0.5029 -147.1  59.798  148.8  0.0058   57.1  0.4490  -66.3
 0.020  0.7040 -155.0  44.528  129.5  0.0080   53.9  0.4784 -105.2
 0.030  0.7428 -160.1  36.450  125.1  0.0095   49.0  0.4582 -119.1
 0.040  0.7868 -164.6  28.702  118.4  0.0111   45.5  0.4665 -133.4
 0.050  0.8351 -168.6  21.640  106.9  0.0127   42.8  0.5018 -146.4
 0.060  0.8399 -170.2  19.529  105.7  0.0134   46.1  0.4994 -149.8
 0.070  0.8453 -171.7  17.430  104.2  0.0142   49.1  0.4988 -153.3
 0.080  0.8514 -173.3  15.346  102.2  0.0150   51.7  0.5000 -156.8
 0.090  0.8580 -174.8  13.285   99.7  0.0158   54.1  0.5031 -160.2
 0.100  0.8653 -176.3  11.260   96.2  0.0167   56.2  0.5079 -163.6
 0.110  0.8654 -177.0  10.514   95.6  0.0178   57.5  0.5074 -164.9
 0.120  0.8657 -177.7   9.769   94.8  0.0188   58.6  0.5072 -166.2
 0.130  0.8661 -178.4   9.026   93.9  0.0199   59.6  0.5073 -167.4
 0.140  0.8666 -179.1   8.285   92.9  0.0210   60.5  0.5076 -168.7
 0.150  0.8673 -179.8   7.548   91.7  0.0221   61.3  0.5081 -170.0
 0.200  0.8688  177.7   5.670   88.3  0.0268   65.6  0.5097 -173.6
 0.250  0.8687  175.6   4.537   85.6  0.0330   67.5  0.5084 -175.9
 0.300  0.8649  173.8   3.788   83.4  0.0380   68.1  0.5086 -177.9
 0.350  0.8643  172.2   3.322   81.6  0.0437   69.6  0.5087 -179.2
 0.400  0.8644  170.6   2.861   79.3  0.0495   70.7  0.5090  179.6
 0.450  0.8638  169.0   2.578   77.7  0.0553   70.5  0.5091  178.5
 0.500  0.8639  167.4   2.298   75.8  0.0611   70.3  0.5093  177.5
 0.600  0.8655  164.6   1.933   72.4  0.0727   69.5  0.5128  175.6
 0.700  0.8647  162.0   1.671   69.4  0.0833   68.8  0.5116  173.9
 0.800  0.8638  159.0   1.474   66.0  0.0955   67.9  0.5133  172.3
 0.900  0.8602  156.1   1.322   63.0  0.1060   66.4  0.5159  171.0
 1.000  0.8648  153.6   1.207   60.1  0.1172   65.1  0.5185  169.4
 1.100  0.8659  150.8   1.113   57.2  0.1281   63.7  0.5208  168.1
 1.200  0.8631  148.0   1.034   54.3  0.1381   62.1  0.5211  166.7
 1.300  0.8653  145.3   0.968   51.8  0.1490   60.4  0.5253  165.6
 1.400  0.8665  142.8   0.916   48.9  0.1597   59.1  0.5297  164.3
 1.500  0.8684  140.0   0.865   46.4  0.1696   57.3  0.5329  163.0
 1.600  0.8698  137.4   0.826   43.7  0.1797   55.5  0.5354  162.0
 1.700  0.8690  134.6   0.792   41.3  0.1896   54.0  0.5404  161.0
 1.800  0.8742  131.8   0.761   38.7  0.1987   52.4  0.5455  159.7
 1.900  0.8710  129.4   0.732   36.7  0.2079   50.7  0.5489  158.6
 2.000  0.8703  126.7   0.705   34.2  0.2169   48.9  0.5527  157.5
 2.100  0.8706  124.1   0.682   32.2  0.2250   47.3  0.5573  156.4
 2.200  0.8726  121.6   0.660   30.0  0.2333   45.8  0.5621  155.3
 2.300  0.8717  119.4   0.643   28.2  0.2416   44.1  0.5651  154.4
 2.400  0.8720  117.2   0.627   26.3  0.2501   42.5  0.5683  153.5
 2.500  0.8715  115.0   0.611   24.6  0.2572   40.9  0.5731  152.5
 2.600  0.8723  112.8   0.596   22.8  0.2646   39.3  0.5781  151.5
 2.700  0.8717  110.8   0.583   21.3  0.2712   37.8  0.5800  150.5
 2.800  0.8722  108.7   0.571   19.7  0.2779   36.3  0.5821  149.6
 2.900  0.8723  106.7   0.560   18.2  0.2843   34.8  0.5858  148.3
 3.000  0.8735  104.7   0.550   16.7  0.2909   33.3  0.5897  147.1
 3.100  0.8714  102.9   0.542   15.4  0.2963   31.9  0.5906  145.9
 3.200  0.8703  101.0   0.535   14.2  0.3018   30.5  0.5918  144.6
 3.300  0.8700   99.2   0.528   12.8  0.3075   29.2  0.5933  143.4
 3.400  0.8707   97.3   0.521   11.5  0.3134   27.9  0.5950  142.2
 3.500  0.8722   95.5   0.515   10.1  0.3194   26.7  0.5970  141.0
 3.600  0.8706   93.9   0.510    9.1  0.3242   25.3  0.5994  139.7
 3.700  0.8697   92.4   0.504    8.0  0.3292   24.0  0.6021  138.4
 3.800  0.8695   90.8   0.499    6.9  0.3344   22.7  0.6051  137.2
 3.900  0.8699   89.3   0.495    5.8  0.3397   21.4  0.6083  135.9
 4.000  0.8709   87.7   0.490    4.7  0.3452   20.2  0.6119  134.7
 4.100  0.8680   86.3   0.486    3.7  0.3497   18.9  0.6154  133.3
 4.200  0.8657   84.8   0.483    2.7  0.3544   17.6  0.6193  132.0
 4.300  0.8639   83.3   0.480    1.7  0.3593   16.3  0.6235  130.6
 4.400  0.8627   81.9   0.477    0.6  0.3644   15.1  0.6280  129.3
 4.500  0.8621   80.4   0.474   -0.4  0.3696   13.9  0.6329  128.0
 4.600  0.8617   79.1   0.472   -1.2  0.3734   12.7  0.6365  126.9
 4.700  0.8618   77.9   0.469   -1.9  0.3775   11.5  0.6403  125.9
 4.800  0.8622   76.6   0.467   -2.7  0.3816   10.3  0.6444  124.8
 4.900  0.8631   75.4   0.465   -3.5  0.3859    9.2  0.6486  123.8
 5.000  0.8644   74.1   0.463   -4.3  0.3904    8.1  0.6531  122.8
 5.100  0.8614   72.9   0.464   -5.1  0.3938    6.9  0.6565  122.1
 5.200  0.8587   71.6   0.464   -6.0  0.3974    5.7  0.6600  121.4
 5.300  0.8565   70.3   0.465   -6.8  0.4012    4.6  0.6636  120.7
 5.400  0.8547   69.1   0.466   -7.7  0.4051    3.4  0.6673  120.0
 5.500  0.8533   67.8   0.467   -8.5  0.4092    2.3  0.6711  119.3
 5.600  0.8508   66.7   0.466   -9.2  0.4123    1.2  0.6707  118.6
 5.700  0.8485   65.6   0.466   -9.9  0.4155    0.1  0.6704  117.9
 5.800  0.8466   64.5   0.466  -10.5  0.4189   -0.9  0.6702  117.1
 5.900  0.8450   63.4   0.465  -11.2  0.4224   -2.0  0.6702  116.4
 6.000  0.8437   62.3   0.465  -11.9  0.4260   -3.0  0.6702  115.7
!
!  f       NFmin   Gammaopt  rn/50
! GHz       dB    MAG  ANG    -
!
! noise parameter not available yet for this operation point!
!
! (c) 2017  Infineon Technologies AG, Munich