! Infineon Technologies  Discrete & RF Semiconductors
! BFP196
! VCE =  10. V,  IC =  20 mA
! Common Emitter S-Parameters:                            Jan 2017
# GHz  S  MA  R  50
!  f         S11            S21            S12            S22
! GHz     MAG   ANG      MAG   ANG      MAG   ANG      MAG   ANG
 0.010  0.5881  -15.7  47.999  172.1  0.0037   78.7  0.9766   -7.8
 0.020  0.6000  -30.9  47.275  164.9  0.0079   81.5  0.9448  -15.6
 0.030  0.5699  -43.5  44.518  159.2  0.0110   71.8  0.8926  -21.5
 0.040  0.5695  -56.8  42.262  152.7  0.0142   66.4  0.8510  -28.1
 0.050  0.5991  -69.5  40.592  145.7  0.0175   63.0  0.8218  -35.3
 0.060  0.5805  -77.5  38.096  142.6  0.0193   59.4  0.7710  -38.6
 0.070  0.5739  -85.9  35.729  139.0  0.0211   56.4  0.7231  -42.4
 0.080  0.5795  -94.2  33.519  135.0  0.0230   53.9  0.6788  -46.7
 0.090  0.5972 -102.3  31.498  130.4  0.0249   51.8  0.6388  -51.5
 0.100  0.6258 -109.7  29.707  125.2  0.0268   50.0  0.6040  -57.0
 0.110  0.6191 -114.0  28.116  123.4  0.0275   48.9  0.5731  -59.0
 0.120  0.6160 -118.3  26.557  121.4  0.0283   47.8  0.5429  -61.2
 0.130  0.6165 -122.7  25.035  119.1  0.0291   46.8  0.5136  -63.7
 0.140  0.6205 -127.0  23.558  116.5  0.0298   45.8  0.4854  -66.4
 0.150  0.6280 -131.3  22.134  113.6  0.0306   44.9  0.4584  -69.5
 0.200  0.6356 -144.5  17.437  106.1  0.0333   44.9  0.3684  -78.0
 0.250  0.6399 -153.6  14.274  100.6  0.0364   44.7  0.3082  -83.8
 0.300  0.6387 -159.8  12.053   96.8  0.0391   45.9  0.2664  -88.8
 0.350  0.6381 -164.4  10.619   94.2  0.0417   47.8  0.2404  -92.2
 0.400  0.6417 -169.0   9.214   90.7  0.0444   49.5  0.2155  -96.3
 0.450  0.6420 -172.4   8.307   88.6  0.0475   50.8  0.2009  -99.1
 0.500  0.6445 -175.8   7.413   86.0  0.0507   52.0  0.1869 -102.4
 0.600  0.6477  178.9   6.221   82.0  0.0577   53.4  0.1692 -108.0
 0.700  0.6470  174.6   5.342   78.7  0.0635   55.8  0.1577 -112.2
 0.800  0.6509  170.6   4.691   75.1  0.0702   56.7  0.1528 -116.0
 0.900  0.6502  166.9   4.168   72.1  0.0779   57.2  0.1504 -119.9
 1.000  0.6561  163.4   3.772   69.1  0.0849   58.0  0.1491 -123.6
 1.100  0.6588  160.1   3.440   66.2  0.0918   57.9  0.1503 -126.1
 1.200  0.6599  156.9   3.159   63.3  0.0985   57.2  0.1526 -129.1
 1.300  0.6625  153.9   2.922   60.6  0.1057   57.2  0.1567 -131.8
 1.400  0.6661  151.0   2.727   57.9  0.1136   57.1  0.1613 -134.9
 1.500  0.6704  148.0   2.546   55.2  0.1204   56.3  0.1666 -137.5
 1.600  0.6750  145.1   2.398   52.4  0.1281   55.7  0.1732 -139.5
 1.700  0.6779  142.2   2.263   49.9  0.1351   55.0  0.1812 -142.0
 1.800  0.6844  139.5   2.148   47.2  0.1424   54.2  0.1889 -144.4
 1.900  0.6882  136.7   2.037   44.9  0.1494   53.4  0.1968 -146.5
 2.000  0.6911  134.0   1.936   42.2  0.1561   52.5  0.2055 -148.5
 2.100  0.6955  131.4   1.847   39.9  0.1631   51.6  0.2144 -150.6
 2.200  0.7013  128.8   1.761   37.3  0.1702   50.7  0.2235 -152.5
 2.300  0.7045  126.5   1.689   35.1  0.1774   49.7  0.2331 -154.1
 2.400  0.7088  124.2   1.620   32.8  0.1846   48.7  0.2428 -155.5
 2.500  0.7135  121.9   1.557   30.7  0.1912   47.5  0.2528 -157.4
 2.600  0.7194  119.7   1.496   28.4  0.1979   46.4  0.2631 -159.1
 2.700  0.7237  117.6   1.443   26.4  0.2043   45.3  0.2718 -160.6
 2.800  0.7289  115.5   1.391   24.2  0.2108   44.3  0.2806 -162.0
 2.900  0.7324  113.3   1.344   22.2  0.2170   43.1  0.2885 -163.9
 3.000  0.7370  111.2   1.299   20.1  0.2233   42.0  0.2968 -165.7
 3.100  0.7396  109.3   1.261   18.5  0.2294   40.9  0.3032 -167.6
 3.200  0.7429  107.4   1.224   16.7  0.2356   39.8  0.3099 -169.3
 3.300  0.7471  105.5   1.188   14.9  0.2418   38.8  0.3169 -171.0
 3.400  0.7521  103.6   1.153   13.0  0.2481   37.8  0.3241 -172.6
 3.500  0.7579  101.8   1.120   10.9  0.2545   36.9  0.3316 -174.2
 3.600  0.7602  100.2   1.092    9.4  0.2603   35.7  0.3378 -176.3
 3.700  0.7632   98.5   1.064    7.8  0.2663   34.5  0.3445 -178.3
 3.800  0.7668   96.9   1.037    6.2  0.2723   33.3  0.3516  179.8
 3.900  0.7710   95.3   1.011    4.4  0.2785   32.2  0.3590  178.0
 4.000  0.7758   93.7   0.986    2.6  0.2847   31.2  0.3668  176.2
 4.100  0.7766   92.1   0.964    1.2  0.2904   29.9  0.3739  174.0
 4.200  0.7780   90.6   0.942   -0.2  0.2961   28.7  0.3814  172.0
 4.300  0.7800   89.1   0.920   -1.7  0.3021   27.5  0.3895  170.0
 4.400  0.7825   87.5   0.900   -3.3  0.3081   26.3  0.3980  168.0
 4.500  0.7856   86.0   0.880   -4.9  0.3143   25.2  0.4069  166.2
 4.600  0.7878   84.7   0.862   -6.0  0.3195   24.0  0.4155  164.4
 4.700  0.7904   83.3   0.844   -7.2  0.3248   22.8  0.4245  162.6
 4.800  0.7935   82.0   0.827   -8.4  0.3302   21.7  0.4339  160.9
 4.900  0.7969   80.7   0.810   -9.7  0.3357   20.6  0.4437  159.3
 5.000  0.8008   79.4   0.793  -11.0  0.3414   19.6  0.4538  157.8
 5.100  0.8002   78.0   0.781  -12.0  0.3462   18.3  0.4628  156.5
 5.200  0.8001   76.7   0.769  -13.1  0.3511   17.1  0.4721  155.2
 5.300  0.8004   75.3   0.758  -14.2  0.3562   15.9  0.4816  154.0
 5.400  0.8012   74.0   0.747  -15.3  0.3615   14.7  0.4913  152.8
 5.500  0.8024   72.6   0.736  -16.5  0.3669   13.6  0.5012  151.7
 5.600  0.8015   71.4   0.725  -17.4  0.3711   12.4  0.5065  150.6
 5.700  0.8009   70.2   0.714  -18.3  0.3755   11.3  0.5119  149.6
 5.800  0.8006   69.0   0.703  -19.2  0.3801   10.2  0.5175  148.6
 5.900  0.8007   67.8   0.692  -20.1  0.3848    9.1  0.5233  147.6
 6.000  0.8012   66.6   0.682  -21.1  0.3896    8.0  0.5292  146.6
!
!  f       NFmin   Gammaopt  rn/50
! GHz       dB    MAG  ANG    -
 0.450      1.10  0.34  159   0.05
 0.900      1.30  0.47  179   0.06
 1.900      2.20  0.68 -137   0.24
 2.400      2.65  0.72 -122   0.59
!
! (c) 2017  Infineon Technologies AG, Munich