! Infineon Technologies  Discrete & RF Semiconductors
! BFP196
! VCE =  7.0 V,  IC =  25 mA
! Common Emitter S-Parameters:                            Jan 2017
# GHz  S  MA  R  50
!  f         S11            S21            S12            S22
! GHz     MAG   ANG      MAG   ANG      MAG   ANG      MAG   ANG
 0.010  0.4988  -20.1  56.026  170.9  0.0037   84.0  0.9769   -9.5
 0.020  0.5142  -38.7  54.764  162.6  0.0074   77.7  0.9391  -18.9
 0.030  0.4912  -54.0  50.846  156.5  0.0103   68.4  0.8728  -25.7
 0.040  0.5049  -69.5  47.600  149.4  0.0134   63.3  0.8207  -33.5
 0.050  0.5524  -83.3  45.170  141.5  0.0165   60.1  0.7855  -42.1
 0.060  0.5419  -91.4  42.044  138.5  0.0180   57.2  0.7303  -45.7
 0.070  0.5425  -99.7  39.050  135.1  0.0195   54.8  0.6785  -49.8
 0.080  0.5542 -107.8  36.220  131.1  0.0210   52.7  0.6307  -54.6
 0.090  0.5765 -115.4  33.597  126.4  0.0226   51.0  0.5879  -60.1
 0.100  0.6080 -122.3  31.232  121.0  0.0242   49.4  0.5515  -66.4
 0.110  0.6053 -126.2  29.474  119.3  0.0250   48.6  0.5216  -68.6
 0.120  0.6054 -130.1  27.745  117.4  0.0257   47.8  0.4926  -71.1
 0.130  0.6083 -133.9  26.049  115.3  0.0265   47.1  0.4646  -73.9
 0.140  0.6140 -137.8  24.395  112.9  0.0273   46.4  0.4379  -77.0
 0.150  0.6223 -141.5  22.791  110.1  0.0281   45.8  0.4126  -80.5
 0.200  0.6362 -152.5  17.737  103.3  0.0308   48.2  0.3337  -90.6
 0.250  0.6400 -160.4  14.439   98.2  0.0343   48.8  0.2819  -97.9
 0.300  0.6397 -165.7  12.156   94.8  0.0367   50.3  0.2478 -104.5
 0.350  0.6411 -169.6  10.688   92.4  0.0401   52.0  0.2269 -108.8
 0.400  0.6455 -173.4   9.245   89.2  0.0436   53.5  0.2075 -114.0
 0.450  0.6460 -176.4   8.331   87.3  0.0469   55.1  0.1965 -117.7
 0.500  0.6482 -179.3   7.428   84.9  0.0503   56.4  0.1864 -121.9
 0.600  0.6499  176.0   6.227   81.1  0.0577   57.8  0.1745 -128.2
 0.700  0.6540  172.2   5.347   77.9  0.0646   59.5  0.1672 -133.1
 0.800  0.6545  168.3   4.692   74.6  0.0730   60.2  0.1648 -136.8
 0.900  0.6557  164.9   4.169   71.6  0.0802   60.2  0.1647 -140.6
 1.000  0.6607  161.7   3.770   68.7  0.0875   60.4  0.1655 -143.9
 1.100  0.6622  158.5   3.437   66.0  0.0959   60.1  0.1676 -146.0
 1.200  0.6651  155.3   3.157   63.1  0.1037   59.5  0.1706 -148.4
 1.300  0.6668  152.5   2.923   60.4  0.1111   58.9  0.1756 -150.6
 1.400  0.6697  149.6   2.727   57.8  0.1191   58.3  0.1811 -152.9
 1.500  0.6747  146.8   2.546   55.2  0.1267   57.3  0.1873 -154.8
 1.600  0.6783  143.9   2.397   52.5  0.1339   56.6  0.1931 -156.1
 1.700  0.6814  141.1   2.265   50.0  0.1417   55.9  0.2012 -157.9
 1.800  0.6871  138.4   2.150   47.3  0.1494   54.6  0.2089 -159.8
 1.900  0.6909  135.7   2.037   45.0  0.1566   53.6  0.2164 -161.3
 2.000  0.6941  133.0   1.936   42.4  0.1641   52.5  0.2252 -162.5
 2.100  0.6976  130.4   1.848   40.1  0.1713   51.4  0.2339 -164.1
 2.200  0.7024  127.9   1.764   37.6  0.1785   50.3  0.2427 -165.5
 2.300  0.7060  125.6   1.692   35.4  0.1859   49.2  0.2517 -166.6
 2.400  0.7108  123.3   1.623   33.1  0.1934   48.1  0.2607 -167.6
 2.500  0.7144  121.1   1.560   31.0  0.1999   46.8  0.2701 -168.9
 2.600  0.7190  118.9   1.500   28.8  0.2065   45.6  0.2797 -170.2
 2.700  0.7235  116.8   1.447   26.8  0.2130   44.4  0.2877 -171.5
 2.800  0.7289  114.7   1.396   24.7  0.2195   43.3  0.2958 -172.8
 2.900  0.7325  112.6   1.349   22.8  0.2259   42.1  0.3034 -174.3
 3.000  0.7370  110.6   1.304   20.8  0.2323   40.9  0.3112 -175.8
 3.100  0.7396  108.7   1.266   19.2  0.2382   39.7  0.3170 -177.4
 3.200  0.7430  106.8   1.230   17.4  0.2441   38.5  0.3231 -179.0
 3.300  0.7471  105.0   1.195   15.6  0.2502   37.4  0.3294  179.5
 3.400  0.7521  103.1   1.161   13.7  0.2564   36.4  0.3359  178.1
 3.500  0.7578  101.3   1.128   11.6  0.2626   35.4  0.3426  176.7
 3.600  0.7600   99.7   1.100   10.1  0.2681   34.1  0.3485  174.9
 3.700  0.7627   98.1   1.073    8.5  0.2738   32.9  0.3547  173.1
 3.800  0.7661   96.5   1.046    6.8  0.2795   31.8  0.3613  171.4
 3.900  0.7701   94.9   1.021    5.1  0.2854   30.7  0.3681  169.7
 4.000  0.7746   93.3   0.996    3.2  0.2914   29.6  0.3753  168.1
 4.100  0.7754   91.8   0.974    1.8  0.2969   28.3  0.3822  166.2
 4.200  0.7768   90.3   0.953    0.4  0.3025   27.1  0.3895  164.3
 4.300  0.7787   88.8   0.932   -1.0  0.3082   25.9  0.3972  162.5
 4.400  0.7811   87.3   0.912   -2.6  0.3141   24.7  0.4053  160.8
 4.500  0.7841   85.8   0.892   -4.2  0.3201   23.6  0.4138  159.1
 4.600  0.7857   84.4   0.874   -5.3  0.3250   22.4  0.4219  157.5
 4.700  0.7878   83.1   0.857   -6.5  0.3300   21.2  0.4302  156.0
 4.800  0.7904   81.7   0.840   -7.8  0.3352   20.1  0.4389  154.5
 4.900  0.7934   80.3   0.823   -9.1  0.3405   19.0  0.4479  153.1
 5.000  0.7968   79.0   0.807  -10.4  0.3459   17.9  0.4571  151.7
 5.100  0.7964   77.7   0.795  -11.5  0.3503   16.7  0.4656  150.6
 5.200  0.7964   76.4   0.784  -12.5  0.3549   15.4  0.4742  149.5
 5.300  0.7969   75.0   0.773  -13.7  0.3597   14.3  0.4830  148.5
 5.400  0.7978   73.7   0.762  -14.8  0.3646   13.1  0.4919  147.5
 5.500  0.7991   72.4   0.751  -16.0  0.3696   12.0  0.5010  146.6
 5.600  0.7984   71.2   0.740  -16.9  0.3738   10.8  0.5056  145.6
 5.700  0.7981   70.0   0.728  -17.8  0.3781    9.7  0.5103  144.7
 5.800  0.7981   68.9   0.717  -18.7  0.3826    8.6  0.5152  143.8
 5.900  0.7984   67.7   0.707  -19.7  0.3872    7.5  0.5202  142.9
 6.000  0.7991   66.5   0.696  -20.7  0.3919    6.5  0.5253  142.0
!
!  f       NFmin   Gammaopt  rn/50
! GHz       dB    MAG  ANG    -
 0.450      1.15  0.34  164   0.05
 0.900      1.34  0.45 -176   0.06
 1.900      2.21  0.68 -136   0.24
 2.400      2.64  0.71 -122   0.59
!
! (c) 2017  Infineon Technologies AG, Munich