! Infineon Technologies  Discrete & RF Semiconductors
! BFP196
! VCE =  5.0 V,  IC =  80 mA
! Common Emitter S-Parameters:                            Jan 2017
# GHz  S  MA  R  50
!  f         S11            S21            S12            S22
! GHz     MAG   ANG      MAG   ANG      MAG   ANG      MAG   ANG
 0.010  0.1967  -69.9  92.800  165.3  0.0031   82.3  0.9156  -16.9
 0.020  0.3204  -98.0  85.959  152.5  0.0058   78.4  0.8437  -33.1
 0.030  0.3673 -114.7  75.517  146.0  0.0075   68.0  0.7380  -41.9
 0.040  0.4374 -126.8  66.329  137.7  0.0093   61.5  0.6552  -53.3
 0.050  0.5215 -135.3  58.984  126.9  0.0112   57.2  0.6046  -67.2
 0.060  0.5333 -140.1  53.866  124.6  0.0121   56.8  0.5536  -71.4
 0.070  0.5487 -144.7  48.851  121.9  0.0130   56.4  0.5061  -76.3
 0.080  0.5674 -149.1  43.972  118.5  0.0138   56.1  0.4631  -82.3
 0.090  0.5892 -153.1  39.281  114.4  0.0147   55.8  0.4262  -89.3
 0.100  0.6136 -156.8  34.854  109.1  0.0156   55.6  0.3968  -97.6
 0.110  0.6166 -158.8  32.669  108.0  0.0164   56.7  0.3778 -100.5
 0.120  0.6203 -160.8  30.498  106.6  0.0171   57.6  0.3599 -103.6
 0.130  0.6248 -162.7  28.346  105.1  0.0179   58.5  0.3431 -107.1
 0.140  0.6299 -164.6  26.217  103.4  0.0187   59.4  0.3278 -110.9
 0.150  0.6358 -166.5  24.117  101.3  0.0195   60.1  0.3140 -115.1
 0.200  0.6458 -171.7  18.347   96.3  0.0230   64.2  0.2764 -127.1
 0.250  0.6498 -175.7  14.766   92.7  0.0280   64.2  0.2550 -135.4
 0.300  0.6505 -178.6  12.356   90.2  0.0320   67.5  0.2427 -142.2
 0.350  0.6523  179.0  10.839   88.3  0.0364   68.5  0.2362 -146.4
 0.400  0.6552  176.6   9.337   85.8  0.0408   69.2  0.2311 -150.9
 0.450  0.6558  174.6   8.402   84.2  0.0457   69.4  0.2287 -153.9
 0.500  0.6571  172.7   7.476   82.2  0.0506   69.6  0.2269 -157.0
 0.600  0.6608  169.2   6.262   79.0  0.0590   69.4  0.2266 -161.5
 0.700  0.6629  166.4   5.370   76.3  0.0679   69.3  0.2254 -164.9
 0.800  0.6641  163.3   4.707   73.2  0.0778   68.6  0.2272 -167.5
 0.900  0.6637  160.2   4.182   70.6  0.0865   67.6  0.2300 -169.4
 1.000  0.6673  157.3   3.783   67.9  0.0954   66.5  0.2329 -171.9
 1.100  0.6714  154.6   3.447   65.4  0.1048   65.6  0.2362 -173.2
 1.200  0.6729  151.8   3.165   62.7  0.1133   64.4  0.2386 -174.7
 1.300  0.6754  149.1   2.929   60.2  0.1218   63.0  0.2433 -175.9
 1.400  0.6787  146.4   2.735   57.7  0.1310   62.0  0.2491 -177.4
 1.500  0.6834  143.8   2.555   55.2  0.1391   60.5  0.2549 -178.6
 1.600  0.6865  141.1   2.406   52.7  0.1479   59.1  0.2592 -179.5
 1.700  0.6885  138.5   2.271   50.3  0.1562   57.7  0.2669  179.5
 1.800  0.6942  135.9   2.157   47.7  0.1648   56.3  0.2738  178.5
 1.900  0.6978  133.3   2.046   45.5  0.1721   55.0  0.2802  177.5
 2.000  0.7004  130.8   1.945   43.0  0.1802   53.4  0.2873  176.7
 2.100  0.7040  128.2   1.858   40.8  0.1877   52.0  0.2946  175.6
 2.200  0.7089  125.7   1.773   38.4  0.1954   50.7  0.3019  174.6
 2.300  0.7113  123.5   1.702   36.3  0.2031   49.2  0.3087  174.0
 2.400  0.7147  121.4   1.634   34.1  0.2109   47.8  0.3155  173.4
 2.500  0.7187  119.2   1.572   32.1  0.2176   46.3  0.3235  172.4
 2.600  0.7238  117.0   1.512   30.0  0.2245   44.8  0.3315  171.4
 2.700  0.7274  115.0   1.461   28.1  0.2308   43.4  0.3375  170.5
 2.800  0.7318  113.0   1.411   26.0  0.2372   42.0  0.3435  169.7
 2.900  0.7350  111.0   1.365   24.2  0.2434   40.6  0.3500  168.4
 3.000  0.7391  109.0   1.320   22.2  0.2497   39.3  0.3566  167.2
 3.100  0.7408  107.2   1.283   20.6  0.2553   38.0  0.3607  165.9
 3.200  0.7433  105.3   1.248   18.9  0.2611   36.7  0.3650  164.5
 3.300  0.7465  103.5   1.213   17.1  0.2669   35.5  0.3694  163.3
 3.400  0.7505  101.7   1.180   15.2  0.2729   34.3  0.3741  162.0
 3.500  0.7552   99.9   1.148   13.2  0.2790   33.2  0.3789  160.8
 3.600  0.7575   98.3   1.121   11.7  0.2841   31.8  0.3836  159.3
 3.700  0.7603   96.8   1.094   10.2  0.2894   30.5  0.3886  157.8
 3.800  0.7636   95.2   1.069    8.6  0.2948   29.3  0.3938  156.4
 3.900  0.7675   93.7   1.044    6.9  0.3003   28.1  0.3993  155.0
 4.000  0.7720   92.2   1.020    5.1  0.3060   26.9  0.4050  153.6
 4.100  0.7725   90.7   0.999    3.7  0.3109   25.6  0.4108  152.0
 4.200  0.7735   89.2   0.978    2.3  0.3159   24.3  0.4168  150.4
 4.300  0.7750   87.7   0.957    0.8  0.3212   23.1  0.4232  148.9
 4.400  0.7770   86.3   0.938   -0.8  0.3265   21.9  0.4299  147.4
 4.500  0.7796   84.8   0.919   -2.4  0.3320   20.7  0.4368  146.0
 4.600  0.7813   83.5   0.902   -3.5  0.3363   19.5  0.4432  144.7
 4.700  0.7834   82.2   0.885   -4.7  0.3408   18.3  0.4499  143.5
 4.800  0.7859   80.9   0.869   -6.0  0.3454   17.2  0.4567  142.4
 4.900  0.7888   79.6   0.853   -7.3  0.3501   16.1  0.4638  141.2
 5.000  0.7921   78.3   0.838   -8.6  0.3550   15.0  0.4710  140.1
 5.100  0.7916   77.0   0.827   -9.7  0.3591   13.8  0.4776  139.3
 5.200  0.7915   75.7   0.816  -10.9  0.3633   12.6  0.4843  138.5
 5.300  0.7918   74.5   0.805  -12.0  0.3677   11.4  0.4910  137.8
 5.400  0.7924   73.2   0.795  -13.3  0.3722   10.3  0.4979  137.0
 5.500  0.7935   71.9   0.785  -14.5  0.3769    9.2  0.5048  136.3
 5.600  0.7921   70.7   0.774  -15.5  0.3805    8.1  0.5076  135.6
 5.700  0.7910   69.6   0.764  -16.5  0.3841    7.0  0.5105  134.9
 5.800  0.7903   68.4   0.754  -17.5  0.3880    6.0  0.5135  134.2
 5.900  0.7899   67.3   0.744  -18.6  0.3919    4.9  0.5165  133.5
 6.000  0.7898   66.1   0.734  -19.7  0.3960    3.9  0.5196  132.8
!
!  f       NFmin   Gammaopt  rn/50
! GHz       dB    MAG  ANG    -
 0.450      1.78  0.50 -170   0.06
 0.900      1.95  0.53 -157   0.10
 1.900      2.80  0.70 -130   0.40
 2.400      3.20  0.70 -116   0.87
!
! (c) 2017  Infineon Technologies AG, Munich