! Infineon Technologies  Discrete & RF Semiconductors
! BFP196
! VCE =  4.0 V,  IC =  95 mA
! Common Emitter S-Parameters:                            Jan 2017
# GHz  S  MA  R  50
!  f         S11            S21            S12            S22
! GHz     MAG   ANG      MAG   ANG      MAG   ANG      MAG   ANG
 0.010  0.1851  -97.3  95.998  164.1  0.0028   78.2  0.8912  -18.8
 0.020  0.3370 -115.9  87.744  150.4  0.0055   71.7  0.8131  -36.8
 0.030  0.3960 -128.5  76.251  144.0  0.0071   63.8  0.7033  -46.0
 0.040  0.4688 -137.5  66.024  135.5  0.0088   58.8  0.6180  -58.2
 0.050  0.5501 -144.0  57.739  124.3  0.0106   55.5  0.5684  -73.4
 0.060  0.5628 -148.0  52.620  122.2  0.0114   56.7  0.5211  -77.8
 0.070  0.5781 -151.7  47.590  119.6  0.0122   57.8  0.4775  -83.0
 0.080  0.5958 -155.3  42.678  116.4  0.0131   58.7  0.4386  -89.2
 0.090  0.6156 -158.7  37.933  112.4  0.0139   59.5  0.4059  -96.6
 0.100  0.6374 -161.8  33.424  107.3  0.0147   60.2  0.3808 -105.0
 0.110  0.6402 -163.4  31.296  106.2  0.0156   60.6  0.3644 -108.0
 0.120  0.6435 -165.1  29.181  105.0  0.0165   61.0  0.3490 -111.2
 0.130  0.6473 -166.7  27.082  103.5  0.0173   61.3  0.3349 -114.8
 0.140  0.6516 -168.2  25.002  101.9  0.0182   61.6  0.3221 -118.6
 0.150  0.6564 -169.8  22.948   99.9  0.0191   61.9  0.3109 -122.7
 0.200  0.6642 -174.3  17.403   95.3  0.0229   65.9  0.2813 -134.4
 0.250  0.6689 -177.8  13.990   91.8  0.0278   66.5  0.2642 -142.0
 0.300  0.6691  179.6  11.698   89.4  0.0319   69.5  0.2556 -148.4
 0.350  0.6704  177.4  10.260   87.5  0.0365   69.8  0.2512 -152.2
 0.400  0.6726  175.3   8.836   85.1  0.0411   70.1  0.2480 -156.1
 0.450  0.6731  173.4   7.951   83.5  0.0459   70.5  0.2463 -158.8
 0.500  0.6743  171.5   7.074   81.6  0.0508   70.8  0.2451 -161.6
 0.600  0.6775  168.4   5.922   78.5  0.0602   70.4  0.2459 -165.7
 0.700  0.6796  165.5   5.078   75.7  0.0693   70.4  0.2451 -168.8
 0.800  0.6811  162.5   4.453   72.7  0.0794   69.5  0.2470 -171.0
 0.900  0.6797  159.6   3.956   70.0  0.0879   68.3  0.2501 -172.9
 1.000  0.6850  156.8   3.579   67.4  0.0970   67.2  0.2534 -174.9
 1.100  0.6888  154.1   3.262   64.8  0.1070   66.1  0.2561 -176.4
 1.200  0.6908  151.3   2.996   62.1  0.1156   64.7  0.2587 -177.7
 1.300  0.6931  148.5   2.775   59.7  0.1241   63.3  0.2638 -178.8
 1.400  0.6957  146.0   2.591   57.1  0.1331   62.1  0.2697  179.7
 1.500  0.6991  143.4   2.420   54.6  0.1418   60.6  0.2749  178.6
 1.600  0.7033  140.6   2.280   52.1  0.1504   59.1  0.2791  177.8
 1.700  0.7055  138.0   2.154   49.7  0.1593   57.9  0.2868  176.9
 1.800  0.7100  135.4   2.047   47.1  0.1675   56.2  0.2938  175.8
 1.900  0.7122  132.8   1.942   44.9  0.1755   54.8  0.2994  174.8
 2.000  0.7142  130.4   1.847   42.4  0.1831   53.2  0.3061  174.1
 2.100  0.7182  127.8   1.764   40.2  0.1907   51.7  0.3132  173.0
 2.200  0.7237  125.2   1.684   37.7  0.1984   50.4  0.3205  172.0
 2.300  0.7258  123.0   1.617   35.7  0.2064   48.9  0.3271  171.4
 2.400  0.7290  120.9   1.553   33.5  0.2145   47.6  0.3337  170.8
 2.500  0.7322  118.7   1.495   31.5  0.2210   46.0  0.3415  169.8
 2.600  0.7365  116.6   1.438   29.4  0.2277   44.5  0.3493  168.9
 2.700  0.7402  114.6   1.389   27.5  0.2343   43.1  0.3550  168.0
 2.800  0.7449  112.6   1.341   25.4  0.2410   41.7  0.3607  167.2
 2.900  0.7480  110.5   1.298   23.6  0.2472   40.3  0.3669  165.9
 3.000  0.7521  108.5   1.257   21.6  0.2536   38.9  0.3732  164.7
 3.100  0.7537  106.7   1.223   20.0  0.2592   37.5  0.3772  163.4
 3.200  0.7560  104.9   1.189   18.3  0.2649   36.3  0.3813  162.1
 3.300  0.7591  103.1   1.157   16.6  0.2707   35.0  0.3857  160.9
 3.400  0.7629  101.3   1.126   14.7  0.2766   33.8  0.3902  159.7
 3.500  0.7675   99.5   1.096   12.7  0.2827   32.7  0.3949  158.5
 3.600  0.7689   97.9   1.070   11.2  0.2878   31.3  0.3994  157.0
 3.700  0.7708   96.4   1.046    9.7  0.2931   30.0  0.4041  155.6
 3.800  0.7733   94.8   1.021    8.1  0.2985   28.8  0.4092  154.1
 3.900  0.7763   93.3   0.998    6.4  0.3041   27.6  0.4144  152.7
 4.000  0.7799   91.8   0.976    4.6  0.3098   26.4  0.4199  151.4
 4.100  0.7802   90.3   0.956    3.2  0.3146   25.1  0.4256  149.8
 4.200  0.7810   88.8   0.936    1.8  0.3196   23.8  0.4315  148.3
 4.300  0.7823   87.3   0.917    0.3  0.3248   22.6  0.4378  146.8
 4.400  0.7841   85.9   0.898   -1.2  0.3301   21.4  0.4444  145.4
 4.500  0.7865   84.4   0.880   -2.8  0.3355   20.2  0.4512  144.0
 4.600  0.7882   83.1   0.864   -3.9  0.3398   19.0  0.4574  142.8
 4.700  0.7902   81.8   0.849   -5.0  0.3442   17.8  0.4639  141.6
 4.800  0.7927   80.5   0.834   -6.2  0.3488   16.7  0.4705  140.5
 4.900  0.7956   79.2   0.819   -7.4  0.3536   15.6  0.4773  139.4
 5.000  0.7989   77.9   0.805   -8.7  0.3584   14.5  0.4843  138.3
 5.100  0.7979   76.6   0.795   -9.8  0.3624   13.3  0.4906  137.5
 5.200  0.7974   75.4   0.785  -11.0  0.3665   12.1  0.4971  136.8
 5.300  0.7972   74.1   0.775  -12.2  0.3707   10.9  0.5036  136.0
 5.400  0.7974   72.9   0.766  -13.4  0.3751    9.8  0.5102  135.3
 5.500  0.7980   71.6   0.757  -14.6  0.3797    8.7  0.5169  134.6
 5.600  0.7967   70.4   0.747  -15.5  0.3832    7.6  0.5195  133.9
 5.700  0.7957   69.3   0.737  -16.5  0.3868    6.5  0.5222  133.2
 5.800  0.7950   68.1   0.727  -17.5  0.3906    5.4  0.5249  132.5
 5.900  0.7946   67.0   0.717  -18.5  0.3945    4.3  0.5278  131.8
 6.000  0.7946   65.8   0.708  -19.5  0.3986    3.3  0.5307  131.1
!
!  f       NFmin   Gammaopt  rn/50
! GHz       dB    MAG  ANG    -
!
! noise parameter not available yet for this operation point!
!
! (c) 2017  Infineon Technologies AG, Munich