! Infineon Technologies  Discrete & RF Semiconductors
! BFP196
! VCE =  3.0 V,  IC = 0.14 A
! Common Emitter S-Parameters:                            Jan 2017
# GHz  S  MA  R  50
!  f         S11            S21            S12            S22
! GHz     MAG   ANG      MAG   ANG      MAG   ANG      MAG   ANG
 0.010  0.3005 -137.1  87.582  159.6  0.0032   71.9  0.7134  -26.5
 0.020  0.4782 -141.5  75.466  143.2  0.0056   66.1  0.6306  -50.7
 0.030  0.5375 -148.7  63.784  137.4  0.0069   60.2  0.5323  -61.4
 0.040  0.6037 -154.4  53.045  129.1  0.0082   56.2  0.4599  -76.1
 0.050  0.6746 -159.0  43.948  117.0  0.0095   53.3  0.4268  -94.5
 0.060  0.6842 -161.5  39.827  115.3  0.0103   55.2  0.3973  -99.6
 0.070  0.6951 -163.9  35.751  113.1  0.0112   56.7  0.3713 -105.4
 0.080  0.7072 -166.2  31.737  110.5  0.0121   58.1  0.3497 -112.0
 0.090  0.7204 -168.4  27.812  107.0  0.0129   59.3  0.3334 -119.3
 0.100  0.7346 -170.6  24.019  102.5  0.0138   60.3  0.3230 -127.3
 0.110  0.7369 -171.7  22.461  101.6  0.0147   61.3  0.3152 -130.1
 0.120  0.7394 -172.7  20.909  100.6  0.0157   62.2  0.3083 -133.1
 0.130  0.7422 -173.8  19.365   99.4  0.0166   63.0  0.3022 -136.2
 0.140  0.7452 -174.9  17.830   98.0  0.0176   63.8  0.2970 -139.4
 0.150  0.7485 -175.9  16.308   96.4  0.0185   64.4  0.2928 -142.7
 0.200  0.7532 -179.0  12.308   92.3  0.0226   68.8  0.2826 -151.7
 0.250  0.7565  178.3   9.871   89.3  0.0278   69.7  0.2762 -157.1
 0.300  0.7535  176.3   8.237   87.0  0.0325   70.6  0.2734 -161.6
 0.350  0.7546  174.5   7.220   85.2  0.0372   71.8  0.2723 -164.1
 0.400  0.7565  172.7   6.213   82.9  0.0419   72.7  0.2717 -166.7
 0.450  0.7566  170.9   5.592   81.4  0.0469   72.4  0.2720 -168.5
 0.500  0.7575  169.2   4.975   79.5  0.0520   72.1  0.2726 -170.2
 0.600  0.7603  166.3   4.166   76.3  0.0616   71.4  0.2756 -173.0
 0.700  0.7614  163.7   3.578   73.5  0.0711   71.4  0.2757 -175.1
 0.800  0.7616  160.7   3.140   70.3  0.0813   70.3  0.2784 -176.6
 0.900  0.7610  157.9   2.792   67.5  0.0905   69.0  0.2817 -177.9
 1.000  0.7642  155.2   2.531   64.8  0.0999   67.9  0.2856 -179.6
 1.100  0.7668  152.4   2.313   62.1  0.1092   66.6  0.2890  179.5
 1.200  0.7671  149.6   2.127   59.3  0.1191   65.0  0.2917  178.3
 1.300  0.7679  147.0   1.975   56.8  0.1278   63.6  0.2977  177.4
 1.400  0.7703  144.4   1.849   54.0  0.1372   62.4  0.3036  176.2
 1.500  0.7737  141.8   1.729   51.5  0.1459   60.9  0.3087  175.1
 1.600  0.7774  139.1   1.635   48.9  0.1548   59.4  0.3134  174.5
 1.700  0.7796  136.5   1.547   46.3  0.1640   57.8  0.3209  173.8
 1.800  0.7833  133.9   1.472   43.7  0.1726   56.4  0.3284  172.6
 1.900  0.7842  131.3   1.402   41.5  0.1805   54.8  0.3346  171.7
 2.000  0.7851  128.8   1.335   38.9  0.1887   53.3  0.3409  171.1
 2.100  0.7870  126.2   1.278   36.7  0.1964   51.7  0.3483  170.1
 2.200  0.7905  123.7   1.223   34.2  0.2043   50.3  0.3558  169.2
 2.300  0.7923  121.5   1.178   32.1  0.2123   48.8  0.3621  168.6
 2.400  0.7953  119.3   1.134   29.9  0.2204   47.4  0.3684  168.0
 2.500  0.7972  117.1   1.094   27.9  0.2274   45.8  0.3764  167.1
 2.600  0.8002  115.0   1.055   25.8  0.2345   44.3  0.3845  166.2
 2.700  0.8017  112.9   1.021   24.0  0.2410   42.9  0.3897  165.4
 2.800  0.8043  110.9   0.988   22.0  0.2477   41.5  0.3950  164.6
 2.900  0.8058  108.9   0.959   20.2  0.2540   40.0  0.4014  163.3
 3.000  0.8083  106.9   0.931   18.3  0.2605   38.6  0.4080  162.1
 3.100  0.8087  105.1   0.908   16.8  0.2662   37.3  0.4120  160.9
 3.200  0.8098  103.2   0.885   15.2  0.2720   36.0  0.4161  159.7
 3.300  0.8118  101.4   0.863   13.5  0.2779   34.7  0.4205  158.5
 3.400  0.8147   99.6   0.842   11.8  0.2840   33.5  0.4250  157.3
 3.500  0.8183   97.8   0.822    9.9  0.2902   32.4  0.4297  156.2
 3.600  0.8185   96.2   0.805    8.6  0.2955   31.0  0.4346  154.8
 3.700  0.8193   94.6   0.788    7.2  0.3009   29.7  0.4397  153.4
 3.800  0.8207   93.0   0.772    5.7  0.3065   28.4  0.4451  152.0
 3.900  0.8228   91.5   0.756    4.2  0.3122   27.1  0.4507  150.7
 4.000  0.8255   89.9   0.741    2.6  0.3181   25.9  0.4566  149.4
 4.100  0.8247   88.4   0.728    1.4  0.3230   24.6  0.4625  147.9
 4.200  0.8244   87.0   0.715    0.1  0.3281   23.3  0.4686  146.4
 4.300  0.8246   85.5   0.703   -1.2  0.3333   22.0  0.4751  144.9
 4.400  0.8254   84.1   0.691   -2.5  0.3387   20.8  0.4819  143.5
 4.500  0.8267   82.6   0.679   -3.9  0.3442   19.6  0.4890  142.1
 4.600  0.8273   81.3   0.669   -4.9  0.3486   18.4  0.4953  140.9
 4.700  0.8283   80.0   0.658   -5.8  0.3532   17.2  0.5018  139.7
 4.800  0.8297   78.7   0.648   -6.9  0.3580   16.0  0.5085  138.5
 4.900  0.8316   77.4   0.639   -7.9  0.3629   14.9  0.5154  137.4
 5.000  0.8339   76.1   0.629   -9.0  0.3679   13.8  0.5225  136.3
 5.100  0.8322   74.8   0.623   -9.9  0.3719   12.6  0.5288  135.5
 5.200  0.8309   73.5   0.617  -10.9  0.3760   11.4  0.5353  134.7
 5.300  0.8300   72.2   0.612  -11.9  0.3803   10.2  0.5418  134.0
 5.400  0.8296   70.9   0.606  -12.9  0.3848    9.0  0.5484  133.2
 5.500  0.8296   69.6   0.601  -13.9  0.3894    7.9  0.5551  132.5
 5.600  0.8276   68.5   0.595  -14.7  0.3929    6.8  0.5577  131.8
 5.700  0.8259   67.4   0.590  -15.5  0.3966    5.6  0.5603  131.0
 5.800  0.8245   66.3   0.584  -16.3  0.4005    4.5  0.5631  130.3
 5.900  0.8234   65.2   0.579  -17.1  0.4045    3.5  0.5659  129.6
 6.000  0.8226   64.1   0.574  -17.9  0.4086    2.4  0.5688  128.9
!
!  f       NFmin   Gammaopt  rn/50
! GHz       dB    MAG  ANG    -
!
! noise parameter not available yet for this operation point!
!
! (c) 2017  Infineon Technologies AG, Munich