! Infineon Technologies  Discrete & RF Semiconductors
! BFP196
! VCE =  11. V,  IC =  35 mA
! Common Emitter S-Parameters:                            Jan 2017
# GHz  S  MA  R  50
!  f         S11            S21            S12            S22
! GHz     MAG   ANG      MAG   ANG      MAG   ANG      MAG   ANG
 0.010  0.4589  -22.2  64.823  169.9  0.0035   75.8  0.9432  -10.2
 0.020  0.4807  -43.4  63.261  161.0  0.0069   76.0  0.9021  -20.4
 0.030  0.4607  -59.3  58.174  154.8  0.0094   67.7  0.8319  -27.4
 0.040  0.4775  -75.3  53.880  147.6  0.0120   62.9  0.7763  -35.5
 0.050  0.5277  -89.2  50.580  139.3  0.0147   59.9  0.7384  -44.7
 0.060  0.5197  -97.2  46.916  136.4  0.0159   57.8  0.6845  -48.2
 0.070  0.5221 -105.3  43.392  133.0  0.0171   55.9  0.6336  -52.3
 0.080  0.5347 -113.2  40.044  129.1  0.0183   54.3  0.5865  -57.1
 0.090  0.5568 -120.6  36.920  124.5  0.0196   52.9  0.5442  -62.7
 0.100  0.5874 -127.3  34.081  119.0  0.0208   51.7  0.5078  -69.1
 0.110  0.5858 -130.9  32.110  117.4  0.0217   51.1  0.4796  -71.3
 0.120  0.5866 -134.6  30.166  115.6  0.0226   50.5  0.4521  -73.8
 0.130  0.5897 -138.2  28.256  113.6  0.0234   50.0  0.4256  -76.6
 0.140  0.5952 -141.8  26.387  111.3  0.0243   49.5  0.4003  -79.7
 0.150  0.6029 -145.3  24.567  108.6  0.0252   49.1  0.3763  -83.3
 0.200  0.6159 -155.5  19.034  102.1  0.0275   50.1  0.3037  -93.4
 0.250  0.6212 -162.5  15.453   97.4  0.0311   52.2  0.2576 -100.6
 0.300  0.6223 -167.6  12.979   94.1  0.0342   53.6  0.2269 -107.2
 0.350  0.6224 -171.3  11.413   91.8  0.0377   56.2  0.2085 -111.7
 0.400  0.6251 -174.9   9.871   88.8  0.0412   58.3  0.1917 -117.1
 0.450  0.6262 -177.7   8.891   87.0  0.0450   59.3  0.1823 -120.8
 0.500  0.6288  179.5   7.923   84.7  0.0489   60.2  0.1738 -124.8
 0.600  0.6316  175.1   6.642   81.1  0.0572   61.0  0.1643 -131.1
 0.700  0.6334  171.3   5.700   78.0  0.0637   62.2  0.1568 -135.9
 0.800  0.6371  167.6   4.999   74.7  0.0722   63.1  0.1555 -139.7
 0.900  0.6372  164.3   4.442   71.9  0.0797   62.4  0.1563 -143.3
 1.000  0.6427  161.1   4.019   69.0  0.0877   62.1  0.1576 -146.5
 1.100  0.6454  157.9   3.664   66.4  0.0962   61.9  0.1598 -148.6
 1.200  0.6458  154.9   3.363   63.6  0.1034   61.1  0.1628 -150.9
 1.300  0.6493  152.0   3.112   61.0  0.1115   60.3  0.1673 -152.8
 1.400  0.6520  149.2   2.903   58.4  0.1195   59.5  0.1727 -155.1
 1.500  0.6574  146.3   2.711   55.8  0.1273   58.5  0.1786 -157.1
 1.600  0.6606  143.5   2.551   53.2  0.1348   57.6  0.1844 -158.2
 1.700  0.6651  140.8   2.410   50.7  0.1429   56.8  0.1928 -159.8
 1.800  0.6706  138.1   2.287   48.1  0.1502   55.4  0.2002 -161.5
 1.900  0.6746  135.4   2.168   45.9  0.1576   54.3  0.2077 -163.0
 2.000  0.6757  133.0   2.059   43.4  0.1647   53.1  0.2155 -164.3
 2.100  0.6802  130.3   1.966   41.1  0.1719   52.0  0.2240 -165.8
 2.200  0.6862  127.6   1.876   38.6  0.1792   50.9  0.2327 -167.1
 2.300  0.6898  125.4   1.800   36.5  0.1866   49.7  0.2414 -168.1
 2.400  0.6945  123.2   1.726   34.2  0.1941   48.6  0.2502 -169.0
 2.500  0.6990  121.0   1.659   32.1  0.2006   47.2  0.2592 -170.3
 2.600  0.7045  118.8   1.594   29.9  0.2072   45.9  0.2683 -171.6
 2.700  0.7081  116.7   1.538   28.0  0.2136   44.7  0.2760 -172.7
 2.800  0.7127  114.6   1.483   25.9  0.2200   43.5  0.2839 -173.8
 2.900  0.7171  112.6   1.434   24.0  0.2262   42.2  0.2912 -175.4
 3.000  0.7224  110.6   1.387   21.9  0.2326   41.0  0.2987 -176.9
 3.100  0.7250  108.7   1.347   20.3  0.2384   39.8  0.3041 -178.5
 3.200  0.7283  106.9   1.308   18.5  0.2442   38.6  0.3098 -180.0
 3.300  0.7324  105.0   1.271   16.7  0.2502   37.5  0.3156  178.6
 3.400  0.7372  103.2   1.235   14.8  0.2563   36.4  0.3217  177.2
 3.500  0.7428  101.4   1.200   12.7  0.2624   35.4  0.3279  175.8
 3.600  0.7451   99.8   1.170   11.2  0.2678   34.1  0.3335  174.0
 3.700  0.7480   98.2   1.140    9.6  0.2734   32.9  0.3393  172.2
 3.800  0.7515   96.6   1.112    7.9  0.2791   31.7  0.3455  170.5
 3.900  0.7556   95.0   1.084    6.2  0.2849   30.5  0.3520  168.9
 4.000  0.7602   93.4   1.058    4.3  0.2908   29.4  0.3588  167.3
 4.100  0.7614   91.9   1.035    2.9  0.2960   28.1  0.3653  165.4
 4.200  0.7631   90.4   1.012    1.4  0.3013   26.9  0.3723  163.6
 4.300  0.7653   88.9   0.990   -0.1  0.3067   25.7  0.3796  161.8
 4.400  0.7680   87.4   0.969   -1.7  0.3123   24.6  0.3872  160.1
 4.500  0.7713   85.9   0.948   -3.4  0.3180   23.5  0.3952  158.5
 4.600  0.7735   84.6   0.929   -4.6  0.3227   22.3  0.4031  156.9
 4.700  0.7762   83.2   0.910   -5.8  0.3276   21.2  0.4112  155.4
 4.800  0.7793   81.9   0.892   -7.0  0.3326   20.0  0.4197  154.0
 4.900  0.7828   80.6   0.874   -8.3  0.3378   19.0  0.4284  152.6
 5.000  0.7867   79.3   0.857   -9.7  0.3430   17.9  0.4373  151.3
 5.100  0.7865   78.0   0.844  -10.8  0.3475   16.7  0.4456  150.3
 5.200  0.7868   76.7   0.832  -12.0  0.3521   15.4  0.4540  149.3
 5.300  0.7874   75.3   0.819  -13.1  0.3568   14.3  0.4625  148.3
 5.400  0.7885   74.0   0.807  -14.3  0.3617   13.1  0.4711  147.4
 5.500  0.7900   72.7   0.796  -15.6  0.3668   12.0  0.4799  146.5
 5.600  0.7890   71.5   0.784  -16.6  0.3708   10.8  0.4844  145.6
 5.700  0.7883   70.3   0.772  -17.5  0.3750    9.7  0.4891  144.7
 5.800  0.7880   69.2   0.761  -18.6  0.3793    8.6  0.4938  143.9
 5.900  0.7880   68.0   0.750  -19.6  0.3837    7.5  0.4987  143.0
 6.000  0.7883   66.8   0.739  -20.7  0.3883    6.5  0.5037  142.2
!
!  f       NFmin   Gammaopt  rn/50
! GHz       dB    MAG  ANG    -
 0.450      1.28  0.35  173   0.05
 0.900      1.44  0.45 -169   0.07
 1.900      2.27  0.68 -134   0.27
 2.400      2.68  0.71 -121   0.61
!
! (c) 2017  Infineon Technologies AG, Munich