! Infineon Technologies  Discrete & RF Semiconductors
! BFP196
! VCE =  10. V,  IC =  45 mA
! Common Emitter S-Parameters:                            Jan 2017
# GHz  S  MA  R  50
!  f         S11            S21            S12            S22
! GHz     MAG   ANG      MAG   ANG      MAG   ANG      MAG   ANG
 0.010  0.3909  -27.3  73.316  168.7  0.0033   79.6  0.9434  -11.6
 0.020  0.4236  -52.4  70.877  159.0  0.0064   71.5  0.8996  -23.2
 0.030  0.4144  -70.1  64.378  152.7  0.0089   64.3  0.8176  -30.6
 0.040  0.4442  -86.9  58.834  145.0  0.0114   60.3  0.7519  -39.4
 0.050  0.5062 -100.6  54.537  136.0  0.0140   57.7  0.7071  -49.6
 0.060  0.5050 -108.2  50.343  133.3  0.0151   56.4  0.6523  -53.2
 0.070  0.5127 -115.8  46.284  130.0  0.0161   55.2  0.6005  -57.5
 0.080  0.5290 -123.0  42.401  126.2  0.0172   54.2  0.5527  -62.5
 0.090  0.5530 -129.7  38.746  121.6  0.0183   53.3  0.5100  -68.5
 0.100  0.5839 -135.7  35.390  116.1  0.0194   52.5  0.4737  -75.4
 0.110  0.5840 -138.9  33.284  114.6  0.0200   52.2  0.4472  -77.7
 0.120  0.5859 -142.1  31.203  113.0  0.0207   52.0  0.4216  -80.3
 0.130  0.5896 -145.2  29.152  111.1  0.0213   51.7  0.3969  -83.2
 0.140  0.5950 -148.4  27.137  108.9  0.0220   51.5  0.3734  -86.6
 0.150  0.6022 -151.4  25.168  106.4  0.0226   51.3  0.3513  -90.3
 0.200  0.6147 -160.3  19.369  100.4  0.0259   53.5  0.2859 -101.0
 0.250  0.6211 -166.5  15.684   96.0  0.0296   56.3  0.2460 -108.9
 0.300  0.6207 -170.9  13.149   93.0  0.0329   58.0  0.2203 -115.9
 0.350  0.6217 -174.2  11.552   90.8  0.0367   60.2  0.2053 -120.7
 0.400  0.6248 -177.4   9.977   87.9  0.0406   62.0  0.1919 -126.2
 0.450  0.6258  180.0   8.987   86.2  0.0448   62.7  0.1843 -129.9
 0.500  0.6280  177.4   8.007   84.0  0.0490   63.2  0.1775 -134.0
 0.600  0.6302  173.5   6.707   80.6  0.0565   64.0  0.1711 -140.2
 0.700  0.6339  169.8   5.754   77.6  0.0645   64.8  0.1664 -144.9
 0.800  0.6362  166.4   5.046   74.4  0.0730   65.0  0.1661 -148.2
 0.900  0.6361  163.0   4.484   71.6  0.0811   64.4  0.1676 -151.3
 1.000  0.6417  160.1   4.056   68.9  0.0893   63.8  0.1689 -154.5
 1.100  0.6432  157.0   3.697   66.3  0.0979   63.1  0.1715 -156.2
 1.200  0.6454  154.0   3.393   63.5  0.1056   62.2  0.1745 -158.3
 1.300  0.6476  151.1   3.139   61.0  0.1137   61.5  0.1795 -159.9
 1.400  0.6521  148.4   2.930   58.4  0.1221   60.7  0.1852 -162.1
 1.500  0.6573  145.8   2.736   55.9  0.1299   59.2  0.1910 -163.6
 1.600  0.6604  143.0   2.575   53.3  0.1380   58.3  0.1966 -164.6
 1.700  0.6631  140.1   2.430   50.8  0.1461   57.2  0.2045 -166.1
 1.800  0.6700  137.4   2.307   48.3  0.1535   55.9  0.2121 -167.5
 1.900  0.6720  134.9   2.188   46.1  0.1609   54.8  0.2194 -168.8
 2.000  0.6744  132.3   2.079   43.6  0.1686   53.4  0.2274 -169.7
 2.100  0.6793  129.7   1.984   41.4  0.1758   52.2  0.2353 -171.0
 2.200  0.6855  127.2   1.893   38.9  0.1830   51.1  0.2434 -172.3
 2.300  0.6890  125.0   1.817   36.8  0.1905   49.7  0.2517 -173.1
 2.400  0.6936  122.8   1.743   34.5  0.1980   48.5  0.2601 -173.8
 2.500  0.6972  120.6   1.675   32.5  0.2047   47.1  0.2688 -175.1
 2.600  0.7019  118.4   1.610   30.3  0.2116   45.7  0.2777 -176.3
 2.700  0.7064  116.3   1.554   28.4  0.2179   44.4  0.2850 -177.3
 2.800  0.7118  114.3   1.499   26.3  0.2243   43.2  0.2923 -178.3
 2.900  0.7154  112.2   1.449   24.4  0.2303   41.9  0.2992 -179.8
 3.000  0.7199  110.1   1.401   22.3  0.2365   40.7  0.3063  178.8
 3.100  0.7223  108.3   1.361   20.7  0.2422   39.4  0.3115  177.3
 3.200  0.7255  106.4   1.322   18.9  0.2479   38.2  0.3168  175.9
 3.300  0.7293  104.6   1.284   17.1  0.2538   37.1  0.3224  174.5
 3.400  0.7339  102.9   1.248   15.2  0.2598   36.0  0.3282  173.1
 3.500  0.7392  101.1   1.213   13.1  0.2659   34.9  0.3341  171.8
 3.600  0.7417   99.5   1.183   11.6  0.2713   33.6  0.3394  170.1
 3.700  0.7448   97.9   1.154   10.0  0.2768   32.4  0.3450  168.4
 3.800  0.7485   96.3   1.126    8.3  0.2824   31.2  0.3509  166.8
 3.900  0.7528   94.7   1.099    6.5  0.2881   30.0  0.3570  165.3
 4.000  0.7576   93.2   1.073    4.7  0.2940   28.9  0.3634  163.8
 4.100  0.7587   91.7   1.049    3.3  0.2991   27.6  0.3698  162.0
 4.200  0.7603   90.2   1.026    1.9  0.3043   26.3  0.3765  160.2
 4.300  0.7624   88.7   1.004    0.3  0.3097   25.1  0.3835  158.5
 4.400  0.7650   87.3   0.982   -1.2  0.3152   23.9  0.3909  156.9
 4.500  0.7681   85.8   0.961   -2.9  0.3208   22.8  0.3986  155.3
 4.600  0.7706   84.5   0.942   -4.1  0.3255   21.6  0.4061  153.8
 4.700  0.7734   83.1   0.923   -5.3  0.3303   20.5  0.4138  152.4
 4.800  0.7767   81.8   0.904   -6.6  0.3352   19.3  0.4218  151.1
 4.900  0.7804   80.5   0.886   -7.9  0.3403   18.3  0.4301  149.8
 5.000  0.7845   79.2   0.869   -9.3  0.3455   17.2  0.4385  148.5
 5.100  0.7840   77.9   0.856  -10.4  0.3498   16.0  0.4463  147.6
 5.200  0.7840   76.6   0.844  -11.6  0.3542   14.8  0.4543  146.6
 5.300  0.7844   75.2   0.832  -12.8  0.3588   13.6  0.4624  145.8
 5.400  0.7852   73.9   0.820  -14.0  0.3635   12.5  0.4705  144.9
 5.500  0.7864   72.6   0.809  -15.3  0.3684   11.4  0.4788  144.1
 5.600  0.7857   71.4   0.797  -16.3  0.3722   10.3  0.4829  143.3
 5.700  0.7852   70.3   0.785  -17.3  0.3762    9.2  0.4872  142.5
 5.800  0.7851   69.1   0.774  -18.3  0.3803    8.1  0.4915  141.7
 5.900  0.7854   68.0   0.763  -19.4  0.3845    7.0  0.4959  140.9
 6.000  0.7859   66.8   0.752  -20.5  0.3889    6.0  0.5004  140.1
!
!  f       NFmin   Gammaopt  rn/50
! GHz       dB    MAG  ANG    -
 0.450      1.39  0.37 -180   0.06
 0.900      1.55  0.46 -166   0.07
 1.900      2.36  0.68 -133   0.30
 2.400      2.76  0.70 -120   0.65
!
! (c) 2017  Infineon Technologies AG, Munich