! Infineon Technologies  Discrete & RF Semiconductors
! BFP196
! VCE =  8.0 V,  IC =  25 mA
! Common Emitter S-Parameters:                            Jan 2017
# GHz  S  MA  R  50
!  f         S11            S21            S12            S22
! GHz     MAG   ANG      MAG   ANG      MAG   ANG      MAG   ANG
 0.010  0.5104  -19.3  55.684  171.0  0.0039   80.5  0.9755   -9.2
 0.020  0.5236  -37.8  54.492  162.9  0.0077   79.9  0.9389  -18.4
 0.030  0.5001  -52.6  50.678  156.8  0.0106   69.9  0.8745  -25.0
 0.040  0.5117  -67.7  47.524  149.8  0.0137   64.2  0.8236  -32.6
 0.050  0.5562  -81.3  45.167  142.0  0.0168   60.7  0.7887  -41.0
 0.060  0.5442  -89.4  42.090  139.0  0.0181   57.9  0.7346  -44.5
 0.070  0.5434  -97.7  39.147  135.5  0.0195   55.5  0.6836  -48.5
 0.080  0.5539 -105.9  36.371  131.5  0.0209   53.4  0.6366  -53.2
 0.090  0.5751 -113.6  33.801  126.9  0.0224   51.6  0.5945  -58.6
 0.100  0.6059 -120.6  31.489  121.5  0.0238   50.0  0.5583  -64.7
 0.110  0.6026 -124.5  29.717  119.8  0.0246   49.3  0.5279  -66.9
 0.120  0.6023 -128.5  27.975  117.9  0.0255   48.7  0.4984  -69.3
 0.130  0.6048 -132.5  26.268  115.7  0.0263   48.1  0.4699  -72.0
 0.140  0.6102 -136.4  24.603  113.3  0.0272   47.5  0.4426  -75.1
 0.150  0.6183 -140.2  22.989  110.5  0.0280   47.0  0.4168  -78.6
 0.200  0.6316 -151.4  17.922  103.6  0.0304   46.9  0.3355  -88.2
 0.250  0.6354 -159.4  14.603   98.6  0.0340   48.0  0.2828  -95.2
 0.300  0.6373 -164.9  12.286   95.1  0.0362   50.0  0.2470 -101.4
 0.350  0.6372 -168.9  10.809   92.6  0.0396   52.1  0.2254 -105.6
 0.400  0.6401 -172.8   9.359   89.4  0.0430   53.8  0.2053 -110.6
 0.450  0.6410 -175.8   8.435   87.5  0.0466   55.1  0.1937 -114.2
 0.500  0.6436 -178.8   7.523   85.1  0.0503   56.2  0.1830 -118.2
 0.600  0.6460  176.3   6.306   81.3  0.0572   57.5  0.1703 -124.6
 0.700  0.6470  172.4   5.412   78.1  0.0639   59.2  0.1614 -129.2
 0.800  0.6503  168.7   4.750   74.7  0.0721   59.8  0.1598 -133.3
 0.900  0.6502  165.2   4.221   71.7  0.0795   59.9  0.1589 -136.9
 1.000  0.6542  161.8   3.820   68.8  0.0870   60.2  0.1594 -140.4
 1.100  0.6582  158.7   3.482   66.1  0.0948   59.8  0.1612 -142.8
 1.200  0.6607  155.6   3.196   63.2  0.1025   59.3  0.1638 -145.3
 1.300  0.6627  152.6   2.960   60.6  0.1098   58.6  0.1688 -147.5
 1.400  0.6657  149.8   2.761   57.9  0.1183   58.3  0.1741 -150.0
 1.500  0.6711  146.9   2.578   55.3  0.1254   57.5  0.1801 -151.9
 1.600  0.6740  144.1   2.428   52.6  0.1330   56.7  0.1866 -153.4
 1.700  0.6776  141.3   2.292   50.1  0.1407   55.7  0.1945 -155.3
 1.800  0.6839  138.5   2.176   47.5  0.1487   54.8  0.2023 -157.2
 1.900  0.6865  135.8   2.063   45.2  0.1551   53.7  0.2100 -158.8
 2.000  0.6898  133.3   1.960   42.6  0.1627   52.7  0.2187 -160.2
 2.100  0.6944  130.6   1.871   40.3  0.1697   51.6  0.2272 -161.9
 2.200  0.7005  128.0   1.785   37.7  0.1768   50.5  0.2359 -163.4
 2.300  0.7035  125.7   1.713   35.5  0.1842   49.4  0.2450 -164.5
 2.400  0.7076  123.5   1.643   33.2  0.1916   48.4  0.2541 -165.5
 2.500  0.7118  121.3   1.579   31.1  0.1982   47.1  0.2638 -167.0
 2.600  0.7170  119.1   1.517   28.9  0.2050   45.8  0.2736 -168.4
 2.700  0.7211  116.9   1.463   26.9  0.2115   44.6  0.2816 -169.6
 2.800  0.7263  114.8   1.411   24.8  0.2180   43.5  0.2897 -170.8
 2.900  0.7304  112.7   1.365   22.9  0.2242   42.3  0.2973 -172.4
 3.000  0.7354  110.6   1.320   20.8  0.2304   41.2  0.3052 -174.0
 3.100  0.7377  108.7   1.282   19.2  0.2363   40.0  0.3111 -175.6
 3.200  0.7407  106.9   1.244   17.4  0.2423   38.8  0.3172 -177.2
 3.300  0.7445  105.0   1.208   15.6  0.2484   37.7  0.3236 -178.7
 3.400  0.7491  103.2   1.173   13.7  0.2545   36.7  0.3302  179.8
 3.500  0.7544  101.4   1.140   11.6  0.2608   35.7  0.3370  178.4
 3.600  0.7567   99.8   1.111   10.1  0.2664   34.4  0.3429  176.5
 3.700  0.7596   98.2   1.084    8.5  0.2721   33.2  0.3491  174.7
 3.800  0.7631   96.6   1.057    6.9  0.2780   32.1  0.3557  173.0
 3.900  0.7672   95.0   1.031    5.1  0.2839   31.0  0.3626  171.3
 4.000  0.7719   93.4   1.006    3.3  0.2900   29.9  0.3698  169.7
 4.100  0.7727   91.9   0.984    1.9  0.2954   28.6  0.3767  167.7
 4.200  0.7741   90.3   0.962    0.5  0.3010   27.4  0.3841  165.8
 4.300  0.7761   88.8   0.940   -1.0  0.3066   26.2  0.3919  163.9
 4.400  0.7786   87.3   0.920   -2.6  0.3125   25.0  0.4001  162.1
 4.500  0.7816   85.8   0.900   -4.2  0.3184   23.9  0.4087  160.4
 4.600  0.7840   84.5   0.882   -5.3  0.3233   22.7  0.4168  158.8
 4.700  0.7867   83.1   0.864   -6.5  0.3283   21.6  0.4253  157.2
 4.800  0.7899   81.8   0.847   -7.8  0.3335   20.4  0.4340  155.7
 4.900  0.7936   80.5   0.830   -9.1  0.3388   19.4  0.4431  154.3
 5.000  0.7976   79.2   0.814  -10.4  0.3442   18.3  0.4524  152.9
 5.100  0.7969   77.9   0.802  -11.5  0.3487   17.1  0.4610  151.8
 5.200  0.7966   76.5   0.790  -12.5  0.3534   15.8  0.4697  150.7
 5.300  0.7968   75.2   0.779  -13.7  0.3583   14.7  0.4787  149.6
 5.400  0.7974   73.8   0.768  -14.8  0.3633   13.5  0.4878  148.6
 5.500  0.7984   72.5   0.757  -16.0  0.3684   12.4  0.4970  147.6
 5.600  0.7973   71.3   0.745  -16.9  0.3725   11.2  0.5017  146.6
 5.700  0.7965   70.2   0.734  -17.9  0.3767   10.1  0.5066  145.7
 5.800  0.7961   69.0   0.722  -18.9  0.3811    9.0  0.5116  144.8
 5.900  0.7960   67.9   0.711  -19.9  0.3856    7.9  0.5167  143.9
 6.000  0.7962   66.7   0.700  -21.0  0.3903    6.9  0.5220  143.0
!
!  f       NFmin   Gammaopt  rn/50
! GHz       dB    MAG  ANG    -
 0.450      1.15  0.34  164   0.05
 0.900      1.34  0.45 -176   0.06
 1.900      2.21  0.68 -136   0.24
 2.400      2.64  0.71 -122   0.59
!
! (c) 2017  Infineon Technologies AG, Munich