! Infineon Technologies  Discrete & RF Semiconductors
! BFP196
! VCE =  1.0 V,  IC =  75 mA
! Common Emitter S-Parameters:                            Jan 2017
# GHz  S  MA  R  50
!  f         S11            S21            S12            S22
! GHz     MAG   ANG      MAG   ANG      MAG   ANG      MAG   ANG
 0.010  0.2971 -119.5  80.247  158.1  0.0048   71.7  0.7777  -32.1
 0.020  0.5038 -133.5  68.496  141.2  0.0081   60.5  0.6905  -59.4
 0.030  0.5592 -142.9  57.655  135.7  0.0099   55.0  0.5899  -72.0
 0.040  0.6268 -150.4  47.596  127.7  0.0117   51.2  0.5278  -88.6
 0.050  0.7031 -156.4  38.929  115.8  0.0136   48.5  0.5182 -107.5
 0.060  0.7119 -159.1  35.275  114.1  0.0144   49.5  0.4921 -113.0
 0.070  0.7222 -161.8  31.658  112.1  0.0153   50.5  0.4709 -119.0
 0.080  0.7341 -164.4  28.094  109.5  0.0161   51.3  0.4554 -125.5
 0.090  0.7474 -166.9  24.603  106.1  0.0170   52.0  0.4461 -132.3
 0.100  0.7621 -169.3  21.223  101.7  0.0178   52.7  0.4434 -139.4
 0.110  0.7637 -170.5  19.842  100.8  0.0186   53.7  0.4376 -141.9
 0.120  0.7655 -171.6  18.466   99.9  0.0194   54.7  0.4326 -144.5
 0.130  0.7677 -172.7  17.096   98.7  0.0202   55.6  0.4285 -147.2
 0.140  0.7702 -173.9  15.735   97.4  0.0211   56.4  0.4254 -149.9
 0.150  0.7730 -175.0  14.383   95.8  0.0219   57.1  0.4232 -152.6
 0.200  0.7779 -178.5  10.864   91.8  0.0264   61.5  0.4171 -160.1
 0.250  0.7808  178.7   8.703   88.8  0.0314   63.3  0.4123 -164.7
 0.300  0.7791  176.6   7.263   86.5  0.0364   66.1  0.4111 -168.4
 0.350  0.7798  174.7   6.368   84.8  0.0417   67.6  0.4108 -170.7
 0.400  0.7814  172.8   5.481   82.5  0.0471   68.7  0.4112 -172.9
 0.450  0.7809  171.1   4.932   80.9  0.0523   68.5  0.4108 -174.5
 0.500  0.7811  169.4   4.387   79.0  0.0575   68.3  0.4108 -176.2
 0.600  0.7832  166.4   3.676   75.8  0.0684   68.1  0.4133 -178.8
 0.700  0.7831  163.7   3.157   73.0  0.0786   67.8  0.4132  179.0
 0.800  0.7861  160.6   2.774   69.8  0.0893   67.2  0.4156  177.2
 0.900  0.7825  157.8   2.470   67.0  0.0998   66.0  0.4177  175.6
 1.000  0.7866  155.0   2.242   64.3  0.1098   64.8  0.4213  173.9
 1.100  0.7882  152.2   2.050   61.6  0.1203   63.9  0.4230  172.5
 1.200  0.7899  149.6   1.889   58.8  0.1300   62.2  0.4248  171.1
 1.300  0.7900  146.8   1.754   56.3  0.1399   60.9  0.4285  169.9
 1.400  0.7923  144.2   1.646   53.6  0.1498   59.4  0.4338  168.6
 1.500  0.7957  141.6   1.541   51.0  0.1595   57.8  0.4380  167.3
 1.600  0.7966  138.8   1.459   48.4  0.1684   56.4  0.4407  166.3
 1.700  0.7989  136.1   1.384   45.9  0.1784   54.8  0.4466  165.3
 1.800  0.8032  133.5   1.321   43.2  0.1872   53.2  0.4522  164.2
 1.900  0.8055  131.0   1.258   41.1  0.1955   51.6  0.4568  163.1
 2.000  0.8040  128.5   1.200   38.5  0.2044   50.0  0.4619  162.2
 2.100  0.8054  125.9   1.152   36.3  0.2124   48.4  0.4671  161.1
 2.200  0.8084  123.4   1.105   34.0  0.2205   47.0  0.4725  160.1
 2.300  0.8093  121.2   1.066   31.9  0.2287   45.4  0.4768  159.3
 2.400  0.8114  119.0   1.029   29.7  0.2371   44.0  0.4812  158.5
 2.500  0.8127  116.8   0.994   27.8  0.2440   42.4  0.4870  157.5
 2.600  0.8151  114.6   0.961   25.8  0.2511   40.8  0.4929  156.5
 2.700  0.8164  112.5   0.933   24.0  0.2576   39.3  0.4962  155.6
 2.800  0.8188  110.5   0.905   22.1  0.2642   37.9  0.4997  154.7
 2.900  0.8200  108.5   0.880   20.4  0.2705   36.4  0.5042  153.5
 3.000  0.8222  106.5   0.856   18.5  0.2769   35.0  0.5089  152.3
 3.100  0.8218  104.7   0.837   17.0  0.2823   33.6  0.5110  151.1
 3.200  0.8223  102.9   0.818   15.5  0.2879   32.3  0.5134  149.9
 3.300  0.8235  101.1   0.799   13.9  0.2937   31.0  0.5160  148.7
 3.400  0.8256   99.3   0.782   12.2  0.2996   29.8  0.5189  147.5
 3.500  0.8285   97.5   0.765   10.4  0.3056   28.6  0.5219  146.3
 3.600  0.8281   95.9   0.751    9.1  0.3106   27.2  0.5251  144.9
 3.700  0.8284   94.3   0.737    7.7  0.3158   25.9  0.5285  143.6
 3.800  0.8294   92.7   0.723    6.2  0.3211   24.6  0.5323  142.3
 3.900  0.8310   91.1   0.710    4.7  0.3267   23.4  0.5363  141.0
 4.000  0.8332   89.5   0.698    3.2  0.3323   22.2  0.5406  139.7
 4.100  0.8320   88.0   0.687    2.0  0.3370   20.9  0.5451  138.3
 4.200  0.8314   86.6   0.677    0.8  0.3419   19.6  0.5498  137.0
 4.300  0.8313   85.1   0.666   -0.4  0.3469   18.4  0.5549  135.7
 4.400  0.8318   83.7   0.657   -1.7  0.3521   17.2  0.5603  134.4
 4.500  0.8328   82.2   0.647   -3.0  0.3574   16.0  0.5659  133.1
 4.600  0.8330   81.0   0.638   -4.0  0.3613   14.8  0.5706  132.0
 4.700  0.8335   79.7   0.630   -5.0  0.3654   13.6  0.5755  130.9
 4.800  0.8344   78.5   0.622   -6.0  0.3697   12.5  0.5805  129.9
 4.900  0.8358   77.2   0.614   -7.0  0.3741   11.4  0.5858  128.8
 5.000  0.8375   76.0   0.606   -8.1  0.3786   10.3  0.5913  127.8
 5.100  0.8357   74.7   0.602   -9.1  0.3822    9.1  0.5957  127.1
 5.200  0.8344   73.4   0.598  -10.0  0.3860    7.9  0.6002  126.4
 5.300  0.8334   72.2   0.594  -11.0  0.3900    6.7  0.6048  125.7
 5.400  0.8329   70.9   0.590  -12.0  0.3941    5.6  0.6095  125.0
 5.500  0.8328   69.6   0.587  -13.0  0.3984    4.5  0.6143  124.3
 5.600  0.8306   68.5   0.582  -13.8  0.4016    3.4  0.6150  123.6
 5.700  0.8287   67.4   0.577  -14.6  0.4049    2.3  0.6158  122.9
 5.800  0.8270   66.3   0.573  -15.4  0.4084    1.3  0.6167  122.3
 5.900  0.8258   65.1   0.568  -16.3  0.4120    0.2  0.6176  121.6
 6.000  0.8248   64.0   0.564  -17.1  0.4157   -0.8  0.6187  120.9
!
!  f       NFmin   Gammaopt  rn/50
! GHz       dB    MAG  ANG    -
 0.450      1.73  0.48 -171   0.06
 0.900      1.89  0.51 -158   0.09
 1.900      2.72  0.70 -130   0.38
 2.400      3.12  0.70 -117   0.83
!
! (c) 2017  Infineon Technologies AG, Munich