! Infineon Technologies  Discrete & RF Semiconductors
! BFP196
! VCE =  7.0 V,  IC =  35 mA
! Common Emitter S-Parameters:                            Jan 2017
# GHz  S  MA  R  50
!  f         S11            S21            S12            S22
! GHz     MAG   ANG      MAG   ANG      MAG   ANG      MAG   ANG
 0.010  0.4075  -26.2  67.175  169.4  0.0035   81.2  0.9649  -11.3
 0.020  0.4375  -50.0  65.301  159.9  0.0073   75.3  0.9206  -22.4
 0.030  0.4272  -67.3  59.593  153.6  0.0097   67.2  0.8407  -29.8
 0.040  0.4557  -83.9  54.756  146.0  0.0122   62.3  0.7777  -38.6
 0.050  0.5167  -97.6  51.041  137.2  0.0147   59.1  0.7359  -48.7
 0.060  0.5143 -105.4  47.198  134.4  0.0160   56.9  0.6798  -52.4
 0.070  0.5213 -113.1  43.487  131.1  0.0173   55.0  0.6270  -56.8
 0.080  0.5374 -120.5  39.946  127.2  0.0186   53.4  0.5784  -61.9
 0.090  0.5619 -127.3  36.624  122.6  0.0199   52.0  0.5353  -67.9
 0.100  0.5936 -133.5  33.587  117.1  0.0212   50.8  0.4990  -74.8
 0.110  0.5934 -136.9  31.609  115.6  0.0219   50.6  0.4715  -77.2
 0.120  0.5953 -140.2  29.655  113.9  0.0225   50.4  0.4449  -79.9
 0.130  0.5991 -143.5  27.731  112.0  0.0232   50.2  0.4194  -82.9
 0.140  0.6050 -146.8  25.843  109.8  0.0238   50.0  0.3952  -86.3
 0.150  0.6128 -150.0  24.000  107.2  0.0245   49.8  0.3726  -90.1
 0.200  0.6268 -159.0  18.512  100.9  0.0272   51.7  0.3045 -101.0
 0.250  0.6337 -165.6  15.011   96.5  0.0306   53.0  0.2625 -109.1
 0.300  0.6343 -170.1  12.583   93.3  0.0345   55.4  0.2354 -116.3
 0.350  0.6352 -173.5  11.061   91.1  0.0379   57.7  0.2194 -121.2
 0.400  0.6383 -176.9   9.561   88.1  0.0414   59.6  0.2053 -126.8
 0.450  0.6397 -179.5   8.612   86.3  0.0454   60.7  0.1976 -130.6
 0.500  0.6424  177.9   7.673   84.1  0.0494   61.6  0.1908 -134.6
 0.600  0.6445  173.7   6.427   80.6  0.0579   62.2  0.1831 -140.9
 0.700  0.6465  170.2   5.515   77.5  0.0652   63.4  0.1784 -145.7
 0.800  0.6489  166.6   4.838   74.3  0.0740   63.6  0.1779 -149.1
 0.900  0.6488  163.3   4.297   71.4  0.0821   63.0  0.1789 -152.2
 1.000  0.6532  160.2   3.890   68.7  0.0899   62.8  0.1808 -155.2
 1.100  0.6565  157.2   3.544   66.0  0.0983   62.5  0.1831 -157.1
 1.200  0.6593  154.2   3.253   63.2  0.1067   61.5  0.1859 -159.2
 1.300  0.6616  151.2   3.011   60.7  0.1142   60.6  0.1912 -160.8
 1.400  0.6653  148.5   2.812   58.0  0.1229   59.8  0.1969 -162.9
 1.500  0.6686  145.9   2.625   55.5  0.1305   58.6  0.2027 -164.4
 1.600  0.6727  142.9   2.471   52.9  0.1387   57.7  0.2083 -165.5
 1.700  0.6764  140.2   2.333   50.4  0.1464   56.6  0.2164 -166.8
 1.800  0.6809  137.6   2.216   47.9  0.1545   55.4  0.2240 -168.4
 1.900  0.6858  134.9   2.100   45.6  0.1614   54.0  0.2311 -169.5
 2.000  0.6881  132.4   1.995   43.1  0.1693   52.9  0.2394 -170.7
 2.100  0.6923  129.8   1.905   40.8  0.1766   51.7  0.2474 -171.9
 2.200  0.6979  127.2   1.818   38.3  0.1839   50.6  0.2556 -173.1
 2.300  0.7008  125.0   1.744   36.2  0.1913   49.2  0.2638 -174.0
 2.400  0.7047  122.8   1.673   33.9  0.1988   48.0  0.2720 -174.8
 2.500  0.7089  120.5   1.609   31.9  0.2054   46.7  0.2808 -176.0
 2.600  0.7141  118.3   1.547   29.7  0.2122   45.4  0.2898 -177.1
 2.700  0.7182  116.2   1.493   27.7  0.2186   44.1  0.2971 -178.2
 2.800  0.7233  114.2   1.440   25.6  0.2251   42.9  0.3044 -179.2
 2.900  0.7268  112.1   1.393   23.7  0.2313   41.6  0.3115  179.4
 3.000  0.7312  110.1   1.347   21.7  0.2377   40.4  0.3188  178.0
 3.100  0.7334  108.2   1.308   20.1  0.2435   39.1  0.3240  176.5
 3.200  0.7363  106.4   1.271   18.4  0.2493   37.9  0.3294  175.1
 3.300  0.7401  104.5   1.235   16.6  0.2553   36.8  0.3350  173.7
 3.400  0.7446  102.7   1.200   14.6  0.2614   35.7  0.3408  172.3
 3.500  0.7498  100.9   1.166   12.6  0.2676   34.6  0.3468  171.0
 3.600  0.7522   99.3   1.137   11.1  0.2730   33.3  0.3523  169.3
 3.700  0.7551   97.7   1.109    9.5  0.2785   32.1  0.3581  167.6
 3.800  0.7587   96.2   1.082    7.9  0.2842   30.9  0.3642  166.0
 3.900  0.7628   94.6   1.056    6.1  0.2900   29.7  0.3706  164.4
 4.000  0.7674   93.1   1.031    4.3  0.2959   28.6  0.3772  162.9
 4.100  0.7683   91.6   1.008    2.9  0.3011   27.3  0.3837  161.1
 4.200  0.7697   90.1   0.987    1.5  0.3064   26.1  0.3906  159.4
 4.300  0.7716   88.6   0.965   -0.1  0.3118   24.9  0.3978  157.7
 4.400  0.7741   87.1   0.945   -1.6  0.3174   23.7  0.4053  156.1
 4.500  0.7771   85.6   0.925   -3.3  0.3231   22.6  0.4132  154.5
 4.600  0.7794   84.3   0.907   -4.4  0.3278   21.4  0.4207  153.1
 4.700  0.7820   82.9   0.889   -5.6  0.3326   20.2  0.4285  151.7
 4.800  0.7852   81.6   0.872   -6.9  0.3375   19.1  0.4366  150.3
 4.900  0.7887   80.3   0.855   -8.2  0.3426   18.0  0.4448  149.0
 5.000  0.7926   79.0   0.839   -9.5  0.3478   16.9  0.4533  147.8
 5.100  0.7919   77.7   0.827  -10.6  0.3521   15.7  0.4611  146.8
 5.200  0.7915   76.4   0.815  -11.8  0.3566   14.5  0.4691  145.9
 5.300  0.7916   75.0   0.804  -12.9  0.3612   13.3  0.4772  144.9
 5.400  0.7922   73.7   0.793  -14.2  0.3659   12.2  0.4854  144.1
 5.500  0.7931   72.4   0.782  -15.4  0.3708   11.1  0.4937  143.2
 5.600  0.7922   71.2   0.771  -16.3  0.3747   10.0  0.4978  142.4
 5.700  0.7917   70.0   0.759  -17.3  0.3788    8.9  0.5020  141.5
 5.800  0.7915   68.9   0.748  -18.3  0.3829    7.8  0.5063  140.7
 5.900  0.7916   67.7   0.738  -19.3  0.3873    6.7  0.5107  139.9
 6.000  0.7921   66.5   0.727  -20.3  0.3917    5.7  0.5152  139.1
!
!  f       NFmin   Gammaopt  rn/50
! GHz       dB    MAG  ANG    -
 0.450      1.28  0.35  173   0.05
 0.900      1.44  0.45 -169   0.07
 1.900      2.27  0.68 -134   0.27
 2.400      2.68  0.71 -121   0.61
!
! (c) 2017  Infineon Technologies AG, Munich