! Infineon Technologies  Discrete & RF Semiconductors
! BFP196
! VCE =  4.0 V,  IC =  40 mA
! Common Emitter S-Parameters:                            Jan 2017
# GHz  S  MA  R  50
!  f         S11            S21            S12            S22
! GHz     MAG   ANG      MAG   ANG      MAG   ANG      MAG   ANG
 0.010  0.3190  -36.3  72.842  168.1  0.0038   80.7  0.9559  -13.7
 0.020  0.3753  -65.5  69.848  157.2  0.0070   70.4  0.9017  -27.0
 0.030  0.3869  -84.7  62.774  150.7  0.0095   63.6  0.8089  -35.3
 0.040  0.4370 -101.1  56.694  142.8  0.0120   59.7  0.7374  -45.6
 0.050  0.5146 -113.3  51.957  133.1  0.0146   57.1  0.6937  -57.5
 0.060  0.5207 -120.2  47.787  130.5  0.0156   55.6  0.6379  -61.6
 0.070  0.5340 -126.8  43.735  127.4  0.0167   54.3  0.5860  -66.4
 0.080  0.5541 -133.0  39.836  123.7  0.0177   53.2  0.5390  -72.2
 0.090  0.5802 -138.7  36.140  119.2  0.0187   52.2  0.4984  -78.9
 0.100  0.6115 -143.9  32.717  113.7  0.0198   51.3  0.4658  -86.7
 0.110  0.6132 -146.7  30.727  112.3  0.0205   51.4  0.4416  -89.5
 0.120  0.6164 -149.5  28.757  110.8  0.0212   51.5  0.4185  -92.6
 0.130  0.6209 -152.2  26.811  109.0  0.0220   51.6  0.3968  -96.0
 0.140  0.6269 -154.9  24.895  107.0  0.0227   51.7  0.3767  -99.9
 0.150  0.6342 -157.5  23.015  104.6  0.0234   51.8  0.3585 -104.1
 0.200  0.6470 -164.9  17.644   98.9  0.0265   55.4  0.3054 -116.2
 0.250  0.6548 -170.4  14.240   94.7  0.0310   56.6  0.2740 -125.2
 0.300  0.6540 -174.0  11.941   91.8  0.0342   58.8  0.2562 -132.6
 0.350  0.6562 -176.9  10.483   89.7  0.0383   60.5  0.2455 -137.4
 0.400  0.6600 -179.8   9.043   86.9  0.0425   61.8  0.2366 -142.5
 0.450  0.6608  177.8   8.142   85.2  0.0470   62.8  0.2320 -146.0
 0.500  0.6628  175.4   7.250   83.1  0.0516   63.6  0.2282 -149.6
 0.600  0.6656  171.7   6.072   79.7  0.0597   63.9  0.2256 -155.1
 0.700  0.6670  168.4   5.209   76.8  0.0676   64.6  0.2225 -159.1
 0.800  0.6708  165.1   4.569   73.6  0.0772   64.8  0.2236 -162.0
 0.900  0.6690  161.9   4.058   70.8  0.0861   64.2  0.2262 -164.6
 1.000  0.6718  158.9   3.671   68.0  0.0944   63.6  0.2288 -167.2
 1.100  0.6772  155.8   3.349   65.4  0.1033   63.0  0.2311 -168.8
 1.200  0.6780  153.0   3.074   62.7  0.1116   61.8  0.2337 -170.6
 1.300  0.6795  150.1   2.847   60.2  0.1203   61.0  0.2387 -172.0
 1.400  0.6838  147.5   2.657   57.6  0.1293   59.9  0.2449 -173.6
 1.500  0.6882  144.7   2.482   55.0  0.1373   58.8  0.2502 -174.9
 1.600  0.6905  142.0   2.338   52.4  0.1458   57.5  0.2555 -175.8
 1.700  0.6937  139.3   2.208   49.9  0.1543   56.2  0.2630 -176.9
 1.800  0.6989  136.5   2.098   47.4  0.1624   55.0  0.2703 -178.1
 1.900  0.7039  134.1   1.989   45.2  0.1697   53.8  0.2771 -179.2
 2.000  0.7049  131.4   1.891   42.6  0.1774   52.3  0.2842  179.9
 2.100  0.7089  128.9   1.806   40.4  0.1850   50.9  0.2918  178.8
 2.200  0.7142  126.4   1.724   37.9  0.1926   49.7  0.2995  177.7
 2.300  0.7169  124.2   1.655   35.8  0.2002   48.4  0.3067  176.9
 2.400  0.7206  122.0   1.589   33.6  0.2079   47.1  0.3139  176.2
 2.500  0.7238  119.8   1.528   31.6  0.2146   45.7  0.3221  175.2
 2.600  0.7280  117.6   1.470   29.4  0.2215   44.3  0.3304  174.2
 2.700  0.7325  115.5   1.419   27.5  0.2280   43.0  0.3370  173.2
 2.800  0.7379  113.5   1.370   25.4  0.2347   41.7  0.3436  172.3
 2.900  0.7407  111.4   1.326   23.6  0.2407   40.3  0.3501  171.0
 3.000  0.7445  109.4   1.283   21.6  0.2469   39.0  0.3567  169.7
 3.100  0.7464  107.6   1.247   20.0  0.2526   37.7  0.3613  168.3
 3.200  0.7491  105.7   1.212   18.3  0.2585   36.5  0.3660  167.0
 3.300  0.7525  103.9   1.179   16.4  0.2645   35.3  0.3710  165.7
 3.400  0.7567  102.1   1.146   14.5  0.2705   34.2  0.3761  164.4
 3.500  0.7616  100.3   1.115   12.5  0.2767   33.1  0.3814  163.2
 3.600  0.7634   98.7   1.088   11.0  0.2819   31.8  0.3864  161.6
 3.700  0.7658   97.1   1.062    9.5  0.2873   30.5  0.3916  160.1
 3.800  0.7688   95.5   1.037    7.8  0.2929   29.3  0.3972  158.6
 3.900  0.7724   94.0   1.013    6.1  0.2985   28.1  0.4030  157.1
 4.000  0.7766   92.4   0.990    4.3  0.3043   27.0  0.4090  155.7
 4.100  0.7771   90.9   0.969    3.0  0.3092   25.7  0.4151  154.1
 4.200  0.7780   89.4   0.949    1.6  0.3143   24.4  0.4215  152.5
 4.300  0.7795   87.9   0.929    0.1  0.3195   23.2  0.4282  150.9
 4.400  0.7816   86.5   0.910   -1.4  0.3249   22.0  0.4352  149.4
 4.500  0.7841   85.0   0.891   -3.0  0.3304   20.8  0.4425  148.0
 4.600  0.7861   83.7   0.874   -4.1  0.3350   19.6  0.4494  146.7
 4.700  0.7885   82.3   0.858   -5.3  0.3398   18.5  0.4565  145.4
 4.800  0.7914   81.0   0.842   -6.5  0.3447   17.3  0.4639  144.2
 4.900  0.7946   79.7   0.827   -7.8  0.3497   16.3  0.4715  143.0
 5.000  0.7983   78.4   0.812   -9.1  0.3549   15.2  0.4792  141.9
 5.100  0.7975   77.1   0.801  -10.2  0.3590   14.0  0.4862  141.0
 5.200  0.7970   75.8   0.791  -11.3  0.3632   12.8  0.4933  140.1
 5.300  0.7970   74.5   0.780  -12.5  0.3675   11.6  0.5005  139.3
 5.400  0.7974   73.2   0.771  -13.7  0.3720   10.5  0.5079  138.5
 5.500  0.7982   71.9   0.761  -14.9  0.3767    9.4  0.5153  137.7
 5.600  0.7970   70.7   0.751  -15.8  0.3804    8.3  0.5185  136.9
 5.700  0.7961   69.6   0.740  -16.8  0.3842    7.2  0.5218  136.2
 5.800  0.7956   68.4   0.730  -17.8  0.3882    6.1  0.5251  135.5
 5.900  0.7954   67.3   0.721  -18.8  0.3923    5.0  0.5286  134.7
 6.000  0.7955   66.1   0.711  -19.8  0.3965    4.0  0.5321  134.0
!
!  f       NFmin   Gammaopt  rn/50
! GHz       dB    MAG  ANG    -
 0.450      1.34  0.36  177   0.05
 0.900      1.49  0.46 -167   0.07
 1.900      2.31  0.68 -133   0.28
 2.400      2.71  0.70 -120   0.62
!
! (c) 2017  Infineon Technologies AG, Munich