! Infineon Technologies  Discrete & RF Semiconductors
! BFP196
! VCE =  6.0 V,  IC =  70 mA
! Common Emitter S-Parameters:                            Jan 2017
# GHz  S  MA  R  50
!  f         S11            S21            S12            S22
! GHz     MAG   ANG      MAG   ANG      MAG   ANG      MAG   ANG
 0.010  0.2314  -53.1  89.089  166.2  0.0028   83.8  0.9292  -15.4
 0.020  0.3243  -85.2  83.411  154.2  0.0061   73.5  0.8669  -30.5
 0.030  0.3595 -103.6  73.857  147.7  0.0080   66.3  0.7641  -38.9
 0.040  0.4239 -117.6  65.523  139.4  0.0100   61.9  0.6826  -49.7
 0.050  0.5065 -127.5  58.931  129.0  0.0121   59.0  0.6307  -62.7
 0.060  0.5168 -133.2  53.948  126.6  0.0129   58.3  0.5779  -66.7
 0.070  0.5320 -138.5  49.077  123.7  0.0138   57.8  0.5285  -71.5
 0.080  0.5515 -143.6  44.356  120.3  0.0146   57.3  0.4835  -77.2
 0.090  0.5750 -148.2  39.839  116.0  0.0155   56.8  0.4442  -83.9
 0.100  0.6020 -152.5  35.601  110.6  0.0163   56.4  0.4122  -91.9
 0.110  0.6043 -154.8  33.380  109.4  0.0170   56.7  0.3911  -94.6
 0.120  0.6075 -157.0  31.177  108.0  0.0176   57.0  0.3709  -97.7
 0.130  0.6116 -159.2  28.994  106.4  0.0183   57.3  0.3520 -101.0
 0.140  0.6166 -161.4  26.837  104.6  0.0189   57.6  0.3343 -104.8
 0.150  0.6225 -163.5  24.713  102.4  0.0196   57.8  0.3183 -108.9
 0.200  0.6338 -169.3  18.842   97.2  0.0235   60.7  0.2736 -121.0
 0.250  0.6396 -173.9  15.178   93.4  0.0281   63.0  0.2480 -129.3
 0.300  0.6396 -177.1  12.688   90.7  0.0320   65.6  0.2331 -136.5
 0.350  0.6410 -179.6  11.141   88.8  0.0362   66.7  0.2248 -141.0
 0.400  0.6436  177.9   9.610   86.3  0.0405   67.5  0.2179 -145.8
 0.450  0.6447  175.8   8.648   84.7  0.0448   67.9  0.2148 -149.0
 0.500  0.6467  173.8   7.694   82.7  0.0492   68.3  0.2124 -152.3
 0.600  0.6502  170.1   6.445   79.4  0.0585   68.1  0.2106 -157.4
 0.700  0.6509  167.1   5.526   76.6  0.0669   68.2  0.2087 -161.3
 0.800  0.6543  164.0   4.846   73.6  0.0770   68.4  0.2103 -163.9
 0.900  0.6553  160.9   4.305   70.9  0.0849   67.3  0.2130 -166.2
 1.000  0.6582  158.0   3.896   68.2  0.0942   65.9  0.2161 -168.6
 1.100  0.6617  155.1   3.548   65.7  0.1029   65.4  0.2185 -170.2
 1.200  0.6632  152.2   3.257   62.9  0.1116   64.0  0.2216 -171.8
 1.300  0.6661  149.5   3.015   60.5  0.1198   62.7  0.2264 -173.0
 1.400  0.6693  146.9   2.815   57.9  0.1289   61.7  0.2322 -174.5
 1.500  0.6730  144.3   2.627   55.5  0.1370   60.3  0.2376 -175.8
 1.600  0.6763  141.4   2.475   52.9  0.1457   58.9  0.2427 -176.6
 1.700  0.6782  138.8   2.337   50.5  0.1537   57.7  0.2503 -177.7
 1.800  0.6857  136.2   2.219   48.0  0.1621   56.2  0.2573 -178.8
 1.900  0.6888  133.7   2.104   45.8  0.1695   54.9  0.2635 -179.7
 2.000  0.6909  131.1   2.001   43.3  0.1775   53.5  0.2715  179.4
 2.100  0.6950  128.6   1.910   41.1  0.1848   52.0  0.2789  178.3
 2.200  0.7004  126.1   1.822   38.7  0.1923   50.7  0.2863  177.3
 2.300  0.7025  123.9   1.749   36.6  0.2000   49.3  0.2933  176.6
 2.400  0.7056  121.7   1.678   34.4  0.2079   48.0  0.3004  176.0
 2.500  0.7103  119.5   1.614   32.4  0.2146   46.5  0.3086  175.0
 2.600  0.7160  117.4   1.553   30.2  0.2215   45.1  0.3168  174.0
 2.700  0.7197  115.3   1.499   28.3  0.2278   43.7  0.3231  173.1
 2.800  0.7244  113.3   1.446   26.3  0.2342   42.4  0.3294  172.2
 2.900  0.7275  111.2   1.399   24.4  0.2404   41.0  0.3359  170.9
 3.000  0.7316  109.2   1.354   22.4  0.2468   39.7  0.3425  169.6
 3.100  0.7336  107.4   1.316   20.8  0.2524   38.4  0.3468  168.3
 3.200  0.7363  105.6   1.279   19.1  0.2581   37.1  0.3514  166.9
 3.300  0.7397  103.8   1.243   17.3  0.2639   35.9  0.3561  165.7
 3.400  0.7439  102.0   1.209   15.4  0.2699   34.7  0.3610  164.4
 3.500  0.7487  100.3   1.176   13.4  0.2759   33.6  0.3660  163.2
 3.600  0.7510   98.7   1.148   11.9  0.2811   32.3  0.3709  161.6
 3.700  0.7538   97.1   1.120   10.3  0.2864   31.0  0.3761  160.1
 3.800  0.7572   95.6   1.094    8.7  0.2918   29.7  0.3815  158.6
 3.900  0.7612   94.0   1.068    6.9  0.2974   28.5  0.3873  157.1
 4.000  0.7657   92.5   1.044    5.1  0.3031   27.4  0.3932  155.7
 4.100  0.7665   91.0   1.022    3.7  0.3080   26.1  0.3990  154.0
 4.200  0.7679   89.5   1.000    2.3  0.3131   24.8  0.4052  152.4
 4.300  0.7698   88.0   0.979    0.8  0.3183   23.6  0.4117  150.9
 4.400  0.7722   86.6   0.959   -0.8  0.3236   22.4  0.4184  149.4
 4.500  0.7751   85.1   0.939   -2.4  0.3291   21.2  0.4255  147.9
 4.600  0.7770   83.8   0.921   -3.6  0.3336   20.0  0.4322  146.6
 4.700  0.7793   82.5   0.904   -4.8  0.3382   18.8  0.4390  145.4
 4.800  0.7820   81.2   0.887   -6.0  0.3430   17.7  0.4461  144.2
 4.900  0.7851   79.9   0.870   -7.3  0.3479   16.6  0.4534  143.0
 5.000  0.7886   78.6   0.854   -8.7  0.3529   15.5  0.4608  141.9
 5.100  0.7878   77.3   0.842   -9.8  0.3569   14.3  0.4677  141.1
 5.200  0.7875   76.0   0.831  -11.0  0.3611   13.1  0.4747  140.3
 5.300  0.7876   74.6   0.819  -12.1  0.3654   11.9  0.4818  139.5
 5.400  0.7881   73.3   0.808  -13.4  0.3699   10.8  0.4890  138.7
 5.500  0.7890   72.0   0.798  -14.6  0.3745    9.7  0.4963  138.0
 5.600  0.7882   70.9   0.787  -15.6  0.3781    8.6  0.4995  137.3
 5.700  0.7877   69.7   0.776  -16.6  0.3818    7.5  0.5027  136.5
 5.800  0.7876   68.6   0.765  -17.7  0.3857    6.4  0.5060  135.8
 5.900  0.7877   67.4   0.755  -18.8  0.3897    5.3  0.5094  135.1
 6.000  0.7882   66.3   0.745  -19.9  0.3938    4.3  0.5129  134.4
!
!  f       NFmin   Gammaopt  rn/50
! GHz       dB    MAG  ANG    -
 0.450      1.68  0.46 -172   0.06
 0.900      1.84  0.50 -159   0.09
 1.900      2.66  0.69 -131   0.36
 2.400      3.05  0.70 -117   0.79
!
! (c) 2017  Infineon Technologies AG, Munich