! Infineon Technologies  Discrete & RF Semiconductors
! BFP196
! VCE =  10. V,  IC =  30 mA
! Common Emitter S-Parameters:                            Jan 2017
# GHz  S  MA  R  50
!  f         S11            S21            S12            S22
! GHz     MAG   ANG      MAG   ANG      MAG   ANG      MAG   ANG
 0.010  0.4858  -20.6  60.662  170.4  0.0036   72.6  0.9607   -9.7
 0.020  0.5042  -40.5  59.451  161.9  0.0070   78.8  0.9213  -19.3
 0.030  0.4818  -55.7  54.935  155.8  0.0096   68.4  0.8543  -26.1
 0.040  0.4952  -71.2  51.150  148.7  0.0124   62.5  0.8014  -33.9
 0.050  0.5416  -85.0  48.266  140.6  0.0153   58.8  0.7653  -42.7
 0.060  0.5313  -93.1  44.870  137.7  0.0167   56.3  0.7108  -46.2
 0.070  0.5318 -101.3  41.612  134.2  0.0182   54.3  0.6593  -50.2
 0.080  0.5432 -109.4  38.526  130.3  0.0196   52.5  0.6117  -55.0
 0.090  0.5648 -117.0  35.658  125.6  0.0211   51.0  0.5688  -60.4
 0.100  0.5955 -123.9  33.064  120.2  0.0226   49.7  0.5320  -66.7
 0.110  0.5932 -127.7  31.181  118.6  0.0234   49.3  0.5030  -68.9
 0.120  0.5936 -131.5  29.326  116.7  0.0241   48.9  0.4747  -71.3
 0.130  0.5965 -135.3  27.505  114.7  0.0249   48.6  0.4474  -74.0
 0.140  0.6021 -139.0  25.725  112.3  0.0256   48.2  0.4213  -77.0
 0.150  0.6101 -142.7  23.995  109.6  0.0264   47.9  0.3965  -80.5
 0.200  0.6216 -153.4  18.648  102.8  0.0285   49.5  0.3194  -90.2
 0.250  0.6257 -161.0  15.158   98.0  0.0323   50.7  0.2696  -97.3
 0.300  0.6260 -166.2  12.735   94.6  0.0354   52.2  0.2358 -103.8
 0.350  0.6272 -170.0  11.206   92.3  0.0387   54.2  0.2158 -108.0
 0.400  0.6312 -173.8   9.702   89.2  0.0420   55.9  0.1973 -113.1
 0.450  0.6319 -176.7   8.739   87.3  0.0454   57.2  0.1868 -116.7
 0.500  0.6342 -179.6   7.789   84.9  0.0488   58.3  0.1772 -120.8
 0.600  0.6350  175.7   6.528   81.3  0.0569   60.1  0.1655 -127.2
 0.700  0.6376  171.8   5.605   78.1  0.0634   61.3  0.1579 -132.0
 0.800  0.6405  168.2   4.918   74.8  0.0721   61.8  0.1559 -135.8
 0.900  0.6411  164.7   4.370   71.9  0.0796   61.5  0.1560 -139.3
 1.000  0.6456  161.4   3.953   69.1  0.0878   61.5  0.1563 -143.0
 1.100  0.6487  158.3   3.603   66.3  0.0953   61.3  0.1586 -145.1
 1.200  0.6516  155.2   3.307   63.5  0.1028   60.3  0.1611 -147.4
 1.300  0.6534  152.3   3.061   60.9  0.1105   59.6  0.1665 -149.7
 1.400  0.6566  149.4   2.857   58.3  0.1186   59.3  0.1713 -152.0
 1.500  0.6601  146.7   2.666   55.7  0.1259   58.1  0.1774 -154.0
 1.600  0.6647  143.9   2.511   53.0  0.1341   57.2  0.1831 -155.3
 1.700  0.6684  141.0   2.371   50.5  0.1414   56.2  0.1913 -157.0
 1.800  0.6744  138.2   2.250   47.9  0.1484   55.2  0.1991 -158.9
 1.900  0.6794  135.8   2.133   45.7  0.1564   54.2  0.2063 -160.5
 2.000  0.6804  133.1   2.027   43.1  0.1635   53.0  0.2151 -161.7
 2.100  0.6852  130.5   1.935   40.8  0.1706   51.9  0.2234 -163.4
 2.200  0.6914  127.9   1.846   38.3  0.1777   50.8  0.2319 -164.9
 2.300  0.6944  125.7   1.771   36.2  0.1851   49.6  0.2407 -165.9
 2.400  0.6984  123.5   1.699   33.9  0.1926   48.5  0.2496 -166.8
 2.500  0.7028  121.2   1.633   31.8  0.1992   47.2  0.2589 -168.3
 2.600  0.7083  118.9   1.569   29.6  0.2058   46.0  0.2684 -169.6
 2.700  0.7129  116.8   1.513   27.6  0.2122   44.8  0.2762 -170.8
 2.800  0.7184  114.8   1.459   25.5  0.2187   43.6  0.2842 -172.0
 2.900  0.7218  112.7   1.411   23.6  0.2250   42.3  0.2917 -173.6
 3.000  0.7261  110.6   1.364   21.5  0.2314   41.1  0.2994 -175.1
 3.100  0.7285  108.7   1.325   19.9  0.2372   39.9  0.3050 -176.7
 3.200  0.7317  106.9   1.286   18.1  0.2430   38.7  0.3108 -178.3
 3.300  0.7357  105.0   1.249   16.3  0.2490   37.6  0.3169 -179.8
 3.400  0.7404  103.2   1.213   14.4  0.2551   36.6  0.3231  178.8
 3.500  0.7458  101.4   1.179   12.3  0.2612   35.6  0.3296  177.4
 3.600  0.7483   99.8   1.150   10.8  0.2667   34.3  0.3353  175.6
 3.700  0.7514   98.2   1.121    9.2  0.2722   33.1  0.3414  173.8
 3.800  0.7550   96.6   1.093    7.5  0.2780   31.9  0.3478  172.0
 3.900  0.7592   95.0   1.067    5.8  0.2838   30.8  0.3544  170.4
 4.000  0.7640   93.5   1.041    3.9  0.2897   29.7  0.3614  168.8
 4.100  0.7651   92.0   1.018    2.5  0.2951   28.4  0.3681  166.8
 4.200  0.7667   90.4   0.995    1.1  0.3006   27.2  0.3753  164.9
 4.300  0.7689   88.9   0.974   -0.5  0.3062   26.0  0.3828  163.1
 4.400  0.7716   87.4   0.952   -2.0  0.3120   24.9  0.3907  161.4
 4.500  0.7748   85.9   0.932   -3.7  0.3179   23.8  0.3990  159.7
 4.600  0.7773   84.6   0.913   -4.9  0.3228   22.6  0.4071  158.1
 4.700  0.7802   83.2   0.895   -6.1  0.3278   21.5  0.4155  156.6
 4.800  0.7835   81.9   0.877   -7.3  0.3329   20.3  0.4241  155.1
 4.900  0.7872   80.6   0.859   -8.6  0.3382   19.3  0.4330  153.7
 5.000  0.7913   79.3   0.842  -10.0  0.3436   18.2  0.4422  152.4
 5.100  0.7907   78.0   0.829  -11.1  0.3480   17.0  0.4506  151.3
 5.200  0.7905   76.6   0.817  -12.2  0.3526   15.7  0.4592  150.2
 5.300  0.7907   75.3   0.805  -13.4  0.3573   14.6  0.4679  149.2
 5.400  0.7914   73.9   0.793  -14.6  0.3622   13.4  0.4768  148.2
 5.500  0.7925   72.6   0.782  -15.8  0.3672   12.3  0.4858  147.3
 5.600  0.7915   71.4   0.770  -16.7  0.3712   11.2  0.4904  146.4
 5.700  0.7908   70.3   0.758  -17.7  0.3753   10.0  0.4951  145.5
 5.800  0.7904   69.1   0.747  -18.6  0.3796    8.9  0.5000  144.6
 5.900  0.7904   68.0   0.735  -19.7  0.3840    7.9  0.5049  143.7
 6.000  0.7907   66.8   0.724  -20.7  0.3886    6.8  0.5100  142.9
!
!  f       NFmin   Gammaopt  rn/50
! GHz       dB    MAG  ANG    -
 0.450      1.22  0.34  169   0.05
 0.900      1.38  0.45 -172   0.06
 1.900      2.24  0.68 -135   0.25
 2.400      2.64  0.71 -121   0.60
!
! (c) 2017  Infineon Technologies AG, Munich