! Infineon Technologies  Discrete & RF Semiconductors
! BFP196
! VCE =  2.0 V,  IC =  30 mA
! Common Emitter S-Parameters:                            Jan 2017
# GHz  S  MA  R  50
!  f         S11            S21            S12            S22
! GHz     MAG   ANG      MAG   ANG      MAG   ANG      MAG   ANG
 0.010  0.3725  -33.3  63.238  168.3  0.0042   83.0  0.9623  -14.1
 0.020  0.4254  -60.7  60.449  157.7  0.0085   74.4  0.9109  -27.9
 0.030  0.4269  -79.7  54.517  151.1  0.0114   63.9  0.8177  -36.6
 0.040  0.4721  -96.7  49.466  143.1  0.0146   57.9  0.7478  -47.2
 0.050  0.5504 -109.8  45.589  133.5  0.0179   54.0  0.7081  -59.5
 0.060  0.5536 -116.9  41.947  130.9  0.0192   52.3  0.6519  -63.9
 0.070  0.5652 -123.9  38.410  127.7  0.0205   50.8  0.6004  -69.2
 0.080  0.5847 -130.5  35.012  124.0  0.0218   49.5  0.5548  -75.4
 0.090  0.6115 -136.6  31.796  119.4  0.0231   48.3  0.5167  -82.5
 0.100  0.6445 -142.1  28.824  113.9  0.0244   47.3  0.4879  -90.7
 0.110  0.6457 -145.0  27.076  112.5  0.0250   47.3  0.4643  -93.7
 0.120  0.6486 -147.8  25.346  111.0  0.0256   47.2  0.4420  -97.1
 0.130  0.6530 -150.6  23.637  109.2  0.0261   47.2  0.4215 -100.8
 0.140  0.6589 -153.4  21.955  107.1  0.0267   47.1  0.4028 -104.8
 0.150  0.6664 -156.1  20.306  104.7  0.0273   47.1  0.3864 -109.2
 0.200  0.6791 -163.9  15.575   98.8  0.0300   49.7  0.3371 -121.8
 0.250  0.6857 -169.4  12.568   94.6  0.0344   51.5  0.3086 -130.9
 0.300  0.6862 -173.3  10.545   91.6  0.0380   54.2  0.2928 -138.2
 0.350  0.6876 -176.4   9.258   89.4  0.0420   56.0  0.2833 -142.9
 0.400  0.6911 -179.5   7.988   86.6  0.0461   57.4  0.2758 -147.8
 0.450  0.6915  178.1   7.192   84.9  0.0501   58.8  0.2721 -151.2
 0.500  0.6931  175.8   6.404   82.7  0.0541   60.0  0.2693 -154.6
 0.600  0.6955  171.8   5.364   79.2  0.0628   60.7  0.2672 -159.7
 0.700  0.6974  168.5   4.602   76.2  0.0712   61.3  0.2644 -163.4
 0.800  0.7007  165.0   4.040   72.8  0.0803   61.7  0.2664 -166.2
 0.900  0.6985  161.8   3.590   70.0  0.0892   61.4  0.2684 -168.7
 1.000  0.7030  158.8   3.249   67.2  0.0982   61.0  0.2710 -171.0
 1.100  0.7061  155.9   2.964   64.5  0.1071   60.6  0.2742 -172.6
 1.200  0.7072  152.9   2.723   61.6  0.1154   59.5  0.2770 -174.3
 1.300  0.7099  150.1   2.522   59.1  0.1238   58.6  0.2819 -175.8
 1.400  0.7117  147.4   2.357   56.4  0.1331   57.9  0.2875 -177.2
 1.500  0.7160  144.7   2.201   53.8  0.1413   56.7  0.2933 -178.6
 1.600  0.7188  141.8   2.075   51.1  0.1499   55.6  0.2982 -179.6
 1.700  0.7199  139.2   1.962   48.6  0.1583   54.5  0.3054  179.4
 1.800  0.7279  136.3   1.864   46.0  0.1668   53.3  0.3121  178.0
 1.900  0.7308  133.9   1.770   43.8  0.1745   51.9  0.3192  177.1
 2.000  0.7323  131.2   1.685   41.2  0.1826   50.6  0.3261  176.1
 2.100  0.7355  128.6   1.610   38.9  0.1901   49.3  0.3334  175.0
 2.200  0.7402  126.1   1.537   36.4  0.1977   48.1  0.3409  174.0
 2.300  0.7424  123.9   1.476   34.3  0.2053   46.8  0.3479  173.2
 2.400  0.7456  121.7   1.418   32.0  0.2130   45.5  0.3549  172.4
 2.500  0.7489  119.4   1.365   30.0  0.2201   44.1  0.3627  171.4
 2.600  0.7534  117.2   1.314   27.8  0.2273   42.7  0.3707  170.4
 2.700  0.7566  115.2   1.270   25.9  0.2337   41.4  0.3768  169.4
 2.800  0.7607  113.2   1.228   23.8  0.2402   40.2  0.3830  168.5
 2.900  0.7636  111.1   1.189   22.0  0.2465   38.9  0.3893  167.2
 3.000  0.7676  109.0   1.151   20.0  0.2530   37.6  0.3957  166.0
 3.100  0.7689  107.2   1.120   18.4  0.2586   36.3  0.4001  164.7
 3.200  0.7710  105.3   1.090   16.7  0.2644   35.0  0.4047  163.3
 3.300  0.7739  103.5   1.060   15.0  0.2703   33.8  0.4095  162.1
 3.400  0.7776  101.7   1.032   13.1  0.2763   32.7  0.4145  160.8
 3.500  0.7820   99.9   1.005   11.1  0.2824   31.6  0.4197  159.6
 3.600  0.7834   98.3   0.982    9.7  0.2877   30.3  0.4246  158.1
 3.700  0.7854   96.7   0.959    8.2  0.2931   29.1  0.4297  156.6
 3.800  0.7880   95.1   0.937    6.6  0.2987   27.9  0.4352  155.1
 3.900  0.7913   93.5   0.916    4.9  0.3044   26.7  0.4409  153.7
 4.000  0.7951   91.9   0.895    3.2  0.3102   25.6  0.4469  152.3
 4.100  0.7950   90.4   0.877    1.9  0.3152   24.3  0.4528  150.7
 4.200  0.7955   88.9   0.859    0.5  0.3204   23.0  0.4589  149.2
 4.300  0.7965   87.4   0.842   -0.9  0.3258   21.8  0.4655  147.7
 4.400  0.7980   85.9   0.825   -2.4  0.3313   20.6  0.4723  146.2
 4.500  0.8001   84.4   0.809   -3.9  0.3369   19.5  0.4794  144.8
 4.600  0.8017   83.1   0.795   -5.0  0.3413   18.3  0.4861  143.6
 4.700  0.8038   81.8   0.781   -6.1  0.3459   17.2  0.4931  142.3
 4.800  0.8063   80.5   0.767   -7.2  0.3506   16.0  0.5003  141.2
 4.900  0.8092   79.2   0.754   -8.4  0.3554   15.0  0.5076  140.0
 5.000  0.8125   77.9   0.741   -9.6  0.3604   13.9  0.5152  138.9
 5.100  0.8114   76.6   0.732  -10.6  0.3645   12.7  0.5218  138.0
 5.200  0.8106   75.3   0.723  -11.7  0.3688   11.5  0.5286  137.2
 5.300  0.8104   73.9   0.715  -12.8  0.3733   10.3  0.5355  136.3
 5.400  0.8105   72.6   0.707  -13.9  0.3779    9.2  0.5425  135.5
 5.500  0.8111   71.3   0.699  -15.0  0.3826    8.1  0.5496  134.7
 5.600  0.8094   70.2   0.690  -15.9  0.3863    7.0  0.5524  133.9
 5.700  0.8079   69.1   0.682  -16.8  0.3901    5.9  0.5554  133.2
 5.800  0.8068   67.9   0.674  -17.7  0.3941    4.8  0.5584  132.5
 5.900  0.8060   66.8   0.666  -18.6  0.3982    3.7  0.5615  131.7
 6.000  0.8055   65.7   0.658  -19.6  0.4025    2.7  0.5647  131.0
!
!  f       NFmin   Gammaopt  rn/50
! GHz       dB    MAG  ANG    -
 0.450      1.22  0.34  169   0.05
 0.900      1.38  0.45 -172   0.06
 1.900      2.24  0.68 -135   0.25
 2.400      2.64  0.71 -121   0.60
!
! (c) 2017  Infineon Technologies AG, Munich