! Infineon Technologies  Discrete & RF Semiconductors
! BFP196
! VCE =  7.0 V,  IC =  50 mA
! Common Emitter S-Parameters:                            Jan 2017
# GHz  S  MA  R  50
!  f         S11            S21            S12            S22
! GHz     MAG   ANG      MAG   ANG      MAG   ANG      MAG   ANG
 0.010  0.3182  -35.3  78.817  167.8  0.0034   80.3  0.9490  -13.2
 0.020  0.3731  -64.3  75.526  157.1  0.0059   78.3  0.8935  -26.1
 0.030  0.3810  -83.3  67.854  150.7  0.0081   66.5  0.8029  -34.0
 0.040  0.4269  -99.9  61.246  142.7  0.0106   59.9  0.7313  -43.8
 0.050  0.5005 -112.4  56.077  133.1  0.0131   55.8  0.6849  -55.2
 0.060  0.5053 -119.3  51.567  130.5  0.0141   54.8  0.6293  -59.0
 0.070  0.5173 -126.0  47.184  127.4  0.0151   54.0  0.5770  -63.6
 0.080  0.5360 -132.3  42.966  123.7  0.0160   53.2  0.5290  -69.0
 0.090  0.5607 -138.1  38.967  119.2  0.0170   52.6  0.4867  -75.4
 0.100  0.5907 -143.4  35.263  113.7  0.0180   52.0  0.4515  -82.9
 0.110  0.5921 -146.2  33.124  112.3  0.0188   52.2  0.4271  -85.4
 0.120  0.5949 -148.9  31.005  110.8  0.0196   52.3  0.4036  -88.2
 0.130  0.5991 -151.7  28.913  109.0  0.0203   52.5  0.3812  -91.4
 0.140  0.6047 -154.4  26.853  107.0  0.0211   52.6  0.3601  -94.9
 0.150  0.6115 -157.0  24.832  104.6  0.0219   52.7  0.3405  -98.9
 0.200  0.6247 -164.5  19.021   99.0  0.0249   57.6  0.2839 -110.5
 0.250  0.6322 -169.9  15.366   94.9  0.0292   59.5  0.2503 -119.1
 0.300  0.6313 -173.8  12.874   92.0  0.0327   60.7  0.2293 -126.3
 0.350  0.6328 -176.7  11.304   89.9  0.0370   62.4  0.2174 -131.2
 0.400  0.6359 -179.6   9.754   87.2  0.0413   63.7  0.2073 -136.6
 0.450  0.6365  178.1   8.781   85.5  0.0451   64.5  0.2022 -140.2
 0.500  0.6382  175.8   7.817   83.4  0.0490   65.1  0.1980 -144.0
 0.600  0.6422  171.9   6.547   80.1  0.0578   65.7  0.1933 -149.8
 0.700  0.6447  168.5   5.617   77.2  0.0660   66.7  0.1897 -154.0
 0.800  0.6455  165.2   4.926   74.0  0.0752   66.5  0.1904 -157.1
 0.900  0.6483  162.0   4.377   71.3  0.0833   65.4  0.1932 -159.7
 1.000  0.6503  159.1   3.959   68.6  0.0920   64.8  0.1951 -162.6
 1.100  0.6549  156.1   3.608   66.0  0.1009   64.0  0.1979 -164.3
 1.200  0.6562  153.2   3.312   63.2  0.1086   62.7  0.2006 -165.9
 1.300  0.6590  150.4   3.066   60.8  0.1174   62.0  0.2059 -167.5
 1.400  0.6613  147.7   2.860   58.2  0.1253   60.8  0.2118 -169.2
 1.500  0.6659  145.0   2.670   55.7  0.1338   59.7  0.2172 -170.6
 1.600  0.6701  142.3   2.515   53.1  0.1421   58.4  0.2225 -171.5
 1.700  0.6731  139.6   2.375   50.7  0.1499   57.4  0.2299 -172.6
 1.800  0.6791  136.8   2.254   48.2  0.1583   56.0  0.2375 -173.9
 1.900  0.6818  134.2   2.137   46.0  0.1657   54.7  0.2445 -175.0
 2.000  0.6846  131.8   2.032   43.4  0.1737   53.3  0.2523 -175.9
 2.100  0.6883  129.2   1.939   41.2  0.1808   51.9  0.2600 -177.1
 2.200  0.6935  126.6   1.850   38.8  0.1879   50.7  0.2678 -178.3
 2.300  0.6964  124.4   1.775   36.7  0.1956   49.3  0.2754 -179.0
 2.400  0.7003  122.3   1.702   34.4  0.2035   48.1  0.2831 -179.6
 2.500  0.7043  120.1   1.637   32.4  0.2100   46.7  0.2916  179.3
 2.600  0.7093  117.9   1.575   30.2  0.2167   45.3  0.3002  178.2
 2.700  0.7138  115.8   1.520   28.3  0.2231   43.9  0.3070  177.2
 2.800  0.7193  113.8   1.466   26.2  0.2296   42.6  0.3138  176.3
 2.900  0.7228  111.7   1.418   24.3  0.2357   41.4  0.3206  174.9
 3.000  0.7273  109.7   1.372   22.3  0.2420   40.2  0.3275  173.6
 3.100  0.7295  107.9   1.333   20.7  0.2476   38.9  0.3323  172.2
 3.200  0.7325  106.0   1.295   19.0  0.2534   37.6  0.3372  170.8
 3.300  0.7362  104.2   1.258   17.2  0.2592   36.4  0.3424  169.5
 3.400  0.7406  102.5   1.223   15.3  0.2652   35.2  0.3477  168.2
 3.500  0.7457  100.7   1.189   13.3  0.2713   34.1  0.3532  166.9
 3.600  0.7480   99.1   1.160   11.8  0.2766   32.8  0.3583  165.3
 3.700  0.7509   97.5   1.132   10.2  0.2820   31.5  0.3636  163.7
 3.800  0.7544   95.9   1.105    8.6  0.2875   30.3  0.3693  162.1
 3.900  0.7585   94.3   1.079    6.8  0.2932   29.1  0.3752  160.6
 4.000  0.7631   92.8   1.054    5.0  0.2990   28.0  0.3813  159.2
 4.100  0.7640   91.3   1.031    3.6  0.3040   26.7  0.3875  157.5
 4.200  0.7654   89.9   1.009    2.2  0.3092   25.4  0.3940  155.8
 4.300  0.7674   88.4   0.987    0.6  0.3145   24.2  0.4009  154.2
 4.400  0.7698   86.9   0.966   -0.9  0.3200   23.0  0.4080  152.6
 4.500  0.7727   85.5   0.946   -2.6  0.3256   21.9  0.4155  151.1
 4.600  0.7749   84.2   0.928   -3.8  0.3301   20.7  0.4226  149.8
 4.700  0.7775   82.8   0.910   -5.0  0.3348   19.6  0.4299  148.4
 4.800  0.7805   81.5   0.892   -6.2  0.3396   18.4  0.4375  147.2
 4.900  0.7840   80.2   0.876   -7.5  0.3445   17.4  0.4453  146.0
 5.000  0.7878   78.9   0.859   -8.9  0.3495   16.3  0.4532  144.8
 5.100  0.7872   77.6   0.847  -10.0  0.3536   15.1  0.4605  143.9
 5.200  0.7870   76.3   0.835  -11.2  0.3580   13.9  0.4679  143.0
 5.300  0.7872   75.0   0.824  -12.4  0.3624   12.7  0.4754  142.2
 5.400  0.7879   73.7   0.813  -13.6  0.3670   11.5  0.4830  141.4
 5.500  0.7889   72.4   0.802  -14.9  0.3718   10.4  0.4907  140.6
 5.600  0.7879   71.2   0.791  -15.9  0.3756    9.3  0.4943  139.8
 5.700  0.7872   70.0   0.779  -16.9  0.3795    8.2  0.4980  139.1
 5.800  0.7869   68.9   0.768  -17.9  0.3836    7.2  0.5018  138.3
 5.900  0.7869   67.7   0.757  -19.0  0.3878    6.1  0.5057  137.6
 6.000  0.7872   66.5   0.747  -20.1  0.3921    5.1  0.5096  136.9
!
!  f       NFmin   Gammaopt  rn/50
! GHz       dB    MAG  ANG    -
 0.450      1.45  0.40 -176   0.06
 0.900      1.60  0.47 -164   0.08
 1.900      2.42  0.68 -132   0.32
 2.400      2.82  0.70 -119   0.66
!
! (c) 2017  Infineon Technologies AG, Munich