! Infineon Technologies  Discrete & RF Semiconductors
! BFP196
! VCE =  4.0 V,  IC =  30 mA
! Common Emitter S-Parameters:                            Jan 2017
# GHz  S  MA  R  50
!  f         S11            S21            S12            S22
! GHz     MAG   ANG      MAG   ANG      MAG   ANG      MAG   ANG
 0.010  0.4053  -27.4  63.063  169.4  0.0040   82.2  0.9685  -11.9
 0.020  0.4384  -51.7  60.935  159.8  0.0081   76.9  0.9212  -23.6
 0.030  0.4305  -69.5  55.604  153.4  0.0106   67.0  0.8395  -31.4
 0.040  0.4634  -86.3  51.110  145.7  0.0133   61.0  0.7764  -40.6
 0.050  0.5295  -99.9  47.690  136.8  0.0161   57.1  0.7367  -51.2
 0.060  0.5286 -107.6  44.073  134.0  0.0173   55.3  0.6800  -55.1
 0.070  0.5372 -115.2  40.580  130.7  0.0186   53.8  0.6271  -59.8
 0.080  0.5549 -122.5  37.246  126.8  0.0198   52.5  0.5790  -65.2
 0.090  0.5808 -129.2  34.119  122.1  0.0211   51.3  0.5371  -71.6
 0.100  0.6139 -135.2  31.261  116.6  0.0224   50.3  0.5028  -78.9
 0.110  0.6142 -138.5  29.407  115.1  0.0232   49.8  0.4758  -81.5
 0.120  0.6164 -141.7  27.576  113.4  0.0240   49.3  0.4500  -84.5
 0.130  0.6206 -144.9  25.771  111.5  0.0248   48.9  0.4254  -87.7
 0.140  0.6268 -148.1  24.000  109.3  0.0256   48.5  0.4024  -91.4
 0.150  0.6348 -151.2  22.269  106.8  0.0264   48.1  0.3813  -95.5
 0.200  0.6488 -160.1  17.157  100.5  0.0289   50.0  0.3174 -107.4
 0.250  0.6560 -166.3  13.899   96.0  0.0332   51.3  0.2787 -116.2
 0.300  0.6562 -170.8  11.671   92.9  0.0360   53.8  0.2551 -123.8
 0.350  0.6574 -174.1  10.253   90.7  0.0399   55.9  0.2407 -128.8
 0.400  0.6608 -177.3   8.855   87.7  0.0438   57.7  0.2283 -134.3
 0.450  0.6622 -180.0   7.972   85.9  0.0476   58.7  0.2218 -138.0
 0.500  0.6650  177.4   7.099   83.7  0.0515   59.5  0.2163 -142.0
 0.600  0.6669  173.3   5.950   80.1  0.0597   60.9  0.2109 -147.9
 0.700  0.6690  169.7   5.108   77.1  0.0672   62.1  0.2070 -152.5
 0.800  0.6706  166.2   4.479   73.8  0.0765   62.5  0.2072 -155.6
 0.900  0.6720  162.9   3.983   70.9  0.0846   61.9  0.2089 -158.6
 1.000  0.6747  160.0   3.603   68.1  0.0931   61.4  0.2107 -161.4
 1.100  0.6775  156.8   3.283   65.4  0.1014   61.4  0.2138 -163.1
 1.200  0.6807  153.9   3.016   62.5  0.1091   60.3  0.2168 -165.0
 1.300  0.6817  150.9   2.793   60.0  0.1176   59.6  0.2221 -166.5
 1.400  0.6868  148.3   2.607   57.3  0.1258   58.8  0.2278 -168.3
 1.500  0.6897  145.5   2.435   54.7  0.1342   57.6  0.2334 -169.8
 1.600  0.6932  142.7   2.293   52.1  0.1423   56.6  0.2394 -170.8
 1.700  0.6967  140.0   2.165   49.6  0.1505   55.7  0.2470 -172.1
 1.800  0.7020  137.2   2.058   47.0  0.1584   54.4  0.2544 -173.4
 1.900  0.7056  134.7   1.951   44.7  0.1657   53.3  0.2615 -174.6
 2.000  0.7084  132.1   1.854   42.1  0.1736   52.0  0.2695 -175.5
 2.100  0.7116  129.5   1.771   39.9  0.1809   50.7  0.2774 -176.7
 2.200  0.7162  126.9   1.691   37.4  0.1883   49.5  0.2854 -177.9
 2.300  0.7198  124.7   1.623   35.3  0.1960   48.3  0.2933 -178.7
 2.400  0.7245  122.5   1.558   33.0  0.2037   47.1  0.3013 -179.4
 2.500  0.7280  120.2   1.499   30.9  0.2104   45.7  0.3099  179.5
 2.600  0.7326  118.0   1.442   28.7  0.2172   44.4  0.3186  178.4
 2.700  0.7361  115.9   1.392   26.8  0.2237   43.1  0.3257  177.4
 2.800  0.7406  113.9   1.343   24.7  0.2304   41.9  0.3329  176.4
 2.900  0.7437  111.8   1.299   22.8  0.2365   40.6  0.3397  175.0
 3.000  0.7477  109.8   1.257   20.8  0.2428   39.3  0.3467  173.7
 3.100  0.7495  107.9   1.222   19.2  0.2485   38.1  0.3518  172.3
 3.200  0.7521  106.0   1.187   17.5  0.2544   36.9  0.3571  170.9
 3.300  0.7555  104.2   1.154   15.7  0.2604   35.7  0.3626  169.5
 3.400  0.7597  102.3   1.122   13.7  0.2664   34.6  0.3683  168.2
 3.500  0.7647  100.5   1.091   11.7  0.2726   33.6  0.3742  166.9
 3.600  0.7669   98.9   1.065   10.2  0.2780   32.3  0.3795  165.3
 3.700  0.7696   97.3   1.039    8.7  0.2836   31.0  0.3852  163.7
 3.800  0.7729   95.8   1.014    7.0  0.2893   29.8  0.3911  162.1
 3.900  0.7768   94.2   0.990    5.3  0.2951   28.6  0.3973  160.6
 4.000  0.7813   92.7   0.967    3.5  0.3010   27.5  0.4038  159.2
 4.100  0.7817   91.2   0.946    2.2  0.3062   26.2  0.4103  157.5
 4.200  0.7826   89.7   0.926    0.8  0.3115   25.0  0.4171  155.8
 4.300  0.7840   88.2   0.907   -0.7  0.3169   23.8  0.4242  154.2
 4.400  0.7860   86.7   0.888   -2.2  0.3225   22.7  0.4317  152.6
 4.500  0.7885   85.2   0.870   -3.8  0.3282   21.6  0.4395  151.1
 4.600  0.7904   83.8   0.853   -4.9  0.3328   20.4  0.4469  149.7
 4.700  0.7927   82.5   0.837   -6.1  0.3376   19.2  0.4545  148.4
 4.800  0.7955   81.2   0.821   -7.3  0.3426   18.1  0.4623  147.1
 4.900  0.7987   79.8   0.806   -8.5  0.3476   17.0  0.4704  145.8
 5.000  0.8023   78.5   0.791   -9.8  0.3528   15.9  0.4787  144.6
 5.100  0.8016   77.2   0.780  -10.9  0.3570   14.7  0.4862  143.7
 5.200  0.8013   75.9   0.770  -12.0  0.3614   13.5  0.4939  142.8
 5.300  0.8014   74.6   0.760  -13.1  0.3659   12.3  0.5017  141.9
 5.400  0.8020   73.3   0.750  -14.2  0.3706   11.1  0.5096  141.0
 5.500  0.8029   72.0   0.740  -15.4  0.3754   10.0  0.5176  140.2
 5.600  0.8013   70.8   0.730  -16.3  0.3792    8.9  0.5213  139.4
 5.700  0.8001   69.7   0.719  -17.2  0.3832    7.8  0.5250  138.6
 5.800  0.7992   68.5   0.709  -18.1  0.3872    6.8  0.5289  137.8
 5.900  0.7986   67.4   0.700  -19.1  0.3915    5.7  0.5328  137.0
 6.000  0.7984   66.2   0.690  -20.1  0.3958    4.7  0.5369  136.2
!
!  f       NFmin   Gammaopt  rn/50
! GHz       dB    MAG  ANG    -
 0.450      1.22  0.34  169   0.05
 0.900      1.38  0.45 -172   0.06
 1.900      2.24  0.68 -135   0.25
 2.400      2.64  0.71 -121   0.60
!
! (c) 2017  Infineon Technologies AG, Munich