! Infineon Technologies  Discrete & RF Semiconductors
! BFP196
! VCE =  3.0 V,  IC =  35 mA
! Common Emitter S-Parameters:                            Jan 2017
# GHz  S  MA  R  50
!  f         S11            S21            S12            S22
! GHz     MAG   ANG      MAG   ANG      MAG   ANG      MAG   ANG
 0.010  0.3402  -35.0  68.428  168.3  0.0041   82.9  0.9602  -13.8
 0.020  0.3937  -63.4  65.813  157.6  0.0078   72.7  0.9102  -27.2
 0.030  0.4014  -82.4  59.231  151.1  0.0104   64.1  0.8168  -35.6
 0.040  0.4494  -99.0  53.590  143.1  0.0132   59.0  0.7452  -45.9
 0.050  0.5267 -111.6  49.216  133.5  0.0160   55.7  0.7020  -57.9
 0.060  0.5321 -118.6  45.283  130.9  0.0171   54.5  0.6460  -62.1
 0.070  0.5453 -125.4  41.464  127.8  0.0183   53.5  0.5942  -67.1
 0.080  0.5658 -131.8  37.792  124.0  0.0195   52.5  0.5477  -73.0
 0.090  0.5928 -137.7  34.315  119.5  0.0206   51.7  0.5080  -79.9
 0.100  0.6254 -143.0  31.098  114.0  0.0218   51.0  0.4768  -87.8
 0.110  0.6269 -145.8  29.210  112.6  0.0224   50.8  0.4526  -90.7
 0.120  0.6300 -148.6  27.342  111.0  0.0231   50.7  0.4296  -93.9
 0.130  0.6345 -151.3  25.498  109.2  0.0237   50.5  0.4081  -97.4
 0.140  0.6404 -154.0  23.683  107.1  0.0244   50.3  0.3884 -101.3
 0.150  0.6478 -156.7  21.905  104.7  0.0250   50.2  0.3706 -105.6
 0.200  0.6609 -164.3  16.801   98.9  0.0279   52.1  0.3180 -118.1
 0.250  0.6670 -169.8  13.567   94.7  0.0326   54.5  0.2874 -127.1
 0.300  0.6672 -173.7  11.372   91.8  0.0359   57.1  0.2697 -134.4
 0.350  0.6685 -176.7   9.985   89.7  0.0398   58.7  0.2594 -139.2
 0.400  0.6716 -179.7   8.616   86.9  0.0437   60.0  0.2511 -144.4
 0.450  0.6726  177.9   7.757   85.2  0.0480   61.1  0.2467 -147.9
 0.500  0.6748  175.6   6.907   83.0  0.0523   62.0  0.2432 -151.5
 0.600  0.6775  171.7   5.785   79.5  0.0610   62.7  0.2403 -156.7
 0.700  0.6797  168.4   4.962   76.6  0.0692   63.9  0.2381 -160.7
 0.800  0.6817  165.1   4.354   73.3  0.0786   64.2  0.2396 -163.6
 0.900  0.6808  161.8   3.869   70.5  0.0873   63.1  0.2414 -166.0
 1.000  0.6848  158.9   3.502   67.7  0.0958   62.8  0.2441 -168.6
 1.100  0.6890  156.0   3.192   65.1  0.1048   61.9  0.2470 -170.2
 1.200  0.6907  152.9   2.932   62.2  0.1127   61.0  0.2499 -172.0
 1.300  0.6934  150.1   2.717   59.7  0.1216   60.0  0.2547 -173.3
 1.400  0.6956  147.4   2.536   57.1  0.1305   59.1  0.2605 -175.0
 1.500  0.7002  144.8   2.368   54.5  0.1388   58.0  0.2662 -176.2
 1.600  0.7024  142.0   2.231   51.9  0.1473   56.8  0.2713 -177.3
 1.700  0.7056  139.2   2.109   49.4  0.1559   55.6  0.2785 -178.3
 1.800  0.7108  136.6   2.003   46.9  0.1641   54.2  0.2858 -179.5
 1.900  0.7141  134.0   1.899   44.6  0.1717   53.1  0.2928  179.4
 2.000  0.7152  131.4   1.807   42.0  0.1793   51.6  0.2998  178.5
 2.100  0.7195  128.8   1.727   39.8  0.1867   50.4  0.3071  177.4
 2.200  0.7252  126.3   1.649   37.3  0.1942   49.2  0.3146  176.4
 2.300  0.7272  124.1   1.583   35.2  0.2019   47.8  0.3218  175.6
 2.400  0.7303  121.9   1.520   32.9  0.2097   46.5  0.3290  174.9
 2.500  0.7341  119.7   1.463   30.9  0.2165   45.1  0.3370  173.9
 2.600  0.7390  117.5   1.407   28.8  0.2234   43.7  0.3451  172.9
 2.700  0.7423  115.4   1.359   26.9  0.2298   42.3  0.3516  171.9
 2.800  0.7465  113.4   1.312   24.8  0.2364   41.0  0.3582  170.9
 2.900  0.7492  111.3   1.270   22.9  0.2426   39.7  0.3646  169.6
 3.000  0.7530  109.2   1.229   20.9  0.2490   38.5  0.3712  168.4
 3.100  0.7550  107.3   1.195   19.3  0.2547   37.2  0.3758  167.0
 3.200  0.7578  105.5   1.162   17.6  0.2605   36.0  0.3805  165.7
 3.300  0.7614  103.7   1.130   15.8  0.2665   34.8  0.3855  164.4
 3.400  0.7657  101.9   1.099   13.9  0.2725   33.7  0.3907  163.1
 3.500  0.7708  100.1   1.070   11.9  0.2787   32.6  0.3960  161.9
 3.600  0.7723   98.5   1.045   10.4  0.2840   31.3  0.4010  160.3
 3.700  0.7744   96.9   1.020    8.9  0.2894   30.0  0.4062  158.8
 3.800  0.7771   95.3   0.997    7.3  0.2950   28.7  0.4117  157.3
 3.900  0.7804   93.8   0.974    5.6  0.3007   27.5  0.4175  155.9
 4.000  0.7843   92.2   0.952    3.8  0.3065   26.4  0.4236  154.5
 4.100  0.7848   90.7   0.932    2.5  0.3116   25.1  0.4296  152.9
 4.200  0.7858   89.2   0.912    1.1  0.3168   23.9  0.4359  151.3
 4.300  0.7873   87.7   0.893   -0.3  0.3221   22.7  0.4425  149.7
 4.400  0.7893   86.3   0.875   -1.8  0.3276   21.5  0.4495  148.2
 4.500  0.7919   84.8   0.857   -3.4  0.3332   20.4  0.4567  146.8
 4.600  0.7935   83.5   0.842   -4.5  0.3376   19.2  0.4636  145.5
 4.700  0.7956   82.2   0.826   -5.7  0.3422   18.0  0.4707  144.3
 4.800  0.7980   80.9   0.812   -6.9  0.3469   16.9  0.4780  143.1
 4.900  0.8009   79.6   0.797   -8.1  0.3517   15.8  0.4856  141.9
 5.000  0.8042   78.3   0.783   -9.4  0.3567   14.7  0.4933  140.8
 5.100  0.8033   77.0   0.773  -10.5  0.3608   13.5  0.5002  139.9
 5.200  0.8029   75.7   0.763  -11.6  0.3651   12.3  0.5072  139.0
 5.300  0.8029   74.3   0.753  -12.7  0.3695   11.2  0.5143  138.2
 5.400  0.8033   73.0   0.743  -13.8  0.3741   10.1  0.5215  137.4
 5.500  0.8042   71.7   0.734  -15.0  0.3788    9.0  0.5288  136.6
 5.600  0.8027   70.5   0.725  -15.9  0.3826    7.9  0.5319  135.8
 5.700  0.8015   69.4   0.715  -16.9  0.3865    6.8  0.5351  135.1
 5.800  0.8006   68.2   0.706  -17.9  0.3905    5.7  0.5383  134.4
 5.900  0.8000   67.1   0.698  -18.9  0.3947    4.6  0.5417  133.6
 6.000  0.7998   65.9   0.689  -20.0  0.3990    3.6  0.5451  132.9
!
!  f       NFmin   Gammaopt  rn/50
! GHz       dB    MAG  ANG    -
 0.450      1.28  0.35  173   0.05
 0.900      1.44  0.45 -169   0.07
 1.900      2.27  0.68 -134   0.27
 2.400      2.68  0.71 -121   0.61
!
! (c) 2017  Infineon Technologies AG, Munich