! Infineon Technologies  Discrete & RF Semiconductors
! BFP196
! VCE =  5.0 V,  IC =  65 mA
! Common Emitter S-Parameters:                            Jan 2017
# GHz  S  MA  R  50
!  f         S11            S21            S12            S22
! GHz     MAG   ANG      MAG   ANG      MAG   ANG      MAG   ANG
 0.010  0.2245  -55.6  87.586  166.2  0.0030   75.6  0.9308  -15.7
 0.020  0.3255  -87.5  82.535  154.0  0.0055   72.3  0.8646  -30.9
 0.030  0.3633 -105.6  72.947  147.6  0.0076   65.1  0.7622  -39.6
 0.040  0.4292 -119.2  64.547  139.3  0.0099   61.1  0.6823  -50.6
 0.050  0.5125 -128.8  57.854  128.9  0.0121   58.6  0.6335  -63.9
 0.060  0.5229 -134.3  52.941  126.5  0.0129   57.9  0.5806  -68.0
 0.070  0.5380 -139.5  48.139  123.7  0.0137   57.2  0.5314  -72.9
 0.080  0.5572 -144.4  43.482  120.2  0.0145   56.6  0.4868  -78.8
 0.090  0.5802 -148.9  39.025  115.9  0.0153   56.1  0.4483  -85.8
 0.100  0.6065 -153.1  34.843  110.5  0.0161   55.6  0.4176  -93.9
 0.110  0.6093 -155.3  32.681  109.3  0.0169   55.9  0.3969  -96.7
 0.120  0.6129 -157.5  30.535  107.9  0.0177   56.1  0.3772  -99.8
 0.130  0.6175 -159.7  28.410  106.3  0.0186   56.4  0.3587 -103.3
 0.140  0.6229 -161.8  26.310  104.5  0.0194   56.6  0.3417 -107.1
 0.150  0.6292 -163.9  24.242  102.3  0.0202   56.8  0.3264 -111.3
 0.200  0.6413 -169.7  18.467   97.1  0.0235   61.8  0.2837 -123.3
 0.250  0.6453 -174.2  14.869   93.3  0.0284   62.9  0.2593 -131.9
 0.300  0.6465 -177.3  12.456   90.7  0.0322   64.6  0.2450 -138.9
 0.350  0.6472 -179.8  10.928   88.8  0.0369   66.3  0.2373 -143.4
 0.400  0.6492  177.7   9.416   86.2  0.0416   67.7  0.2311 -148.2
 0.450  0.6511  175.6   8.473   84.6  0.0459   68.1  0.2282 -151.3
 0.500  0.6539  173.6   7.539   82.6  0.0503   68.5  0.2259 -154.5
 0.600  0.6576  170.0   6.316   79.3  0.0598   68.0  0.2246 -159.5
 0.700  0.6591  167.0   5.417   76.6  0.0680   68.4  0.2228 -163.2
 0.800  0.6618  163.7   4.750   73.5  0.0775   67.9  0.2247 -165.8
 0.900  0.6593  160.6   4.217   70.8  0.0858   66.7  0.2270 -168.0
 1.000  0.6669  157.9   3.818   68.1  0.0951   66.3  0.2298 -170.4
 1.100  0.6684  155.0   3.479   65.6  0.1038   64.9  0.2328 -171.9
 1.200  0.6689  152.2   3.193   62.9  0.1125   63.6  0.2353 -173.4
 1.300  0.6726  149.4   2.956   60.4  0.1215   62.7  0.2406 -174.7
 1.400  0.6757  146.8   2.760   57.9  0.1306   61.5  0.2461 -176.3
 1.500  0.6799  144.2   2.577   55.4  0.1384   60.0  0.2515 -177.5
 1.600  0.6829  141.2   2.428   52.8  0.1468   58.7  0.2565 -178.4
 1.700  0.6865  138.7   2.293   50.4  0.1556   57.5  0.2639 -179.3
 1.800  0.6930  136.1   2.177   47.9  0.1636   56.1  0.2710  179.5
 1.900  0.6969  133.4   2.065   45.7  0.1709   54.7  0.2775  178.4
 2.000  0.6970  131.0   1.961   43.2  0.1792   53.2  0.2843  177.7
 2.100  0.7006  128.4   1.873   41.0  0.1865   51.7  0.2916  176.6
 2.200  0.7056  125.9   1.788   38.6  0.1940   50.4  0.2991  175.5
 2.300  0.7084  123.7   1.716   36.5  0.2018   49.0  0.3061  174.9
 2.400  0.7121  121.6   1.647   34.3  0.2097   47.7  0.3132  174.3
 2.500  0.7157  119.4   1.585   32.3  0.2164   46.2  0.3211  173.3
 2.600  0.7203  117.2   1.525   30.1  0.2233   44.7  0.3291  172.3
 2.700  0.7246  115.2   1.472   28.2  0.2296   43.3  0.3353  171.4
 2.800  0.7298  113.2   1.420   26.2  0.2361   42.0  0.3416  170.5
 2.900  0.7325  111.1   1.374   24.3  0.2424   40.6  0.3479  169.2
 3.000  0.7362  109.1   1.330   22.3  0.2489   39.3  0.3544  167.9
 3.100  0.7381  107.3   1.293   20.7  0.2545   38.0  0.3585  166.6
 3.200  0.7408  105.5   1.257   19.0  0.2602   36.7  0.3629  165.2
 3.300  0.7442  103.6   1.222   17.2  0.2660   35.5  0.3674  164.0
 3.400  0.7483  101.9   1.189   15.3  0.2719   34.3  0.3721  162.7
 3.500  0.7532  100.1   1.157   13.3  0.2780   33.2  0.3770  161.5
 3.600  0.7552   98.5   1.129   11.8  0.2831   31.8  0.3818  160.0
 3.700  0.7579   96.9   1.102   10.3  0.2884   30.5  0.3869  158.5
 3.800  0.7611   95.4   1.076    8.6  0.2938   29.3  0.3923  157.0
 3.900  0.7648   93.8   1.051    6.9  0.2993   28.1  0.3979  155.6
 4.000  0.7691   92.3   1.027    5.1  0.3050   26.9  0.4037  154.2
 4.100  0.7698   90.8   1.005    3.7  0.3099   25.6  0.4095  152.6
 4.200  0.7710   89.3   0.984    2.3  0.3150   24.3  0.4157  151.0
 4.300  0.7728   87.8   0.964    0.8  0.3202   23.1  0.4222  149.4
 4.400  0.7750   86.4   0.944   -0.7  0.3256   21.9  0.4289  147.9
 4.500  0.7778   84.9   0.925   -2.3  0.3311   20.8  0.4360  146.5
 4.600  0.7796   83.6   0.908   -3.5  0.3355   19.6  0.4425  145.2
 4.700  0.7819   82.3   0.891   -4.7  0.3400   18.5  0.4492  144.0
 4.800  0.7846   81.0   0.874   -5.9  0.3447   17.3  0.4561  142.9
 4.900  0.7876   79.7   0.858   -7.2  0.3495   16.3  0.4632  141.7
 5.000  0.7911   78.4   0.842   -8.6  0.3544   15.2  0.4705  140.6
 5.100  0.7904   77.1   0.831   -9.7  0.3583   14.0  0.4772  139.8
 5.200  0.7902   75.8   0.820  -10.9  0.3625   12.8  0.4840  139.0
 5.300  0.7903   74.5   0.810  -12.0  0.3667   11.6  0.4909  138.2
 5.400  0.7908   73.2   0.800  -13.3  0.3711   10.4  0.4979  137.4
 5.500  0.7918   71.9   0.790  -14.5  0.3757    9.3  0.5050  136.7
 5.600  0.7905   70.8   0.779  -15.4  0.3794    8.2  0.5080  136.0
 5.700  0.7895   69.6   0.769  -16.4  0.3832    7.0  0.5110  135.2
 5.800  0.7889   68.5   0.758  -17.4  0.3872    5.9  0.5141  134.5
 5.900  0.7885   67.3   0.748  -18.4  0.3913    4.9  0.5173  133.8
 6.000  0.7885   66.2   0.738  -19.5  0.3955    3.8  0.5206  133.1
!
!  f       NFmin   Gammaopt  rn/50
! GHz       dB    MAG  ANG    -
 0.450      1.62  0.43 -173   0.06
 0.900      1.78  0.49 -160   0.08
 1.900      2.59  0.69 -131   0.35
 2.400      3.00  0.70 -118   0.75
!
! (c) 2017  Infineon Technologies AG, Munich