! Infineon Technologies  Discrete & RF Semiconductors
! BFP196
! VCE =  7.0 V,  IC =  10 mA
! Common Emitter S-Parameters:                            Jan 2017
# GHz  S  MA  R  50
!  f         S11            S21            S12            S22
! GHz     MAG   ANG      MAG   ANG      MAG   ANG      MAG   ANG
 0.010  0.7298  -10.8  29.723  174.3  0.0044   84.0  0.9957   -5.3
 0.020  0.7417  -21.2  29.865  168.9  0.0091   85.2  0.9752  -10.6
 0.030  0.7125  -30.5  28.718  164.1  0.0131   75.5  0.9436  -15.1
 0.040  0.7035  -40.4  27.791  158.9  0.0174   70.4  0.9182  -19.9
 0.050  0.7155  -50.2  27.105  153.4  0.0217   67.3  0.8995  -24.9
 0.060  0.6906  -57.3  25.858  150.2  0.0243   63.1  0.8595  -27.9
 0.070  0.6770  -64.8  24.702  146.6  0.0270   59.8  0.8220  -31.1
 0.080  0.6754  -72.5  23.648  142.8  0.0298   57.0  0.7873  -34.7
 0.090  0.6859  -80.1  22.713  138.5  0.0327   54.8  0.7560  -38.5
 0.100  0.7079  -87.3  21.910  134.0  0.0356   52.9  0.7284  -42.7
 0.110  0.6945  -92.0  20.920  131.9  0.0369   50.9  0.6974  -44.5
 0.120  0.6858  -96.8  19.962  129.6  0.0382   49.0  0.6672  -46.5
 0.130  0.6821 -101.7  19.040  127.0  0.0396   47.2  0.6379  -48.7
 0.140  0.6834 -106.6  18.159  124.2  0.0410   45.5  0.6096  -51.1
 0.150  0.6898 -111.5  17.327  121.1  0.0424   44.0  0.5824  -53.7
 0.200  0.6913 -127.6  14.092  112.3  0.0457   40.5  0.4820  -60.6
 0.250  0.6846 -139.4  11.757  105.7  0.0492   37.5  0.4094  -65.1
 0.300  0.6806 -147.7  10.023  101.0  0.0511   36.6  0.3563  -68.6
 0.350  0.6778 -153.6   8.862   97.8  0.0528   37.1  0.3223  -70.6
 0.400  0.6822 -159.5   7.738   93.6  0.0545   37.5  0.2888  -73.1
 0.450  0.6795 -163.8   6.991   91.1  0.0566   38.2  0.2692  -74.6
 0.500  0.6807 -168.1   6.261   88.0  0.0588   38.8  0.2498  -76.4
 0.600  0.6832 -174.6   5.269   83.4  0.0626   40.3  0.2248  -79.4
 0.700  0.6824 -179.7   4.534   79.4  0.0669   42.3  0.2086  -82.1
 0.800  0.6853  175.4   3.986   75.4  0.0714   44.6  0.1998  -84.8
 0.900  0.6837  171.1   3.545   71.9  0.0766   45.7  0.1939  -88.0
 1.000  0.6867  167.4   3.210   68.6  0.0811   46.9  0.1899  -91.2
 1.100  0.6915  163.6   2.929   65.4  0.0870   48.4  0.1901  -94.1
 1.200  0.6946  160.1   2.692   62.1  0.0920   49.0  0.1906  -97.3
 1.300  0.6945  156.9   2.490   59.2  0.0975   50.0  0.1930 -100.7
 1.400  0.6994  153.8   2.325   56.2  0.1036   50.7  0.1962 -104.5
 1.500  0.7049  150.6   2.171   53.3  0.1094   51.0  0.2004 -107.9
 1.600  0.7089  147.6   2.043   50.4  0.1157   51.2  0.2066 -111.0
 1.700  0.7118  144.5   1.930   47.6  0.1221   51.3  0.2136 -114.7
 1.800  0.7188  141.6   1.831   44.7  0.1285   51.3  0.2202 -118.1
 1.900  0.7220  138.7   1.736   42.2  0.1349   51.1  0.2285 -121.3
 2.000  0.7248  135.8   1.649   39.4  0.1418   50.6  0.2377 -124.3
 2.100  0.7296  133.0   1.573   36.9  0.1483   50.3  0.2465 -127.4
 2.200  0.7361  130.3   1.500   34.2  0.1548   50.0  0.2559 -130.3
 2.300  0.7393  127.9   1.437   31.9  0.1619   49.4  0.2667 -132.9
 2.400  0.7438  125.5   1.377   29.4  0.1690   48.8  0.2780 -135.3
 2.500  0.7478  123.1   1.322   27.2  0.1759   48.0  0.2890 -138.0
 2.600  0.7530  120.8   1.269   24.9  0.1829   47.3  0.3005 -140.5
 2.700  0.7574  118.6   1.223   22.8  0.1897   46.5  0.3105 -142.8
 2.800  0.7630  116.4   1.179   20.6  0.1965   45.8  0.3210 -145.0
 2.900  0.7668  114.2   1.139   18.7  0.2034   44.9  0.3300 -147.5
 3.000  0.7716  112.1   1.100   16.6  0.2103   44.0  0.3395 -149.8
 3.100  0.7736  110.1   1.066   15.0  0.2171   43.0  0.3469 -152.2
 3.200  0.7765  108.1   1.033   13.3  0.2239   42.0  0.3548 -154.6
 3.300  0.7803  106.1   1.001   11.5  0.2308   41.1  0.3633 -156.8
 3.400  0.7851  104.1   0.971    9.6  0.2377   40.3  0.3724 -158.9
 3.500  0.7908  102.2   0.941    7.5  0.2447   39.5  0.3819 -160.9
 3.600  0.7928  100.5   0.917    6.1  0.2514   38.3  0.3886 -163.4
 3.700  0.7954   98.8   0.893    4.6  0.2582   37.1  0.3960 -165.9
 3.800  0.7988   97.1   0.870    3.1  0.2651   36.0  0.4042 -168.2
 3.900  0.8029   95.4   0.848    1.4  0.2721   35.0  0.4129 -170.5
 4.000  0.8077   93.7   0.826   -0.3  0.2792   34.0  0.4223 -172.6
 4.100  0.8077   92.1   0.807   -1.5  0.2858   32.7  0.4296 -175.2
 4.200  0.8083   90.5   0.788   -2.8  0.2924   31.4  0.4377 -177.8
 4.300  0.8096   88.9   0.770   -4.1  0.2993   30.2  0.4467  179.8
 4.400  0.8114   87.4   0.752   -5.5  0.3062   29.1  0.4565  177.4
 4.500  0.8139   85.8   0.734   -7.0  0.3133   28.0  0.4670  175.2
 4.600  0.8154   84.4   0.719   -7.9  0.3192   26.7  0.4757  173.0
 4.700  0.8175   83.0   0.705   -8.9  0.3253   25.5  0.4850  170.8
 4.800  0.8200   81.6   0.690   -9.9  0.3316   24.3  0.4951  168.7
 4.900  0.8230   80.2   0.676  -11.0  0.3380   23.1  0.5057  166.7
 5.000  0.8265   78.8   0.662  -12.1  0.3445   22.0  0.5170  164.8
 5.100  0.8255   77.4   0.653  -12.9  0.3499   20.6  0.5263  163.1
 5.200  0.8249   76.0   0.644  -13.7  0.3554   19.3  0.5360  161.4
 5.300  0.8249   74.7   0.635  -14.5  0.3611   18.0  0.5462  159.8
 5.400  0.8253   73.3   0.626  -15.4  0.3670   16.8  0.5567  158.3
 5.500  0.8262   71.9   0.617  -16.3  0.3731   15.6  0.5677  156.8
 5.600  0.8245   70.7   0.609  -16.9  0.3778   14.4  0.5730  155.4
 5.700  0.8231   69.5   0.600  -17.6  0.3826   13.1  0.5787  154.1
 5.800  0.8221   68.2   0.592  -18.3  0.3877   12.0  0.5846  152.8
 5.900  0.8215   67.0   0.584  -19.0  0.3929   10.8  0.5909  151.5
 6.000  0.8212   65.8   0.576  -19.7  0.3982    9.7  0.5974  150.3
!
!  f       NFmin   Gammaopt  rn/50
! GHz       dB    MAG  ANG    -
 0.450      0.99  0.35  147   0.06
 0.900      1.29  0.50  174   0.05
 1.900      2.40  0.70 -139   0.25
 2.400      2.90  0.73 -123   0.68
!
! (c) 2017  Infineon Technologies AG, Munich