! Infineon Technologies  Discrete & RF Semiconductors
! BFP196
! VCE =  1.0 V,  IC =  5.0 mA
! Common Emitter S-Parameters:                            Jan 2017
# GHz  S  MA  R  50
!  f         S11            S21            S12            S22
! GHz     MAG   ANG      MAG   ANG      MAG   ANG      MAG   ANG
 0.010  0.8346   -9.4  16.818  175.1  0.0078   86.4  0.9985   -5.1
 0.020  0.8444  -18.7  16.903  170.2  0.0160   83.1  0.9815  -10.2
 0.030  0.8160  -27.0  16.382  165.6  0.0229   74.8  0.9546  -14.7
 0.040  0.8059  -35.8  15.973  160.8  0.0300   70.3  0.9339  -19.4
 0.050  0.8147  -44.5  15.683  155.7  0.0373   67.6  0.9197  -24.3
 0.060  0.7883  -51.2  15.053  152.5  0.0421   63.0  0.8833  -27.5
 0.070  0.7735  -58.3  14.476  149.0  0.0471   59.4  0.8500  -31.0
 0.080  0.7709  -65.6  13.957  145.2  0.0522   56.5  0.8201  -34.8
 0.090  0.7807  -72.8  13.503  141.1  0.0575   54.1  0.7939  -38.8
 0.100  0.8023  -79.7  13.122  136.8  0.0628   52.1  0.7720  -43.1
 0.110  0.7856  -84.4  12.578  134.5  0.0653   49.5  0.7413  -45.3
 0.120  0.7743  -89.2  12.055  132.1  0.0679   47.0  0.7118  -47.6
 0.130  0.7686  -94.1  11.556  129.4  0.0706   44.8  0.6836  -50.2
 0.140  0.7686  -99.1  11.085  126.5  0.0734   42.7  0.6568  -53.0
 0.150  0.7744 -104.0  10.645  123.3  0.0763   40.8  0.6318  -56.0
 0.200  0.7712 -121.3   8.787  113.9  0.0829   33.9  0.5308  -65.0
 0.250  0.7614 -133.6   7.382  106.5  0.0877   29.5  0.4561  -71.4
 0.300  0.7549 -142.7   6.326  101.2  0.0899   26.8  0.4012  -76.5
 0.350  0.7489 -149.1   5.605   97.5  0.0914   25.1  0.3656  -79.9
 0.400  0.7523 -155.5   4.915   92.7  0.0930   23.5  0.3315  -84.0
 0.450  0.7486 -160.1   4.444   89.8  0.0940   22.8  0.3116  -86.8
 0.500  0.7499 -164.8   3.987   86.3  0.0950   22.2  0.2926  -89.9
 0.600  0.7515 -171.9   3.363   80.8  0.0968   22.1  0.2690  -94.8
 0.700  0.7499 -177.5   2.897   76.2  0.0971   22.6  0.2549  -99.1
 0.800  0.7529  177.4   2.552   71.6  0.0987   23.7  0.2500 -102.9
 0.900  0.7518  172.9   2.273   67.5  0.1000   24.8  0.2485 -106.8
 1.000  0.7558  168.9   2.061   63.7  0.1016   26.1  0.2492 -110.5
 1.100  0.7574  165.1   1.882   60.0  0.1034   28.1  0.2536 -113.8
 1.200  0.7611  161.4   1.732   56.3  0.1060   29.4  0.2593 -117.1
 1.300  0.7611  158.1   1.604   52.9  0.1084   30.7  0.2667 -120.5
 1.400  0.7665  154.8   1.500   49.6  0.1116   32.9  0.2755 -123.9
 1.500  0.7722  151.6   1.401   46.4  0.1156   34.4  0.2849 -127.2
 1.600  0.7765  148.4   1.320   43.1  0.1202   35.7  0.2960 -129.9
 1.700  0.7807  145.3   1.247   40.1  0.1245   37.5  0.3082 -133.2
 1.800  0.7869  142.2   1.186   37.1  0.1297   38.4  0.3191 -136.2
 1.900  0.7909  139.3   1.123   34.5  0.1352   39.4  0.3321 -138.9
 2.000  0.7915  136.4   1.069   31.5  0.1415   40.4  0.3446 -141.6
 2.100  0.7958  133.4   1.019   29.0  0.1478   41.0  0.3576 -144.3
 2.200  0.8023  130.5   0.972   26.2  0.1541   41.5  0.3714 -146.8
 2.300  0.8051  128.0   0.932   23.9  0.1618   41.8  0.3856 -149.2
 2.400  0.8094  125.6   0.893   21.5  0.1696   42.0  0.4005 -151.5
 2.500  0.8126  123.1   0.857   19.5  0.1771   41.8  0.4141 -154.0
 2.600  0.8173  120.6   0.823   17.4  0.1846   41.6  0.4284 -156.3
 2.700  0.8206  118.3   0.793   15.5  0.1922   41.2  0.4406 -158.5
 2.800  0.8252  116.0   0.764   13.5  0.1999   40.8  0.4535 -160.6
 2.900  0.8277  113.7   0.738   11.9  0.2079   40.1  0.4643 -163.0
 3.000  0.8315  111.4   0.713   10.1  0.2159   39.5  0.4758 -165.3
 3.100  0.8320  109.3   0.693    8.9  0.2238   38.6  0.4840 -167.7
 3.200  0.8335  107.3   0.673    7.6  0.2318   37.7  0.4930 -170.1
 3.300  0.8361  105.2   0.654    6.2  0.2399   36.9  0.5028 -172.3
 3.400  0.8398  103.2   0.635    4.7  0.2480   36.2  0.5133 -174.5
 3.500  0.8445  101.2   0.616    3.2  0.2561   35.5  0.5246 -176.6
 3.600  0.8447   99.4   0.603    2.3  0.2637   34.2  0.5316 -179.0
 3.700  0.8457   97.6   0.589    1.3  0.2714   33.0  0.5395  178.6
 3.800  0.8476   95.8   0.576    0.3  0.2793   31.9  0.5483  176.3
 3.900  0.8502   94.1   0.564   -0.7  0.2873   30.8  0.5579  174.0
 4.000  0.8537   92.3   0.551   -1.8  0.2953   29.8  0.5684  171.9
 4.100  0.8520   90.7   0.542   -2.5  0.3023   28.4  0.5750  169.4
 4.200  0.8510   89.1   0.533   -3.2  0.3094   27.1  0.5827  167.1
 4.300  0.8507   87.4   0.524   -4.0  0.3167   25.8  0.5913  164.7
 4.400  0.8511   85.8   0.516   -4.8  0.3241   24.6  0.6009  162.5
 4.500  0.8521   84.2   0.507   -5.6  0.3317   23.4  0.6114  160.3
 4.600  0.8520   82.8   0.501   -6.1  0.3377   22.1  0.6184  158.3
 4.700  0.8525   81.4   0.495   -6.6  0.3439   20.8  0.6261  156.3
 4.800  0.8535   80.0   0.489   -7.1  0.3502   19.5  0.6346  154.3
 4.900  0.8549   78.6   0.484   -7.7  0.3567   18.4  0.6438  152.4
 5.000  0.8569   77.2   0.478   -8.2  0.3634   17.2  0.6537  150.6
 5.100  0.8548   75.8   0.477   -8.7  0.3686   15.8  0.6604  149.0
 5.200  0.8532   74.5   0.475   -9.2  0.3740   14.5  0.6675  147.5
 5.300  0.8520   73.1   0.474   -9.8  0.3796   13.2  0.6751  146.0
 5.400  0.8514   71.8   0.472  -10.3  0.3854   11.9  0.6832  144.5
 5.500  0.8512   70.4   0.471  -10.8  0.3914   10.7  0.6917  143.1
 5.600  0.8483   69.2   0.470  -11.3  0.3957    9.4  0.6939  141.8
 5.700  0.8458   68.0   0.469  -11.7  0.4002    8.2  0.6964  140.6
 5.800  0.8436   66.8   0.467  -12.2  0.4050    7.0  0.6993  139.3
 5.900  0.8419   65.5   0.466  -12.6  0.4098    5.8  0.7025  138.1
 6.000  0.8405   64.3   0.465  -13.1  0.4149    4.6  0.7060  136.9
!
!  f       NFmin   Gammaopt  rn/50
! GHz       dB    MAG  ANG    -
 0.450      1.01  0.42  127   0.08
 0.900      1.47  0.55  170   0.06
 1.900      2.90  0.74 -142   0.31
 2.400      3.55  0.76 -125   0.95
!
! (c) 2017  Infineon Technologies AG, Munich