! Infineon Technologies  Discrete & RF Semiconductors
! BFP196
! VCE =  5.0 V,  IC =  85 mA
! Common Emitter S-Parameters:                            Jan 2017
# GHz  S  MA  R  50
!  f         S11            S21            S12            S22
! GHz     MAG   ANG      MAG   ANG      MAG   ANG      MAG   ANG
 0.010  0.1911  -74.8  94.006  165.1  0.0032   74.2  0.9088  -17.2
 0.020  0.3250 -102.6  87.488  152.0  0.0056   74.5  0.8371  -33.7
 0.030  0.3741 -117.9  76.569  145.6  0.0072   66.0  0.7305  -42.6
 0.040  0.4432 -129.1  66.904  137.3  0.0089   60.7  0.6468  -54.1
 0.050  0.5245 -137.1  59.110  126.4  0.0106   57.1  0.5959  -68.2
 0.060  0.5369 -141.8  53.968  124.2  0.0116   57.1  0.5457  -72.4
 0.070  0.5526 -146.2  48.926  121.4  0.0126   57.1  0.4989  -77.3
 0.080  0.5715 -150.3  44.020  118.1  0.0135   57.2  0.4567  -83.3
 0.090  0.5931 -154.2  39.299  113.9  0.0145   57.2  0.4203  -90.4
 0.100  0.6173 -157.8  34.840  108.7  0.0155   57.2  0.3915  -98.6
 0.110  0.6198 -159.7  32.639  107.6  0.0163   57.9  0.3728 -101.5
 0.120  0.6229 -161.6  30.452  106.3  0.0171   58.5  0.3551 -104.6
 0.130  0.6267 -163.4  28.283  104.8  0.0178   59.1  0.3386 -108.1
 0.140  0.6312 -165.3  26.137  103.0  0.0186   59.6  0.3235 -111.9
 0.150  0.6363 -167.1  24.019  101.0  0.0194   60.1  0.3099 -116.1
 0.200  0.6476 -172.1  18.264   96.1  0.0235   63.9  0.2741 -128.0
 0.250  0.6534 -176.2  14.689   92.5  0.0276   65.7  0.2532 -136.1
 0.300  0.6525 -179.1  12.276   90.0  0.0315   68.6  0.2415 -143.0
 0.350  0.6540  178.7  10.773   88.1  0.0363   68.9  0.2353 -147.2
 0.400  0.6564  176.5   9.285   85.6  0.0411   69.1  0.2305 -151.6
 0.450  0.6569  174.5   8.357   84.0  0.0457   69.4  0.2282 -154.5
 0.500  0.6583  172.5   7.437   82.1  0.0503   69.7  0.2265 -157.4
 0.600  0.6624  169.3   6.227   78.9  0.0590   69.4  0.2269 -162.0
 0.700  0.6632  166.3   5.340   76.2  0.0679   69.8  0.2254 -165.4
 0.800  0.6657  163.1   4.682   73.2  0.0782   69.1  0.2270 -167.8
 0.900  0.6654  160.2   4.160   70.5  0.0865   67.8  0.2302 -169.8
 1.000  0.6702  157.4   3.762   67.8  0.0958   66.9  0.2335 -172.0
 1.100  0.6740  154.6   3.429   65.3  0.1046   66.0  0.2357 -173.4
 1.200  0.6737  151.7   3.146   62.6  0.1130   64.6  0.2386 -175.1
 1.300  0.6758  148.8   2.915   60.1  0.1218   63.1  0.2440 -176.2
 1.400  0.6801  146.3   2.721   57.5  0.1309   62.0  0.2497 -177.7
 1.500  0.6857  143.8   2.540   55.1  0.1392   60.7  0.2547 -178.8
 1.600  0.6880  141.0   2.394   52.6  0.1481   59.2  0.2595 -179.6
 1.700  0.6906  138.3   2.262   50.1  0.1564   57.7  0.2669  179.5
 1.800  0.6965  135.7   2.146   47.7  0.1647   56.4  0.2745  178.3
 1.900  0.6991  133.2   2.036   45.5  0.1724   55.0  0.2803  177.3
 2.000  0.7013  130.7   1.936   42.9  0.1804   53.5  0.2870  176.5
 2.100  0.7050  128.2   1.849   40.7  0.1876   52.0  0.2945  175.5
 2.200  0.7100  125.7   1.765   38.3  0.1949   50.7  0.3021  174.6
 2.300  0.7129  123.5   1.694   36.2  0.2028   49.2  0.3088  173.9
 2.400  0.7168  121.3   1.626   34.0  0.2109   47.8  0.3155  173.2
 2.500  0.7199  119.2   1.564   32.0  0.2177   46.3  0.3236  172.2
 2.600  0.7240  117.1   1.505   29.9  0.2246   44.8  0.3318  171.3
 2.700  0.7276  115.0   1.453   28.0  0.2310   43.4  0.3377  170.4
 2.800  0.7321  112.9   1.402   25.9  0.2375   42.1  0.3437  169.6
 2.900  0.7356  110.9   1.357   24.1  0.2437   40.7  0.3500  168.3
 3.000  0.7400  108.9   1.314   22.1  0.2500   39.3  0.3564  167.0
 3.100  0.7418  107.1   1.277   20.5  0.2556   38.0  0.3605  165.7
 3.200  0.7443  105.3   1.242   18.8  0.2613   36.7  0.3649  164.4
 3.300  0.7475  103.5   1.208   17.0  0.2672   35.5  0.3694  163.1
 3.400  0.7515  101.7   1.175   15.1  0.2731   34.3  0.3741  161.9
 3.500  0.7562   99.9   1.143   13.1  0.2792   33.2  0.3789  160.7
 3.600  0.7581   98.3   1.116   11.6  0.2843   31.8  0.3836  159.2
 3.700  0.7607   96.7   1.089   10.1  0.2896   30.5  0.3886  157.7
 3.800  0.7637   95.2   1.064    8.4  0.2950   29.3  0.3938  156.3
 3.900  0.7674   93.6   1.039    6.7  0.3006   28.1  0.3993  154.9
 4.000  0.7716   92.1   1.015    4.9  0.3063   26.9  0.4050  153.5
 4.100  0.7722   90.6   0.994    3.5  0.3111   25.6  0.4107  151.9
 4.200  0.7732   89.1   0.973    2.1  0.3161   24.3  0.4168  150.3
 4.300  0.7748   87.6   0.953    0.6  0.3213   23.1  0.4231  148.8
 4.400  0.7770   86.2   0.934   -0.9  0.3266   21.9  0.4298  147.3
 4.500  0.7796   84.7   0.915   -2.5  0.3320   20.7  0.4367  145.9
 4.600  0.7816   83.4   0.898   -3.7  0.3365   19.5  0.4432  144.7
 4.700  0.7840   82.1   0.882   -4.8  0.3410   18.4  0.4498  143.5
 4.800  0.7868   80.8   0.866   -6.1  0.3458   17.2  0.4567  142.3
 4.900  0.7899   79.6   0.851   -7.4  0.3506   16.2  0.4637  141.2
 5.000  0.7935   78.3   0.836   -8.7  0.3556   15.1  0.4709  140.1
 5.100  0.7926   77.0   0.825   -9.8  0.3595   13.9  0.4775  139.3
 5.200  0.7920   75.7   0.814  -10.9  0.3637   12.7  0.4842  138.5
 5.300  0.7919   74.4   0.803  -12.1  0.3679   11.5  0.4910  137.8
 5.400  0.7922   73.1   0.793  -13.3  0.3723   10.3  0.4979  137.0
 5.500  0.7929   71.8   0.783  -14.5  0.3769    9.2  0.5049  136.3
 5.600  0.7920   70.7   0.772  -15.5  0.3805    8.1  0.5077  135.6
 5.700  0.7913   69.5   0.761  -16.5  0.3842    7.0  0.5107  134.8
 5.800  0.7910   68.4   0.751  -17.5  0.3880    6.0  0.5137  134.1
 5.900  0.7910   67.2   0.741  -18.6  0.3920    4.9  0.5167  133.4
 6.000  0.7913   66.1   0.731  -19.7  0.3961    3.9  0.5199  132.7
!
!  f       NFmin   Gammaopt  rn/50
! GHz       dB    MAG  ANG    -
 0.450      1.85  0.51 -169   0.06
 0.900      2.01  0.54 -157   0.10
 1.900      2.88  0.70 -129   0.43
 2.400      3.28  0.70 -116   0.89
!
! (c) 2017  Infineon Technologies AG, Munich