! Infineon Technologies  Discrete & RF Semiconductors
! BFP196
! VCE =  5.0 V,  IC =  60 mA
! Common Emitter S-Parameters:                            Jan 2017
# GHz  S  MA  R  50
!  f         S11            S21            S12            S22
! GHz     MAG   ANG      MAG   ANG      MAG   ANG      MAG   ANG
 0.010  0.2397  -50.6  85.382  166.5  0.0034   81.4  0.9367  -15.4
 0.020  0.3307  -82.1  80.146  154.7  0.0065   75.1  0.8715  -30.2
 0.030  0.3624 -101.1  71.170  148.2  0.0082   66.6  0.7712  -38.8
 0.040  0.4259 -115.7  63.363  140.0  0.0100   61.2  0.6929  -49.6
 0.050  0.5093 -126.0  57.205  129.7  0.0119   57.4  0.6446  -62.5
 0.060  0.5196 -131.8  52.404  127.3  0.0130   56.7  0.5911  -66.6
 0.070  0.5348 -137.3  47.716  124.4  0.0140   56.2  0.5413  -71.5
 0.080  0.5548 -142.4  43.177  120.8  0.0151   55.7  0.4962  -77.3
 0.090  0.5788 -147.2  38.841  116.5  0.0161   55.3  0.4572  -84.2
 0.100  0.6065 -151.5  34.782  111.1  0.0172   54.9  0.4260  -92.3
 0.110  0.6089 -153.8  32.620  109.9  0.0178   55.3  0.4045  -95.1
 0.120  0.6122 -156.0  30.475  108.4  0.0184   55.6  0.3840  -98.2
 0.130  0.6165 -158.3  28.352  106.8  0.0191   56.0  0.3648 -101.6
 0.140  0.6217 -160.4  26.255  104.9  0.0197   56.3  0.3470 -105.4
 0.150  0.6278 -162.6  24.192  102.7  0.0203   56.6  0.3309 -109.6
 0.200  0.6408 -168.7  18.463   97.4  0.0243   61.0  0.2867 -121.7
 0.250  0.6448 -173.6  14.870   93.6  0.0285   61.4  0.2602 -130.3
 0.300  0.6466 -176.7  12.456   90.9  0.0327   63.5  0.2456 -137.4
 0.350  0.6481 -179.3  10.931   89.0  0.0372   65.2  0.2373 -142.0
 0.400  0.6509  178.2   9.422   86.4  0.0417   66.5  0.2307 -146.8
 0.450  0.6508  176.0   8.480   84.8  0.0459   66.9  0.2272 -150.1
 0.500  0.6517  173.9   7.546   82.7  0.0502   67.3  0.2245 -153.4
 0.600  0.6550  170.3   6.319   79.4  0.0591   67.8  0.2228 -158.5
 0.700  0.6572  167.2   5.420   76.7  0.0676   67.6  0.2206 -162.2
 0.800  0.6605  164.2   4.754   73.6  0.0769   67.6  0.2228 -164.9
 0.900  0.6600  161.0   4.222   70.8  0.0858   66.4  0.2249 -167.2
 1.000  0.6657  158.0   3.820   68.2  0.0946   65.7  0.2280 -169.7
 1.100  0.6674  155.1   3.481   65.6  0.1039   64.6  0.2306 -171.2
 1.200  0.6681  152.4   3.195   62.9  0.1124   63.4  0.2332 -172.8
 1.300  0.6716  149.6   2.959   60.4  0.1206   62.5  0.2387 -174.1
 1.400  0.6746  147.0   2.763   57.8  0.1298   61.3  0.2441 -175.6
 1.500  0.6790  144.3   2.579   55.4  0.1385   60.0  0.2495 -176.9
 1.600  0.6825  141.6   2.429   52.9  0.1467   58.5  0.2542 -177.7
 1.700  0.6856  138.8   2.294   50.4  0.1550   57.3  0.2618 -178.8
 1.800  0.6918  136.1   2.178   47.9  0.1632   55.9  0.2690 -179.9
 1.900  0.6936  133.6   2.065   45.7  0.1709   54.7  0.2756  179.0
 2.000  0.6972  131.1   1.964   43.2  0.1786   53.1  0.2823  178.2
 2.100  0.7009  128.6   1.875   41.0  0.1862   51.7  0.2897  177.1
 2.200  0.7060  126.1   1.790   38.5  0.1939   50.5  0.2973  176.0
 2.300  0.7084  123.8   1.718   36.4  0.2013   49.0  0.3042  175.4
 2.400  0.7118  121.6   1.649   34.2  0.2089   47.6  0.3111  174.8
 2.500  0.7156  119.4   1.586   32.2  0.2158   46.1  0.3193  173.8
 2.600  0.7204  117.3   1.526   30.1  0.2229   44.7  0.3276  172.8
 2.700  0.7241  115.3   1.473   28.2  0.2292   43.4  0.3338  171.8
 2.800  0.7286  113.3   1.422   26.1  0.2356   42.1  0.3400  170.9
 2.900  0.7318  111.2   1.376   24.3  0.2417   40.7  0.3464  169.6
 3.000  0.7359  109.2   1.331   22.3  0.2479   39.3  0.3529  168.4
 3.100  0.7378  107.4   1.294   20.7  0.2535   38.0  0.3572  167.0
 3.200  0.7404  105.6   1.257   19.0  0.2593   36.7  0.3616  165.7
 3.300  0.7438  103.7   1.222   17.2  0.2652   35.5  0.3663  164.4
 3.400  0.7479  102.0   1.188   15.3  0.2712   34.3  0.3711  163.1
 3.500  0.7527  100.2   1.156   13.3  0.2773   33.2  0.3761  161.9
 3.600  0.7547   98.6   1.128   11.8  0.2825   31.9  0.3809  160.4
 3.700  0.7573   97.0   1.102   10.3  0.2878   30.6  0.3861  158.9
 3.800  0.7604   95.4   1.076    8.6  0.2933   29.3  0.3914  157.4
 3.900  0.7642   93.9   1.051    6.9  0.2989   28.1  0.3970  156.0
 4.000  0.7685   92.3   1.027    5.1  0.3046   27.0  0.4029  154.6
 4.100  0.7694   90.8   1.005    3.7  0.3096   25.7  0.4088  153.0
 4.200  0.7707   89.4   0.984    2.3  0.3148   24.4  0.4149  151.4
 4.300  0.7726   87.9   0.964    0.8  0.3201   23.2  0.4214  149.8
 4.400  0.7749   86.4   0.944   -0.7  0.3255   22.0  0.4282  148.3
 4.500  0.7778   85.0   0.925   -2.3  0.3311   20.9  0.4353  146.9
 4.600  0.7794   83.7   0.908   -3.5  0.3355   19.7  0.4418  145.6
 4.700  0.7815   82.4   0.891   -4.7  0.3400   18.5  0.4486  144.4
 4.800  0.7840   81.1   0.874   -5.9  0.3446   17.4  0.4555  143.2
 4.900  0.7868   79.8   0.858   -7.2  0.3494   16.3  0.4627  142.0
 5.000  0.7901   78.5   0.842   -8.6  0.3543   15.2  0.4700  140.9
 5.100  0.7897   77.2   0.831   -9.7  0.3583   14.0  0.4767  140.1
 5.200  0.7897   75.9   0.820  -10.8  0.3624   12.8  0.4836  139.3
 5.300  0.7901   74.6   0.809  -12.0  0.3667   11.6  0.4905  138.5
 5.400  0.7909   73.3   0.799  -13.2  0.3711   10.4  0.4975  137.7
 5.500  0.7921   72.0   0.789  -14.4  0.3757    9.3  0.5046  137.0
 5.600  0.7909   70.8   0.778  -15.4  0.3794    8.2  0.5077  136.3
 5.700  0.7900   69.7   0.767  -16.4  0.3831    7.1  0.5109  135.5
 5.800  0.7894   68.5   0.756  -17.4  0.3871    6.1  0.5141  134.8
 5.900  0.7891   67.4   0.746  -18.5  0.3911    5.0  0.5175  134.1
 6.000  0.7892   66.2   0.736  -19.6  0.3953    4.0  0.5209  133.4
!
!  f       NFmin   Gammaopt  rn/50
! GHz       dB    MAG  ANG    -
 0.450      1.56  0.41 -174   0.06
 0.900      1.72  0.48 -162   0.08
 1.900      2.54  0.68 -132   0.35
 2.400      2.93  0.70 -119   0.72
!
! (c) 2017  Infineon Technologies AG, Munich