! Infineon Technologies  Discrete & RF Semiconductors
! BFP196
! VCE =  5.0 V,  IC =  90 mA
! Common Emitter S-Parameters:                            Jan 2017
# GHz  S  MA  R  50
!  f         S11            S21            S12            S22
! GHz     MAG   ANG      MAG   ANG      MAG   ANG      MAG   ANG
 0.010  0.1881  -79.3  95.047  164.8  0.0030   81.6  0.9045  -17.4
 0.020  0.3235 -105.3  88.116  151.6  0.0057   67.5  0.8332  -34.3
 0.030  0.3758 -120.3  76.981  145.2  0.0074   62.6  0.7248  -43.1
 0.040  0.4470 -131.1  67.107  136.8  0.0091   59.6  0.6392  -54.7
 0.050  0.5295 -138.7  59.131  125.9  0.0109   57.5  0.5865  -69.0
 0.060  0.5419 -143.2  53.960  123.7  0.0118   57.3  0.5370  -73.2
 0.070  0.5576 -147.6  48.886  121.0  0.0126   57.1  0.4910  -78.2
 0.080  0.5763 -151.6  43.944  117.7  0.0135   57.0  0.4495  -84.2
 0.090  0.5976 -155.4  39.183  113.6  0.0143   56.8  0.4139  -91.3
 0.100  0.6214 -158.9  34.678  108.4  0.0152   56.7  0.3857  -99.6
 0.110  0.6237 -160.7  32.485  107.3  0.0160   57.8  0.3674 -102.5
 0.120  0.6267 -162.5  30.306  106.0  0.0168   58.7  0.3501 -105.6
 0.130  0.6302 -164.3  28.146  104.5  0.0176   59.6  0.3340 -109.1
 0.140  0.6344 -166.1  26.007  102.7  0.0184   60.4  0.3192 -112.9
 0.150  0.6391 -167.8  23.897  100.7  0.0192   61.1  0.3059 -117.0
 0.200  0.6493 -172.7  18.161   95.9  0.0225   66.2  0.2713 -128.7
 0.250  0.6547 -176.5  14.603   92.4  0.0271   65.5  0.2515 -136.8
 0.300  0.6550 -179.2  12.217   89.9  0.0318   67.8  0.2400 -143.5
 0.350  0.6566  178.5  10.713   88.0  0.0363   69.0  0.2343 -147.7
 0.400  0.6592  176.3   9.224   85.5  0.0408   70.0  0.2298 -152.0
 0.450  0.6600  174.3   8.302   83.9  0.0453   69.8  0.2277 -154.9
 0.500  0.6616  172.3   7.388   82.0  0.0499   69.6  0.2261 -157.8
 0.600  0.6640  169.1   6.186   78.9  0.0593   70.0  0.2261 -162.4
 0.700  0.6655  166.1   5.304   76.1  0.0678   69.8  0.2249 -165.8
 0.800  0.6675  163.0   4.652   73.1  0.0779   69.3  0.2269 -168.1
 0.900  0.6684  160.0   4.132   70.3  0.0865   67.8  0.2299 -170.1
 1.000  0.6715  157.2   3.739   67.7  0.0953   66.9  0.2327 -172.3
 1.100  0.6736  154.4   3.409   65.2  0.1048   65.9  0.2361 -173.6
 1.200  0.6759  151.6   3.128   62.5  0.1135   64.4  0.2387 -175.1
 1.300  0.6805  148.9   2.898   60.1  0.1215   63.3  0.2437 -176.3
 1.400  0.6814  146.3   2.704   57.5  0.1310   62.1  0.2493 -177.8
 1.500  0.6872  143.7   2.524   55.1  0.1396   60.7  0.2551 -178.9
 1.600  0.6889  140.9   2.378   52.5  0.1481   59.3  0.2592 -179.7
 1.700  0.6910  138.3   2.247   50.0  0.1564   57.8  0.2669  179.3
 1.800  0.6993  135.7   2.134   47.5  0.1648   56.5  0.2740  178.2
 1.900  0.7023  133.1   2.024   45.3  0.1727   55.0  0.2798  177.3
 2.000  0.7029  130.6   1.924   42.8  0.1806   53.5  0.2871  176.5
 2.100  0.7065  128.1   1.838   40.6  0.1880   52.0  0.2946  175.4
 2.200  0.7114  125.6   1.754   38.2  0.1956   50.6  0.3022  174.4
 2.300  0.7142  123.4   1.684   36.1  0.2033   49.2  0.3088  173.8
 2.400  0.7180  121.2   1.616   33.9  0.2111   47.9  0.3155  173.2
 2.500  0.7220  119.0   1.555   31.9  0.2178   46.4  0.3237  172.2
 2.600  0.7270  116.9   1.496   29.8  0.2247   44.9  0.3319  171.3
 2.700  0.7306  114.9   1.445   27.9  0.2311   43.5  0.3377  170.4
 2.800  0.7350  112.9   1.395   25.8  0.2377   42.2  0.3436  169.5
 2.900  0.7378  110.8   1.350   24.0  0.2438   40.8  0.3500  168.2
 3.000  0.7415  108.8   1.306   22.0  0.2501   39.4  0.3565  167.0
 3.100  0.7434  107.0   1.270   20.4  0.2557   38.0  0.3606  165.7
 3.200  0.7460  105.2   1.235   18.7  0.2615   36.8  0.3648  164.4
 3.300  0.7493  103.4   1.201   16.9  0.2674   35.5  0.3693  163.1
 3.400  0.7534  101.6   1.168   15.0  0.2734   34.3  0.3739  161.9
 3.500  0.7582   99.8   1.137   13.0  0.2795   33.2  0.3787  160.7
 3.600  0.7599   98.2   1.110   11.5  0.2846   31.8  0.3835  159.2
 3.700  0.7622   96.6   1.084   10.0  0.2898   30.5  0.3885  157.7
 3.800  0.7650   95.1   1.058    8.3  0.2952   29.3  0.3937  156.3
 3.900  0.7684   93.5   1.034    6.6  0.3007   28.1  0.3993  154.9
 4.000  0.7724   92.0   1.010    4.8  0.3064   26.9  0.4050  153.5
 4.100  0.7731   90.5   0.989    3.5  0.3112   25.6  0.4107  151.9
 4.200  0.7743   89.1   0.968    2.1  0.3162   24.3  0.4167  150.3
 4.300  0.7760   87.7   0.948    0.6  0.3214   23.1  0.4231  148.8
 4.400  0.7781   86.2   0.929   -0.9  0.3267   21.9  0.4297  147.3
 4.500  0.7808   84.8   0.910   -2.5  0.3321   20.8  0.4366  145.9
 4.600  0.7827   83.5   0.893   -3.7  0.3365   19.6  0.4431  144.7
 4.700  0.7849   82.1   0.877   -4.9  0.3411   18.4  0.4498  143.5
 4.800  0.7876   80.8   0.861   -6.1  0.3458   17.2  0.4567  142.3
 4.900  0.7908   79.5   0.845   -7.4  0.3507   16.1  0.4638  141.2
 5.000  0.7943   78.2   0.830   -8.8  0.3557   15.0  0.4710  140.1
 5.100  0.7934   76.9   0.819   -9.9  0.3596   13.8  0.4776  139.3
 5.200  0.7930   75.6   0.808  -11.1  0.3637   12.6  0.4843  138.5
 5.300  0.7929   74.4   0.798  -12.2  0.3680   11.4  0.4910  137.8
 5.400  0.7933   73.1   0.788  -13.5  0.3724   10.3  0.4979  137.0
 5.500  0.7940   71.8   0.778  -14.7  0.3769    9.2  0.5048  136.3
 5.600  0.7932   70.6   0.768  -15.7  0.3805    8.1  0.5077  135.6
 5.700  0.7928   69.4   0.757  -16.7  0.3843    7.0  0.5106  134.9
 5.800  0.7927   68.2   0.747  -17.7  0.3883    5.9  0.5136  134.2
 5.900  0.7930   67.0   0.738  -18.7  0.3923    4.8  0.5167  133.5
 6.000  0.7936   65.8   0.728  -19.8  0.3965    3.8  0.5199  132.8
!
!  f       NFmin   Gammaopt  rn/50
! GHz       dB    MAG  ANG    -
 0.450      1.90  0.53 -169   0.07
 0.900      2.07  0.55 -156   0.11
 1.900      2.95  0.71 -129   0.45
 2.400      3.36  0.70 -115   0.94
!
! (c) 2017  Infineon Technologies AG, Munich