! Infineon Technologies  Discrete & RF Semiconductors
! BFP196
! VCE =  3.0 V,  IC =  90 mA
! Common Emitter S-Parameters:                            Jan 2017
# GHz  S  MA  R  50
!  f         S11            S21            S12            S22
! GHz     MAG   ANG      MAG   ANG      MAG   ANG      MAG   ANG
 0.010  0.1952 -106.8  94.434  163.6  0.0033   78.3  0.8872  -20.2
 0.020  0.3570 -121.5  86.364  149.4  0.0054   73.2  0.8046  -39.0
 0.030  0.4174 -132.7  74.668  143.1  0.0071   63.9  0.6934  -48.7
 0.040  0.4896 -140.9  64.186  134.7  0.0090   58.3  0.6090  -61.5
 0.050  0.5692 -146.9  55.608  123.3  0.0109   54.7  0.5633  -77.4
 0.060  0.5818 -150.6  50.628  121.2  0.0119   55.9  0.5176  -82.1
 0.070  0.5968 -154.0  45.728  118.7  0.0129   56.8  0.4761  -87.6
 0.080  0.6138 -157.4  40.938  115.6  0.0140   57.7  0.4398  -94.1
 0.090  0.6327 -160.5  36.301  111.7  0.0150   58.4  0.4101 -101.7
 0.100  0.6534 -163.4  31.885  106.6  0.0160   59.0  0.3887 -110.3
 0.110  0.6562 -164.9  29.854  105.5  0.0167   59.6  0.3737 -113.3
 0.120  0.6596 -166.4  27.835  104.3  0.0174   60.1  0.3598 -116.6
 0.130  0.6633 -167.9  25.830  102.9  0.0181   60.6  0.3472 -120.1
 0.140  0.6675 -169.4  23.843  101.3  0.0188   61.1  0.3360 -123.8
 0.150  0.6721 -170.8  21.879   99.4  0.0195   61.5  0.3263 -127.8
 0.200  0.6782 -175.2  16.589   94.8  0.0233   66.2  0.3011 -139.1
 0.250  0.6857 -178.5  13.320   91.4  0.0279   67.5  0.2866 -146.5
 0.300  0.6847  179.0  11.142   89.1  0.0326   68.4  0.2792 -152.4
 0.350  0.6854  176.9   9.770   87.3  0.0375   69.5  0.2756 -156.0
 0.400  0.6871  174.8   8.412   84.8  0.0424   70.4  0.2730 -159.6
 0.450  0.6878  173.0   7.570   83.2  0.0472   70.7  0.2720 -162.1
 0.500  0.6892  171.3   6.734   81.3  0.0520   71.0  0.2715 -164.7
 0.600  0.6925  167.9   5.637   78.2  0.0615   70.2  0.2730 -168.5
 0.700  0.6938  165.1   4.835   75.5  0.0707   70.3  0.2719 -171.3
 0.800  0.6971  162.2   4.241   72.4  0.0807   69.4  0.2743 -173.4
 0.900  0.6947  159.3   3.769   69.7  0.0898   68.1  0.2775 -175.4
 1.000  0.6994  156.6   3.410   67.1  0.0992   66.7  0.2805 -177.4
 1.100  0.7014  153.7   3.109   64.5  0.1084   65.5  0.2830 -178.8
 1.200  0.7034  151.0   2.855   61.8  0.1178   64.2  0.2855  179.8
 1.300  0.7057  148.3   2.646   59.3  0.1264   62.9  0.2901  178.7
 1.400  0.7085  145.7   2.472   56.7  0.1361   61.8  0.2959  177.4
 1.500  0.7129  143.2   2.308   54.3  0.1447   60.3  0.3009  176.1
 1.600  0.7158  140.4   2.177   51.7  0.1532   58.8  0.3052  175.3
 1.700  0.7179  137.7   2.056   49.3  0.1621   57.4  0.3123  174.4
 1.800  0.7236  135.1   1.955   46.7  0.1711   55.9  0.3190  173.3
 1.900  0.7271  132.6   1.855   44.5  0.1783   54.4  0.3246  172.3
 2.000  0.7275  130.1   1.764   42.0  0.1867   52.8  0.3314  171.5
 2.100  0.7304  127.6   1.685   39.8  0.1944   51.3  0.3383  170.5
 2.200  0.7346  125.1   1.609   37.4  0.2022   50.0  0.3454  169.5
 2.300  0.7378  122.9   1.546   35.3  0.2100   48.4  0.3514  168.8
 2.400  0.7420  120.7   1.486   33.1  0.2179   47.0  0.3575  168.2
 2.500  0.7445  118.5   1.431   31.1  0.2249   45.5  0.3651  167.2
 2.600  0.7480  116.4   1.377   29.0  0.2320   44.0  0.3728  166.3
 2.700  0.7516  114.3   1.331   27.1  0.2383   42.6  0.3780  165.4
 2.800  0.7561  112.3   1.286   25.1  0.2448   41.2  0.3833  164.6
 2.900  0.7580  110.2   1.245   23.3  0.2510   39.7  0.3893  163.3
 3.000  0.7609  108.2   1.205   21.3  0.2573   38.3  0.3955  162.1
 3.100  0.7623  106.4   1.173   19.7  0.2628   36.9  0.3991  160.8
 3.200  0.7644  104.6   1.141   18.1  0.2685   35.6  0.4030  159.6
 3.300  0.7673  102.8   1.111   16.3  0.2744   34.4  0.4070  158.4
 3.400  0.7709  101.0   1.082   14.5  0.2803   33.2  0.4112  157.2
 3.500  0.7753   99.2   1.054   12.5  0.2864   32.0  0.4156  156.0
 3.600  0.7768   97.6   1.030   11.0  0.2915   30.6  0.4199  154.5
 3.700  0.7789   96.1   1.006    9.5  0.2968   29.3  0.4244  153.1
 3.800  0.7816   94.5   0.983    7.9  0.3023   28.1  0.4292  151.7
 3.900  0.7848   93.0   0.961    6.2  0.3079   26.9  0.4343  150.3
 4.000  0.7886   91.5   0.940    4.4  0.3136   25.7  0.4396  149.0
 4.100  0.7886   90.0   0.921    3.1  0.3183   24.4  0.4451  147.5
 4.200  0.7891   88.5   0.902    1.7  0.3233   23.1  0.4509  146.0
 4.300  0.7901   87.0   0.884    0.3  0.3283   21.9  0.4569  144.6
 4.400  0.7917   85.6   0.867   -1.2  0.3335   20.7  0.4633  143.2
 4.500  0.7938   84.1   0.850   -2.7  0.3389   19.5  0.4699  141.8
 4.600  0.7954   82.8   0.835   -3.8  0.3432   18.3  0.4759  140.6
 4.700  0.7975   81.5   0.821   -5.0  0.3477   17.1  0.4821  139.5
 4.800  0.7999   80.2   0.806   -6.2  0.3523   16.0  0.4884  138.4
 4.900  0.8028   79.0   0.792   -7.4  0.3570   14.9  0.4950  137.3
 5.000  0.8060   77.7   0.779   -8.7  0.3619   13.8  0.5017  136.2
 5.100  0.8048   76.4   0.770   -9.8  0.3658   12.6  0.5078  135.4
 5.200  0.8041   75.1   0.761  -10.9  0.3699   11.4  0.5140  134.7
 5.300  0.8038   73.7   0.752  -12.0  0.3741   10.2  0.5202  133.9
 5.400  0.8039   72.4   0.744  -13.2  0.3785    9.0  0.5266  133.2
 5.500  0.8045   71.1   0.736  -14.4  0.3831    7.9  0.5330  132.5
 5.600  0.8031   70.0   0.727  -15.3  0.3866    6.8  0.5352  131.8
 5.700  0.8021   68.9   0.717  -16.2  0.3902    5.7  0.5375  131.1
 5.800  0.8014   67.7   0.708  -17.2  0.3939    4.7  0.5399  130.4
 5.900  0.8009   66.6   0.700  -18.2  0.3978    3.6  0.5424  129.8
 6.000  0.8008   65.5   0.691  -19.2  0.4018    2.6  0.5449  129.1
!
!  f       NFmin   Gammaopt  rn/50
! GHz       dB    MAG  ANG    -
 0.450      1.90  0.53 -169   0.07
 0.900      2.07  0.55 -156   0.11
 1.900      2.95  0.71 -129   0.45
 2.400      3.36  0.70 -115   0.94
!
! (c) 2017  Infineon Technologies AG, Munich