! Infineon Technologies  Discrete & RF Semiconductors
! BFP196
! VCE =  3.0 V,  IC =  45 mA
! Common Emitter S-Parameters:                            Jan 2017
# GHz  S  MA  R  50
!  f         S11            S21            S12            S22
! GHz     MAG   ANG      MAG   ANG      MAG   ANG      MAG   ANG
 0.010  0.2679  -46.4  76.741  167.0  0.0036   81.3  0.9473  -15.5
 0.020  0.3509  -77.4  72.413  155.4  0.0066   76.4  0.8848  -30.3
 0.030  0.3775  -96.7  64.522  148.9  0.0090   65.7  0.7852  -39.2
 0.040  0.4394 -112.0  57.693  140.6  0.0116   59.6  0.7094  -50.3
 0.050  0.5241 -122.9  52.346  130.5  0.0143   55.8  0.6657  -63.4
 0.060  0.5338 -129.0  47.994  128.0  0.0154   54.6  0.6111  -67.8
 0.070  0.5494 -134.8  43.749  125.0  0.0165   53.5  0.5608  -73.0
 0.080  0.5703 -140.3  39.647  121.4  0.0176   52.6  0.5160  -79.1
 0.090  0.5959 -145.3  35.737  117.0  0.0187   51.8  0.4782  -86.4
 0.100  0.6258 -149.9  32.089  111.6  0.0198   51.1  0.4493  -94.7
 0.110  0.6279 -152.3  30.103  110.3  0.0204   51.4  0.4278  -97.6
 0.120  0.6311 -154.6  28.133  108.9  0.0210   51.7  0.4076 -100.9
 0.130  0.6354 -157.0  26.184  107.3  0.0216   52.0  0.3887 -104.4
 0.140  0.6407 -159.2  24.259  105.3  0.0222   52.3  0.3716 -108.3
 0.150  0.6470 -161.5  22.367  103.1  0.0228   52.5  0.3563 -112.6
 0.200  0.6604 -168.0  17.079   97.7  0.0263   56.7  0.3133 -125.1
 0.250  0.6674 -172.8  13.765   93.7  0.0309   58.5  0.2884 -133.8
 0.300  0.6668 -176.3  11.530   91.0  0.0340   60.3  0.2747 -140.8
 0.350  0.6681 -178.9  10.118   89.0  0.0386   62.4  0.2666 -145.3
 0.400  0.6707  178.5   8.723   86.3  0.0432   64.1  0.2603 -150.0
 0.450  0.6717  176.3   7.852   84.7  0.0476   64.4  0.2572 -153.2
 0.500  0.6737  174.1   6.990   82.6  0.0521   64.6  0.2549 -156.4
 0.600  0.6775  170.5   5.857   79.2  0.0612   65.3  0.2539 -161.2
 0.700  0.6791  167.3   5.020   76.4  0.0695   65.9  0.2521 -164.8
 0.800  0.6803  164.0   4.403   73.2  0.0793   65.6  0.2536 -167.5
 0.900  0.6796  161.0   3.911   70.4  0.0882   65.1  0.2560 -169.9
 1.000  0.6846  158.2   3.540   67.7  0.0973   64.4  0.2592 -172.2
 1.100  0.6874  155.2   3.230   65.1  0.1065   63.5  0.2615 -173.6
 1.200  0.6896  152.3   2.965   62.3  0.1155   62.0  0.2641 -175.3
 1.300  0.6916  149.5   2.746   59.9  0.1239   61.0  0.2690 -176.7
 1.400  0.6947  146.9   2.565   57.2  0.1326   60.0  0.2750 -178.1
 1.500  0.6991  144.2   2.395   54.7  0.1407   58.6  0.2802 -179.4
 1.600  0.7021  141.5   2.257   52.1  0.1499   57.3  0.2849  179.6
 1.700  0.7050  138.7   2.131   49.7  0.1581   56.3  0.2915  178.7
 1.800  0.7106  136.1   2.026   47.1  0.1665   54.8  0.2990  177.4
 1.900  0.7129  133.6   1.921   44.9  0.1745   53.5  0.3054  176.4
 2.000  0.7153  131.1   1.827   42.4  0.1822   52.0  0.3121  175.5
 2.100  0.7190  128.5   1.746   40.2  0.1897   50.6  0.3194  174.4
 2.200  0.7242  125.9   1.667   37.7  0.1972   49.4  0.3269  173.4
 2.300  0.7263  123.7   1.601   35.6  0.2049   47.9  0.3336  172.7
 2.400  0.7295  121.5   1.537   33.4  0.2128   46.6  0.3404  172.0
 2.500  0.7325  119.2   1.479   31.4  0.2197   45.2  0.3480  171.0
 2.600  0.7366  117.0   1.423   29.2  0.2268   43.8  0.3558  170.0
 2.700  0.7404  115.0   1.375   27.3  0.2332   42.4  0.3618  169.1
 2.800  0.7450  113.1   1.328   25.3  0.2398   41.0  0.3678  168.2
 2.900  0.7474  111.0   1.286   23.5  0.2459   39.6  0.3742  166.9
 3.000  0.7508  109.0   1.245   21.5  0.2522   38.3  0.3808  165.7
 3.100  0.7526  107.2   1.211   19.9  0.2579   37.0  0.3848  164.4
 3.200  0.7552  105.3   1.177   18.2  0.2636   35.7  0.3891  163.1
 3.300  0.7586  103.5   1.145   16.4  0.2696   34.5  0.3935  161.8
 3.400  0.7627  101.7   1.114   14.5  0.2756   33.4  0.3982  160.5
 3.500  0.7676   99.9   1.084   12.5  0.2817   32.3  0.4030  159.3
 3.600  0.7692   98.3   1.059   11.0  0.2870   31.0  0.4077  157.8
 3.700  0.7715   96.7   1.034    9.5  0.2924   29.7  0.4126  156.3
 3.800  0.7743   95.2   1.010    7.9  0.2979   28.4  0.4178  154.9
 3.900  0.7777   93.6   0.987    6.2  0.3036   27.2  0.4233  153.5
 4.000  0.7816   92.1   0.965    4.4  0.3094   26.1  0.4290  152.1
 4.100  0.7820   90.6   0.945    3.1  0.3143   24.8  0.4348  150.5
 4.200  0.7829   89.1   0.926    1.7  0.3193   23.5  0.4409  149.0
 4.300  0.7843   87.6   0.907    0.2  0.3245   22.3  0.4473  147.5
 4.400  0.7862   86.2   0.889   -1.3  0.3298   21.1  0.4540  146.0
 4.500  0.7887   84.7   0.871   -2.9  0.3353   19.9  0.4610  144.6
 4.600  0.7904   83.4   0.855   -4.0  0.3396   18.7  0.4675  143.4
 4.700  0.7926   82.0   0.840   -5.1  0.3441   17.6  0.4742  142.2
 4.800  0.7951   80.7   0.825   -6.3  0.3486   16.5  0.4811  141.0
 4.900  0.7981   79.4   0.810   -7.5  0.3534   15.4  0.4882  139.9
 5.000  0.8015   78.1   0.796   -8.8  0.3582   14.3  0.4955  138.8
 5.100  0.8005   76.8   0.786   -9.9  0.3622   13.1  0.5019  138.0
 5.200  0.7999   75.5   0.776  -11.0  0.3663   11.9  0.5084  137.1
 5.300  0.7996   74.3   0.766  -12.2  0.3706   10.7  0.5149  136.3
 5.400  0.7998   73.0   0.757  -13.4  0.3750    9.6  0.5216  135.6
 5.500  0.8004   71.7   0.748  -14.6  0.3796    8.5  0.5284  134.8
 5.600  0.7991   70.5   0.738  -15.5  0.3833    7.4  0.5312  134.1
 5.700  0.7981   69.4   0.729  -16.4  0.3871    6.3  0.5341  133.3
 5.800  0.7974   68.2   0.719  -17.3  0.3910    5.2  0.5371  132.6
 5.900  0.7970   67.1   0.710  -18.3  0.3951    4.1  0.5402  131.9
 6.000  0.7970   65.9   0.701  -19.3  0.3993    3.1  0.5433  131.2
!
!  f       NFmin   Gammaopt  rn/50
! GHz       dB    MAG  ANG    -
 0.450      1.39  0.37 -180   0.06
 0.900      1.55  0.46 -166   0.07
 1.900      2.36  0.68 -133   0.30
 2.400      2.76  0.70 -120   0.65
!
! (c) 2017  Infineon Technologies AG, Munich