! Infineon Technologies  Discrete & RF Semiconductors
! BFP196
! VCE =  5.0 V,  IC =  30 mA
! Common Emitter S-Parameters:                            Jan 2017
# GHz  S  MA  R  50
!  f         S11            S21            S12            S22
! GHz     MAG   ANG      MAG   ANG      MAG   ANG      MAG   ANG
 0.010  0.4212  -25.6  62.776  169.7  0.0039   84.0  0.9698  -11.4
 0.020  0.4499  -49.0  61.154  160.3  0.0080   78.3  0.9251  -22.5
 0.030  0.4380  -66.3  55.914  154.0  0.0106   68.3  0.8466  -30.0
 0.040  0.4659  -82.9  51.490  146.5  0.0133   62.3  0.7853  -38.8
 0.050  0.5273  -96.7  48.107  137.7  0.0162   58.4  0.7455  -48.9
 0.060  0.5248 -104.5  44.515  134.9  0.0174   56.0  0.6889  -52.7
 0.070  0.5322 -112.3  41.052  131.6  0.0187   54.0  0.6359  -57.2
 0.080  0.5489 -119.7  37.750  127.6  0.0199   52.2  0.5875  -62.5
 0.090  0.5743 -126.6  34.658  123.0  0.0212   50.6  0.5448  -68.6
 0.100  0.6071 -132.8  31.836  117.5  0.0225   49.2  0.5095  -75.7
 0.110  0.6070 -136.2  29.967  116.0  0.0233   48.9  0.4819  -78.2
 0.120  0.6089 -139.5  28.122  114.2  0.0241   48.6  0.4552  -81.0
 0.130  0.6129 -142.8  26.306  112.3  0.0249   48.4  0.4298  -84.1
 0.140  0.6190 -146.1  24.526  110.0  0.0257   48.1  0.4058  -87.6
 0.150  0.6270 -149.3  22.790  107.4  0.0265   47.9  0.3835  -91.5
 0.200  0.6424 -158.7  17.600  101.1  0.0287   49.5  0.3155 -103.0
 0.250  0.6467 -165.3  14.263   96.5  0.0326   51.4  0.2740 -111.5
 0.300  0.6477 -169.8  11.986   93.3  0.0360   53.9  0.2471 -118.8
 0.350  0.6500 -173.2  10.531   91.1  0.0394   55.7  0.2317 -123.8
 0.400  0.6545 -176.6   9.098   88.1  0.0429   57.3  0.2182 -129.4
 0.450  0.6540 -179.3   8.193   86.3  0.0468   58.4  0.2104 -133.2
 0.500  0.6550  178.0   7.298   84.0  0.0508   59.3  0.2036 -137.2
 0.600  0.6589  173.8   6.116   80.4  0.0588   61.1  0.1970 -143.4
 0.700  0.6605  170.2   5.247   77.3  0.0661   61.8  0.1921 -148.1
 0.800  0.6638  166.7   4.605   74.1  0.0754   62.5  0.1918 -151.6
 0.900  0.6621  163.4   4.090   71.1  0.0832   61.8  0.1931 -154.5
 1.000  0.6677  160.2   3.701   68.3  0.0912   61.8  0.1951 -157.4
 1.100  0.6699  157.3   3.374   65.6  0.0995   61.1  0.1977 -159.4
 1.200  0.6721  154.1   3.098   62.8  0.1078   60.5  0.2006 -161.3
 1.300  0.6747  151.3   2.868   60.3  0.1159   59.8  0.2059 -163.0
 1.400  0.6767  148.6   2.678   57.6  0.1241   59.0  0.2115 -164.9
 1.500  0.6824  145.8   2.501   55.0  0.1322   57.8  0.2173 -166.4
 1.600  0.6856  142.9   2.357   52.4  0.1403   56.9  0.2233 -167.5
 1.700  0.6880  140.2   2.225   49.9  0.1483   55.8  0.2308 -168.8
 1.800  0.6941  137.5   2.111   47.2  0.1561   54.6  0.2387 -170.2
 1.900  0.6990  134.8   2.003   45.0  0.1632   53.6  0.2460 -171.4
 2.000  0.6999  132.3   1.903   42.4  0.1709   52.3  0.2542 -172.5
 2.100  0.7037  129.7   1.817   40.1  0.1782   51.1  0.2622 -173.7
 2.200  0.7090  127.1   1.734   37.6  0.1855   50.0  0.2703 -174.9
 2.300  0.7122  124.8   1.664   35.5  0.1932   48.7  0.2786 -175.8
 2.400  0.7165  122.6   1.597   33.2  0.2009   47.5  0.2870 -176.6
 2.500  0.7204  120.4   1.535   31.2  0.2075   46.2  0.2957 -177.7
 2.600  0.7254  118.2   1.476   29.0  0.2142   44.9  0.3045 -178.8
 2.700  0.7297  116.1   1.425   27.0  0.2207   43.6  0.3117 -179.9
 2.800  0.7349  114.1   1.376   24.9  0.2273   42.3  0.3191  179.1
 2.900  0.7380  112.0   1.331   23.0  0.2336   41.1  0.3262  177.7
 3.000  0.7420  110.0   1.287   21.0  0.2400   39.9  0.3334  176.3
 3.100  0.7441  108.1   1.250   19.4  0.2458   38.7  0.3386  174.8
 3.200  0.7470  106.3   1.215   17.7  0.2516   37.5  0.3441  173.4
 3.300  0.7506  104.4   1.181   15.9  0.2576   36.3  0.3497  172.0
 3.400  0.7550  102.6   1.148   13.9  0.2636   35.2  0.3556  170.7
 3.500  0.7602  100.8   1.116   11.9  0.2698   34.2  0.3616  169.4
 3.600  0.7623   99.2   1.089   10.4  0.2752   32.9  0.3671  167.7
 3.700  0.7651   97.6   1.063    8.9  0.2807   31.6  0.3729  166.1
 3.800  0.7684   96.0   1.037    7.2  0.2863   30.4  0.3790  164.5
 3.900  0.7724   94.4   1.013    5.5  0.2921   29.2  0.3854  163.0
 4.000  0.7769   92.8   0.989    3.7  0.2980   28.1  0.3920  161.5
 4.100  0.7774   91.3   0.967    2.3  0.3032   26.8  0.3985  159.7
 4.200  0.7785   89.8   0.946    0.9  0.3086   25.6  0.4055  158.0
 4.300  0.7800   88.3   0.925   -0.6  0.3141   24.4  0.4127  156.3
 4.400  0.7821   86.9   0.905   -2.2  0.3197   23.2  0.4204  154.7
 4.500  0.7847   85.4   0.886   -3.8  0.3255   22.1  0.4283  153.1
 4.600  0.7867   84.0   0.869   -4.9  0.3302   20.9  0.4359  151.7
 4.700  0.7892   82.7   0.852   -6.1  0.3350   19.8  0.4437  150.3
 4.800  0.7921   81.3   0.836   -7.3  0.3400   18.6  0.4517  149.0
 4.900  0.7954   80.0   0.820   -8.6  0.3451   17.6  0.4600  147.7
 5.000  0.7992   78.7   0.805   -9.9  0.3503   16.5  0.4685  146.5
 5.100  0.7985   77.4   0.794  -11.0  0.3546   15.3  0.4762  145.5
 5.200  0.7982   76.1   0.783  -12.1  0.3591   14.0  0.4841  144.6
 5.300  0.7984   74.8   0.773  -13.2  0.3638   12.9  0.4921  143.7
 5.400  0.7989   73.5   0.763  -14.3  0.3686   11.7  0.5002  142.8
 5.500  0.7999   72.2   0.753  -15.5  0.3735   10.6  0.5084  141.9
 5.600  0.7985   71.0   0.742  -16.4  0.3773    9.5  0.5123  141.1
 5.700  0.7975   69.8   0.732  -17.3  0.3813    8.4  0.5164  140.2
 5.800  0.7968   68.7   0.721  -18.3  0.3854    7.3  0.5206  139.4
 5.900  0.7965   67.5   0.711  -19.3  0.3896    6.2  0.5248  138.6
 6.000  0.7965   66.3   0.701  -20.3  0.3940    5.2  0.5292  137.8
!
!  f       NFmin   Gammaopt  rn/50
! GHz       dB    MAG  ANG    -
 0.450      1.22  0.34  169   0.05
 0.900      1.38  0.45 -172   0.06
 1.900      2.24  0.68 -135   0.25
 2.400      2.64  0.71 -121   0.60
!
! (c) 2017  Infineon Technologies AG, Munich