! Infineon Technologies  Discrete & RF Semiconductors
! BFP196
! VCE =  11. V,  IC =  5.0 mA
! Common Emitter S-Parameters:                            Jan 2017
# GHz  S  MA  R  50
!  f         S11            S21            S12            S22
! GHz     MAG   ANG      MAG   ANG      MAG   ANG      MAG   ANG
 0.010  0.8705   -6.9  16.067  176.3  0.0047   84.2  1.0000   -2.9
 0.020  0.8796  -13.5  16.149  172.6  0.0097   85.1  0.9834   -5.9
 0.030  0.8589  -19.7  15.849  169.0  0.0142   78.5  0.9711   -8.6
 0.040  0.8487  -26.2  15.614  165.2  0.0187   75.1  0.9610  -11.4
 0.050  0.8495  -32.7  15.447  161.4  0.0233   73.0  0.9533  -14.3
 0.060  0.8296  -38.3  15.039  158.5  0.0268   69.2  0.9314  -16.4
 0.070  0.8179  -44.0  14.672  155.4  0.0304   66.2  0.9108  -18.6
 0.080  0.8147  -49.9  14.348  152.2  0.0341   63.9  0.8917  -21.0
 0.090  0.8200  -55.8  14.072  148.9  0.0378   62.0  0.8741  -23.4
 0.100  0.8338  -61.5  13.846  145.4  0.0416   60.5  0.8581  -25.9
 0.110  0.8161  -65.8  13.410  143.1  0.0438   57.7  0.8353  -27.4
 0.120  0.8032  -70.3  12.996  140.7  0.0460   55.1  0.8130  -28.9
 0.130  0.7954  -74.9  12.608  138.1  0.0483   52.8  0.7914  -30.6
 0.140  0.7929  -79.6  12.247  135.3  0.0507   50.7  0.7704  -32.3
 0.150  0.7957  -84.3  11.916  132.4  0.0532   48.8  0.7502  -34.1
 0.200  0.7774 -102.2  10.255  122.7  0.0603   41.9  0.6617  -39.6
 0.250  0.7597 -116.1   8.871  114.6  0.0653   36.6  0.5895  -43.0
 0.300  0.7459 -127.0   7.736  108.8  0.0681   32.9  0.5338  -45.3
 0.350  0.7334 -134.7   6.913  104.6  0.0698   30.7  0.4965  -46.5
 0.400  0.7346 -142.6   6.137   99.4  0.0715   28.7  0.4594  -48.0
 0.450  0.7276 -148.3   5.575   96.2  0.0724   27.9  0.4370  -48.9
 0.500  0.7280 -154.1   5.034   92.4  0.0734   27.1  0.4147  -49.9
 0.600  0.7258 -162.6   4.270   86.6  0.0751   26.3  0.3854  -51.6
 0.700  0.7219 -169.5   3.692   81.8  0.0755   26.9  0.3669  -53.4
 0.800  0.7220 -175.6   3.256   77.1  0.0767   28.2  0.3560  -55.6
 0.900  0.7228  179.1   2.904   72.9  0.0771   29.1  0.3479  -58.1
 1.000  0.7250  174.4   2.634   69.1  0.0783   30.9  0.3415  -60.7
 1.100  0.7270  170.1   2.404   65.4  0.0800   32.9  0.3391  -63.6
 1.200  0.7290  165.9   2.211   61.7  0.0819   34.6  0.3371  -66.7
 1.300  0.7304  162.2   2.048   58.4  0.0837   36.9  0.3371  -69.9
 1.400  0.7356  158.6   1.910   55.0  0.0864   39.4  0.3374  -73.5
 1.500  0.7390  155.2   1.784   51.8  0.0898   41.2  0.3390  -77.0
 1.600  0.7447  151.7   1.678   48.6  0.0930   43.1  0.3426  -80.4
 1.700  0.7476  148.4   1.585   45.6  0.0971   45.3  0.3461  -84.3
 1.800  0.7537  145.1   1.504   42.6  0.1018   46.9  0.3503  -88.0
 1.900  0.7589  142.1   1.423   39.9  0.1071   48.2  0.3555  -91.7
 2.000  0.7600  139.0   1.351   36.9  0.1132   49.3  0.3620  -95.2
 2.100  0.7647  135.9   1.287   34.3  0.1191   50.3  0.3685  -99.0
 2.200  0.7717  132.8   1.226   31.4  0.1250   51.3  0.3766 -102.6
 2.300  0.7746  130.2   1.173   29.1  0.1324   51.8  0.3859 -106.1
 2.400  0.7790  127.7   1.123   26.5  0.1398   52.2  0.3967 -109.5
 2.500  0.7833  125.1   1.076   24.3  0.1472   52.1  0.4056 -113.0
 2.600  0.7892  122.6   1.030   21.9  0.1546   52.1  0.4159 -116.4
 2.700  0.7928  120.2   0.990   19.8  0.1624   51.8  0.4252 -119.6
 2.800  0.7977  117.8   0.952   17.6  0.1703   51.5  0.4357 -122.6
 2.900  0.8010  115.4   0.917   15.7  0.1783   50.9  0.4437 -125.8
 3.000  0.8057  113.1   0.883   13.7  0.1863   50.4  0.4530 -128.8
 3.100  0.8072  111.0   0.855   12.3  0.1948   49.5  0.4588 -131.9
 3.200  0.8097  108.9   0.827   10.7  0.2033   48.6  0.4659 -134.9
 3.300  0.8133  106.8   0.801    9.1  0.2118   47.9  0.4743 -137.9
 3.400  0.8181  104.7   0.774    7.4  0.2204   47.2  0.4839 -140.7
 3.500  0.8238  102.7   0.749    5.5  0.2290   46.5  0.4946 -143.4
 3.600  0.8249  100.9   0.729    4.4  0.2372   45.1  0.4992 -146.5
 3.700  0.8267   99.1   0.710    3.1  0.2455   43.9  0.5051 -149.5
 3.800  0.8294   97.3   0.690    1.9  0.2539   42.7  0.5125 -152.4
 3.900  0.8330   95.5   0.671    0.5  0.2625   41.5  0.5211 -155.3
 4.000  0.8373   93.7   0.653   -0.9  0.2711   40.5  0.5310 -158.0
 4.100  0.8362   92.0   0.639   -1.8  0.2789   38.9  0.5356 -161.1
 4.200  0.8358   90.3   0.625   -2.8  0.2869   37.5  0.5418 -164.2
 4.300  0.8361   88.7   0.611   -3.8  0.2951   36.1  0.5494 -167.1
 4.400  0.8371   87.0   0.597   -4.8  0.3035   34.7  0.5585 -170.0
 4.500  0.8389   85.3   0.584   -5.9  0.3120   33.5  0.5690 -172.8
 4.600  0.8398   83.9   0.573   -6.5  0.3190   32.0  0.5752 -175.5
 4.700  0.8413   82.4   0.563   -7.1  0.3262   30.6  0.5827 -178.2
 4.800  0.8432   81.0   0.553   -7.7  0.3336   29.2  0.5914  179.2
 4.900  0.8457   79.6   0.542   -8.3  0.3412   27.9  0.6012  176.7
 5.000  0.8487   78.2   0.532   -9.0  0.3489   26.6  0.6122  174.3
 5.100  0.8466   76.8   0.527   -9.5  0.3548   25.1  0.6196  172.1
 5.200  0.8450   75.4   0.522  -10.0  0.3609   23.6  0.6278  170.0
 5.300  0.8440   73.9   0.517  -10.5  0.3672   22.1  0.6369  168.0
 5.400  0.8434   72.5   0.512  -11.0  0.3738   20.7  0.6467  166.0
 5.500  0.8434   71.1   0.507  -11.5  0.3806   19.4  0.6573  164.1
 5.600  0.8412   69.9   0.503  -11.9  0.3858   18.0  0.6611  162.4
 5.700  0.8394   68.6   0.499  -12.4  0.3912   16.6  0.6654  160.7
 5.800  0.8380   67.4   0.494  -12.8  0.3968   15.3  0.6703  159.0
 5.900  0.8370   66.1   0.490  -13.2  0.4027   14.0  0.6758  157.4
 6.000  0.8364   64.9   0.486  -13.7  0.4087   12.7  0.6818  155.8
!
!  f       NFmin   Gammaopt  rn/50
! GHz       dB    MAG  ANG    -
 0.450      1.01  0.42  127   0.08
 0.900      1.47  0.55  170   0.06
 1.900      2.90  0.74 -142   0.31
 2.400      3.55  0.76 -125   0.95
!
! (c) 2017  Infineon Technologies AG, Munich