! Infineon Technologies  Discrete & RF Semiconductors
! BFP196
! VCE =  1.0 V,  IC =  45 mA
! Common Emitter S-Parameters:                            Jan 2017
# GHz  S  MA  R  50
!  f         S11            S21            S12            S22
! GHz     MAG   ANG      MAG   ANG      MAG   ANG      MAG   ANG
 0.010  0.2610  -68.1  74.792  163.8  0.0051   74.5  0.9102  -22.1
 0.020  0.4051  -99.3  68.590  149.8  0.0087   67.8  0.8350  -42.3
 0.030  0.4487 -115.7  59.436  143.5  0.0111   59.1  0.7226  -53.2
 0.040  0.5215 -128.4  51.258  135.0  0.0137   53.5  0.6449  -67.4
 0.050  0.6134 -137.7  44.594  123.7  0.0164   49.8  0.6152  -84.1
 0.060  0.6238 -142.3  40.623  121.6  0.0173   49.4  0.5705  -89.5
 0.070  0.6382 -146.8  36.720  119.0  0.0182   49.1  0.5316  -95.7
 0.080  0.6563 -151.1  32.907  115.9  0.0190   48.8  0.4999 -102.8
 0.090  0.6777 -155.1  29.220  111.9  0.0199   48.5  0.4767 -110.7
 0.100  0.7023 -158.8  25.714  106.8  0.0208   48.2  0.4635 -119.2
 0.110  0.7042 -160.7  24.077  105.7  0.0217   48.7  0.4505 -122.4
 0.120  0.7068 -162.5  22.450  104.5  0.0226   49.2  0.4389 -125.7
 0.130  0.7101 -164.3  20.836  103.0  0.0234   49.6  0.4289 -129.2
 0.140  0.7142 -166.1  19.236  101.4  0.0243   50.0  0.4205 -132.9
 0.150  0.7189 -167.9  17.656   99.4  0.0252   50.4  0.4140 -136.7
 0.200  0.7290 -172.9  13.382   94.7  0.0287   55.1  0.3951 -147.1
 0.250  0.7326 -176.8  10.765   91.2  0.0334   57.2  0.3839 -153.9
 0.300  0.7316 -179.7   9.001   88.7  0.0378   60.2  0.3787 -159.0
 0.350  0.7326  178.0   7.893   86.8  0.0424   61.5  0.3760 -162.2
 0.400  0.7348  175.7   6.796   84.3  0.0471   62.5  0.3746 -165.5
 0.450  0.7350  173.7   6.116   82.7  0.0522   63.4  0.3736 -167.7
 0.500  0.7360  171.8   5.441   80.7  0.0573   64.1  0.3731 -170.0
 0.600  0.7398  168.4   4.557   77.5  0.0672   64.6  0.3746 -173.5
 0.700  0.7394  165.4   3.911   74.6  0.0765   65.2  0.3743 -176.3
 0.800  0.7418  162.3   3.431   71.4  0.0873   65.0  0.3766 -178.5
 0.900  0.7399  159.3   3.053   68.7  0.0970   63.5  0.3790  179.7
 1.000  0.7436  156.6   2.766   65.9  0.1065   62.9  0.3821  177.6
 1.100  0.7463  153.7   2.526   63.3  0.1172   61.9  0.3843  176.2
 1.200  0.7480  150.8   2.323   60.5  0.1262   60.6  0.3863  174.6
 1.300  0.7499  148.1   2.155   58.0  0.1355   59.6  0.3901  173.4
 1.400  0.7509  145.4   2.016   55.3  0.1457   58.2  0.3957  172.0
 1.500  0.7550  142.8   1.886   52.8  0.1542   56.9  0.4000  170.7
 1.600  0.7569  140.0   1.781   50.2  0.1637   55.4  0.4034  169.6
 1.700  0.7600  137.3   1.687   47.7  0.1729   54.1  0.4096  168.6
 1.800  0.7643  134.7   1.604   45.1  0.1817   52.5  0.4155  167.4
 1.900  0.7673  132.2   1.526   42.9  0.1898   51.2  0.4211  166.3
 2.000  0.7663  129.7   1.454   40.3  0.1985   49.7  0.4262  165.4
 2.100  0.7690  127.1   1.392   38.1  0.2062   48.2  0.4320  164.3
 2.200  0.7733  124.5   1.332   35.7  0.2141   46.8  0.4380  163.2
 2.300  0.7745  122.3   1.283   33.6  0.2222   45.3  0.4431  162.4
 2.400  0.7769  120.1   1.235   31.4  0.2305   43.9  0.4482  161.6
 2.500  0.7793  117.9   1.191   29.4  0.2375   42.4  0.4545  160.6
 2.600  0.7829  115.7   1.149   27.3  0.2446   40.9  0.4610  159.7
 2.700  0.7850  113.7   1.112   25.5  0.2510   39.5  0.4651  158.7
 2.800  0.7880  111.7   1.076   23.5  0.2576   38.1  0.4694  157.7
 2.900  0.7893  109.6   1.044   21.7  0.2641   36.6  0.4743  156.5
 3.000  0.7917  107.6   1.014   19.8  0.2707   35.2  0.4794  155.4
 3.100  0.7923  105.8   0.989   18.3  0.2761   33.8  0.4821  154.1
 3.200  0.7937  103.9   0.964   16.7  0.2817   32.5  0.4850  152.9
 3.300  0.7960  102.1   0.941   15.0  0.2875   31.3  0.4881  151.6
 3.400  0.7990  100.3   0.918   13.2  0.2933   30.1  0.4914  150.4
 3.500  0.8028   98.5   0.896   11.3  0.2993   28.9  0.4950  149.2
 3.600  0.8034   96.9   0.877    9.9  0.3043   27.6  0.4985  147.8
 3.700  0.8046   95.3   0.859    8.5  0.3095   26.3  0.5023  146.4
 3.800  0.8064   93.7   0.841    7.0  0.3148   25.1  0.5063  145.1
 3.900  0.8089   92.2   0.824    5.4  0.3203   23.9  0.5107  143.7
 4.000  0.8119   90.6   0.808    3.8  0.3259   22.7  0.5153  142.4
 4.100  0.8115   89.1   0.793    2.5  0.3306   21.4  0.5200  141.0
 4.200  0.8116   87.7   0.779    1.2  0.3354   20.2  0.5251  139.6
 4.300  0.8122   86.2   0.765   -0.2  0.3404   18.9  0.5304  138.2
 4.400  0.8133   84.8   0.752   -1.6  0.3456   17.7  0.5361  136.9
 4.500  0.8150   83.3   0.739   -3.1  0.3509   16.6  0.5420  135.6
 4.600  0.8156   82.0   0.728   -4.1  0.3550   15.4  0.5471  134.5
 4.700  0.8166   80.7   0.717   -5.2  0.3592   14.2  0.5524  133.4
 4.800  0.8180   79.4   0.706   -6.2  0.3636   13.1  0.5580  132.3
 4.900  0.8198   78.2   0.696   -7.4  0.3681   12.0  0.5637  131.2
 5.000  0.8220   76.9   0.686   -8.5  0.3728   10.9  0.5696  130.2
 5.100  0.8203   75.6   0.680   -9.5  0.3766    9.7  0.5745  129.5
 5.200  0.8191   74.3   0.673  -10.6  0.3805    8.5  0.5796  128.7
 5.300  0.8183   73.1   0.667  -11.6  0.3846    7.4  0.5847  128.0
 5.400  0.8178   71.8   0.662  -12.7  0.3889    6.3  0.5899  127.3
 5.500  0.8178   70.5   0.656  -13.8  0.3933    5.2  0.5952  126.6
 5.600  0.8161   69.4   0.649  -14.7  0.3966    4.1  0.5964  125.9
 5.700  0.8147   68.2   0.643  -15.6  0.4001    3.0  0.5977  125.2
 5.800  0.8136   67.1   0.636  -16.5  0.4037    2.0  0.5991  124.5
 5.900  0.8128   65.9   0.630  -17.4  0.4075    0.9  0.6005  123.8
 6.000  0.8124   64.8   0.624  -18.4  0.4114   -0.1  0.6021  123.1
!
!  f       NFmin   Gammaopt  rn/50
! GHz       dB    MAG  ANG    -
 0.450      1.39  0.37 -180   0.06
 0.900      1.55  0.46 -166   0.07
 1.900      2.36  0.68 -133   0.30
 2.400      2.76  0.70 -120   0.65
!
! (c) 2017  Infineon Technologies AG, Munich