! Infineon Technologies  Discrete & RF Semiconductors
! BFP196
! VCE =  10. V,  IC =  5.0 mA
! Common Emitter S-Parameters:                            Jan 2017
# GHz  S  MA  R  50
!  f         S11            S21            S12            S22
! GHz     MAG   ANG      MAG   ANG      MAG   ANG      MAG   ANG
 0.010  0.8653   -6.9  16.076  176.2  0.0045   84.5  1.0000   -2.9
 0.020  0.8761  -13.6  16.255  172.5  0.0097   83.3  0.9903   -6.0
 0.030  0.8552  -19.9  15.921  168.9  0.0143   77.4  0.9757   -8.7
 0.040  0.8451  -26.5  15.653  165.2  0.0190   74.3  0.9634  -11.5
 0.050  0.8462  -33.1  15.454  161.3  0.0237   72.5  0.9535  -14.4
 0.060  0.8259  -38.6  15.038  158.4  0.0273   68.8  0.9314  -16.5
 0.070  0.8136  -44.4  14.664  155.3  0.0309   65.9  0.9107  -18.8
 0.080  0.8098  -50.3  14.334  152.1  0.0346   63.7  0.8915  -21.1
 0.090  0.8146  -56.2  14.052  148.7  0.0384   61.9  0.8738  -23.6
 0.100  0.8277  -61.9  13.820  145.2  0.0422   60.4  0.8577  -26.1
 0.110  0.8105  -66.2  13.383  142.9  0.0443   57.6  0.8346  -27.6
 0.120  0.7981  -70.7  12.968  140.5  0.0464   55.1  0.8121  -29.2
 0.130  0.7908  -75.4  12.578  137.9  0.0487   52.8  0.7902  -30.9
 0.140  0.7887  -80.0  12.215  135.2  0.0510   50.7  0.7691  -32.6
 0.150  0.7919  -84.7  11.881  132.3  0.0534   48.8  0.7487  -34.5
 0.200  0.7772 -102.8  10.232  122.5  0.0603   42.2  0.6604  -39.9
 0.250  0.7588 -116.6   8.844  114.4  0.0654   36.6  0.5877  -43.4
 0.300  0.7458 -127.4   7.713  108.7  0.0686   32.9  0.5315  -45.8
 0.350  0.7336 -135.1   6.892  104.5  0.0700   31.0  0.4940  -47.0
 0.400  0.7349 -142.9   6.116   99.3  0.0715   29.2  0.4567  -48.4
 0.450  0.7271 -148.6   5.555   96.1  0.0727   28.1  0.4342  -49.3
 0.500  0.7265 -154.3   5.015   92.3  0.0740   27.1  0.4119  -50.4
 0.600  0.7247 -162.8   4.254   86.6  0.0753   26.4  0.3828  -52.2
 0.700  0.7220 -169.7   3.676   81.6  0.0756   27.1  0.3642  -54.0
 0.800  0.7224 -175.8   3.245   77.0  0.0767   28.2  0.3531  -56.2
 0.900  0.7232  179.0   2.892   72.8  0.0777   29.1  0.3449  -58.7
 1.000  0.7248  174.2   2.622   68.9  0.0785   30.8  0.3387  -61.4
 1.100  0.7273  169.9   2.394   65.3  0.0803   32.8  0.3367  -64.2
 1.200  0.7294  165.9   2.204   61.6  0.0819   34.6  0.3347  -67.3
 1.300  0.7305  162.1   2.039   58.2  0.0837   36.9  0.3348  -70.6
 1.400  0.7354  158.5   1.902   54.9  0.0868   39.3  0.3350  -74.2
 1.500  0.7408  155.1   1.777   51.8  0.0896   41.1  0.3366  -77.6
 1.600  0.7453  151.6   1.671   48.5  0.0937   43.2  0.3409  -81.1
 1.700  0.7488  148.4   1.578   45.5  0.0976   45.4  0.3435  -85.1
 1.800  0.7549  145.0   1.497   42.4  0.1030   46.6  0.3480  -88.8
 1.900  0.7588  142.0   1.418   39.8  0.1076   48.3  0.3538  -92.5
 2.000  0.7611  138.9   1.346   36.8  0.1134   49.3  0.3605  -96.0
 2.100  0.7653  135.8   1.282   34.2  0.1195   50.2  0.3673  -99.7
 2.200  0.7717  132.8   1.221   31.3  0.1256   51.1  0.3756 -103.3
 2.300  0.7750  130.2   1.168   28.9  0.1330   51.6  0.3848 -106.9
 2.400  0.7799  127.7   1.118   26.3  0.1405   52.0  0.3955 -110.3
 2.500  0.7843  125.1   1.071   24.1  0.1480   51.9  0.4046 -113.8
 2.600  0.7903  122.5   1.026   21.7  0.1555   51.9  0.4151 -117.1
 2.700  0.7941  120.1   0.987   19.7  0.1632   51.6  0.4245 -120.3
 2.800  0.7992  117.7   0.949   17.6  0.1710   51.4  0.4352 -123.3
 2.900  0.8025  115.4   0.914   15.7  0.1789   50.7  0.4433 -126.5
 3.000  0.8070  113.1   0.881   13.6  0.1868   50.1  0.4526 -129.5
 3.100  0.8083  111.0   0.853   12.2  0.1953   49.2  0.4586 -132.6
 3.200  0.8107  108.8   0.825   10.6  0.2038   48.3  0.4658 -135.7
 3.300  0.8142  106.7   0.799    9.0  0.2124   47.6  0.4744 -138.6
 3.400  0.8187  104.7   0.772    7.3  0.2210   46.9  0.4841 -141.4
 3.500  0.8244  102.6   0.747    5.4  0.2297   46.2  0.4950 -144.1
 3.600  0.8255  100.8   0.727    4.3  0.2379   44.9  0.4996 -147.2
 3.700  0.8274   98.9   0.708    3.0  0.2463   43.6  0.5056 -150.2
 3.800  0.8302   97.1   0.688    1.8  0.2548   42.4  0.5129 -153.1
 3.900  0.8338   95.3   0.669    0.4  0.2633   41.3  0.5216 -156.0
 4.000  0.8382   93.5   0.651   -1.0  0.2720   40.3  0.5315 -158.7
 4.100  0.8372   91.9   0.637   -1.9  0.2798   38.7  0.5362 -161.8
 4.200  0.8370   90.2   0.623   -2.8  0.2878   37.3  0.5424 -164.8
 4.300  0.8374   88.6   0.608   -3.7  0.2960   35.9  0.5501 -167.8
 4.400  0.8385   86.9   0.595   -4.7  0.3044   34.5  0.5592 -170.6
 4.500  0.8403   85.3   0.581   -5.7  0.3129   33.3  0.5697 -173.4
 4.600  0.8410   83.9   0.571   -6.3  0.3197   31.8  0.5760 -176.1
 4.700  0.8421   82.4   0.561   -6.9  0.3268   30.4  0.5835 -178.7
 4.800  0.8439   81.0   0.551   -7.6  0.3341   29.0  0.5923  178.7
 4.900  0.8461   79.5   0.541   -8.3  0.3415   27.7  0.6022  176.2
 5.000  0.8489   78.1   0.531   -9.0  0.3491   26.4  0.6132  173.8
 5.100  0.8470   76.7   0.526   -9.5  0.3551   24.9  0.6205  171.6
 5.200  0.8455   75.3   0.521  -10.0  0.3614   23.4  0.6286  169.5
 5.300  0.8446   73.9   0.516  -10.5  0.3680   21.9  0.6376  167.5
 5.400  0.8441   72.5   0.511  -11.1  0.3747   20.5  0.6473  165.5
 5.500  0.8442   71.1   0.506  -11.6  0.3817   19.2  0.6578  163.6
 5.600  0.8418   69.9   0.502  -12.0  0.3867   17.8  0.6616  161.9
 5.700  0.8398   68.6   0.498  -12.4  0.3920   16.5  0.6659  160.2
 5.800  0.8382   67.4   0.494  -12.8  0.3975   15.1  0.6707  158.6
 5.900  0.8369   66.1   0.490  -13.3  0.4031   13.8  0.6762  157.0
 6.000  0.8361   64.9   0.486  -13.7  0.4090   12.6  0.6821  155.4
!
!  f       NFmin   Gammaopt  rn/50
! GHz       dB    MAG  ANG    -
 0.450      1.01  0.42  127   0.08
 0.900      1.47  0.55  170   0.06
 1.900      2.90  0.74 -142   0.31
 2.400      3.55  0.76 -125   0.95
!
! (c) 2017  Infineon Technologies AG, Munich