! Infineon Technologies  Discrete & RF Semiconductors
! BFP196
! VCE =  9.0 V,  IC =  25 mA
! Common Emitter S-Parameters:                            Jan 2017
# GHz  S  MA  R  50
!  f         S11            S21            S12            S22
! GHz     MAG   ANG      MAG   ANG      MAG   ANG      MAG   ANG
 0.010  0.5216  -18.7  55.309  171.1  0.0039   78.9  0.9732   -9.0
 0.020  0.5364  -36.9  54.443  163.1  0.0071   80.1  0.9436  -18.0
 0.030  0.5108  -51.2  50.637  157.1  0.0101   69.4  0.8791  -24.5
 0.040  0.5192  -66.0  47.471  150.2  0.0133   63.8  0.8276  -31.9
 0.050  0.5599  -79.5  45.078  142.5  0.0166   60.3  0.7915  -40.1
 0.060  0.5468  -87.6  42.040  139.5  0.0180   57.8  0.7379  -43.6
 0.070  0.5450  -95.9  39.136  136.0  0.0193   55.7  0.6874  -47.5
 0.080  0.5546 -104.1  36.399  132.0  0.0207   53.8  0.6407  -52.1
 0.090  0.5751 -111.9  33.870  127.3  0.0222   52.2  0.5988  -57.4
 0.100  0.6053 -119.0  31.597  122.0  0.0236   50.8  0.5626  -63.4
 0.110  0.6019 -123.0  29.833  120.3  0.0244   49.9  0.5321  -65.5
 0.120  0.6015 -127.1  28.099  118.4  0.0252   49.0  0.5025  -67.9
 0.130  0.6041 -131.1  26.401  116.2  0.0260   48.2  0.4738  -70.5
 0.140  0.6096 -135.1  24.746  113.7  0.0269   47.4  0.4463  -73.5
 0.150  0.6181 -139.0  23.143  110.9  0.0277   46.7  0.4201  -76.9
 0.200  0.6292 -150.5  18.070  103.9  0.0302   48.1  0.3376  -86.2
 0.250  0.6330 -158.5  14.729   98.8  0.0340   48.2  0.2838  -93.0
 0.300  0.6349 -164.2  12.403   95.3  0.0366   50.1  0.2471  -99.1
 0.350  0.6344 -168.2  10.911   92.8  0.0398   52.0  0.2248 -103.0
 0.400  0.6369 -172.2   9.446   89.6  0.0431   53.7  0.2038 -107.8
 0.450  0.6375 -175.3   8.513   87.7  0.0464   54.9  0.1917 -111.3
 0.500  0.6399 -178.4   7.592   85.3  0.0498   56.0  0.1805 -115.3
 0.600  0.6435  176.8   6.367   81.5  0.0570   57.6  0.1672 -121.6
 0.700  0.6440  172.8   5.466   78.2  0.0635   58.9  0.1581 -126.3
 0.800  0.6482  168.9   4.798   74.8  0.0714   59.9  0.1555 -130.2
 0.900  0.6480  165.3   4.262   71.9  0.0790   60.0  0.1546 -134.0
 1.000  0.6514  162.2   3.856   69.0  0.0865   60.1  0.1547 -137.5
 1.100  0.6568  158.8   3.516   66.2  0.0942   59.9  0.1564 -139.8
 1.200  0.6564  155.7   3.228   63.3  0.1017   59.3  0.1590 -142.6
 1.300  0.6586  152.7   2.988   60.7  0.1091   58.9  0.1638 -144.7
 1.400  0.6636  149.9   2.788   58.0  0.1172   58.3  0.1693 -147.3
 1.500  0.6671  147.1   2.603   55.4  0.1245   57.5  0.1747 -149.5
 1.600  0.6719  144.2   2.450   52.7  0.1319   56.6  0.1812 -151.1
 1.700  0.6746  141.4   2.313   50.2  0.1396   55.9  0.1895 -152.9
 1.800  0.6815  138.6   2.197   47.6  0.1474   54.7  0.1968 -154.9
 1.900  0.6847  136.0   2.082   45.3  0.1539   54.0  0.2050 -156.7
 2.000  0.6871  133.4   1.978   42.7  0.1616   52.8  0.2135 -158.1
 2.100  0.6918  130.8   1.888   40.4  0.1685   51.8  0.2221 -159.9
 2.200  0.6980  128.2   1.802   37.8  0.1755   50.8  0.2308 -161.5
 2.300  0.7007  125.9   1.729   35.7  0.1830   49.6  0.2400 -162.6
 2.400  0.7045  123.6   1.658   33.4  0.1906   48.4  0.2493 -163.7
 2.500  0.7089  121.3   1.593   31.3  0.1970   47.2  0.2589 -165.2
 2.600  0.7143  119.1   1.530   29.1  0.2035   46.0  0.2686 -166.6
 2.700  0.7188  117.0   1.476   27.1  0.2100   44.8  0.2767 -167.9
 2.800  0.7242  115.0   1.424   24.9  0.2166   43.7  0.2850 -169.2
 2.900  0.7278  112.9   1.376   23.0  0.2228   42.5  0.2925 -170.9
 3.000  0.7323  110.8   1.330   20.9  0.2291   41.4  0.3003 -172.5
 3.100  0.7346  108.9   1.291   19.3  0.2350   40.2  0.3063 -174.2
 3.200  0.7378  107.1   1.253   17.5  0.2410   39.0  0.3125 -175.8
 3.300  0.7417  105.2   1.217   15.7  0.2471   37.9  0.3189 -177.4
 3.400  0.7463  103.4   1.182   13.8  0.2533   36.9  0.3256 -178.9
 3.500  0.7517  101.6   1.148   11.7  0.2596   35.9  0.3325  179.7
 3.600  0.7543  100.0   1.119   10.2  0.2652   34.6  0.3385  177.8
 3.700  0.7574   98.3   1.092    8.6  0.2709   33.4  0.3448  176.0
 3.800  0.7612   96.7   1.065    7.0  0.2767   32.3  0.3515  174.2
 3.900  0.7656   95.1   1.039    5.2  0.2827   31.2  0.3585  172.5
 4.000  0.7706   93.5   1.014    3.4  0.2887   30.1  0.3658  170.9
 4.100  0.7715   92.0   0.991    2.0  0.2942   28.8  0.3726  168.9
 4.200  0.7728   90.5   0.969    0.6  0.2998   27.6  0.3799  166.9
 4.300  0.7748   89.0   0.948   -0.9  0.3055   26.4  0.3876  165.0
 4.400  0.7772   87.5   0.927   -2.5  0.3114   25.3  0.3956  163.2
 4.500  0.7802   86.0   0.907   -4.1  0.3174   24.2  0.4041  161.5
 4.600  0.7824   84.6   0.888   -5.3  0.3224   23.0  0.4124  159.9
 4.700  0.7849   83.3   0.870   -6.5  0.3275   21.9  0.4210  158.3
 4.800  0.7880   81.9   0.852   -7.7  0.3328   20.7  0.4299  156.8
 4.900  0.7914   80.6   0.835   -9.0  0.3382   19.6  0.4390  155.3
 5.000  0.7953   79.3   0.818  -10.4  0.3437   18.6  0.4485  153.9
 5.100  0.7949   78.0   0.806  -11.5  0.3482   17.4  0.4571  152.7
 5.200  0.7950   76.6   0.794  -12.6  0.3529   16.1  0.4660  151.6
 5.300  0.7954   75.3   0.782  -13.7  0.3577   15.0  0.4749  150.5
 5.400  0.7963   73.9   0.771  -14.9  0.3627   13.8  0.4841  149.5
 5.500  0.7977   72.6   0.760  -16.1  0.3678   12.7  0.4934  148.5
 5.600  0.7967   71.4   0.748  -17.0  0.3718   11.5  0.4983  147.5
 5.700  0.7961   70.2   0.737  -17.9  0.3759   10.4  0.5033  146.6
 5.800  0.7958   69.1   0.726  -18.9  0.3802    9.3  0.5085  145.6
 5.900  0.7959   67.9   0.715  -19.9  0.3846    8.2  0.5138  144.7
 6.000  0.7963   66.7   0.704  -20.9  0.3892    7.1  0.5192  143.8
!
!  f       NFmin   Gammaopt  rn/50
! GHz       dB    MAG  ANG    -
 0.450      1.15  0.34  164   0.05
 0.900      1.34  0.45 -176   0.06
 1.900      2.21  0.68 -136   0.24
 2.400      2.64  0.71 -122   0.59
!
! (c) 2017  Infineon Technologies AG, Munich