! Infineon Technologies  Discrete & RF Semiconductors
! BFP196
! VCE =  1.0 V,  IC =  50 mA
! Common Emitter S-Parameters:                            Jan 2017
# GHz  S  MA  R  50
!  f         S11            S21            S12            S22
! GHz     MAG   ANG      MAG   ANG      MAG   ANG      MAG   ANG
 0.010  0.2478  -78.1  77.375  162.9  0.0047   76.9  0.8979  -23.4
 0.020  0.4059 -106.5  69.730  148.5  0.0093   68.3  0.8181  -44.8
 0.030  0.4568 -121.7  60.196  142.2  0.0113   59.9  0.7050  -55.9
 0.040  0.5327 -133.2  51.641  133.8  0.0134   54.2  0.6273  -70.4
 0.050  0.6244 -141.6  44.634  122.3  0.0157   50.0  0.5989  -87.6
 0.060  0.6351 -145.9  40.622  120.3  0.0165   49.8  0.5568  -93.0
 0.070  0.6493 -150.0  36.674  117.8  0.0173   49.6  0.5205  -99.2
 0.080  0.6668 -154.0  32.811  114.7  0.0181   49.4  0.4911 -106.2
 0.090  0.6872 -157.7  29.068  110.8  0.0189   49.2  0.4699 -114.0
 0.100  0.7103 -161.2  25.497  105.8  0.0197   49.1  0.4582 -122.4
 0.110  0.7123 -162.9  23.864  104.8  0.0206   50.0  0.4465 -125.5
 0.120  0.7149 -164.5  22.240  103.6  0.0215   50.8  0.4361 -128.8
 0.130  0.7181 -166.2  20.626  102.3  0.0224   51.6  0.4273 -132.2
 0.140  0.7219 -167.8  19.026  100.7  0.0233   52.3  0.4200 -135.7
 0.150  0.7263 -169.4  17.443   98.8  0.0242   52.9  0.4144 -139.4
 0.200  0.7320 -174.1  13.213   94.2  0.0275   56.5  0.3974 -149.4
 0.250  0.7371 -177.9  10.613   90.8  0.0330   59.8  0.3880 -155.9
 0.300  0.7358  179.5   8.868   88.4  0.0370   61.6  0.3835 -160.8
 0.350  0.7366  177.3   7.776   86.5  0.0423   63.2  0.3810 -163.8
 0.400  0.7384  175.2   6.695   84.0  0.0476   64.4  0.3796 -166.9
 0.450  0.7392  173.3   6.025   82.4  0.0523   64.7  0.3789 -169.0
 0.500  0.7409  171.4   5.360   80.5  0.0571   65.0  0.3788 -171.2
 0.600  0.7446  168.1   4.490   77.3  0.0675   65.4  0.3809 -174.5
 0.700  0.7457  165.1   3.854   74.5  0.0770   66.0  0.3801 -177.1
 0.800  0.7468  162.1   3.382   71.3  0.0879   65.5  0.3827 -179.3
 0.900  0.7449  159.0   3.008   68.5  0.0974   64.4  0.3853  179.0
 1.000  0.7489  156.4   2.724   65.8  0.1076   63.1  0.3881  177.0
 1.100  0.7507  153.4   2.489   63.1  0.1175   62.4  0.3903  175.5
 1.200  0.7528  150.7   2.289   60.4  0.1268   61.2  0.3921  174.0
 1.300  0.7535  147.9   2.124   57.9  0.1364   59.8  0.3962  172.7
 1.400  0.7559  145.3   1.989   55.2  0.1459   58.7  0.4015  171.3
 1.500  0.7593  142.6   1.860   52.7  0.1554   57.2  0.4061  170.0
 1.600  0.7617  139.8   1.757   50.0  0.1648   55.6  0.4094  169.0
 1.700  0.7636  137.2   1.664   47.5  0.1740   54.4  0.4157  167.9
 1.800  0.7677  134.6   1.584   45.0  0.1830   53.0  0.4215  166.8
 1.900  0.7696  131.9   1.506   42.8  0.1909   51.4  0.4266  165.7
 2.000  0.7710  129.4   1.435   40.2  0.1994   49.8  0.4315  164.8
 2.100  0.7732  126.8   1.374   38.0  0.2074   48.2  0.4373  163.7
 2.200  0.7769  124.3   1.315   35.6  0.2155   46.8  0.4432  162.6
 2.300  0.7781  122.1   1.266   33.6  0.2235   45.3  0.4483  161.8
 2.400  0.7804  120.0   1.218   31.4  0.2317   44.0  0.4534  161.0
 2.500  0.7823  117.8   1.176   29.4  0.2387   42.5  0.4594  160.0
 2.600  0.7853  115.6   1.135   27.3  0.2458   41.0  0.4656  159.1
 2.700  0.7877  113.5   1.099   25.4  0.2521   39.5  0.4698  158.1
 2.800  0.7911  111.5   1.064   23.4  0.2586   38.1  0.4741  157.2
 2.900  0.7931  109.4   1.032   21.6  0.2650   36.6  0.4788  155.9
 3.000  0.7961  107.4   1.002   19.7  0.2715   35.2  0.4838  154.7
 3.100  0.7963  105.6   0.977   18.2  0.2770   33.9  0.4864  153.5
 3.200  0.7973  103.8   0.954   16.6  0.2827   32.6  0.4892  152.2
 3.300  0.7991  102.0   0.931   14.9  0.2885   31.3  0.4922  151.0
 3.400  0.8017  100.2   0.908   13.1  0.2944   30.1  0.4954  149.8
 3.500  0.8051   98.4   0.887   11.3  0.3005   29.0  0.4989  148.6
 3.600  0.8056   96.8   0.868    9.9  0.3055   27.6  0.5024  147.2
 3.700  0.8067   95.2   0.850    8.4  0.3107   26.3  0.5061  145.9
 3.800  0.8084   93.6   0.833    6.9  0.3161   25.0  0.5102  144.5
 3.900  0.8108   92.1   0.816    5.3  0.3216   23.8  0.5145  143.2
 4.000  0.8137   90.5   0.800    3.7  0.3272   22.6  0.5191  141.9
 4.100  0.8131   89.0   0.786    2.4  0.3318   21.3  0.5236  140.5
 4.200  0.8130   87.6   0.772    1.1  0.3365   20.1  0.5285  139.1
 4.300  0.8135   86.1   0.759   -0.2  0.3414   18.8  0.5336  137.7
 4.400  0.8145   84.7   0.746   -1.6  0.3465   17.6  0.5391  136.3
 4.500  0.8160   83.2   0.734   -3.1  0.3517   16.5  0.5448  135.0
 4.600  0.8166   81.9   0.723   -4.1  0.3558   15.3  0.5498  133.9
 4.700  0.8176   80.6   0.712   -5.1  0.3601   14.1  0.5550  132.8
 4.800  0.8190   79.3   0.701   -6.2  0.3645   13.0  0.5604  131.8
 4.900  0.8209   78.1   0.691   -7.3  0.3690   11.9  0.5660  130.7
 5.000  0.8231   76.8   0.681   -8.4  0.3737   10.8  0.5718  129.7
 5.100  0.8217   75.5   0.675   -9.4  0.3775    9.6  0.5767  129.0
 5.200  0.8206   74.2   0.668  -10.5  0.3814    8.4  0.5816  128.2
 5.300  0.8200   73.0   0.662  -11.5  0.3855    7.3  0.5866  127.5
 5.400  0.8198   71.7   0.657  -12.6  0.3897    6.2  0.5918  126.8
 5.500  0.8200   70.4   0.651  -13.7  0.3941    5.1  0.5970  126.1
 5.600  0.8184   69.3   0.645  -14.6  0.3974    4.0  0.5981  125.4
 5.700  0.8171   68.1   0.638  -15.5  0.4008    2.9  0.5993  124.7
 5.800  0.8162   67.0   0.632  -16.5  0.4044    1.9  0.6006  124.1
 5.900  0.8156   65.8   0.627  -17.4  0.4081    0.8  0.6020  123.4
 6.000  0.8153   64.7   0.621  -18.4  0.4119   -0.2  0.6035  122.7
!
!  f       NFmin   Gammaopt  rn/50
! GHz       dB    MAG  ANG    -
 0.450      1.45  0.40 -176   0.06
 0.900      1.60  0.47 -164   0.08
 1.900      2.42  0.68 -132   0.32
 2.400      2.82  0.70 -119   0.66
!
! (c) 2017  Infineon Technologies AG, Munich