! Infineon Technologies  Discrete & RF Semiconductors
! BFP196
! VCE =  1.0 V,  IC = 0.15 A
! Common Emitter S-Parameters:                            Jan 2017
# GHz  S  MA  R  50
!  f         S11            S21            S12            S22
! GHz     MAG   ANG      MAG   ANG      MAG   ANG      MAG   ANG
 0.010  0.5961 -155.3  47.448  145.2  0.0061   51.4  0.3679  -93.6
 0.020  0.7744 -161.4  33.779  125.7  0.0082   45.9  0.4787 -127.7
 0.030  0.8037 -165.2  27.507  121.7  0.0094   45.1  0.4853 -138.4
 0.040  0.8363 -168.7  21.446  115.4  0.0106   44.6  0.5081 -148.4
 0.050  0.8719 -172.0  15.837  104.5  0.0118   44.1  0.5449 -157.4
 0.060  0.8749 -173.2  14.279  103.4  0.0127   47.7  0.5456 -159.8
 0.070  0.8783 -174.4  12.727  102.0  0.0137   50.8  0.5473 -162.3
 0.080  0.8820 -175.6  11.185  100.2  0.0146   53.5  0.5500 -164.7
 0.090  0.8862 -176.8   9.657   97.9  0.0157   55.8  0.5536 -167.1
 0.100  0.8907 -178.0   8.151   94.7  0.0167   57.9  0.5582 -169.4
 0.110  0.8916 -178.6   7.613   94.1  0.0177   59.1  0.5584 -170.3
 0.120  0.8925 -179.2   7.077   93.4  0.0188   60.2  0.5588 -171.2
 0.130  0.8936 -179.9   6.541   92.5  0.0198   61.1  0.5593 -172.1
 0.140  0.8948  179.5   6.008   91.6  0.0208   62.0  0.5599 -173.0
 0.150  0.8961  178.9   5.476   90.4  0.0219   62.8  0.5607 -173.9
 0.200  0.8962  176.9   4.110   86.9  0.0273   67.3  0.5622 -176.6
 0.250  0.8947  174.8   3.289   84.2  0.0335   68.4  0.5613 -178.3
 0.300  0.8905  173.1   2.749   81.8  0.0392   69.9  0.5620 -179.9
 0.350  0.8902  171.5   2.413   79.9  0.0450   70.6  0.5618  179.0
 0.400  0.8905  170.0   2.080   77.5  0.0508   71.1  0.5619  177.9
 0.450  0.8900  168.5   1.877   75.8  0.0570   70.8  0.5621  177.0
 0.500  0.8901  166.9   1.677   73.7  0.0632   70.5  0.5624  176.2
 0.600  0.8906  164.2   1.416   70.1  0.0751   69.6  0.5659  174.3
 0.700  0.8899  161.5   1.228   66.9  0.0860   69.2  0.5646  172.7
 0.800  0.8891  158.7   1.089   63.3  0.0985   68.2  0.5663  171.3
 0.900  0.8860  155.8   0.981   60.2  0.1100   66.5  0.5692  170.0
 1.000  0.8883  153.1   0.900   57.1  0.1212   65.1  0.5723  168.5
 1.100  0.8899  150.3   0.834   54.2  0.1322   63.7  0.5739  167.2
 1.200  0.8882  147.6   0.779   51.2  0.1431   62.3  0.5749  165.8
 1.300  0.8886  145.0   0.732   48.7  0.1540   60.4  0.5787  164.6
 1.400  0.8892  142.2   0.697   45.8  0.1651   58.9  0.5834  163.3
 1.500  0.8906  139.6   0.663   43.3  0.1756   57.1  0.5867  161.9
 1.600  0.8928  136.8   0.635   40.8  0.1858   55.3  0.5893  160.9
 1.700  0.8926  134.1   0.611   38.4  0.1957   53.7  0.5947  159.8
 1.800  0.8962  131.4   0.593   35.9  0.2055   51.9  0.5996  158.5
 1.900  0.8931  128.8   0.572   34.3  0.2147   50.3  0.6029  157.3
 2.000  0.8909  126.3   0.555   31.9  0.2240   48.4  0.6064  156.3
 2.100  0.8910  123.7   0.540   30.0  0.2323   46.7  0.6110  155.1
 2.200  0.8929  121.1   0.525   28.0  0.2408   45.2  0.6158  153.9
 2.300  0.8914  118.9   0.514   26.4  0.2495   43.5  0.6185  152.9
 2.400  0.8913  116.7   0.503   24.7  0.2583   42.0  0.6214  152.0
 2.500  0.8903  114.5   0.494   23.3  0.2657   40.2  0.6262  150.9
 2.600  0.8907  112.2   0.485   21.8  0.2734   38.5  0.6313  149.8
 2.700  0.8900  110.2   0.477   20.5  0.2799   36.9  0.6326  148.7
 2.800  0.8905  108.1   0.470   19.1  0.2867   35.4  0.6341  147.6
 2.900  0.8891  106.1   0.464   17.9  0.2929   33.9  0.6378  146.3
 3.000  0.8888  104.1   0.458   16.6  0.2993   32.4  0.6418  145.1
 3.100  0.8863  102.3   0.454   15.5  0.3047   30.9  0.6420  143.8
 3.200  0.8848  100.4   0.451   14.4  0.3102   29.5  0.6425  142.6
 3.300  0.8841   98.6   0.447   13.3  0.3159   28.2  0.6433  141.3
 3.400  0.8844   96.7   0.444   12.2  0.3218   26.9  0.6444  140.1
 3.500  0.8856   94.9   0.441   11.0  0.3279   25.6  0.6458  138.8
 3.600  0.8835   93.3   0.439   10.1  0.3327   24.2  0.6476  137.5
 3.700  0.8821   91.7   0.437    9.1  0.3378   22.8  0.6498  136.1
 3.800  0.8814   90.2   0.435    8.1  0.3430   21.5  0.6523  134.8
 3.900  0.8813   88.6   0.433    7.2  0.3483   20.2  0.6552  133.5
 4.000  0.8819   87.0   0.431    6.2  0.3539   19.0  0.6584  132.2
 4.100  0.8785   85.6   0.430    5.3  0.3581   17.7  0.6613  130.8
 4.200  0.8757   84.1   0.429    4.4  0.3626   16.3  0.6645  129.5
 4.300  0.8735   82.7   0.429    3.5  0.3672   15.1  0.6681  128.1
 4.400  0.8717   81.3   0.428    2.6  0.3720   13.8  0.6721  126.8
 4.500  0.8706   79.8   0.428    1.7  0.3770   12.6  0.6764  125.5
 4.600  0.8697   78.6   0.428    1.0  0.3808   11.4  0.6790  124.4
 4.700  0.8691   77.3   0.427    0.2  0.3848   10.2  0.6819  123.4
 4.800  0.8690   76.1   0.427   -0.5  0.3890    9.0  0.6851  122.3
 4.900  0.8693   74.8   0.427   -1.3  0.3933    7.9  0.6884  121.2
 5.000  0.8700   73.6   0.427   -2.0  0.3978    6.8  0.6920  120.2
 5.100  0.8670   72.4   0.429   -2.8  0.4011    5.6  0.6946  119.4
 5.200  0.8645   71.2   0.432   -3.7  0.4045    4.4  0.6973  118.7
 5.300  0.8623   70.0   0.435   -4.5  0.4081    3.2  0.7001  117.9
 5.400  0.8605   68.7   0.437   -5.3  0.4119    2.0  0.7030  117.1
 5.500  0.8591   67.5   0.440   -6.1  0.4159    0.9  0.7061  116.4
 5.600  0.8559   66.4   0.441   -6.9  0.4187   -0.2  0.7049  115.7
 5.700  0.8531   65.2   0.442   -7.7  0.4216   -1.2  0.7037  115.0
 5.800  0.8506   64.1   0.443   -8.5  0.4247   -2.3  0.7027  114.3
 5.900  0.8485   63.0   0.445   -9.3  0.4279   -3.3  0.7018  113.6
 6.000  0.8467   61.8   0.446  -10.1  0.4313   -4.3  0.7010  112.9
!
!  f       NFmin   Gammaopt  rn/50
! GHz       dB    MAG  ANG    -
!
! noise parameter not available yet for this operation point!
!
! (c) 2017  Infineon Technologies AG, Munich