! Infineon Technologies  Discrete & RF Semiconductors
! BFP196
! VCE =  1.0 V,  IC =  40 mA
! Common Emitter S-Parameters:                            Jan 2017
# GHz  S  MA  R  50
!  f         S11            S21            S12            S22
! GHz     MAG   ANG      MAG   ANG      MAG   ANG      MAG   ANG
 0.010  0.2846  -58.0  71.550  164.7  0.0052   77.8  0.9234  -20.8
 0.020  0.4054  -91.1  66.214  151.2  0.0097   70.7  0.8550  -40.0
 0.030  0.4421 -108.8  57.738  144.8  0.0121   60.1  0.7432  -50.6
 0.040  0.5128 -122.6  50.217  136.4  0.0148   53.2  0.6651  -64.3
 0.050  0.6057 -132.7  44.143  125.3  0.0176   48.5  0.6331  -80.5
 0.060  0.6150 -137.9  40.265  123.1  0.0185   48.4  0.5859  -85.8
 0.070  0.6291 -142.8  36.460  120.4  0.0193   48.3  0.5446  -92.0
 0.080  0.6477 -147.6  32.753  117.1  0.0202   48.2  0.5107  -99.1
 0.090  0.6705 -152.0  29.180  113.0  0.0210   48.2  0.4855 -107.1
 0.100  0.6970 -156.1  25.799  107.8  0.0219   48.1  0.4707 -115.7
 0.110  0.6989 -158.1  24.167  106.7  0.0227   48.2  0.4563 -118.9
 0.120  0.7016 -160.1  22.546  105.4  0.0235   48.3  0.4434 -122.3
 0.130  0.7052 -162.1  20.938  103.9  0.0243   48.4  0.4322 -125.9
 0.140  0.7096 -164.1  19.346  102.2  0.0251   48.4  0.4228 -129.7
 0.150  0.7149 -166.0  17.774  100.2  0.0259   48.5  0.4153 -133.6
 0.200  0.7251 -171.5  13.498   95.3  0.0298   52.3  0.3925 -144.7
 0.250  0.7295 -175.7  10.854   91.7  0.0340   55.3  0.3799 -151.7
 0.300  0.7277 -178.7   9.074   89.1  0.0381   58.1  0.3736 -157.2
 0.350  0.7286  178.9   7.957   87.2  0.0429   59.5  0.3703 -160.6
 0.400  0.7308  176.6   6.853   84.6  0.0477   60.6  0.3683 -164.1
 0.450  0.7310  174.5   6.168   83.0  0.0525   61.7  0.3671 -166.4
 0.500  0.7321  172.4   5.490   80.9  0.0573   62.6  0.3665 -168.8
 0.600  0.7355  168.8   4.598   77.6  0.0674   63.4  0.3680 -172.4
 0.700  0.7365  165.9   3.945   74.8  0.0766   63.9  0.3672 -175.3
 0.800  0.7393  162.8   3.463   71.6  0.0870   63.9  0.3696 -177.5
 0.900  0.7372  159.8   3.082   68.8  0.0965   62.9  0.3717 -179.5
 1.000  0.7396  156.8   2.790   66.0  0.1061   62.2  0.3748  178.6
 1.100  0.7436  154.0   2.548   63.3  0.1164   61.6  0.3773  177.1
 1.200  0.7453  151.2   2.342   60.5  0.1254   60.0  0.3793  175.5
 1.300  0.7467  148.5   2.174   58.0  0.1349   58.9  0.3832  174.2
 1.400  0.7487  145.6   2.034   55.3  0.1448   57.9  0.3884  172.7
 1.500  0.7523  143.1   1.903   52.8  0.1535   56.5  0.3933  171.5
 1.600  0.7546  140.3   1.795   50.2  0.1626   55.1  0.3968  170.4
 1.700  0.7557  137.6   1.700   47.7  0.1720   53.7  0.4032  169.4
 1.800  0.7629  134.9   1.618   45.1  0.1807   52.3  0.4095  168.1
 1.900  0.7639  132.3   1.538   42.9  0.1890   50.9  0.4147  167.0
 2.000  0.7640  129.8   1.465   40.3  0.1972   49.4  0.4202  166.1
 2.100  0.7668  127.2   1.402   38.1  0.2049   48.0  0.4261  165.0
 2.200  0.7711  124.7   1.342   35.6  0.2127   46.7  0.4322  164.0
 2.300  0.7728  122.5   1.292   33.6  0.2208   45.2  0.4375  163.2
 2.400  0.7756  120.3   1.243   31.4  0.2291   43.8  0.4429  162.4
 2.500  0.7769  118.0   1.199   29.4  0.2361   42.3  0.4492  161.4
 2.600  0.7794  115.8   1.157   27.3  0.2432   40.9  0.4556  160.4
 2.700  0.7826  113.8   1.120   25.4  0.2499   39.4  0.4600  159.4
 2.800  0.7868  111.8   1.084   23.4  0.2567   38.0  0.4646  158.4
 2.900  0.7883  109.7   1.052   21.7  0.2626   36.6  0.4695  157.2
 3.000  0.7908  107.7   1.021   19.8  0.2687   35.2  0.4746  156.0
 3.100  0.7914  105.9   0.995   18.2  0.2743   33.9  0.4774  154.7
 3.200  0.7928  104.0   0.970   16.6  0.2801   32.6  0.4805  153.5
 3.300  0.7951  102.2   0.946   14.9  0.2860   31.4  0.4838  152.3
 3.400  0.7981  100.4   0.923   13.1  0.2920   30.2  0.4873  151.1
 3.500  0.8019   98.6   0.901   11.2  0.2981   29.1  0.4910  149.9
 3.600  0.8025   97.0   0.882    9.8  0.3031   27.8  0.4946  148.5
 3.700  0.8037   95.5   0.864    8.3  0.3083   26.5  0.4985  147.1
 3.800  0.8056   93.9   0.846    6.8  0.3136   25.2  0.5028  145.8
 3.900  0.8080   92.3   0.829    5.2  0.3191   24.0  0.5072  144.4
 4.000  0.8110   90.8   0.812    3.6  0.3247   22.8  0.5120  143.1
 4.100  0.8103   89.3   0.797    2.3  0.3295   21.5  0.5168  141.7
 4.200  0.8102   87.8   0.783    1.0  0.3344   20.2  0.5219  140.3
 4.300  0.8106   86.4   0.769   -0.3  0.3395   19.0  0.5274  138.9
 4.400  0.8115   84.9   0.756   -1.7  0.3447   17.8  0.5331  137.5
 4.500  0.8130   83.4   0.743   -3.2  0.3501   16.7  0.5391  136.2
 4.600  0.8140   82.1   0.731   -4.2  0.3542   15.5  0.5444  135.1
 4.700  0.8154   80.8   0.720   -5.3  0.3585   14.3  0.5499  134.0
 4.800  0.8172   79.5   0.709   -6.3  0.3629   13.2  0.5556  132.9
 4.900  0.8194   78.2   0.698   -7.5  0.3674   12.1  0.5615  131.8
 5.000  0.8221   76.9   0.687   -8.6  0.3721   11.0  0.5676  130.8
 5.100  0.8206   75.6   0.680   -9.6  0.3758    9.8  0.5726  130.0
 5.200  0.8196   74.4   0.674  -10.7  0.3797    8.6  0.5777  129.3
 5.300  0.8189   73.1   0.668  -11.7  0.3837    7.5  0.5830  128.5
 5.400  0.8186   71.9   0.662  -12.8  0.3879    6.4  0.5883  127.8
 5.500  0.8187   70.6   0.656  -13.9  0.3922    5.3  0.5937  127.1
 5.600  0.8167   69.5   0.649  -14.8  0.3956    4.2  0.5950  126.4
 5.700  0.8151   68.4   0.643  -15.6  0.3991    3.1  0.5963  125.7
 5.800  0.8137   67.3   0.637  -16.5  0.4028    2.1  0.5977  125.1
 5.900  0.8127   66.1   0.631  -17.5  0.4066    1.0  0.5992  124.4
 6.000  0.8120   65.0   0.625  -18.4  0.4106    0.0  0.6008  123.7
!
!  f       NFmin   Gammaopt  rn/50
! GHz       dB    MAG  ANG    -
 0.450      1.34  0.36  177   0.05
 0.900      1.49  0.46 -167   0.07
 1.900      2.31  0.68 -133   0.28
 2.400      2.71  0.70 -120   0.62
!
! (c) 2017  Infineon Technologies AG, Munich