! Infineon Technologies  Discrete & RF Semiconductors
! BFP196
! VCE =  5.0 V,  IC =  15 mA
! Common Emitter S-Parameters:                            Jan 2017
# GHz  S  MA  R  50
!  f         S11            S21            S12            S22
! GHz     MAG   ANG      MAG   ANG      MAG   ANG      MAG   ANG
 0.010  0.6211  -14.8  40.594  172.7  0.0045   84.7  0.9891   -7.5
 0.020  0.6331  -29.2  40.130  165.8  0.0086   80.7  0.9658  -15.1
 0.030  0.6029  -41.4  37.990  160.1  0.0126   71.5  0.9143  -20.9
 0.040  0.6018  -54.2  36.262  153.9  0.0168   66.9  0.8733  -27.4
 0.050  0.6300  -66.4  35.005  147.1  0.0211   64.1  0.8444  -34.4
 0.060  0.6097  -74.4  32.940  143.9  0.0231   60.2  0.7941  -37.8
 0.070  0.6019  -82.7  30.989  140.3  0.0251   56.9  0.7469  -41.7
 0.080  0.6071  -91.1  29.176  136.3  0.0272   54.1  0.7037  -46.1
 0.090  0.6250  -99.2  27.528  131.7  0.0294   51.7  0.6651  -51.0
 0.100  0.6544 -106.7  26.076  126.6  0.0316   49.6  0.6320  -56.5
 0.110  0.6467 -111.1  24.712  124.7  0.0324   48.1  0.6002  -58.6
 0.120  0.6429 -115.6  23.378  122.6  0.0332   46.8  0.5692  -60.9
 0.130  0.6431 -120.1  22.080  120.2  0.0341   45.4  0.5393  -63.5
 0.140  0.6472 -124.5  20.824  117.6  0.0349   44.2  0.5106  -66.4
 0.150  0.6551 -128.9  19.618  114.6  0.0358   43.0  0.4834  -69.6
 0.200  0.6640 -142.3  15.520  106.9  0.0388   41.1  0.3912  -78.6
 0.250  0.6663 -151.9  12.735  101.1  0.0417   40.9  0.3286  -85.0
 0.300  0.6666 -158.5  10.779   97.1  0.0440   41.7  0.2848  -90.4
 0.350  0.6659 -163.2   9.496   94.3  0.0464   43.0  0.2579  -94.1
 0.400  0.6696 -167.8   8.242   90.7  0.0489   44.2  0.2324  -98.7
 0.450  0.6689 -171.4   7.433   88.6  0.0516   45.6  0.2173 -101.7
 0.500  0.6708 -174.9   6.637   85.9  0.0544   46.8  0.2029 -105.2
 0.600  0.6738  179.6   5.574   81.7  0.0605   48.7  0.1846 -110.9
 0.700  0.6764  175.1   4.786   78.2  0.0660   51.0  0.1728 -115.2
 0.800  0.6775  171.0   4.204   74.5  0.0727   52.6  0.1684 -119.1
 0.900  0.6785  167.2   3.737   71.3  0.0797   53.1  0.1668 -122.9
 1.000  0.6825  163.8   3.385   68.2  0.0858   54.0  0.1657 -126.5
 1.100  0.6854  160.5   3.084   65.3  0.0932   54.6  0.1676 -129.2
 1.200  0.6860  157.1   2.835   62.2  0.1000   54.5  0.1702 -132.1
 1.300  0.6894  154.1   2.624   59.4  0.1067   54.7  0.1749 -134.7
 1.400  0.6927  151.1   2.448   56.5  0.1141   54.3  0.1804 -137.6
 1.500  0.6971  148.2   2.288   53.8  0.1213   54.0  0.1868 -140.0
 1.600  0.7020  145.2   2.153   51.0  0.1286   53.7  0.1935 -142.0
 1.700  0.7043  142.4   2.036   48.3  0.1353   53.1  0.2021 -144.4
 1.800  0.7112  139.5   1.933   45.6  0.1430   52.4  0.2102 -146.6
 1.900  0.7147  136.8   1.831   43.2  0.1498   51.8  0.2188 -148.7
 2.000  0.7161  134.2   1.741   40.5  0.1573   50.9  0.2282 -150.5
 2.100  0.7206  131.4   1.662   38.1  0.1642   50.1  0.2374 -152.5
 2.200  0.7268  128.7   1.586   35.5  0.1712   49.4  0.2469 -154.4
 2.300  0.7297  126.4   1.521   33.3  0.1783   48.5  0.2573 -156.0
 2.400  0.7338  124.1   1.459   30.9  0.1855   47.6  0.2679 -157.4
 2.500  0.7378  121.8   1.402   28.7  0.1924   46.5  0.2783 -159.2
 2.600  0.7430  119.5   1.347   26.4  0.1993   45.5  0.2890 -160.8
 2.700  0.7474  117.4   1.299   24.4  0.2058   44.5  0.2982 -162.4
 2.800  0.7528  115.3   1.252   22.2  0.2124   43.5  0.3076 -163.9
 2.900  0.7558  113.1   1.210   20.3  0.2190   42.4  0.3159 -165.7
 3.000  0.7599  111.0   1.170   18.2  0.2256   41.3  0.3246 -167.5
 3.100  0.7620  109.1   1.136   16.6  0.2318   40.2  0.3315 -169.4
 3.200  0.7649  107.2   1.102   14.9  0.2380   39.1  0.3386 -171.1
 3.300  0.7686  105.3   1.070   13.1  0.2443   38.1  0.3461 -172.8
 3.400  0.7731  103.4   1.039   11.1  0.2507   37.2  0.3539 -174.4
 3.500  0.7785  101.6   1.009    9.1  0.2572   36.3  0.3620 -176.0
 3.600  0.7805   99.9   0.984    7.7  0.2633   35.1  0.3686 -178.1
 3.700  0.7831   98.2   0.959    6.1  0.2694   33.9  0.3757  179.9
 3.800  0.7864   96.6   0.935    4.5  0.2757   32.8  0.3833  178.0
 3.900  0.7904   94.9   0.912    2.9  0.2821   31.7  0.3913  176.2
 4.000  0.7950   93.3   0.890    1.1  0.2886   30.7  0.3996  174.4
 4.100  0.7955   91.7   0.870   -0.2  0.2944   29.4  0.4070  172.2
 4.200  0.7965   90.2   0.850   -1.5  0.3003   28.2  0.4149  170.1
 4.300  0.7981   88.6   0.831   -3.0  0.3064   27.0  0.4234  168.1
 4.400  0.8004   87.0   0.812   -4.4  0.3126   25.8  0.4324  166.2
 4.500  0.8032   85.5   0.794   -6.0  0.3189   24.7  0.4419  164.3
 4.600  0.8049   84.2   0.778   -7.0  0.3243   23.5  0.4506  162.5
 4.700  0.8071   82.8   0.762   -8.1  0.3298   22.3  0.4597  160.7
 4.800  0.8097   81.5   0.747   -9.2  0.3354   21.1  0.4692  159.1
 4.900  0.8127   80.2   0.732  -10.3  0.3412   20.0  0.4790  157.4
 5.000  0.8161   78.9   0.717  -11.5  0.3471   18.9  0.4893  155.9
 5.100  0.8151   77.5   0.707  -12.4  0.3519   17.6  0.4984  154.5
 5.200  0.8145   76.1   0.697  -13.4  0.3569   16.4  0.5077  153.2
 5.300  0.8144   74.8   0.688  -14.4  0.3621   15.2  0.5172  152.0
 5.400  0.8148   73.4   0.678  -15.4  0.3674   14.0  0.5271  150.8
 5.500  0.8156   72.0   0.669  -16.5  0.3729   12.9  0.5371  149.6
 5.600  0.8147   70.8   0.660  -17.3  0.3773   11.7  0.5420  148.5
 5.700  0.8142   69.6   0.650  -18.0  0.3818   10.6  0.5472  147.4
 5.800  0.8140   68.4   0.641  -18.8  0.3864    9.5  0.5525  146.4
 5.900  0.8142   67.2   0.632  -19.7  0.3913    8.4  0.5580  145.3
 6.000  0.8147   66.0   0.623  -20.5  0.3962    7.3  0.5637  144.3
!
!  f       NFmin   Gammaopt  rn/50
! GHz       dB    MAG  ANG    -
!
! noise parameter not available yet for this operation point!
!
! (c) 2017  Infineon Technologies AG, Munich