! Infineon Technologies  Discrete & RF Semiconductors
! BFP196
! VCE =  11. V,  IC =  30 mA
! Common Emitter S-Parameters:                            Jan 2017
# GHz  S  MA  R  50
!  f         S11            S21            S12            S22
! GHz     MAG   ANG      MAG   ANG      MAG   ANG      MAG   ANG
 0.010  0.4966  -20.0  60.108  170.5  0.0032   76.0  0.9515   -9.5
 0.020  0.5132  -39.2  58.881  162.2  0.0068   70.0  0.9177  -19.0
 0.030  0.4892  -54.2  54.492  156.1  0.0098   64.7  0.8509  -25.7
 0.040  0.5005  -69.5  50.817  149.1  0.0128   61.9  0.7975  -33.4
 0.050  0.5450  -83.3  48.018  141.1  0.0158   60.2  0.7604  -42.0
 0.060  0.5335  -91.4  44.669  138.1  0.0171   57.5  0.7068  -45.5
 0.070  0.5331  -99.7  41.460  134.7  0.0184   55.2  0.6563  -49.5
 0.080  0.5436 -107.8  38.424  130.7  0.0198   53.2  0.6095  -54.2
 0.090  0.5646 -115.5  35.608  126.0  0.0212   51.4  0.5674  -59.6
 0.100  0.5949 -122.5  33.067  120.6  0.0226   49.9  0.5312  -65.8
 0.110  0.5922 -126.4  31.191  119.0  0.0234   49.3  0.5023  -67.9
 0.120  0.5921 -130.2  29.345  117.1  0.0242   48.7  0.4741  -70.3
 0.130  0.5948 -134.1  27.532  115.0  0.0250   48.1  0.4469  -73.0
 0.140  0.6001 -137.9  25.762  112.6  0.0258   47.6  0.4209  -76.1
 0.150  0.6080 -141.6  24.043  109.9  0.0266   47.1  0.3961  -79.5
 0.200  0.6200 -152.7  18.708  103.1  0.0289   48.9  0.3186  -89.0
 0.250  0.6246 -160.2  15.221   98.2  0.0320   50.2  0.2683  -96.0
 0.300  0.6229 -165.6  12.791   94.8  0.0353   52.4  0.2342 -102.2
 0.350  0.6243 -169.5  11.252   92.4  0.0387   54.5  0.2140 -106.5
 0.400  0.6285 -173.4   9.740   89.2  0.0422   56.2  0.1953 -111.6
 0.450  0.6295 -176.4   8.775   87.3  0.0457   57.3  0.1844 -115.1
 0.500  0.6321 -179.3   7.822   85.0  0.0492   58.3  0.1743 -119.1
 0.600  0.6342  176.0   6.558   81.3  0.0566   59.3  0.1630 -125.4
 0.700  0.6358  172.1   5.629   78.2  0.0634   61.1  0.1548 -130.1
 0.800  0.6381  168.4   4.941   74.9  0.0716   61.5  0.1524 -134.0
 0.900  0.6381  164.7   4.389   72.0  0.0794   61.3  0.1520 -137.5
 1.000  0.6435  161.7   3.972   69.1  0.0872   61.2  0.1531 -141.1
 1.100  0.6468  158.4   3.619   66.4  0.0947   60.9  0.1552 -143.2
 1.200  0.6504  155.4   3.323   63.5  0.1026   60.2  0.1580 -145.9
 1.300  0.6517  152.4   3.075   61.0  0.1098   59.6  0.1623 -148.1
 1.400  0.6551  149.6   2.869   58.2  0.1180   59.0  0.1677 -150.5
 1.500  0.6591  146.9   2.678   55.8  0.1254   58.0  0.1735 -152.5
 1.600  0.6633  143.9   2.521   53.1  0.1330   57.3  0.1795 -153.9
 1.700  0.6663  141.1   2.381   50.6  0.1406   56.2  0.1878 -155.8
 1.800  0.6732  138.4   2.260   48.0  0.1484   55.2  0.1955 -157.7
 1.900  0.6764  135.7   2.142   45.7  0.1554   54.1  0.2027 -159.3
 2.000  0.6784  133.2   2.035   43.2  0.1630   53.0  0.2114 -160.6
 2.100  0.6830  130.5   1.943   40.9  0.1700   51.9  0.2198 -162.3
 2.200  0.6891  127.9   1.854   38.3  0.1770   50.9  0.2283 -163.8
 2.300  0.6924  125.7   1.778   36.2  0.1843   49.7  0.2372 -164.8
 2.400  0.6967  123.5   1.705   33.9  0.1917   48.5  0.2461 -165.8
 2.500  0.7014  121.2   1.639   31.8  0.1983   47.2  0.2555 -167.3
 2.600  0.7071  119.0   1.576   29.6  0.2050   45.9  0.2651 -168.6
 2.700  0.7114  116.9   1.520   27.6  0.2114   44.7  0.2731 -169.8
 2.800  0.7166  114.9   1.466   25.5  0.2179   43.6  0.2812 -171.0
 2.900  0.7206  112.8   1.417   23.6  0.2240   42.4  0.2885 -172.6
 3.000  0.7256  110.7   1.369   21.5  0.2301   41.2  0.2961 -174.2
 3.100  0.7281  108.8   1.329   19.9  0.2360   40.0  0.3018 -175.8
 3.200  0.7313  107.0   1.291   18.1  0.2419   38.9  0.3077 -177.4
 3.300  0.7353  105.1   1.253   16.3  0.2480   37.8  0.3138 -178.9
 3.400  0.7400  103.3   1.217   14.4  0.2541   36.8  0.3202  179.7
 3.500  0.7455  101.5   1.183   12.3  0.2603   35.8  0.3267  178.3
 3.600  0.7480   99.9   1.154   10.8  0.2658   34.5  0.3324  176.4
 3.700  0.7511   98.3   1.125    9.2  0.2714   33.3  0.3384  174.6
 3.800  0.7548   96.7   1.097    7.5  0.2772   32.1  0.3448  172.8
 3.900  0.7591   95.1   1.071    5.8  0.2830   31.0  0.3515  171.1
 4.000  0.7639   93.6   1.045    3.9  0.2890   29.9  0.3585  169.5
 4.100  0.7648   92.1   1.022    2.5  0.2943   28.6  0.3652  167.5
 4.200  0.7662   90.5   0.999    1.1  0.2997   27.4  0.3724  165.6
 4.300  0.7682   89.0   0.977   -0.5  0.3052   26.2  0.3799  163.8
 4.400  0.7707   87.5   0.956   -2.0  0.3109   25.0  0.3878  162.1
 4.500  0.7737   86.0   0.935   -3.7  0.3167   23.9  0.3960  160.4
 4.600  0.7761   84.7   0.916   -4.9  0.3216   22.7  0.4041  158.8
 4.700  0.7789   83.3   0.897   -6.1  0.3267   21.6  0.4124  157.3
 4.800  0.7822   82.0   0.879   -7.4  0.3319   20.4  0.4211  155.8
 4.900  0.7858   80.7   0.861   -8.7  0.3373   19.4  0.4300  154.4
 5.000  0.7899   79.4   0.844  -10.1  0.3427   18.3  0.4392  153.0
 5.100  0.7894   78.1   0.831  -11.2  0.3471   17.1  0.4477  151.9
 5.200  0.7892   76.7   0.819  -12.3  0.3517   15.9  0.4564  150.8
 5.300  0.7896   75.4   0.807  -13.5  0.3565   14.7  0.4652  149.8
 5.400  0.7903   74.0   0.795  -14.7  0.3614   13.6  0.4741  148.8
 5.500  0.7915   72.7   0.784  -15.9  0.3664   12.5  0.4832  147.9
 5.600  0.7907   71.5   0.772  -16.8  0.3704   11.3  0.4879  147.0
 5.700  0.7903   70.3   0.760  -17.8  0.3746   10.2  0.4927  146.0
 5.800  0.7903   69.2   0.748  -18.7  0.3789    9.1  0.4977  145.1
 5.900  0.7905   68.0   0.736  -19.8  0.3833    8.0  0.5027  144.3
 6.000  0.7911   66.8   0.725  -20.8  0.3879    7.0  0.5079  143.4
!
!  f       NFmin   Gammaopt  rn/50
! GHz       dB    MAG  ANG    -
 0.450      1.22  0.34  169   0.05
 0.900      1.38  0.45 -172   0.06
 1.900      2.24  0.68 -135   0.25
 2.400      2.64  0.71 -121   0.60
!
! (c) 2017  Infineon Technologies AG, Munich