! Infineon Technologies  Discrete & RF Semiconductors
! BFP196
! VCE =  11. V,  IC =  15 mA
! Common Emitter S-Parameters:                            Jan 2017
# GHz  S  MA  R  50
!  f         S11            S21            S12            S22
! GHz     MAG   ANG      MAG   ANG      MAG   ANG      MAG   ANG
 0.010  0.6668  -12.8  39.562  173.1  0.0040   77.7  0.9797   -6.4
 0.020  0.6749  -25.2  39.160  166.9  0.0080   78.1  0.9603  -13.0
 0.030  0.6438  -36.0  37.345  161.6  0.0115   69.9  0.9173  -18.1
 0.040  0.6375  -47.5  35.880  155.8  0.0151   65.5  0.8823  -23.7
 0.050  0.6568  -58.8  34.810  149.6  0.0188   62.9  0.8564  -29.7
 0.060  0.6330  -66.4  32.921  146.4  0.0209   59.3  0.8107  -32.8
 0.070  0.6211  -74.5  31.146  142.8  0.0231   56.4  0.7677  -36.3
 0.080  0.6217  -82.6  29.508  138.8  0.0254   53.9  0.7278  -40.2
 0.090  0.6349  -90.7  28.028  134.4  0.0277   51.9  0.6917  -44.5
 0.100  0.6599  -98.2  26.735  129.5  0.0300   50.2  0.6600  -49.3
 0.110  0.6494 -102.7  25.407  127.5  0.0310   48.9  0.6286  -51.2
 0.120  0.6431 -107.4  24.113  125.3  0.0320   47.7  0.5980  -53.2
 0.130  0.6411 -112.1  22.858  122.9  0.0331   46.5  0.5683  -55.5
 0.140  0.6435 -116.8  21.650  120.1  0.0341   45.4  0.5396  -58.1
 0.150  0.6502 -121.5  20.496  117.1  0.0352   44.4  0.5120  -60.9
 0.200  0.6546 -136.1  16.378  109.0  0.0377   42.1  0.4155  -68.3
 0.250  0.6534 -146.6  13.506  102.9  0.0413   40.9  0.3488  -73.1
 0.300  0.6507 -153.8  11.459   98.8  0.0429   41.4  0.3012  -77.1
 0.350  0.6492 -159.2  10.107   95.9  0.0453   42.7  0.2715  -79.6
 0.400  0.6533 -164.5   8.789   92.1  0.0478   43.9  0.2424  -82.6
 0.450  0.6516 -168.2   7.929   89.9  0.0501   45.3  0.2251  -84.6
 0.500  0.6527 -172.0   7.084   87.1  0.0525   46.5  0.2082  -87.0
 0.600  0.6568 -178.0   5.956   82.8  0.0583   47.8  0.1866  -91.0
 0.700  0.6572  177.5   5.118   79.2  0.0636   50.7  0.1724  -94.1
 0.800  0.6587  172.9   4.495   75.5  0.0700   52.3  0.1648  -97.4
 0.900  0.6588  169.0   3.997   72.3  0.0755   53.1  0.1606 -101.1
 1.000  0.6631  165.4   3.617   69.2  0.0814   54.0  0.1569 -104.5
 1.100  0.6662  161.9   3.298   66.2  0.0885   54.4  0.1577 -107.2
 1.200  0.6674  158.4   3.031   63.1  0.0948   54.4  0.1586 -110.4
 1.300  0.6708  155.3   2.804   60.4  0.1011   54.7  0.1617 -113.6
 1.400  0.6743  152.3   2.618   57.5  0.1085   54.9  0.1654 -117.2
 1.500  0.6792  149.3   2.442   54.8  0.1149   54.5  0.1698 -120.4
 1.600  0.6826  146.3   2.300   52.0  0.1214   54.2  0.1763 -123.1
 1.700  0.6860  143.4   2.171   49.3  0.1286   53.9  0.1833 -126.4
 1.800  0.6935  140.5   2.061   46.6  0.1355   53.2  0.1908 -129.5
 1.900  0.6962  137.9   1.953   44.2  0.1422   52.8  0.1983 -132.2
 2.000  0.6991  135.0   1.856   41.4  0.1489   52.0  0.2072 -134.7
 2.100  0.7030  132.3   1.771   39.0  0.1560   51.3  0.2157 -137.4
 2.200  0.7084  129.7   1.689   36.4  0.1631   50.6  0.2246 -139.9
 2.300  0.7127  127.3   1.619   34.2  0.1700   49.7  0.2350 -142.0
 2.400  0.7183  124.9   1.552   31.8  0.1769   48.9  0.2457 -144.0
 2.500  0.7226  122.6   1.491   29.7  0.1836   47.9  0.2559 -146.3
 2.600  0.7281  120.3   1.432   27.4  0.1903   47.0  0.2664 -148.4
 2.700  0.7322  118.1   1.381   25.3  0.1967   46.1  0.2758 -150.3
 2.800  0.7373  116.0   1.331   23.1  0.2032   45.2  0.2854 -152.1
 2.900  0.7415  113.9   1.286   21.1  0.2096   44.1  0.2936 -154.3
 3.000  0.7466  111.8   1.242   19.0  0.2160   43.0  0.3023 -156.4
 3.100  0.7490  109.8   1.205   17.4  0.2223   41.9  0.3091 -158.5
 3.200  0.7522  107.9   1.169   15.6  0.2286   40.9  0.3163 -160.6
 3.300  0.7563  106.0   1.134   13.8  0.2351   40.0  0.3239 -162.5
 3.400  0.7612  104.1   1.100   11.8  0.2416   39.1  0.3318 -164.3
 3.500  0.7670  102.2   1.068    9.7  0.2481   38.2  0.3401 -166.1
 3.600  0.7693  100.5   1.040    8.2  0.2542   37.0  0.3465 -168.4
 3.700  0.7724   98.8   1.014    6.7  0.2605   35.8  0.3535 -170.6
 3.800  0.7760   97.2   0.988    5.0  0.2668   34.7  0.3610 -172.8
 3.900  0.7803   95.5   0.962    3.3  0.2733   33.7  0.3690 -174.8
 4.000  0.7853   93.9   0.938    1.5  0.2798   32.7  0.3774 -176.8
 4.100  0.7860   92.3   0.916    0.2  0.2858   31.4  0.3847 -179.2
 4.200  0.7874   90.8   0.895   -1.2  0.2918   30.1  0.3927  178.5
 4.300  0.7893   89.2   0.874   -2.7  0.2981   28.9  0.4012  176.3
 4.400  0.7918   87.6   0.854   -4.2  0.3044   27.8  0.4104  174.1
 4.500  0.7949   86.1   0.835   -5.8  0.3109   26.7  0.4201  172.1
 4.600  0.7969   84.7   0.818   -6.9  0.3165   25.5  0.4289  170.1
 4.700  0.7993   83.4   0.800   -8.0  0.3222   24.3  0.4381  168.1
 4.800  0.8022   82.0   0.784   -9.1  0.3280   23.2  0.4479  166.2
 4.900  0.8055   80.6   0.767  -10.3  0.3339   22.1  0.4581  164.4
 5.000  0.8093   79.3   0.751  -11.6  0.3400   21.1  0.4688  162.7
 5.100  0.8088   77.9   0.740  -12.6  0.3451   19.8  0.4783  161.2
 5.200  0.8087   76.6   0.728  -13.6  0.3503   18.5  0.4881  159.7
 5.300  0.8091   75.2   0.717  -14.6  0.3558   17.3  0.4982  158.3
 5.400  0.8100   73.9   0.707  -15.7  0.3614   16.1  0.5086  156.9
 5.500  0.8113   72.5   0.696  -16.8  0.3671   14.9  0.5193  155.6
 5.600  0.8101   71.3   0.685  -17.6  0.3716   13.7  0.5249  154.4
 5.700  0.8092   70.1   0.675  -18.4  0.3762   12.5  0.5307  153.2
 5.800  0.8086   69.0   0.664  -19.2  0.3810   11.4  0.5368  152.0
 5.900  0.8085   67.8   0.654  -20.0  0.3859   10.3  0.5430  150.9
 6.000  0.8086   66.6   0.644  -20.9  0.3910    9.2  0.5495  149.8
!
!  f       NFmin   Gammaopt  rn/50
! GHz       dB    MAG  ANG    -
!
! noise parameter not available yet for this operation point!
!
! (c) 2017  Infineon Technologies AG, Munich