! Infineon Technologies  Discrete & RF Semiconductors
! BFP196
! VCE =  2.0 V,  IC =  10 mA
! Common Emitter S-Parameters:                            Jan 2017
# GHz  S  MA  R  50
!  f         S11            S21            S12            S22
! GHz     MAG   ANG      MAG   ANG      MAG   ANG      MAG   ANG
 0.010  0.7031  -13.3  30.195  173.5  0.0059   84.5  0.9924   -7.1
 0.020  0.7141  -26.1  30.185  167.0  0.0117   78.7  0.9717  -14.1
 0.030  0.6826  -37.0  28.742  161.7  0.0166   70.3  0.9270  -19.8
 0.040  0.6778  -48.6  27.574  155.8  0.0216   65.8  0.8922  -26.0
 0.050  0.7001  -59.8  26.718  149.5  0.0268   63.0  0.8687  -32.6
 0.060  0.6754  -67.5  25.264  146.3  0.0296   59.0  0.8206  -36.2
 0.070  0.6636  -75.6  23.901  142.6  0.0325   55.7  0.7762  -40.2
 0.080  0.6654  -83.8  22.645  138.6  0.0354   52.9  0.7359  -44.6
 0.090  0.6805  -91.8  21.515  134.1  0.0385   50.6  0.7006  -49.6
 0.100  0.7083  -99.3  20.532  129.1  0.0416   48.6  0.6711  -55.0
 0.110  0.6984 -103.9  19.512  127.1  0.0429   46.6  0.6388  -57.3
 0.120  0.6931 -108.6  18.519  124.9  0.0443   44.7  0.6077  -59.8
 0.130  0.6924 -113.3  17.556  122.4  0.0457   43.0  0.5779  -62.7
 0.140  0.6964 -118.0  16.630  119.7  0.0471   41.3  0.5496  -65.8
 0.150  0.7051 -122.6  15.746  116.6  0.0486   39.8  0.5231  -69.2
 0.200  0.7107 -137.3  12.584  108.3  0.0520   36.0  0.4278  -79.1
 0.250  0.7086 -147.6  10.372  102.1  0.0553   34.7  0.3623  -86.2
 0.300  0.7083 -154.7   8.795   97.8  0.0572   34.4  0.3171  -92.1
 0.350  0.7065 -160.0   7.756   94.8  0.0590   34.8  0.2883  -96.3
 0.400  0.7106 -165.2   6.745   90.8  0.0609   35.2  0.2613 -101.3
 0.450  0.7094 -169.0   6.085   88.5  0.0631   36.2  0.2456 -104.6
 0.500  0.7112 -172.7   5.438   85.6  0.0653   37.2  0.2308 -108.4
 0.600  0.7147 -178.6   4.572   81.1  0.0701   38.9  0.2129 -114.4
 0.700  0.7129  176.7   3.928   77.2  0.0739   41.3  0.2020 -119.0
 0.800  0.7144  172.4   3.452   73.3  0.0795   43.4  0.1980 -123.0
 0.900  0.7154  168.5   3.069   69.8  0.0853   44.5  0.1969 -126.7
 1.000  0.7195  164.8   2.784   66.4  0.0912   45.7  0.1973 -130.2
 1.100  0.7230  161.3   2.540   63.3  0.0968   46.7  0.2004 -132.8
 1.200  0.7246  158.0   2.334   60.0  0.1032   47.5  0.2042 -135.6
 1.300  0.7257  154.9   2.162   57.1  0.1091   48.1  0.2100 -138.0
 1.400  0.7300  151.8   2.019   54.0  0.1158   48.4  0.2168 -140.6
 1.500  0.7342  148.8   1.888   51.1  0.1226   48.5  0.2241 -143.2
 1.600  0.7373  145.8   1.778   48.2  0.1295   48.4  0.2323 -145.1
 1.700  0.7412  142.7   1.680   45.4  0.1359   48.4  0.2425 -147.3
 1.800  0.7478  140.0   1.597   42.5  0.1431   48.2  0.2518 -149.5
 1.900  0.7511  137.2   1.515   40.1  0.1499   47.9  0.2616 -151.4
 2.000  0.7516  134.4   1.441   37.2  0.1571   47.4  0.2718 -153.3
 2.100  0.7564  131.7   1.376   34.8  0.1639   46.9  0.2823 -155.3
 2.200  0.7628  129.0   1.313   32.1  0.1708   46.4  0.2931 -157.1
 2.300  0.7658  126.6   1.259   29.8  0.1783   45.7  0.3046 -158.7
 2.400  0.7701  124.2   1.208   27.4  0.1858   45.1  0.3163 -160.1
 2.500  0.7731  121.8   1.162   25.3  0.1927   44.2  0.3277 -161.9
 2.600  0.7774  119.5   1.117   23.0  0.1997   43.4  0.3394 -163.6
 2.700  0.7812  117.3   1.077   21.0  0.2066   42.5  0.3495 -165.2
 2.800  0.7862  115.1   1.039   18.9  0.2136   41.6  0.3599 -166.8
 2.900  0.7892  113.0   1.004   17.0  0.2207   40.6  0.3692 -168.6
 3.000  0.7932  110.9   0.970   14.9  0.2279   39.7  0.3788 -170.4
 3.100  0.7945  108.9   0.942   13.4  0.2344   38.6  0.3864 -172.3
 3.200  0.7968  107.0   0.915   11.7  0.2411   37.6  0.3944 -174.2
 3.300  0.8000  105.0   0.888   10.0  0.2477   36.7  0.4028 -176.0
 3.400  0.8041  103.1   0.863    8.1  0.2545   35.8  0.4116 -177.7
 3.500  0.8091  101.2   0.838    6.2  0.2613   34.9  0.4207 -179.3
 3.600  0.8103   99.5   0.818    4.9  0.2677   33.7  0.4278  178.6
 3.700  0.8121   97.8   0.798    3.5  0.2743   32.5  0.4355  176.6
 3.800  0.8148   96.1   0.779    2.1  0.2810   31.4  0.4438  174.6
 3.900  0.8181   94.4   0.760    0.6  0.2877   30.3  0.4525  172.7
 4.000  0.8221   92.7   0.742   -1.0  0.2946   29.3  0.4617  170.9
 4.100  0.8216   91.1   0.726   -2.1  0.3007   28.0  0.4693  168.7
 4.200  0.8217   89.5   0.711   -3.3  0.3069   26.8  0.4776  166.6
 4.300  0.8224   88.0   0.695   -4.6  0.3133   25.6  0.4866  164.6
 4.400  0.8237   86.4   0.681   -5.9  0.3199   24.4  0.4961  162.7
 4.500  0.8257   84.8   0.666   -7.2  0.3265   23.3  0.5061  160.8
 4.600  0.8269   83.4   0.654   -8.0  0.3320   22.1  0.5146  159.0
 4.700  0.8285   82.1   0.642   -8.9  0.3377   20.9  0.5236  157.2
 4.800  0.8306   80.7   0.630   -9.8  0.3435   19.7  0.5331  155.5
 4.900  0.8332   79.3   0.618  -10.7  0.3494   18.6  0.5431  153.8
 5.000  0.8362   78.0   0.607  -11.7  0.3555   17.5  0.5535  152.2
 5.100  0.8346   76.7   0.600  -12.4  0.3604   16.2  0.5619  150.8
 5.200  0.8334   75.3   0.594  -13.2  0.3655   15.0  0.5706  149.4
 5.300  0.8327   74.0   0.587  -14.0  0.3707   13.7  0.5796  148.1
 5.400  0.8324   72.6   0.581  -14.8  0.3761   12.6  0.5889  146.8
 5.500  0.8326   71.3   0.575  -15.6  0.3817   11.4  0.5985  145.6
 5.600  0.8307   70.1   0.569  -16.2  0.3861   10.2  0.6026  144.4
 5.700  0.8292   68.9   0.563  -16.9  0.3908    9.0  0.6070  143.3
 5.800  0.8280   67.6   0.557  -17.5  0.3955    7.9  0.6116  142.2
 5.900  0.8272   66.4   0.551  -18.2  0.4004    6.8  0.6164  141.1
 6.000  0.8268   65.2   0.545  -18.9  0.4055    5.7  0.6215  140.0
!
!  f       NFmin   Gammaopt  rn/50
! GHz       dB    MAG  ANG    -
 0.450      0.99  0.35  147   0.06
 0.900      1.29  0.50  174   0.05
 1.900      2.40  0.70 -139   0.25
 2.400      2.90  0.73 -123   0.68
!
! (c) 2017  Infineon Technologies AG, Munich