! Infineon Technologies  Discrete & RF Semiconductors
! BFP196
! VCE =  8.0 V,  IC =  10 mA
! Common Emitter S-Parameters:                            Jan 2017
# GHz  S  MA  R  50
!  f         S11            S21            S12            S22
! GHz     MAG   ANG      MAG   ANG      MAG   ANG      MAG   ANG
 0.010  0.7347  -10.5  29.611  174.4  0.0044   84.6  0.9956   -5.1
 0.020  0.7447  -20.8  29.528  169.1  0.0092   80.4  0.9784  -10.4
 0.030  0.7165  -30.0  28.485  164.3  0.0132   73.7  0.9468  -14.8
 0.040  0.7079  -39.7  27.655  159.2  0.0173   70.1  0.9211  -19.4
 0.050  0.7196  -49.3  27.059  153.8  0.0214   67.9  0.9017  -24.3
 0.060  0.6949  -56.3  25.840  150.6  0.0239   63.8  0.8627  -27.2
 0.070  0.6814  -63.8  24.710  147.0  0.0265   60.5  0.8261  -30.4
 0.080  0.6797  -71.4  23.683  143.2  0.0291   57.8  0.7923  -33.8
 0.090  0.6899  -78.9  22.772  139.0  0.0318   55.5  0.7616  -37.6
 0.100  0.7116  -86.1  21.993  134.5  0.0346   53.6  0.7344  -41.6
 0.110  0.6978  -90.7  21.011  132.4  0.0360   51.4  0.7037  -43.4
 0.120  0.6888  -95.5  20.060  130.0  0.0374   49.5  0.6737  -45.4
 0.130  0.6847 -100.4  19.146  127.5  0.0388   47.6  0.6446  -47.5
 0.140  0.6857 -105.3  18.274  124.7  0.0403   45.9  0.6164  -49.8
 0.150  0.6916 -110.2  17.450  121.6  0.0418   44.3  0.5894  -52.4
 0.200  0.6888 -126.7  14.206  112.8  0.0452   39.9  0.4884  -59.3
 0.250  0.6835 -138.4  11.860  106.0  0.0488   37.7  0.4151  -63.5
 0.300  0.6800 -146.9  10.126  101.3  0.0509   36.6  0.3620  -66.8
 0.350  0.6757 -152.8   8.955   98.0  0.0525   37.1  0.3281  -68.6
 0.400  0.6788 -158.8   7.822   93.8  0.0541   37.5  0.2946  -70.9
 0.450  0.6770 -163.1   7.067   91.3  0.0562   38.1  0.2746  -72.3
 0.500  0.6790 -167.4   6.328   88.3  0.0583   38.7  0.2548  -74.0
 0.600  0.6790 -174.2   5.332   83.6  0.0628   40.2  0.2296  -76.8
 0.700  0.6808 -179.4   4.585   79.6  0.0653   42.5  0.2130  -79.1
 0.800  0.6830  175.8   4.032   75.6  0.0710   44.5  0.2039  -82.0
 0.900  0.6823  171.4   3.586   72.1  0.0759   45.9  0.1981  -84.9
 1.000  0.6852  167.6   3.249   68.8  0.0801   47.1  0.1933  -88.0
 1.100  0.6901  163.9   2.963   65.6  0.0857   48.3  0.1930  -91.0
 1.200  0.6904  160.3   2.721   62.3  0.0911   49.4  0.1930  -94.0
 1.300  0.6923  157.1   2.519   59.4  0.0966   50.0  0.1953  -97.5
 1.400  0.6972  153.9   2.352   56.4  0.1025   50.8  0.1980 -101.3
 1.500  0.7024  150.8   2.195   53.5  0.1083   51.1  0.2020 -104.7
 1.600  0.7067  147.6   2.066   50.6  0.1148   51.3  0.2078 -107.9
 1.700  0.7091  144.7   1.952   47.8  0.1212   51.6  0.2145 -111.5
 1.800  0.7174  141.6   1.851   44.9  0.1271   51.2  0.2208 -115.1
 1.900  0.7198  138.9   1.755   42.4  0.1336   51.2  0.2283 -118.4
 2.000  0.7226  136.0   1.667   39.6  0.1402   51.0  0.2370 -121.5
 2.100  0.7272  133.2   1.590   37.1  0.1467   50.6  0.2457 -124.7
 2.200  0.7336  130.4   1.516   34.4  0.1533   50.2  0.2551 -127.6
 2.300  0.7373  128.0   1.454   32.1  0.1606   49.7  0.2660 -130.4
 2.400  0.7423  125.6   1.394   29.7  0.1680   49.2  0.2774 -132.9
 2.500  0.7464  123.2   1.338   27.5  0.1746   48.4  0.2878 -135.6
 2.600  0.7517  120.9   1.284   25.1  0.1812   47.7  0.2989 -138.2
 2.700  0.7556  118.7   1.236   23.1  0.1881   46.9  0.3090 -140.6
 2.800  0.7607  116.5   1.190   20.9  0.1950   46.2  0.3196 -142.8
 2.900  0.7639  114.3   1.149   18.9  0.2017   45.3  0.3284 -145.4
 3.000  0.7682  112.1   1.109   16.7  0.2084   44.4  0.3378 -147.8
 3.100  0.7704  110.1   1.075   15.1  0.2153   43.4  0.3450 -150.3
 3.200  0.7735  108.1   1.043   13.4  0.2222   42.5  0.3529 -152.6
 3.300  0.7776  106.2   1.011   11.6  0.2292   41.6  0.3614 -154.9
 3.400  0.7826  104.2   0.980    9.7  0.2362   40.8  0.3703 -157.1
 3.500  0.7884  102.3   0.951    7.7  0.2433   40.0  0.3798 -159.1
 3.600  0.7904  100.6   0.926    6.3  0.2500   38.8  0.3864 -161.7
 3.700  0.7930   98.8   0.902    4.8  0.2569   37.6  0.3938 -164.1
 3.800  0.7965   97.1   0.878    3.2  0.2638   36.5  0.4019 -166.5
 3.900  0.8006   95.4   0.855    1.6  0.2709   35.5  0.4107 -168.8
 4.000  0.8054   93.7   0.833   -0.2  0.2780   34.5  0.4201 -171.0
 4.100  0.8058   92.1   0.814   -1.4  0.2845   33.1  0.4273 -173.7
 4.200  0.8068   90.6   0.795   -2.7  0.2912   31.8  0.4353 -176.2
 4.300  0.8084   89.0   0.776   -4.1  0.2980   30.6  0.4442 -178.7
 4.400  0.8106   87.4   0.758   -5.5  0.3049   29.4  0.4539  179.0
 4.500  0.8134   85.9   0.741   -7.0  0.3120   28.3  0.4643  176.7
 4.600  0.8151   84.5   0.725   -7.9  0.3180   27.0  0.4729  174.4
 4.700  0.8172   83.1   0.710   -8.9  0.3241   25.8  0.4823  172.2
 4.800  0.8199   81.7   0.695   -9.9  0.3304   24.6  0.4924  170.0
 4.900  0.8230   80.3   0.680  -11.0  0.3368   23.5  0.5031  168.0
 5.000  0.8266   78.9   0.665  -12.1  0.3433   22.4  0.5145  166.0
 5.100  0.8256   77.5   0.656  -12.9  0.3486   21.0  0.5238  164.3
 5.200  0.8250   76.2   0.646  -13.7  0.3542   19.7  0.5335  162.6
 5.300  0.8249   74.8   0.637  -14.5  0.3599   18.4  0.5437  161.0
 5.400  0.8253   73.5   0.628  -15.4  0.3658   17.2  0.5543  159.4
 5.500  0.8261   72.1   0.619  -16.3  0.3718   16.0  0.5653  157.9
 5.600  0.8242   70.9   0.611  -16.9  0.3765   14.7  0.5707  156.5
 5.700  0.8227   69.6   0.602  -17.6  0.3814   13.5  0.5765  155.1
 5.800  0.8215   68.4   0.594  -18.2  0.3864   12.3  0.5825  153.8
 5.900  0.8208   67.1   0.586  -18.9  0.3916   11.1  0.5889  152.5
 6.000  0.8204   65.9   0.578  -19.6  0.3970   10.0  0.5956  151.2
!
!  f       NFmin   Gammaopt  rn/50
! GHz       dB    MAG  ANG    -
 0.450      0.99  0.35  147   0.06
 0.900      1.29  0.50  174   0.05
 1.900      2.40  0.70 -139   0.25
 2.400      2.90  0.73 -123   0.68
!
! (c) 2017  Infineon Technologies AG, Munich