! Infineon Technologies  Discrete & RF Semiconductors
! BFP196
! VCE =  1.0 V,  IC =  20 mA
! Common Emitter S-Parameters:                            Jan 2017
# GHz  S  MA  R  50
!  f         S11            S21            S12            S22
! GHz     MAG   ANG      MAG   ANG      MAG   ANG      MAG   ANG
 0.010  0.4964  -26.9  49.567  169.1  0.0062   78.9  0.9660  -13.9
 0.020  0.5300  -51.2  48.079  158.9  0.0115   73.5  0.9188  -27.4
 0.030  0.5106  -68.5  43.597  152.4  0.0156   63.7  0.8311  -36.5
 0.040  0.5389  -85.6  39.795  144.6  0.0200   58.1  0.7687  -47.3
 0.050  0.6083  -99.8  36.882  135.3  0.0245   54.5  0.7380  -59.6
 0.060  0.6035 -107.4  34.020  132.5  0.0260   51.6  0.6816  -64.4
 0.070  0.6095 -115.0  31.251  129.3  0.0276   49.1  0.6308  -70.0
 0.080  0.6259 -122.4  28.602  125.4  0.0292   46.8  0.5871  -76.5
 0.090  0.6520 -129.2  26.110  120.8  0.0308   44.8  0.5522  -84.0
 0.100  0.6867 -135.5  23.825  115.2  0.0325   43.0  0.5277  -92.3
 0.110  0.6857 -138.7  22.396  113.7  0.0333   42.3  0.5039  -95.6
 0.120  0.6869 -141.9  20.983  112.1  0.0342   41.7  0.4818  -99.1
 0.130  0.6902 -145.1  19.589  110.2  0.0350   41.1  0.4618 -103.0
 0.140  0.6957 -148.3  18.221  108.0  0.0359   40.5  0.4441 -107.2
 0.150  0.7032 -151.4  16.883  105.5  0.0367   39.9  0.4290 -111.8
 0.200  0.7158 -160.4  12.993   99.3  0.0389   40.9  0.3817 -124.9
 0.250  0.7206 -166.8  10.510   94.9  0.0428   42.1  0.3539 -134.0
 0.300  0.7204 -171.2   8.815   91.6  0.0458   43.9  0.3384 -141.2
 0.350  0.7215 -174.6   7.740   89.4  0.0493   46.4  0.3293 -145.8
 0.400  0.7251 -177.9   6.681   86.4  0.0529   48.5  0.3225 -150.7
 0.450  0.7252  179.5   6.016   84.5  0.0566   50.0  0.3187 -154.0
 0.500  0.7267  177.0   5.358   82.2  0.0603   51.3  0.3160 -157.3
 0.600  0.7302  172.9   4.491   78.5  0.0688   53.1  0.3144 -162.1
 0.700  0.7300  169.3   3.854   75.3  0.0763   54.7  0.3127 -165.7
 0.800  0.7316  165.7   3.385   71.8  0.0852   55.6  0.3143 -168.5
 0.900  0.7306  162.4   3.010   68.8  0.0939   55.8  0.3167 -170.9
 1.000  0.7338  159.3   2.729   65.9  0.1024   55.6  0.3195 -173.2
 1.100  0.7368  156.3   2.490   63.0  0.1115   55.6  0.3225 -174.8
 1.200  0.7390  153.1   2.290   60.1  0.1196   55.1  0.3255 -176.5
 1.300  0.7413  150.5   2.125   57.4  0.1285   54.3  0.3302 -178.0
 1.400  0.7425  147.6   1.987   54.6  0.1375   53.8  0.3362 -179.5
 1.500  0.7469  144.8   1.858   51.9  0.1457   53.0  0.3422  179.1
 1.600  0.7499  142.0   1.753   49.2  0.1545   51.9  0.3470  178.1
 1.700  0.7514  139.3   1.660   46.6  0.1625   51.1  0.3541  176.9
 1.800  0.7585  136.5   1.580   43.9  0.1705   50.0  0.3613  175.7
 1.900  0.7604  133.9   1.501   41.6  0.1788   48.8  0.3678  174.5
 2.000  0.7616  131.3   1.429   38.9  0.1868   47.7  0.3751  173.6
 2.100  0.7641  128.6   1.367   36.6  0.1942   46.5  0.3820  172.4
 2.200  0.7683  126.0   1.308   34.1  0.2017   45.4  0.3890  171.3
 2.300  0.7703  123.7   1.258   32.0  0.2096   44.2  0.3962  170.5
 2.400  0.7735  121.5   1.210   29.7  0.2176   43.1  0.4034  169.7
 2.500  0.7764  119.3   1.166   27.7  0.2245   41.7  0.4109  168.7
 2.600  0.7805  117.1   1.124   25.5  0.2316   40.4  0.4186  167.7
 2.700  0.7835  115.0   1.087   23.6  0.2381   39.1  0.4247  166.7
 2.800  0.7876  112.9   1.051   21.5  0.2448   37.9  0.4310  165.7
 2.900  0.7892  110.8   1.019   19.8  0.2511   36.7  0.4370  164.4
 3.000  0.7918  108.7   0.988   17.9  0.2576   35.5  0.4433  163.2
 3.100  0.7926  106.8   0.962   16.3  0.2634   34.3  0.4476  161.9
 3.200  0.7943  105.0   0.937   14.7  0.2692   33.1  0.4522  160.6
 3.300  0.7968  103.1   0.913   13.0  0.2752   31.9  0.4570  159.3
 3.400  0.8001  101.3   0.890   11.1  0.2813   30.8  0.4620  158.0
 3.500  0.8042   99.5   0.868    9.2  0.2875   29.8  0.4672  156.8
 3.600  0.8050   97.9   0.849    7.8  0.2929   28.5  0.4720  155.3
 3.700  0.8065   96.3   0.831    6.4  0.2985   27.3  0.4770  153.8
 3.800  0.8086   94.7   0.813    5.0  0.3041   26.1  0.4824  152.4
 3.900  0.8113   93.1   0.796    3.4  0.3100   24.9  0.4881  151.0
 4.000  0.8147   91.5   0.779    1.8  0.3159   23.8  0.4941  149.6
 4.100  0.8140   90.0   0.764    0.6  0.3210   22.5  0.5000  148.0
 4.200  0.8138   88.5   0.750   -0.7  0.3262   21.3  0.5064  146.5
 4.300  0.8142   86.9   0.736   -2.0  0.3315   20.1  0.5130  145.0
 4.400  0.8152   85.4   0.723   -3.4  0.3370   19.0  0.5200  143.6
 4.500  0.8168   83.9   0.710   -4.8  0.3426   17.9  0.5273  142.2
 4.600  0.8180   82.6   0.698   -5.8  0.3472   16.7  0.5337  140.9
 4.700  0.8196   81.2   0.687   -6.8  0.3519   15.6  0.5403  139.7
 4.800  0.8217   79.9   0.676   -7.9  0.3567   14.4  0.5472  138.5
 4.900  0.8243   78.6   0.665   -9.0  0.3617   13.4  0.5544  137.3
 5.000  0.8272   77.3   0.654  -10.1  0.3668   12.3  0.5617  136.2
 5.100  0.8258   76.0   0.648  -11.0  0.3708   11.1  0.5680  135.3
 5.200  0.8248   74.7   0.641  -11.9  0.3751    9.9  0.5745  134.5
 5.300  0.8242   73.5   0.635  -12.9  0.3794    8.7  0.5811  133.6
 5.400  0.8241   72.2   0.630  -13.8  0.3839    7.6  0.5878  132.8
 5.500  0.8243   70.9   0.624  -14.8  0.3886    6.5  0.5946  132.0
 5.600  0.8225   69.7   0.617  -15.6  0.3922    5.4  0.5969  131.2
 5.700  0.8210   68.6   0.611  -16.4  0.3960    4.3  0.5993  130.4
 5.800  0.8198   67.4   0.604  -17.2  0.4000    3.3  0.6018  129.6
 5.900  0.8190   66.3   0.598  -18.0  0.4040    2.2  0.6044  128.8
 6.000  0.8185   65.1   0.592  -18.9  0.4082    1.2  0.6072  128.0
!
!  f       NFmin   Gammaopt  rn/50
! GHz       dB    MAG  ANG    -
 0.450      1.10  0.34  159   0.05
 0.900      1.30  0.47  179   0.06
 1.900      2.20  0.68 -137   0.24
 2.400      2.65  0.72 -122   0.59
!
! (c) 2017  Infineon Technologies AG, Munich