! Infineon Technologies  Discrete & RF Semiconductors
! BFP196
! VCE =  1.0 V,  IC = 0.14 A
! Common Emitter S-Parameters:                            Jan 2017
# GHz  S  MA  R  50
!  f         S11            S21            S12            S22
! GHz     MAG   ANG      MAG   ANG      MAG   ANG      MAG   ANG
 0.010  0.5691 -152.8  51.134  146.2  0.0057   52.8  0.3833  -84.7
 0.020  0.7542 -159.3  36.985  126.6  0.0080   46.8  0.4697 -121.0
 0.030  0.7859 -163.6  30.132  122.6  0.0093   45.8  0.4708 -133.0
 0.040  0.8218 -167.6  23.517  116.2  0.0105   45.1  0.4920 -144.5
 0.050  0.8612 -171.2  17.412  105.1  0.0118   44.5  0.5309 -154.6
 0.060  0.8650 -172.5  15.703  104.0  0.0127   47.8  0.5312 -157.3
 0.070  0.8692 -173.8  14.002  102.5  0.0136   50.7  0.5327 -160.0
 0.080  0.8738 -175.1  12.313  100.7  0.0145   53.2  0.5353 -162.7
 0.090  0.8789 -176.3  10.639   98.4  0.0154   55.4  0.5391 -165.3
 0.100  0.8844 -177.6   8.990   95.1  0.0164   57.3  0.5440 -167.9
 0.110  0.8851 -178.2   8.396   94.5  0.0175   58.7  0.5438 -168.9
 0.120  0.8858 -178.8   7.803   93.8  0.0185   59.9  0.5437 -169.9
 0.130  0.8867 -179.5   7.211   92.9  0.0196   61.0  0.5439 -170.9
 0.140  0.8877  179.9   6.622   92.0  0.0207   61.9  0.5441 -171.9
 0.150  0.8888  179.3   6.034   90.8  0.0218   62.8  0.5446 -172.9
 0.200  0.8867  177.1   4.532   87.3  0.0271   66.1  0.5462 -175.8
 0.250  0.8877  175.1   3.625   84.6  0.0333   67.8  0.5446 -177.7
 0.300  0.8832  173.3   3.027   82.4  0.0388   69.1  0.5455 -179.4
 0.350  0.8828  171.8   2.657   80.5  0.0449   70.0  0.5456  179.5
 0.400  0.8830  170.2   2.291   78.1  0.0511   70.6  0.5460  178.4
 0.450  0.8827  168.6   2.067   76.4  0.0566   70.5  0.5461  177.4
 0.500  0.8831  167.0   1.845   74.3  0.0621   70.4  0.5464  176.4
 0.600  0.8834  164.2   1.554   70.8  0.0743   69.6  0.5495  174.6
 0.700  0.8824  161.6   1.347   67.6  0.0850   69.2  0.5482  172.9
 0.800  0.8825  158.6   1.192   64.2  0.0973   68.0  0.5503  171.5
 0.900  0.8788  155.9   1.074   61.1  0.1086   66.6  0.5525  170.3
 1.000  0.8835  153.3   0.983   58.1  0.1199   65.2  0.5562  168.7
 1.100  0.8830  150.5   0.910   55.1  0.1312   63.8  0.5579  167.4
 1.200  0.8809  147.7   0.847   52.1  0.1414   61.9  0.5581  166.1
 1.300  0.8820  145.1   0.797   49.6  0.1522   60.3  0.5618  164.9
 1.400  0.8836  142.3   0.756   46.9  0.1640   58.8  0.5667  163.6
 1.500  0.8845  139.7   0.717   44.3  0.1733   57.1  0.5703  162.2
 1.600  0.8858  136.9   0.687   41.7  0.1839   55.6  0.5726  161.1
 1.700  0.8866  134.2   0.661   39.3  0.1941   53.8  0.5781  160.1
 1.800  0.8904  131.5   0.640   36.7  0.2036   52.1  0.5831  158.8
 1.900  0.8881  129.0   0.616   34.8  0.2127   50.3  0.5863  157.6
 2.000  0.8853  126.4   0.595   32.5  0.2217   48.6  0.5898  156.6
 2.100  0.8854  123.8   0.578   30.6  0.2300   47.0  0.5942  155.4
 2.200  0.8873  121.3   0.562   28.6  0.2385   45.5  0.5988  154.3
 2.300  0.8855  119.1   0.549   26.9  0.2470   43.7  0.6017  153.3
 2.400  0.8850  116.8   0.537   25.1  0.2557   42.1  0.6048  152.4
 2.500  0.8849  114.6   0.526   23.6  0.2630   40.5  0.6095  151.3
 2.600  0.8860  112.5   0.515   22.0  0.2706   38.9  0.6145  150.3
 2.700  0.8852  110.4   0.506   20.6  0.2771   37.3  0.6160  149.2
 2.800  0.8856  108.3   0.498   19.1  0.2839   35.7  0.6177  148.2
 2.900  0.8843  106.3   0.490   17.9  0.2902   34.2  0.6214  146.9
 3.000  0.8841  104.2   0.483   16.6  0.2966   32.7  0.6253  145.7
 3.100  0.8819  102.4   0.478   15.4  0.3020   31.2  0.6258  144.4
 3.200  0.8805  100.6   0.473   14.3  0.3075   29.8  0.6265  143.2
 3.300  0.8800   98.7   0.469   13.1  0.3132   28.5  0.6276  141.9
 3.400  0.8805   96.9   0.464   11.8  0.3191   27.2  0.6289  140.7
 3.500  0.8818   95.1   0.460   10.6  0.3252   25.9  0.6306  139.4
 3.600  0.8798   93.5   0.457    9.6  0.3300   24.5  0.6325  138.1
 3.700  0.8784   91.9   0.454    8.6  0.3351   23.1  0.6348  136.8
 3.800  0.8777   90.4   0.452    7.6  0.3403   21.8  0.6374  135.5
 3.900  0.8777   88.8   0.449    6.6  0.3456   20.5  0.6403  134.2
 4.000  0.8783   87.2   0.447    5.6  0.3512   19.3  0.6435  132.9
 4.100  0.8754   85.8   0.445    4.7  0.3556   18.0  0.6467  131.5
 4.200  0.8730   84.3   0.444    3.8  0.3602   16.7  0.6502  130.2
 4.300  0.8711   82.9   0.442    2.9  0.3650   15.4  0.6540  128.9
 4.400  0.8698   81.5   0.441    1.9  0.3699   14.2  0.6583  127.6
 4.500  0.8691   80.0   0.440    1.0  0.3750   13.0  0.6628  126.3
 4.600  0.8681   78.7   0.439    0.3  0.3788   11.8  0.6658  125.2
 4.700  0.8676   77.5   0.439   -0.5  0.3827   10.6  0.6691  124.1
 4.800  0.8674   76.2   0.438   -1.2  0.3868    9.4  0.6726  123.1
 4.900  0.8677   75.0   0.437   -2.0  0.3910    8.3  0.6763  122.0
 5.000  0.8684   73.7   0.437   -2.7  0.3954    7.2  0.6803  121.0
 5.100  0.8654   72.5   0.439   -3.5  0.3987    6.0  0.6831  120.2
 5.200  0.8628   71.2   0.440   -4.4  0.4022    4.8  0.6860  119.5
 5.300  0.8606   70.0   0.442   -5.2  0.4058    3.7  0.6891  118.8
 5.400  0.8588   68.8   0.444   -6.0  0.4096    2.5  0.6922  118.0
 5.500  0.8574   67.5   0.446   -6.8  0.4136    1.4  0.6955  117.3
 5.600  0.8544   66.4   0.447   -7.5  0.4165    0.3  0.6944  116.6
 5.700  0.8516   65.3   0.448   -8.3  0.4196   -0.8  0.6935  115.9
 5.800  0.8492   64.2   0.449   -9.0  0.4228   -1.8  0.6926  115.1
 5.900  0.8471   63.1   0.450   -9.8  0.4262   -2.9  0.6918  114.4
 6.000  0.8453   62.0   0.451  -10.5  0.4297   -3.9  0.6912  113.7
!
!  f       NFmin   Gammaopt  rn/50
! GHz       dB    MAG  ANG    -
!
! noise parameter not available yet for this operation point!
!
! (c) 2017  Infineon Technologies AG, Munich