! Infineon Technologies  Discrete & RF Semiconductors
! BFP196
! VCE =  6.0 V,  IC =  35 mA
! Common Emitter S-Parameters:                            Jan 2017
# GHz  S  MA  R  50
!  f         S11            S21            S12            S22
! GHz     MAG   ANG      MAG   ANG      MAG   ANG      MAG   ANG
 0.010  0.3922  -27.6  67.654  169.2  0.0036   78.0  0.9641  -11.7
 0.020  0.4228  -52.3  65.245  159.6  0.0072   77.9  0.9178  -23.2
 0.030  0.4165  -70.3  59.485  153.2  0.0096   67.4  0.8356  -30.8
 0.040  0.4501  -87.1  54.617  145.6  0.0122   61.3  0.7712  -39.9
 0.050  0.5158 -100.6  50.899  136.6  0.0149   57.3  0.7293  -50.3
 0.060  0.5154 -108.3  47.022  133.8  0.0161   55.8  0.6730  -54.1
 0.070  0.5241 -115.8  43.276  130.5  0.0174   54.4  0.6203  -58.6
 0.080  0.5415 -123.0  39.699  126.7  0.0186   53.3  0.5719  -63.8
 0.090  0.5668 -129.6  36.339  122.0  0.0198   52.3  0.5293  -70.0
 0.100  0.5990 -135.6  33.263  116.5  0.0211   51.4  0.4937  -77.1
 0.110  0.5991 -138.8  31.287  115.0  0.0218   51.0  0.4668  -79.6
 0.120  0.6012 -142.0  29.335  113.3  0.0224   50.7  0.4408  -82.3
 0.130  0.6051 -145.2  27.412  111.4  0.0231   50.4  0.4160  -85.4
 0.140  0.6108 -148.3  25.523  109.2  0.0237   50.1  0.3926  -88.9
 0.150  0.6183 -151.4  23.678  106.7  0.0244   49.8  0.3708  -92.8
 0.200  0.6333 -160.0  18.251  100.6  0.0274   52.4  0.3049 -104.2
 0.250  0.6382 -166.5  14.771   96.1  0.0312   54.0  0.2645 -112.5
 0.300  0.6393 -170.8  12.409   93.0  0.0344   56.2  0.2392 -120.0
 0.350  0.6409 -174.2  10.898   90.8  0.0384   58.2  0.2244 -124.9
 0.400  0.6446 -177.5   9.409   87.9  0.0424   59.8  0.2115 -130.4
 0.450  0.6451  180.0   8.472   86.1  0.0462   60.8  0.2043 -134.2
 0.500  0.6469  177.5   7.546   83.9  0.0501   61.7  0.1981 -138.2
 0.600  0.6504  173.3   6.327   80.4  0.0584   62.2  0.1921 -144.3
 0.700  0.6517  169.9   5.427   77.4  0.0660   63.7  0.1875 -149.0
 0.800  0.6548  166.3   4.760   74.1  0.0751   64.0  0.1877 -152.3
 0.900  0.6545  162.9   4.231   71.3  0.0825   63.0  0.1890 -155.3
 1.000  0.6581  159.9   3.826   68.5  0.0914   62.7  0.1909 -158.2
 1.100  0.6617  156.9   3.488   65.9  0.0994   62.3  0.1937 -160.0
 1.200  0.6646  154.0   3.202   63.1  0.1074   61.5  0.1965 -161.9
 1.300  0.6666  151.0   2.965   60.5  0.1157   60.4  0.2019 -163.6
 1.400  0.6697  148.4   2.766   57.9  0.1243   59.6  0.2073 -165.4
 1.500  0.6741  145.6   2.583   55.4  0.1321   58.8  0.2131 -166.9
 1.600  0.6774  142.8   2.432   52.8  0.1405   57.5  0.2187 -168.0
 1.700  0.6812  140.1   2.298   50.3  0.1484   56.6  0.2266 -169.3
 1.800  0.6868  137.3   2.180   47.7  0.1562   55.2  0.2344 -170.8
 1.900  0.6904  134.8   2.067   45.5  0.1633   54.0  0.2414 -171.9
 2.000  0.6928  132.2   1.965   42.9  0.1711   52.7  0.2493 -172.9
 2.100  0.6961  129.5   1.876   40.6  0.1783   51.5  0.2573 -174.1
 2.200  0.7008  126.9   1.790   38.1  0.1856   50.4  0.2655 -175.3
 2.300  0.7047  124.7   1.718   36.0  0.1932   49.0  0.2735 -176.1
 2.400  0.7096  122.6   1.649   33.8  0.2009   47.8  0.2815 -176.9
 2.500  0.7131  120.4   1.585   31.7  0.2075   46.4  0.2903 -178.0
 2.600  0.7176  118.2   1.523   29.5  0.2142   45.1  0.2992 -179.1
 2.700  0.7218  116.1   1.470   27.6  0.2208   43.8  0.3063  179.8
 2.800  0.7270  114.1   1.419   25.5  0.2275   42.6  0.3135  178.8
 2.900  0.7307  112.0   1.372   23.6  0.2335   41.3  0.3203  177.4
 3.000  0.7353  110.0   1.327   21.6  0.2396   40.1  0.3273  176.0
 3.100  0.7374  108.1   1.289   20.0  0.2454   38.8  0.3324  174.6
 3.200  0.7404  106.3   1.253   18.3  0.2513   37.6  0.3378  173.1
 3.300  0.7440  104.4   1.218   16.5  0.2574   36.5  0.3433  171.8
 3.400  0.7485  102.6   1.184   14.5  0.2635   35.4  0.3491  170.5
 3.500  0.7537  100.8   1.151   12.5  0.2697   34.3  0.3550  169.2
 3.600  0.7558   99.2   1.123   11.0  0.2750   33.0  0.3604  167.5
 3.700  0.7584   97.6   1.096    9.4  0.2805   31.7  0.3660  165.8
 3.800  0.7617   96.0   1.069    7.8  0.2861   30.5  0.3720  164.2
 3.900  0.7655   94.5   1.044    6.0  0.2918   29.3  0.3782  162.7
 4.000  0.7699   92.9   1.019    4.2  0.2976   28.2  0.3847  161.2
 4.100  0.7709   91.4   0.997    2.8  0.3028   26.9  0.3911  159.4
 4.200  0.7724   89.9   0.975    1.4  0.3081   25.7  0.3979  157.7
 4.300  0.7745   88.4   0.955   -0.1  0.3135   24.5  0.4051  156.1
 4.400  0.7770   87.0   0.934   -1.7  0.3191   23.3  0.4125  154.5
 4.500  0.7801   85.5   0.915   -3.3  0.3248   22.2  0.4203  153.0
 4.600  0.7821   84.1   0.897   -4.4  0.3295   21.0  0.4277  151.6
 4.700  0.7844   82.8   0.879   -5.6  0.3343   19.9  0.4354  150.2
 4.800  0.7873   81.5   0.862   -6.9  0.3392   18.7  0.4434  148.9
 4.900  0.7905   80.1   0.845   -8.2  0.3442   17.7  0.4515  147.6
 5.000  0.7942   78.8   0.829   -9.5  0.3494   16.6  0.4599  146.4
 5.100  0.7935   77.5   0.817  -10.6  0.3536   15.4  0.4676  145.4
 5.200  0.7932   76.2   0.806  -11.7  0.3580   14.2  0.4753  144.5
 5.300  0.7933   74.9   0.795  -12.9  0.3625   13.0  0.4832  143.6
 5.400  0.7939   73.6   0.784  -14.1  0.3672   11.9  0.4913  142.7
 5.500  0.7948   72.3   0.774  -15.3  0.3720   10.8  0.4994  141.9
 5.600  0.7937   71.1   0.763  -16.2  0.3759    9.7  0.5033  141.1
 5.700  0.7929   70.0   0.752  -17.2  0.3799    8.5  0.5073  140.3
 5.800  0.7924   68.8   0.742  -18.2  0.3840    7.4  0.5115  139.5
 5.900  0.7923   67.7   0.731  -19.2  0.3883    6.4  0.5157  138.7
 6.000  0.7925   66.5   0.721  -20.3  0.3927    5.3  0.5200  137.9
!
!  f       NFmin   Gammaopt  rn/50
! GHz       dB    MAG  ANG    -
 0.450      1.28  0.35  173   0.05
 0.900      1.44  0.45 -169   0.07
 1.900      2.27  0.68 -134   0.27
 2.400      2.68  0.71 -121   0.61
!
! (c) 2017  Infineon Technologies AG, Munich