! Infineon Technologies  Discrete & RF Semiconductors
! BFP196
! VCE =  3.0 V,  IC =  70 mA
! Common Emitter S-Parameters:                            Jan 2017
# GHz  S  MA  R  50
!  f         S11            S21            S12            S22
! GHz     MAG   ANG      MAG   ANG      MAG   ANG      MAG   ANG
 0.010  0.1902  -82.3  89.552  164.9  0.0032   77.5  0.9161  -18.4
 0.020  0.3284 -106.8  82.587  151.7  0.0063   72.1  0.8426  -35.9
 0.030  0.3844 -121.6  72.209  145.3  0.0080   65.3  0.7333  -45.3
 0.040  0.4590 -132.2  63.038  136.8  0.0098   60.9  0.6500  -57.5
 0.050  0.5447 -139.6  55.675  125.8  0.0116   57.9  0.6036  -72.4
 0.060  0.5579 -144.0  50.807  123.6  0.0125   57.6  0.5541  -77.0
 0.070  0.5743 -148.2  46.030  120.9  0.0134   57.4  0.5087  -82.4
 0.080  0.5935 -152.1  41.378  117.6  0.0144   57.2  0.4687  -88.8
 0.090  0.6154 -155.8  36.896  113.5  0.0153   57.1  0.4356  -96.3
 0.100  0.6396 -159.2  32.655  108.3  0.0162   56.9  0.4111 -104.8
 0.110  0.6421 -161.0  30.591  107.2  0.0170   57.3  0.3938 -107.8
 0.120  0.6452 -162.8  28.540  105.9  0.0177   57.7  0.3778 -111.2
 0.130  0.6489 -164.6  26.506  104.4  0.0185   58.1  0.3631 -114.8
 0.140  0.6533 -166.4  24.492  102.7  0.0192   58.4  0.3499 -118.6
 0.150  0.6583 -168.1  22.504  100.7  0.0200   58.7  0.3385 -122.8
 0.200  0.6683 -172.8  17.084   95.8  0.0238   62.8  0.3071 -134.7
 0.250  0.6749 -176.8  13.748   92.3  0.0288   64.6  0.2896 -142.6
 0.300  0.6746 -179.5  11.499   89.8  0.0334   65.6  0.2806 -148.8
 0.350  0.6754  178.2  10.087   87.9  0.0381   67.1  0.2754 -152.7
 0.400  0.6773  176.0   8.689   85.4  0.0428   68.2  0.2716 -156.8
 0.450  0.6785  174.0   7.818   83.8  0.0470   68.5  0.2700 -159.5
 0.500  0.6805  172.1   6.955   81.9  0.0513   68.8  0.2690 -162.3
 0.600  0.6829  168.9   5.824   78.7  0.0611   69.2  0.2696 -166.5
 0.700  0.6839  166.0   4.996   75.9  0.0701   68.9  0.2682 -169.5
 0.800  0.6864  162.8   4.382   72.8  0.0805   68.5  0.2706 -171.9
 0.900  0.6861  159.8   3.892   70.1  0.0896   67.1  0.2732 -173.9
 1.000  0.6884  157.0   3.522   67.5  0.0987   66.3  0.2764 -176.1
 1.100  0.6930  154.2   3.213   64.9  0.1079   65.1  0.2791 -177.4
 1.200  0.6945  151.5   2.948   62.2  0.1170   63.9  0.2813 -179.0
 1.300  0.6970  148.8   2.731   59.8  0.1259   62.4  0.2864  179.8
 1.400  0.6992  146.1   2.552   57.2  0.1352   61.3  0.2920  178.4
 1.500  0.7031  143.4   2.381   54.7  0.1444   59.8  0.2969  177.1
 1.600  0.7079  140.7   2.245   52.2  0.1527   58.4  0.3014  176.3
 1.700  0.7087  138.0   2.122   49.7  0.1618   57.0  0.3082  175.3
 1.800  0.7156  135.4   2.017   47.2  0.1700   55.5  0.3150  174.2
 1.900  0.7173  132.8   1.913   45.0  0.1776   54.0  0.3211  173.1
 2.000  0.7188  130.4   1.820   42.5  0.1862   52.6  0.3273  172.3
 2.100  0.7220  127.8   1.738   40.3  0.1935   51.1  0.3343  171.3
 2.200  0.7266  125.3   1.659   37.8  0.2009   49.8  0.3414  170.3
 2.300  0.7289  123.1   1.594   35.7  0.2087   48.3  0.3476  169.6
 2.400  0.7323  120.9   1.531   33.5  0.2167   46.9  0.3539  169.0
 2.500  0.7357  118.8   1.474   31.6  0.2237   45.2  0.3614  168.0
 2.600  0.7401  116.7   1.418   29.5  0.2308   43.7  0.3690  167.0
 2.700  0.7437  114.6   1.370   27.6  0.2372   42.3  0.3746  166.1
 2.800  0.7482  112.6   1.324   25.5  0.2437   41.0  0.3803  165.3
 2.900  0.7507  110.5   1.282   23.7  0.2499   39.6  0.3860  164.0
 3.000  0.7541  108.5   1.242   21.8  0.2562   38.3  0.3919  162.8
 3.100  0.7555  106.7   1.208   20.2  0.2617   36.9  0.3957  161.5
 3.200  0.7576  104.9   1.175   18.5  0.2674   35.6  0.3997  160.2
 3.300  0.7606  103.1   1.144   16.8  0.2732   34.4  0.4038  159.0
 3.400  0.7642  101.3   1.113   14.9  0.2791   33.2  0.4082  157.8
 3.500  0.7686   99.5   1.084   12.9  0.2851   32.0  0.4127  156.6
 3.600  0.7702   97.9   1.059   11.4  0.2903   30.7  0.4170  155.1
 3.700  0.7723   96.4   1.034    9.9  0.2956   29.4  0.4216  153.7
 3.800  0.7750   94.8   1.010    8.3  0.3011   28.1  0.4264  152.2
 3.900  0.7783   93.3   0.987    6.6  0.3067   27.0  0.4315  150.9
 4.000  0.7821   91.8   0.965    4.8  0.3124   25.8  0.4368  149.5
 4.100  0.7822   90.3   0.945    3.5  0.3172   24.5  0.4423  148.0
 4.200  0.7828   88.8   0.926    2.1  0.3221   23.2  0.4481  146.5
 4.300  0.7840   87.3   0.907    0.6  0.3272   22.0  0.4542  145.0
 4.400  0.7857   85.9   0.889   -0.9  0.3324   20.8  0.4606  143.6
 4.500  0.7879   84.4   0.872   -2.5  0.3378   19.6  0.4673  142.2
 4.600  0.7897   83.1   0.857   -3.6  0.3421   18.4  0.4734  141.0
 4.700  0.7920   81.8   0.842   -4.7  0.3465   17.2  0.4797  139.9
 4.800  0.7947   80.5   0.827   -5.9  0.3511   16.1  0.4861  138.8
 4.900  0.7977   79.2   0.813   -7.1  0.3558   15.0  0.4928  137.7
 5.000  0.8012   77.9   0.799   -8.4  0.3606   13.9  0.4996  136.6
 5.100  0.8003   76.6   0.789   -9.5  0.3645   12.7  0.5056  135.8
 5.200  0.7998   75.3   0.779  -10.6  0.3685   11.5  0.5118  135.1
 5.300  0.7997   74.0   0.770  -11.8  0.3727   10.3  0.5180  134.3
 5.400  0.8001   72.7   0.761  -13.0  0.3771    9.1  0.5243  133.6
 5.500  0.8008   71.4   0.752  -14.2  0.3816    8.0  0.5307  132.9
 5.600  0.7993   70.3   0.742  -15.2  0.3851    6.9  0.5330  132.2
 5.700  0.7982   69.1   0.733  -16.2  0.3888    5.8  0.5353  131.5
 5.800  0.7974   68.0   0.724  -17.2  0.3925    4.8  0.5378  130.8
 5.900  0.7969   66.8   0.715  -18.2  0.3965    3.7  0.5403  130.1
 6.000  0.7967   65.7   0.706  -19.3  0.4005    2.7  0.5429  129.4
!
!  f       NFmin   Gammaopt  rn/50
! GHz       dB    MAG  ANG    -
 0.450      1.68  0.46 -172   0.06
 0.900      1.84  0.50 -159   0.09
 1.900      2.66  0.69 -131   0.36
 2.400      3.05  0.70 -117   0.79
!
! (c) 2017  Infineon Technologies AG, Munich