! Infineon Technologies  Discrete & RF Semiconductors
! BFP196
! VCE =  9.0 V,  IC =  35 mA
! Common Emitter S-Parameters:                            Jan 2017
# GHz  S  MA  R  50
!  f         S11            S21            S12            S22
! GHz     MAG   ANG      MAG   ANG      MAG   ANG      MAG   ANG
 0.010  0.4358  -23.7  66.174  169.7  0.0033   79.1  0.9611  -10.6
 0.020  0.4593  -46.0  64.093  160.6  0.0069   74.6  0.9228  -21.2
 0.030  0.4443  -62.7  58.816  154.3  0.0093   65.8  0.8462  -28.3
 0.040  0.4676  -79.1  54.381  146.9  0.0119   60.7  0.7853  -36.7
 0.050  0.5241  -92.9  51.011  138.3  0.0145   57.4  0.7437  -46.3
 0.060  0.5182 -100.8  47.250  135.5  0.0158   55.6  0.6882  -49.9
 0.070  0.5223 -108.8  43.627  132.1  0.0172   54.1  0.6359  -54.1
 0.080  0.5362 -116.4  40.177  128.2  0.0186   52.9  0.5876  -59.0
 0.090  0.5591 -123.6  36.949  123.6  0.0199   51.8  0.5444  -64.7
 0.100  0.5900 -130.1  34.008  118.1  0.0213   50.8  0.5075  -71.4
 0.110  0.5890 -133.6  32.023  116.6  0.0220   50.5  0.4794  -73.7
 0.120  0.5902 -137.1  30.065  114.8  0.0226   50.2  0.4521  -76.2
 0.130  0.5936 -140.5  28.138  112.8  0.0233   50.0  0.4258  -79.0
 0.140  0.5992 -144.0  26.251  110.5  0.0239   49.7  0.4007  -82.3
 0.150  0.6068 -147.3  24.411  107.9  0.0246   49.5  0.3770  -85.9
 0.200  0.6196 -157.0  18.881  101.6  0.0271   51.2  0.3050  -96.2
 0.250  0.6238 -164.1  15.318   97.0  0.0311   52.8  0.2599 -103.9
 0.300  0.6258 -168.7  12.852   93.8  0.0345   55.3  0.2303 -110.7
 0.350  0.6265 -172.3  11.300   91.5  0.0379   57.2  0.2129 -115.3
 0.400  0.6296 -175.8   9.771   88.5  0.0413   58.8  0.1971 -120.7
 0.450  0.6307 -178.5   8.801   86.7  0.0452   59.7  0.1881 -124.4
 0.500  0.6332  178.9   7.842   84.4  0.0492   60.5  0.1800 -128.5
 0.600  0.6366  174.4   6.574   80.9  0.0574   61.8  0.1711 -135.0
 0.700  0.6387  170.8   5.640   77.8  0.0645   63.0  0.1649 -139.8
 0.800  0.6418  167.2   4.948   74.5  0.0726   63.6  0.1642 -143.6
 0.900  0.6411  163.8   4.396   71.7  0.0809   62.7  0.1650 -146.8
 1.000  0.6457  160.8   3.977   68.9  0.0887   62.7  0.1663 -150.0
 1.100  0.6485  157.5   3.624   66.3  0.0967   62.1  0.1682 -152.1
 1.200  0.6508  154.5   3.326   63.5  0.1046   61.1  0.1714 -154.2
 1.300  0.6534  151.7   3.079   60.9  0.1127   60.3  0.1763 -156.1
 1.400  0.6571  148.9   2.873   58.3  0.1209   59.7  0.1821 -158.3
 1.500  0.6620  146.2   2.683   55.8  0.1283   58.8  0.1878 -160.0
 1.600  0.6645  143.3   2.525   53.1  0.1363   57.7  0.1935 -161.2
 1.700  0.6677  140.6   2.384   50.7  0.1442   56.6  0.2017 -162.6
 1.800  0.6743  137.9   2.263   48.1  0.1518   55.4  0.2093 -164.3
 1.900  0.6779  135.3   2.146   45.8  0.1590   54.3  0.2165 -165.6
 2.000  0.6816  132.7   2.039   43.3  0.1671   53.1  0.2245 -166.7
 2.100  0.6853  130.1   1.946   41.0  0.1740   51.9  0.2329 -168.2
 2.200  0.6904  127.5   1.856   38.5  0.1809   50.7  0.2415 -169.6
 2.300  0.6942  125.2   1.782   36.4  0.1885   49.6  0.2500 -170.5
 2.400  0.6991  122.9   1.710   34.1  0.1962   48.5  0.2585 -171.3
 2.500  0.7027  120.8   1.644   32.1  0.2028   47.1  0.2675 -172.5
 2.600  0.7072  118.7   1.580   29.9  0.2095   45.8  0.2766 -173.7
 2.700  0.7116  116.6   1.524   27.9  0.2157   44.5  0.2842 -174.9
 2.800  0.7169  114.5   1.469   25.8  0.2221   43.3  0.2919 -176.0
 2.900  0.7207  112.4   1.421   23.9  0.2284   42.0  0.2990 -177.5
 3.000  0.7255  110.3   1.375   21.9  0.2349   40.8  0.3062 -178.9
 3.100  0.7279  108.5   1.335   20.3  0.2406   39.6  0.3116  179.6
 3.200  0.7310  106.6   1.297   18.5  0.2464   38.4  0.3171  178.1
 3.300  0.7349  104.8   1.259   16.7  0.2523   37.3  0.3229  176.6
 3.400  0.7395  103.1   1.223   14.8  0.2583   36.2  0.3289  175.2
 3.500  0.7448  101.3   1.189   12.7  0.2644   35.2  0.3351  173.9
 3.600  0.7473   99.7   1.159   11.2  0.2698   33.9  0.3406  172.1
 3.700  0.7503   98.0   1.131    9.6  0.2754   32.7  0.3465  170.4
 3.800  0.7540   96.4   1.103    7.9  0.2810   31.5  0.3526  168.7
 3.900  0.7583   94.8   1.076    6.2  0.2868   30.3  0.3591  167.1
 4.000  0.7632   93.2   1.050    4.3  0.2927   29.2  0.3658  165.6
 4.100  0.7643   91.7   1.027    2.9  0.2979   27.9  0.3724  163.7
 4.200  0.7659   90.3   1.004    1.5  0.3033   26.7  0.3793  161.9
 4.300  0.7679   88.8   0.982   -0.1  0.3088   25.5  0.3866  160.2
 4.400  0.7705   87.3   0.961   -1.6  0.3144   24.3  0.3942  158.5
 4.500  0.7736   85.9   0.940   -3.3  0.3202   23.2  0.4022  156.9
 4.600  0.7756   84.5   0.921   -4.5  0.3250   22.0  0.4100  155.4
 4.700  0.7781   83.2   0.903   -5.7  0.3299   20.9  0.4180  153.9
 4.800  0.7810   81.8   0.885   -6.9  0.3349   19.7  0.4263  152.5
 4.900  0.7844   80.4   0.868   -8.2  0.3401   18.7  0.4348  151.2
 5.000  0.7882   79.1   0.851   -9.6  0.3454   17.6  0.4436  149.9
 5.100  0.7878   77.8   0.838  -10.7  0.3497   16.4  0.4517  148.9
 5.200  0.7877   76.5   0.826  -11.9  0.3541   15.1  0.4599  147.9
 5.300  0.7881   75.2   0.814  -13.0  0.3587   14.0  0.4683  147.0
 5.400  0.7889   73.9   0.802  -14.3  0.3635   12.8  0.4768  146.1
 5.500  0.7901   72.6   0.791  -15.5  0.3684   11.7  0.4854  145.2
 5.600  0.7895   71.4   0.779  -16.4  0.3723   10.6  0.4898  144.3
 5.700  0.7893   70.2   0.768  -17.4  0.3763    9.5  0.4942  143.5
 5.800  0.7894   69.0   0.756  -18.4  0.3805    8.4  0.4988  142.6
 5.900  0.7898   67.8   0.745  -19.4  0.3848    7.3  0.5035  141.8
 6.000  0.7906   66.6   0.734  -20.5  0.3892    6.3  0.5083  141.0
!
!  f       NFmin   Gammaopt  rn/50
! GHz       dB    MAG  ANG    -
 0.450      1.28  0.35  173   0.05
 0.900      1.44  0.45 -169   0.07
 1.900      2.27  0.68 -134   0.27
 2.400      2.68  0.71 -121   0.61
!
! (c) 2017  Infineon Technologies AG, Munich