! Infineon Technologies  Discrete & RF Semiconductors
! BFP196
! VCE =  4.0 V,  IC =  80 mA
! Common Emitter S-Parameters:                            Jan 2017
# GHz  S  MA  R  50
!  f         S11            S21            S12            S22
! GHz     MAG   ANG      MAG   ANG      MAG   ANG      MAG   ANG
 0.010  0.1861  -81.3  92.964  164.9  0.0032   83.5  0.9121  -17.9
 0.020  0.3277 -106.9  86.304  151.6  0.0056   74.8  0.8402  -35.0
 0.030  0.3817 -121.4  75.388  145.2  0.0073   65.7  0.7307  -44.1
 0.040  0.4535 -131.8  65.708  136.8  0.0092   60.2  0.6455  -55.9
 0.050  0.5361 -139.2  57.886  125.9  0.0111   56.6  0.5950  -70.5
 0.060  0.5484 -143.7  52.823  123.7  0.0120   57.0  0.5455  -74.9
 0.070  0.5638 -147.9  47.856  121.0  0.0129   57.4  0.4998  -80.1
 0.080  0.5822 -151.9  43.018  117.7  0.0139   57.8  0.4590  -86.2
 0.090  0.6032 -155.6  38.356  113.6  0.0148   58.0  0.4245  -93.5
 0.100  0.6266 -159.1  33.946  108.4  0.0157   58.3  0.3980 -101.9
 0.110  0.6295 -160.9  31.802  107.3  0.0164   58.8  0.3801 -104.9
 0.120  0.6331 -162.7  29.673  106.0  0.0171   59.3  0.3634 -108.1
 0.130  0.6373 -164.5  27.561  104.5  0.0179   59.7  0.3480 -111.7
 0.140  0.6421 -166.2  25.471  102.7  0.0186   60.1  0.3340 -115.6
 0.150  0.6474 -167.9  23.408  100.7  0.0193   60.5  0.3217 -119.8
 0.200  0.6576 -172.8  17.777   95.9  0.0235   63.7  0.2879 -131.7
 0.250  0.6619 -176.7  14.297   92.4  0.0280   65.1  0.2689 -139.6
 0.300  0.6618 -179.6  11.950   89.8  0.0322   66.7  0.2588 -146.1
 0.350  0.6628  178.2  10.487   87.9  0.0369   68.4  0.2534 -150.2
 0.400  0.6647  176.0   9.038   85.5  0.0416   69.8  0.2493 -154.5
 0.450  0.6663  174.1   8.133   83.9  0.0462   69.7  0.2474 -157.2
 0.500  0.6686  172.2   7.235   82.0  0.0509   69.6  0.2461 -160.0
 0.600  0.6725  168.9   6.060   78.8  0.0600   69.5  0.2463 -164.4
 0.700  0.6724  166.0   5.194   76.1  0.0688   69.6  0.2454 -167.6
 0.800  0.6739  162.9   4.554   73.0  0.0791   69.0  0.2471 -170.0
 0.900  0.6747  159.9   4.048   70.3  0.0876   67.5  0.2500 -172.0
 1.000  0.6771  157.1   3.662   67.7  0.0967   66.6  0.2530 -174.2
 1.100  0.6811  154.3   3.338   65.1  0.1061   65.7  0.2557 -175.6
 1.200  0.6834  151.6   3.066   62.4  0.1149   64.1  0.2586 -177.2
 1.300  0.6848  148.8   2.839   60.0  0.1238   62.7  0.2630 -178.2
 1.400  0.6879  146.2   2.651   57.4  0.1327   61.7  0.2691 -179.8
 1.500  0.6931  143.5   2.474   55.0  0.1416   60.2  0.2741  179.0
 1.600  0.6958  140.8   2.331   52.4  0.1503   58.7  0.2786  178.3
 1.700  0.6980  138.2   2.202   50.0  0.1588   57.5  0.2858  177.4
 1.800  0.7040  135.5   2.093   47.5  0.1673   56.0  0.2927  176.1
 1.900  0.7073  133.0   1.984   45.3  0.1752   54.5  0.2994  175.1
 2.000  0.7088  130.5   1.887   42.8  0.1830   53.1  0.3053  174.4
 2.100  0.7124  127.9   1.802   40.6  0.1905   51.7  0.3127  173.4
 2.200  0.7175  125.4   1.720   38.1  0.1981   50.4  0.3201  172.4
 2.300  0.7203  123.2   1.652   36.1  0.2059   48.8  0.3266  171.7
 2.400  0.7241  121.1   1.586   33.9  0.2139   47.4  0.3332  171.1
 2.500  0.7271  118.9   1.527   31.9  0.2207   45.9  0.3409  170.1
 2.600  0.7311  116.8   1.469   29.8  0.2276   44.4  0.3487  169.2
 2.700  0.7352  114.8   1.419   27.9  0.2340   43.0  0.3544  168.3
 2.800  0.7402  112.8   1.370   25.8  0.2405   41.7  0.3602  167.4
 2.900  0.7425  110.7   1.326   24.0  0.2467   40.2  0.3664  166.1
 3.000  0.7457  108.7   1.284   22.0  0.2531   38.8  0.3728  164.9
 3.100  0.7474  106.9   1.248   20.4  0.2586   37.5  0.3767  163.6
 3.200  0.7498  105.1   1.214   18.7  0.2642   36.2  0.3808  162.3
 3.300  0.7530  103.3   1.180   17.0  0.2700   35.0  0.3851  161.1
 3.400  0.7569  101.5   1.148   15.1  0.2758   33.8  0.3896  159.9
 3.500  0.7616   99.7   1.117   13.1  0.2818   32.7  0.3942  158.7
 3.600  0.7634   98.1   1.091   11.6  0.2870   31.3  0.3988  157.2
 3.700  0.7658   96.5   1.066   10.1  0.2924   30.0  0.4036  155.7
 3.800  0.7687   95.0   1.042    8.5  0.2979   28.8  0.4087  154.3
 3.900  0.7722   93.4   1.018    6.8  0.3035   27.6  0.4140  152.9
 4.000  0.7763   91.9   0.996    5.0  0.3093   26.4  0.4196  151.5
 4.100  0.7768   90.4   0.975    3.6  0.3141   25.1  0.4251  149.9
 4.200  0.7779   89.0   0.955    2.2  0.3190   23.8  0.4310  148.4
 4.300  0.7794   87.5   0.935    0.7  0.3242   22.6  0.4372  146.9
 4.400  0.7815   86.0   0.916   -0.8  0.3294   21.4  0.4436  145.5
 4.500  0.7840   84.6   0.897   -2.4  0.3348   20.2  0.4503  144.1
 4.600  0.7859   83.3   0.881   -3.5  0.3391   19.0  0.4566  142.9
 4.700  0.7881   82.0   0.865   -4.7  0.3436   17.8  0.4631  141.7
 4.800  0.7908   80.7   0.849   -5.9  0.3483   16.7  0.4698  140.5
 4.900  0.7939   79.4   0.834   -7.2  0.3530   15.6  0.4766  139.4
 5.000  0.7974   78.1   0.819   -8.5  0.3579   14.5  0.4837  138.3
 5.100  0.7963   76.8   0.808   -9.6  0.3618   13.3  0.4900  137.5
 5.200  0.7957   75.5   0.798  -10.8  0.3659   12.1  0.4964  136.8
 5.300  0.7954   74.2   0.788  -12.0  0.3701   10.9  0.5030  136.0
 5.400  0.7955   72.9   0.778  -13.2  0.3745    9.8  0.5095  135.3
 5.500  0.7961   71.6   0.769  -14.4  0.3790    8.7  0.5162  134.6
 5.600  0.7950   70.5   0.759  -15.4  0.3825    7.6  0.5188  133.9
 5.700  0.7941   69.4   0.749  -16.4  0.3861    6.4  0.5215  133.2
 5.800  0.7936   68.2   0.740  -17.4  0.3899    5.3  0.5243  132.5
 5.900  0.7934   67.1   0.731  -18.4  0.3938    4.3  0.5272  131.9
 6.000  0.7935   66.0   0.722  -19.5  0.3978    3.2  0.5301  131.2
!
!  f       NFmin   Gammaopt  rn/50
! GHz       dB    MAG  ANG    -
 0.450      1.78  0.50 -170   0.06
 0.900      1.95  0.53 -157   0.10
 1.900      2.80  0.70 -130   0.40
 2.400      3.20  0.70 -116   0.87
!
! (c) 2017  Infineon Technologies AG, Munich