! Infineon Technologies  Discrete & RF Semiconductors
! BFP196
! VCE =  1.0 V,  IC =  95 mA
! Common Emitter S-Parameters:                            Jan 2017
# GHz  S  MA  R  50
!  f         S11            S21            S12            S22
! GHz     MAG   ANG      MAG   ANG      MAG   ANG      MAG   ANG
 0.010  0.3939 -135.7  72.611  153.5  0.0053   66.7  0.6127  -45.0
 0.020  0.6031 -145.4  57.667  135.2  0.0087   56.9  0.5609  -79.6
 0.030  0.6527 -152.5  47.739  130.2  0.0100   52.2  0.4957  -93.7
 0.040  0.7110 -158.5  38.354  122.7  0.0113   48.6  0.4680 -110.8
 0.050  0.7758 -163.6  30.027  110.8  0.0126   45.8  0.4842 -128.2
 0.060  0.7825 -165.7  27.132  109.4  0.0135   47.7  0.4725 -132.9
 0.070  0.7903 -167.7  24.257  107.6  0.0144   49.4  0.4642 -137.9
 0.080  0.7990 -169.7  21.411  105.4  0.0153   50.9  0.4594 -142.9
 0.090  0.8086 -171.6  18.607  102.5  0.0163   52.2  0.4583 -148.1
 0.100  0.8192 -173.5  15.867   98.6  0.0172   53.4  0.4609 -153.2
 0.110  0.8199 -174.4  14.825   97.9  0.0181   54.9  0.4589 -155.1
 0.120  0.8208 -175.3  13.787   97.1  0.0191   56.2  0.4574 -157.0
 0.130  0.8219 -176.1  12.751   96.1  0.0200   57.4  0.4563 -158.9
 0.140  0.8232 -177.0  11.720   95.0  0.0209   58.5  0.4558 -160.8
 0.150  0.8247 -177.9  10.694   93.6  0.0219   59.5  0.4558 -162.7
 0.200  0.8267  179.3   8.042   89.9  0.0265   64.1  0.4552 -168.0
 0.250  0.8289  177.0   6.436   87.1  0.0315   65.6  0.4531 -171.2
 0.300  0.8261  175.0   5.372   85.0  0.0371   67.6  0.4529 -174.0
 0.350  0.8261  173.2   4.709   83.2  0.0425   68.3  0.4530 -175.7
 0.400  0.8268  171.5   4.052   80.9  0.0479   68.9  0.4535 -177.3
 0.450  0.8257  169.9   3.648   79.4  0.0534   69.2  0.4536 -178.6
 0.500  0.8253  168.3   3.248   77.5  0.0589   69.4  0.4539 -179.9
 0.600  0.8280  165.3   2.725   74.3  0.0699   68.7  0.4567  177.9
 0.700  0.8266  162.6   2.346   71.4  0.0804   68.9  0.4563  175.9
 0.800  0.8269  159.7   2.064   68.1  0.0919   67.8  0.4581  174.4
 0.900  0.8246  156.9   1.843   65.3  0.1025   66.2  0.4606  173.0
 1.000  0.8286  154.2   1.678   62.4  0.1130   65.2  0.4636  171.4
 1.100  0.8307  151.4   1.539   59.7  0.1235   63.6  0.4653  170.0
 1.200  0.8288  148.7   1.421   56.9  0.1337   62.2  0.4668  168.6
 1.300  0.8312  146.0   1.327   54.3  0.1438   60.7  0.4706  167.6
 1.400  0.8319  143.4   1.247   51.5  0.1544   59.4  0.4753  166.2
 1.500  0.8345  140.7   1.172   49.0  0.1636   57.6  0.4792  164.9
 1.600  0.8357  138.0   1.113   46.3  0.1737   56.0  0.4819  163.9
 1.700  0.8372  135.2   1.061   43.8  0.1833   54.5  0.4874  162.9
 1.800  0.8408  132.5   1.015   41.2  0.1923   52.9  0.4925  161.8
 1.900  0.8416  130.1   0.971   39.1  0.2008   51.2  0.4966  160.7
 2.000  0.8399  127.5   0.930   36.6  0.2095   49.5  0.5006  159.8
 2.100  0.8409  124.9   0.895   34.4  0.2177   47.9  0.5056  158.7
 2.200  0.8435  122.4   0.862   32.1  0.2260   46.4  0.5107  157.6
 2.300  0.8430  120.2   0.835   30.2  0.2342   44.8  0.5143  156.8
 2.400  0.8437  118.0   0.810   28.1  0.2425   43.4  0.5181  156.0
 2.500  0.8444  115.8   0.785   26.3  0.2495   41.7  0.5233  155.0
 2.600  0.8462  113.7   0.761   24.3  0.2568   40.1  0.5287  154.0
 2.700  0.8468  111.6   0.741   22.6  0.2634   38.6  0.5315  153.0
 2.800  0.8486  109.5   0.722   20.8  0.2702   37.2  0.5344  152.1
 2.900  0.8488  107.5   0.705   19.1  0.2764   35.7  0.5383  150.9
 3.000  0.8500  105.5   0.689   17.4  0.2828   34.3  0.5425  149.8
 3.100  0.8488  103.7   0.676   16.0  0.2882   32.9  0.5441  148.6
 3.200  0.8484  101.9   0.663   14.6  0.2937   31.5  0.5459  147.4
 3.300  0.8489  100.0   0.651   13.1  0.2994   30.3  0.5480  146.2
 3.400  0.8503   98.2   0.639   11.6  0.3052   29.0  0.5503  145.0
 3.500  0.8525   96.4   0.628   10.0  0.3112   27.8  0.5529  143.8
 3.600  0.8516   94.8   0.618    8.8  0.3162   26.4  0.5558  142.5
 3.700  0.8512   93.3   0.609    7.6  0.3214   25.1  0.5589  141.2
 3.800  0.8516   91.7   0.600    6.3  0.3267   23.8  0.5624  139.9
 3.900  0.8525   90.2   0.591    5.0  0.3322   22.6  0.5661  138.6
 4.000  0.8541   88.6   0.583    3.6  0.3378   21.4  0.5701  137.4
 4.100  0.8519   87.1   0.576    2.5  0.3423   20.1  0.5741  136.0
 4.200  0.8503   85.7   0.570    1.4  0.3470   18.8  0.5785  134.7
 4.300  0.8493   84.2   0.563    0.3  0.3519   17.5  0.5831  133.4
 4.400  0.8488   82.7   0.557   -0.9  0.3569   16.3  0.5881  132.1
 4.500  0.8489   81.2   0.551   -2.1  0.3621   15.1  0.5933  130.8
 4.600  0.8487   79.9   0.546   -2.9  0.3662   13.9  0.5976  129.7
 4.700  0.8490   78.7   0.541   -3.8  0.3704   12.7  0.6021  128.7
 4.800  0.8496   77.4   0.536   -4.6  0.3747   11.6  0.6069  127.6
 4.900  0.8507   76.2   0.531   -5.5  0.3793   10.5  0.6118  126.6
 5.000  0.8522   74.9   0.526   -6.4  0.3839    9.4  0.6169  125.6
 5.100  0.8500   73.6   0.524   -7.3  0.3874    8.2  0.6210  124.9
 5.200  0.8483   72.4   0.523   -8.2  0.3911    7.0  0.6252  124.2
 5.300  0.8469   71.1   0.521   -9.1  0.3949    5.9  0.6295  123.5
 5.400  0.8460   69.9   0.520  -10.0  0.3989    4.7  0.6339  122.8
 5.500  0.8455   68.6   0.519  -10.9  0.4031    3.6  0.6384  122.1
 5.600  0.8428   67.5   0.516  -11.6  0.4063    2.5  0.6387  121.4
 5.700  0.8405   66.4   0.514  -12.4  0.4097    1.4  0.6391  120.7
 5.800  0.8384   65.3   0.512  -13.2  0.4132    0.4  0.6396  120.1
 5.900  0.8366   64.2   0.509  -13.9  0.4168   -0.7  0.6402  119.4
 6.000  0.8352   63.1   0.507  -14.7  0.4206   -1.7  0.6409  118.7
!
!  f       NFmin   Gammaopt  rn/50
! GHz       dB    MAG  ANG    -
!
! noise parameter not available yet for this operation point!
!
! (c) 2017  Infineon Technologies AG, Munich