! Infineon Technologies  Discrete & RF Semiconductors
! BFP196
! VCE =  6.0 V,  IC =  85 mA
! Common Emitter S-Parameters:                            Jan 2017
# GHz  S  MA  R  50
!  f         S11            S21            S12            S22
! GHz     MAG   ANG      MAG   ANG      MAG   ANG      MAG   ANG
 0.010  0.2057  -64.7  93.428  165.4  0.0033   79.9  0.9130  -16.4
 0.020  0.3200  -94.7  86.644  152.8  0.0059   71.6  0.8434  -32.1
 0.030  0.3640 -111.9  76.213  146.3  0.0076   64.1  0.7386  -40.7
 0.040  0.4326 -124.5  67.055  137.9  0.0094   59.4  0.6554  -51.8
 0.050  0.5162 -133.3  59.756  127.2  0.0113   56.2  0.6030  -65.4
 0.060  0.5272 -138.4  54.599  124.9  0.0122   56.7  0.5520  -69.4
 0.070  0.5422 -143.2  49.547  122.2  0.0130   57.1  0.5042  -74.2
 0.080  0.5608 -147.8  44.633  118.8  0.0139   57.4  0.4606  -80.0
 0.090  0.5827 -152.0  39.911  114.7  0.0147   57.7  0.4227  -86.8
 0.100  0.6076 -155.9  35.455  109.4  0.0156   58.0  0.3919  -94.9
 0.110  0.6104 -157.9  33.228  108.2  0.0164   58.1  0.3722  -97.7
 0.120  0.6139 -159.9  31.018  106.9  0.0171   58.3  0.3535 -100.7
 0.130  0.6181 -161.9  28.827  105.3  0.0179   58.4  0.3359 -104.1
 0.140  0.6231 -163.8  26.660  103.5  0.0186   58.5  0.3196 -107.9
 0.150  0.6287 -165.7  24.525  101.4  0.0194   58.6  0.3048 -112.0
 0.200  0.6388 -171.2  18.662   96.5  0.0223   63.2  0.2649 -123.9
 0.250  0.6452 -175.3  15.020   92.8  0.0275   65.1  0.2422 -132.1
 0.300  0.6438 -178.3  12.560   90.2  0.0314   67.1  0.2291 -139.0
 0.350  0.6457  179.3  11.023   88.3  0.0360   68.1  0.2217 -143.4
 0.400  0.6486  177.0   9.501   85.9  0.0406   68.9  0.2157 -148.1
 0.450  0.6497  174.9   8.550   84.3  0.0449   69.0  0.2130 -151.2
 0.500  0.6516  172.9   7.608   82.3  0.0493   69.0  0.2110 -154.4
 0.600  0.6538  169.5   6.368   79.1  0.0587   69.4  0.2103 -159.2
 0.700  0.6556  166.6   5.461   76.4  0.0662   69.4  0.2088 -162.6
 0.800  0.6579  163.4   4.788   73.3  0.0774   68.8  0.2103 -165.2
 0.900  0.6583  160.4   4.254   70.6  0.0850   67.7  0.2134 -167.4
 1.000  0.6614  157.6   3.851   68.0  0.0941   67.2  0.2162 -169.8
 1.100  0.6656  154.9   3.506   65.4  0.1031   65.8  0.2191 -171.1
 1.200  0.6672  152.0   3.220   62.7  0.1117   64.3  0.2217 -172.7
 1.300  0.6690  149.2   2.981   60.3  0.1203   63.4  0.2270 -173.9
 1.400  0.6739  146.6   2.783   57.7  0.1288   61.9  0.2329 -175.4
 1.500  0.6784  144.0   2.598   55.3  0.1373   60.8  0.2380 -176.6
 1.600  0.6801  141.3   2.447   52.7  0.1459   59.4  0.2432 -177.3
 1.700  0.6835  138.6   2.311   50.3  0.1546   58.0  0.2513 -178.3
 1.800  0.6895  135.9   2.194   47.8  0.1622   56.5  0.2581 -179.5
 1.900  0.6924  133.4   2.080   45.6  0.1702   55.3  0.2646  179.5
 2.000  0.6937  130.9   1.979   43.1  0.1781   53.7  0.2719  178.8
 2.100  0.6977  128.4   1.888   40.9  0.1854   52.2  0.2795  177.7
 2.200  0.7030  125.9   1.801   38.4  0.1928   50.9  0.2871  176.7
 2.300  0.7056  123.7   1.729   36.3  0.2006   49.4  0.2940  176.1
 2.400  0.7092  121.5   1.660   34.1  0.2085   48.1  0.3009  175.6
 2.500  0.7130  119.3   1.597   32.1  0.2152   46.6  0.3091  174.5
 2.600  0.7178  117.2   1.536   30.0  0.2221   45.2  0.3175  173.5
 2.700  0.7222  115.2   1.483   28.1  0.2284   43.8  0.3236  172.6
 2.800  0.7275  113.2   1.432   26.1  0.2348   42.5  0.3298  171.7
 2.900  0.7308  111.1   1.386   24.2  0.2409   41.1  0.3363  170.4
 3.000  0.7351  109.0   1.341   22.2  0.2471   39.7  0.3429  169.2
 3.100  0.7370  107.2   1.303   20.6  0.2527   38.4  0.3473  167.9
 3.200  0.7396  105.4   1.267   18.9  0.2584   37.1  0.3518  166.5
 3.300  0.7430  103.6   1.231   17.1  0.2643   35.9  0.3566  165.3
 3.400  0.7470  101.8   1.197   15.2  0.2702   34.7  0.3615  164.0
 3.500  0.7518  100.1   1.164   13.2  0.2763   33.6  0.3666  162.8
 3.600  0.7538   98.5   1.136   11.7  0.2815   32.3  0.3714  161.3
 3.700  0.7563   96.9   1.109   10.1  0.2869   31.0  0.3765  159.8
 3.800  0.7595   95.4   1.083    8.5  0.2924   29.7  0.3818  158.3
 3.900  0.7632   93.8   1.057    6.7  0.2980   28.5  0.3873  156.9
 4.000  0.7674   92.3   1.033    4.9  0.3038   27.4  0.3931  155.5
 4.100  0.7681   90.8   1.011    3.5  0.3087   26.1  0.3989  153.8
 4.200  0.7694   89.4   0.990    2.1  0.3137   24.8  0.4051  152.2
 4.300  0.7711   87.9   0.969    0.6  0.3189   23.6  0.4116  150.7
 4.400  0.7734   86.4   0.949   -1.0  0.3242   22.4  0.4183  149.2
 4.500  0.7761   85.0   0.930   -2.6  0.3297   21.2  0.4254  147.7
 4.600  0.7780   83.7   0.913   -3.7  0.3341   20.0  0.4320  146.4
 4.700  0.7802   82.4   0.896   -4.9  0.3387   18.8  0.4388  145.2
 4.800  0.7829   81.1   0.879   -6.2  0.3433   17.7  0.4458  144.0
 4.900  0.7859   79.8   0.863   -7.5  0.3482   16.6  0.4530  142.8
 5.000  0.7894   78.5   0.847   -8.8  0.3531   15.5  0.4604  141.7
 5.100  0.7888   77.2   0.836   -9.9  0.3572   14.3  0.4673  140.9
 5.200  0.7886   75.9   0.824  -11.1  0.3614   13.1  0.4743  140.1
 5.300  0.7888   74.5   0.814  -12.2  0.3657   11.9  0.4814  139.3
 5.400  0.7894   73.2   0.803  -13.5  0.3702   10.8  0.4886  138.5
 5.500  0.7905   71.9   0.793  -14.7  0.3749    9.7  0.4959  137.8
 5.600  0.7894   70.8   0.782  -15.7  0.3785    8.6  0.4989  137.1
 5.700  0.7887   69.7   0.771  -16.7  0.3822    7.5  0.5021  136.4
 5.800  0.7882   68.5   0.760  -17.7  0.3861    6.4  0.5053  135.7
 5.900  0.7881   67.4   0.749  -18.8  0.3902    5.3  0.5086  135.0
 6.000  0.7882   66.3   0.739  -19.9  0.3943    4.3  0.5119  134.3
!
!  f       NFmin   Gammaopt  rn/50
! GHz       dB    MAG  ANG    -
 0.450      1.85  0.51 -169   0.06
 0.900      2.01  0.54 -157   0.10
 1.900      2.88  0.70 -129   0.43
 2.400      3.28  0.70 -116   0.89
!
! (c) 2017  Infineon Technologies AG, Munich