! Infineon Technologies  Discrete & RF Semiconductors
! BFP196
! VCE =  5.0 V,  IC =  50 mA
! Common Emitter S-Parameters:                            Jan 2017
# GHz  S  MA  R  50
!  f         S11            S21            S12            S22
! GHz     MAG   ANG      MAG   ANG      MAG   ANG      MAG   ANG
 0.010  0.2799  -41.8  79.812  167.4  0.0034   79.0  0.9467  -14.3
 0.020  0.3507  -72.4  75.771  156.1  0.0064   71.6  0.8873  -28.2
 0.030  0.3707  -91.7  67.746  149.6  0.0086   63.5  0.7916  -36.6
 0.040  0.4263 -107.4  60.812  141.5  0.0109   58.8  0.7170  -46.9
 0.050  0.5060 -118.9  55.381  131.6  0.0133   55.7  0.6706  -59.2
 0.060  0.5140 -125.3  50.832  129.1  0.0143   55.4  0.6157  -63.2
 0.070  0.5283 -131.5  46.402  126.1  0.0152   55.1  0.5645  -68.0
 0.080  0.5483 -137.3  42.127  122.4  0.0162   54.8  0.5180  -73.8
 0.090  0.5735 -142.6  38.061  118.0  0.0171   54.6  0.4776  -80.5
 0.100  0.6031 -147.4  34.277  112.5  0.0181   54.4  0.4450  -88.4
 0.110  0.6052 -150.0  32.176  111.2  0.0189   54.3  0.4219  -91.1
 0.120  0.6085 -152.5  30.093  109.7  0.0196   54.2  0.3998  -94.2
 0.130  0.6130 -155.0  28.035  108.0  0.0204   54.1  0.3790  -97.6
 0.140  0.6186 -157.5  26.005  106.0  0.0211   54.1  0.3596 -101.3
 0.150  0.6254 -159.9  24.011  103.7  0.0219   54.0  0.3420 -105.5
 0.200  0.6368 -166.7  18.357   98.2  0.0246   57.6  0.2920 -117.6
 0.250  0.6456 -171.6  14.809   94.2  0.0291   59.6  0.2631 -126.4
 0.300  0.6447 -175.2  12.394   91.4  0.0330   62.0  0.2454 -133.6
 0.350  0.6460 -178.0  10.886   89.4  0.0372   63.6  0.2357 -138.4
 0.400  0.6488  179.2   9.396   86.7  0.0415   64.8  0.2277 -143.6
 0.450  0.6502  177.0   8.458   85.1  0.0459   65.0  0.2236 -146.9
 0.500  0.6526  174.9   7.529   83.0  0.0503   65.2  0.2202 -150.4
 0.600  0.6548  171.0   6.305   79.7  0.0589   66.2  0.2175 -155.7
 0.700  0.6572  167.7   5.407   76.8  0.0675   66.9  0.2150 -159.8
 0.800  0.6604  164.6   4.743   73.7  0.0772   66.5  0.2166 -162.6
 0.900  0.6614  161.3   4.215   71.0  0.0856   65.6  0.2184 -165.0
 1.000  0.6648  158.7   3.812   68.2  0.0940   65.1  0.2214 -167.5
 1.100  0.6667  155.6   3.475   65.7  0.1030   64.2  0.2240 -169.0
 1.200  0.6699  152.7   3.189   62.9  0.1117   62.8  0.2271 -170.8
 1.300  0.6697  150.0   2.953   60.5  0.1202   61.9  0.2320 -172.2
 1.400  0.6741  147.3   2.755   57.9  0.1288   60.8  0.2372 -173.8
 1.500  0.6791  144.6   2.574   55.4  0.1370   59.5  0.2431 -175.1
 1.600  0.6821  141.8   2.424   52.8  0.1455   58.2  0.2482 -176.0
 1.700  0.6856  139.1   2.290   50.4  0.1539   57.0  0.2555 -177.1
 1.800  0.6901  136.5   2.175   47.8  0.1619   55.7  0.2630 -178.2
 1.900  0.6942  134.0   2.061   45.7  0.1693   54.3  0.2694 -179.3
 2.000  0.6965  131.5   1.959   43.1  0.1773   52.9  0.2769  179.9
 2.100  0.6999  128.9   1.871   40.9  0.1845   51.5  0.2843  178.7
 2.200  0.7047  126.3   1.786   38.5  0.1917   50.3  0.2919  177.6
 2.300  0.7078  124.1   1.714   36.4  0.1996   48.9  0.2991  176.9
 2.400  0.7120  121.9   1.645   34.1  0.2077   47.6  0.3063  176.3
 2.500  0.7159  119.7   1.582   32.1  0.2143   46.1  0.3145  175.2
 2.600  0.7209  117.5   1.522   30.0  0.2210   44.7  0.3228  174.2
 2.700  0.7247  115.5   1.470   28.1  0.2276   43.3  0.3293  173.2
 2.800  0.7293  113.5   1.419   26.0  0.2343   42.0  0.3359  172.3
 2.900  0.7323  111.4   1.373   24.1  0.2403   40.7  0.3422  171.0
 3.000  0.7363  109.4   1.328   22.1  0.2464   39.4  0.3487  169.7
 3.100  0.7383  107.6   1.291   20.5  0.2520   38.1  0.3532  168.4
 3.200  0.7410  105.8   1.254   18.8  0.2577   36.8  0.3578  167.0
 3.300  0.7445  103.9   1.219   17.0  0.2636   35.6  0.3627  165.8
 3.400  0.7487  102.2   1.185   15.1  0.2695   34.5  0.3677  164.5
 3.500  0.7536  100.4   1.153   13.1  0.2756   33.4  0.3729  163.3
 3.600  0.7557   98.8   1.125   11.6  0.2809   32.1  0.3778  161.7
 3.700  0.7583   97.2   1.098   10.1  0.2864   30.8  0.3831  160.2
 3.800  0.7616   95.6   1.072    8.4  0.2920   29.5  0.3886  158.7
 3.900  0.7654   94.1   1.047    6.7  0.2977   28.3  0.3943  157.2
 4.000  0.7698   92.5   1.023    4.9  0.3036   27.2  0.4003  155.8
 4.100  0.7704   91.0   1.002    3.5  0.3085   25.9  0.4062  154.1
 4.200  0.7716   89.5   0.981    2.1  0.3136   24.6  0.4125  152.5
 4.300  0.7733   88.0   0.960    0.6  0.3189   23.4  0.4191  151.0
 4.400  0.7755   86.6   0.941   -1.0  0.3243   22.2  0.4259  149.5
 4.500  0.7782   85.1   0.922   -2.6  0.3298   21.1  0.4331  148.0
 4.600  0.7802   83.8   0.904   -3.7  0.3342   19.9  0.4400  146.7
 4.700  0.7826   82.4   0.887   -4.9  0.3388   18.7  0.4470  145.4
 4.800  0.7855   81.1   0.870   -6.2  0.3435   17.6  0.4543  144.2
 4.900  0.7887   79.8   0.854   -7.5  0.3483   16.5  0.4618  143.0
 5.000  0.7924   78.5   0.838   -8.8  0.3533   15.4  0.4695  141.9
 5.100  0.7918   77.2   0.827   -9.9  0.3574   14.2  0.4764  141.1
 5.200  0.7916   75.9   0.816  -11.0  0.3616   13.0  0.4835  140.2
 5.300  0.7918   74.6   0.805  -12.2  0.3660   11.8  0.4906  139.4
 5.400  0.7924   73.3   0.795  -13.4  0.3705   10.7  0.4979  138.7
 5.500  0.7934   72.0   0.785  -14.6  0.3752    9.6  0.5052  137.9
 5.600  0.7922   70.9   0.774  -15.6  0.3788    8.5  0.5084  137.2
 5.700  0.7913   69.7   0.763  -16.6  0.3826    7.4  0.5116  136.4
 5.800  0.7907   68.6   0.752  -17.6  0.3866    6.3  0.5150  135.7
 5.900  0.7904   67.4   0.742  -18.6  0.3906    5.2  0.5184  135.0
 6.000  0.7904   66.3   0.732  -19.7  0.3948    4.2  0.5219  134.3
!
!  f       NFmin   Gammaopt  rn/50
! GHz       dB    MAG  ANG    -
 0.450      1.45  0.40 -176   0.06
 0.900      1.60  0.47 -164   0.08
 1.900      2.42  0.68 -132   0.32
 2.400      2.82  0.70 -119   0.66
!
! (c) 2017  Infineon Technologies AG, Munich