! Infineon Technologies  Discrete & RF Semiconductors
! BFP196
! VCE =  8.0 V,  IC =  20 mA
! Common Emitter S-Parameters:                            Jan 2017
# GHz  S  MA  R  50
!  f         S11            S21            S12            S22
! GHz     MAG   ANG      MAG   ANG      MAG   ANG      MAG   ANG
 0.010  0.5711  -16.5  48.577  171.9  0.0040   86.1  0.9826   -8.1
 0.020  0.5807  -32.6  47.881  164.5  0.0084   79.2  0.9485  -16.2
 0.030  0.5529  -45.7  44.965  158.7  0.0113   70.4  0.8936  -22.4
 0.040  0.5562  -59.5  42.568  152.2  0.0144   65.2  0.8502  -29.2
 0.050  0.5900  -72.3  40.783  145.0  0.0175   61.9  0.8202  -36.7
 0.060  0.5729  -80.3  38.202  141.9  0.0192   58.8  0.7682  -40.1
 0.070  0.5676  -88.7  35.750  138.3  0.0210   56.3  0.7193  -44.0
 0.080  0.5744  -97.0  33.455  134.3  0.0229   54.1  0.6742  -48.4
 0.090  0.5929 -105.0  31.351  129.7  0.0247   52.3  0.6336  -53.4
 0.100  0.6221 -112.3  29.481  124.4  0.0266   50.7  0.5984  -59.0
 0.110  0.6166 -116.6  27.891  122.6  0.0274   49.6  0.5671  -61.1
 0.120  0.6145 -120.9  26.333  120.6  0.0282   48.6  0.5367  -63.4
 0.130  0.6159 -125.2  24.811  118.3  0.0290   47.6  0.5072  -66.0
 0.140  0.6208 -129.4  23.334  115.7  0.0299   46.7  0.4789  -68.9
 0.150  0.6290 -133.6  21.910  112.8  0.0307   45.8  0.4519  -72.1
 0.200  0.6409 -146.2  17.221  105.5  0.0338   44.7  0.3636  -81.0
 0.250  0.6439 -155.0  14.078  100.0  0.0367   45.2  0.3039  -87.2
 0.300  0.6432 -161.2  11.892   96.3  0.0390   46.0  0.2638  -92.6
 0.350  0.6430 -165.5  10.467   93.7  0.0419   48.1  0.2388  -96.3
 0.400  0.6464 -169.8   9.071   90.3  0.0448   49.9  0.2150 -100.9
 0.450  0.6461 -173.2   8.176   88.2  0.0479   51.1  0.2011 -104.0
 0.500  0.6481 -176.6   7.295   85.7  0.0510   52.1  0.1879 -107.6
 0.600  0.6518  178.3   6.124   81.8  0.0582   54.1  0.1714 -113.3
 0.700  0.6538  174.1   5.256   78.4  0.0638   55.9  0.1607 -117.8
 0.800  0.6565  170.1   4.616   74.9  0.0713   57.2  0.1567 -121.9
 0.900  0.6557  166.5   4.103   71.8  0.0785   57.6  0.1549 -125.7
 1.000  0.6602  163.0   3.713   68.9  0.0854   57.6  0.1539 -129.2
 1.100  0.6631  159.7   3.384   66.0  0.0931   58.1  0.1559 -131.8
 1.200  0.6641  156.5   3.108   63.0  0.1000   57.6  0.1578 -134.7
 1.300  0.6673  153.5   2.877   60.4  0.1069   57.4  0.1626 -137.2
 1.400  0.6723  150.6   2.684   57.6  0.1150   57.0  0.1678 -139.9
 1.500  0.6757  147.7   2.506   55.0  0.1224   56.4  0.1732 -142.4
 1.600  0.6805  144.8   2.359   52.2  0.1296   55.7  0.1799 -144.2
 1.700  0.6831  142.0   2.227   49.7  0.1368   55.0  0.1883 -146.5
 1.800  0.6902  139.2   2.115   47.0  0.1446   54.2  0.1959 -148.8
 1.900  0.6933  136.6   2.004   44.7  0.1512   53.3  0.2038 -150.7
 2.000  0.6956  133.8   1.906   42.0  0.1585   52.2  0.2125 -152.4
 2.100  0.7003  131.1   1.818   39.7  0.1656   51.3  0.2215 -154.4
 2.200  0.7065  128.5   1.734   37.1  0.1727   50.5  0.2307 -156.2
 2.300  0.7094  126.2   1.664   34.9  0.1799   49.4  0.2403 -157.6
 2.400  0.7135  123.9   1.597   32.6  0.1871   48.4  0.2501 -158.8
 2.500  0.7178  121.6   1.534   30.5  0.1937   47.2  0.2601 -160.6
 2.600  0.7232  119.4   1.474   28.2  0.2004   46.1  0.2703 -162.2
 2.700  0.7272  117.3   1.421   26.2  0.2067   45.1  0.2789 -163.6
 2.800  0.7321  115.3   1.370   24.0  0.2131   44.1  0.2876 -165.0
 2.900  0.7367  113.1   1.325   22.1  0.2194   42.9  0.2955 -166.8
 3.000  0.7423  111.0   1.281   20.0  0.2257   41.7  0.3036 -168.5
 3.100  0.7444  109.1   1.243   18.4  0.2318   40.5  0.3100 -170.3
 3.200  0.7474  107.2   1.207   16.6  0.2380   39.4  0.3166 -172.0
 3.300  0.7512  105.4   1.172   14.8  0.2443   38.4  0.3235 -173.6
 3.400  0.7557  103.5   1.138   12.9  0.2507   37.4  0.3307 -175.2
 3.500  0.7610  101.7   1.105   10.8  0.2571   36.4  0.3381 -176.7
 3.600  0.7633  100.0   1.077    9.3  0.2629   35.2  0.3443 -178.7
 3.700  0.7662   98.4   1.050    7.7  0.2688   34.0  0.3509  179.4
 3.800  0.7698   96.7   1.024    6.1  0.2748   32.8  0.3579  177.5
 3.900  0.7740   95.1   0.998    4.3  0.2809   31.7  0.3653  175.7
 4.000  0.7788   93.5   0.974    2.5  0.2871   30.7  0.3730  174.0
 4.100  0.7796   92.0   0.952    1.2  0.2927   29.4  0.3801  171.9
 4.200  0.7809   90.4   0.930   -0.2  0.2984   28.2  0.3877  169.8
 4.300  0.7828   88.9   0.909   -1.7  0.3042   27.0  0.3958  167.8
 4.400  0.7853   87.4   0.889   -3.2  0.3102   25.9  0.4043  165.9
 4.500  0.7883   85.9   0.869   -4.8  0.3163   24.8  0.4133  164.1
 4.600  0.7902   84.5   0.851   -5.9  0.3215   23.6  0.4218  162.3
 4.700  0.7926   83.2   0.834   -7.1  0.3268   22.4  0.4308  160.7
 4.800  0.7953   81.9   0.817   -8.4  0.3323   21.3  0.4400  159.0
 4.900  0.7986   80.5   0.800   -9.7  0.3379   20.2  0.4497  157.5
 5.000  0.8022   79.2   0.784  -11.0  0.3436   19.1  0.4596  156.0
 5.100  0.8019   77.9   0.772  -12.0  0.3483   17.9  0.4685  154.7
 5.200  0.8020   76.5   0.761  -13.1  0.3531   16.6  0.4777  153.5
 5.300  0.8025   75.2   0.750  -14.1  0.3582   15.5  0.4870  152.3
 5.400  0.8035   73.8   0.739  -15.3  0.3633   14.3  0.4966  151.2
 5.500  0.8049   72.5   0.729  -16.4  0.3686   13.2  0.5063  150.1
 5.600  0.8036   71.3   0.718  -17.3  0.3728   12.0  0.5115  149.1
 5.700  0.8027   70.1   0.707  -18.2  0.3772   10.9  0.5168  148.1
 5.800  0.8022   68.8   0.697  -19.1  0.3817    9.8  0.5222  147.1
 5.900  0.8020   67.6   0.686  -20.1  0.3863    8.7  0.5278  146.1
 6.000  0.8022   66.4   0.676  -21.1  0.3911    7.7  0.5336  145.2
!
!  f       NFmin   Gammaopt  rn/50
! GHz       dB    MAG  ANG    -
 0.450      1.10  0.34  159   0.05
 0.900      1.30  0.47  179   0.06
 1.900      2.20  0.68 -137   0.24
 2.400      2.65  0.72 -122   0.59
!
! (c) 2017  Infineon Technologies AG, Munich