! Infineon Technologies  Discrete & RF Semiconductors
! BFP196
! VCE =  3.0 V,  IC =  80 mA
! Common Emitter S-Parameters:                            Jan 2017
# GHz  S  MA  R  50
!  f         S11            S21            S12            S22
! GHz     MAG   ANG      MAG   ANG      MAG   ANG      MAG   ANG
 0.010  0.1875  -95.5  92.463  164.2  0.0030   79.4  0.9028  -19.2
 0.020  0.3451 -115.0  85.119  150.5  0.0061   73.1  0.8262  -37.6
 0.030  0.4025 -127.8  73.949  144.2  0.0078   65.5  0.7151  -47.1
 0.040  0.4747 -137.0  63.994  135.7  0.0096   60.7  0.6302  -59.6
 0.050  0.5558 -143.7  55.909  124.5  0.0114   57.4  0.5832  -75.0
 0.060  0.5690 -147.7  50.954  122.4  0.0123   57.6  0.5357  -79.6
 0.070  0.5849 -151.5  46.085  119.8  0.0132   57.8  0.4922  -85.0
 0.080  0.6032 -155.1  41.333  116.6  0.0142   57.9  0.4540  -91.5
 0.090  0.6237 -158.5  36.744  112.5  0.0151   58.1  0.4226  -99.0
 0.100  0.6462 -161.6  32.386  107.4  0.0160   58.2  0.3994 -107.5
 0.110  0.6487 -163.3  30.334  106.3  0.0168   58.7  0.3834 -110.6
 0.120  0.6517 -164.9  28.294  105.1  0.0176   59.2  0.3685 -113.9
 0.130  0.6553 -166.5  26.269  103.6  0.0183   59.6  0.3550 -117.4
 0.140  0.6593 -168.1  24.264  102.0  0.0191   60.0  0.3430 -121.3
 0.150  0.6639 -169.7  22.283  100.0  0.0199   60.4  0.3326 -125.4
 0.200  0.6730 -174.2  16.904   95.3  0.0235   64.8  0.3041 -137.0
 0.250  0.6792 -177.8  13.593   91.8  0.0285   66.0  0.2885 -144.7
 0.300  0.6779  179.6  11.361   89.4  0.0332   67.2  0.2806 -150.8
 0.350  0.6791  177.5   9.963   87.6  0.0376   68.3  0.2763 -154.5
 0.400  0.6813  175.4   8.578   85.1  0.0420   69.2  0.2732 -158.3
 0.450  0.6816  173.5   7.720   83.5  0.0469   69.4  0.2719 -160.9
 0.500  0.6826  171.6   6.869   81.6  0.0518   69.6  0.2711 -163.5
 0.600  0.6861  168.4   5.751   78.4  0.0615   69.8  0.2720 -167.5
 0.700  0.6874  165.5   4.933   75.7  0.0708   69.7  0.2712 -170.6
 0.800  0.6905  162.5   4.325   72.6  0.0807   69.0  0.2728 -172.8
 0.900  0.6891  159.6   3.844   70.0  0.0896   67.8  0.2759 -174.7
 1.000  0.6943  156.8   3.478   67.3  0.0993   66.6  0.2793 -176.8
 1.100  0.6960  153.9   3.171   64.8  0.1084   65.3  0.2818 -178.2
 1.200  0.6971  151.2   2.913   62.0  0.1171   64.1  0.2844 -179.8
 1.300  0.6985  148.3   2.697   59.6  0.1263   62.8  0.2889  179.1
 1.400  0.7031  145.9   2.519   57.0  0.1359   61.4  0.2944  177.8
 1.500  0.7073  143.2   2.354   54.5  0.1447   59.9  0.2998  176.6
 1.600  0.7112  140.5   2.218   52.0  0.1533   58.5  0.3040  175.7
 1.700  0.7118  137.9   2.096   49.6  0.1621   57.3  0.3111  174.8
 1.800  0.7195  135.2   1.992   47.0  0.1701   55.6  0.3177  173.7
 1.900  0.7209  132.8   1.891   44.8  0.1781   54.2  0.3236  172.6
 2.000  0.7221  130.3   1.798   42.3  0.1866   52.6  0.3300  171.8
 2.100  0.7259  127.7   1.718   40.1  0.1941   51.2  0.3370  170.8
 2.200  0.7312  125.2   1.640   37.7  0.2018   49.9  0.3441  169.8
 2.300  0.7330  123.0   1.575   35.6  0.2095   48.3  0.3502  169.1
 2.400  0.7358  120.8   1.513   33.4  0.2174   46.9  0.3564  168.5
 2.500  0.7389  118.6   1.457   31.4  0.2242   45.4  0.3638  167.5
 2.600  0.7430  116.5   1.403   29.3  0.2312   43.9  0.3713  166.6
 2.700  0.7470  114.5   1.355   27.4  0.2378   42.5  0.3767  165.7
 2.800  0.7520  112.5   1.309   25.4  0.2445   41.1  0.3821  164.8
 2.900  0.7541  110.4   1.268   23.5  0.2506   39.7  0.3880  163.6
 3.000  0.7572  108.3   1.228   21.5  0.2568   38.3  0.3940  162.4
 3.100  0.7585  106.5   1.195   19.9  0.2624   36.9  0.3977  161.1
 3.200  0.7606  104.7   1.162   18.3  0.2681   35.6  0.4015  159.8
 3.300  0.7634  102.9   1.131   16.5  0.2739   34.4  0.4056  158.6
 3.400  0.7669  101.2   1.101   14.7  0.2799   33.2  0.4098  157.4
 3.500  0.7712   99.4   1.072   12.7  0.2860   32.0  0.4142  156.2
 3.600  0.7728   97.8   1.047   11.2  0.2911   30.6  0.4185  154.7
 3.700  0.7749   96.2   1.023    9.7  0.2964   29.3  0.4232  153.3
 3.800  0.7777   94.6   1.000    8.1  0.3019   28.1  0.4280  151.9
 3.900  0.7811   93.1   0.978    6.4  0.3075   26.9  0.4331  150.5
 4.000  0.7850   91.5   0.956    4.7  0.3132   25.7  0.4385  149.2
 4.100  0.7852   90.1   0.937    3.4  0.3180   24.4  0.4439  147.7
 4.200  0.7859   88.6   0.918    2.0  0.3229   23.1  0.4497  146.2
 4.300  0.7872   87.2   0.900    0.5  0.3280   21.9  0.4557  144.7
 4.400  0.7889   85.7   0.882   -1.0  0.3333   20.7  0.4621  143.3
 4.500  0.7911   84.3   0.865   -2.6  0.3387   19.5  0.4687  141.9
 4.600  0.7927   83.0   0.849   -3.7  0.3430   18.3  0.4747  140.7
 4.700  0.7947   81.7   0.834   -4.9  0.3474   17.1  0.4809  139.6
 4.800  0.7971   80.4   0.820   -6.1  0.3519   16.0  0.4872  138.5
 4.900  0.8000   79.1   0.805   -7.3  0.3566   14.9  0.4938  137.4
 5.000  0.8032   77.8   0.791   -8.6  0.3614   13.8  0.5005  136.3
 5.100  0.8023   76.5   0.782   -9.7  0.3652   12.6  0.5065  135.5
 5.200  0.8018   75.2   0.773  -10.8  0.3692   11.4  0.5127  134.8
 5.300  0.8018   73.9   0.764  -11.9  0.3734   10.2  0.5189  134.0
 5.400  0.8021   72.6   0.755  -13.0  0.3777    9.0  0.5252  133.3
 5.500  0.8029   71.3   0.747  -14.2  0.3822    7.9  0.5316  132.6
 5.600  0.8014   70.2   0.737  -15.1  0.3857    6.8  0.5338  131.9
 5.700  0.8002   69.0   0.728  -16.1  0.3893    5.7  0.5362  131.2
 5.800  0.7994   67.9   0.718  -17.1  0.3931    4.7  0.5386  130.5
 5.900  0.7988   66.7   0.709  -18.1  0.3970    3.6  0.5410  129.9
 6.000  0.7986   65.6   0.700  -19.2  0.4010    2.6  0.5436  129.2
!
!  f       NFmin   Gammaopt  rn/50
! GHz       dB    MAG  ANG    -
 0.450      1.78  0.50 -170   0.06
 0.900      1.95  0.53 -157   0.10
 1.900      2.80  0.70 -130   0.40
 2.400      3.20  0.70 -116   0.87
!
! (c) 2017  Infineon Technologies AG, Munich