! Infineon Technologies  Discrete & RF Semiconductors
! BFP196
! VCE =  2.0 V,  IC =  20 mA
! Common Emitter S-Parameters:                            Jan 2017
# GHz  S  MA  R  50
!  f         S11            S21            S12            S22
! GHz     MAG   ANG      MAG   ANG      MAG   ANG      MAG   ANG
 0.010  0.5063  -22.5  49.781  170.5  0.0047   82.5  0.9767  -11.2
 0.020  0.5317  -43.2  48.455  161.5  0.0097   76.9  0.9410  -22.3
 0.030  0.5083  -59.3  44.675  155.2  0.0136   66.6  0.8645  -30.0
 0.040  0.5269  -75.6  41.539  147.7  0.0178   61.0  0.8065  -39.1
 0.050  0.5834  -89.7  39.201  139.3  0.0221   57.6  0.7713  -49.2
 0.060  0.5750  -97.7  36.362  136.4  0.0235   54.7  0.7143  -53.4
 0.070  0.5781 -105.9  33.634  133.0  0.0250   52.1  0.6617  -58.2
 0.080  0.5925 -113.7  31.045  129.0  0.0265   49.8  0.6146  -63.8
 0.090  0.6176 -121.1  28.632  124.3  0.0281   47.8  0.5744  -70.3
 0.100  0.6519 -127.8  26.446  118.8  0.0297   46.0  0.5426  -77.7
 0.110  0.6502 -131.4  24.917  117.2  0.0305   45.1  0.5145  -80.5
 0.120  0.6512 -135.1  23.410  115.4  0.0313   44.3  0.4877  -83.6
 0.130  0.6548 -138.7  21.930  113.3  0.0321   43.5  0.4625  -87.0
 0.140  0.6610 -142.3  20.482  111.0  0.0329   42.7  0.4392  -90.9
 0.150  0.6697 -145.8  19.073  108.3  0.0337   42.0  0.4181  -95.1
 0.200  0.6853 -155.9  14.782  101.6  0.0363   42.9  0.3516 -107.6
 0.250  0.6891 -163.1  11.994   96.8  0.0395   44.8  0.3100 -116.7
 0.300  0.6893 -168.0  10.086   93.4  0.0426   45.3  0.2851 -124.4
 0.350  0.6909 -171.7   8.864   91.0  0.0458   47.7  0.2697 -129.6
 0.400  0.6954 -175.3   7.662   87.8  0.0490   49.8  0.2568 -135.3
 0.450  0.6940 -178.1   6.902   85.9  0.0527   51.0  0.2498 -139.1
 0.500  0.6943  179.1   6.151   83.5  0.0564   52.1  0.2439 -143.1
 0.600  0.6995  174.6   5.156   79.7  0.0643   54.1  0.2384 -149.0
 0.700  0.6997  170.8   4.426   76.5  0.0708   55.5  0.2342 -153.3
 0.800  0.7037  167.2   3.885   73.0  0.0795   56.9  0.2351 -156.7
 0.900  0.7020  163.7   3.453   70.0  0.0878   56.7  0.2364 -159.4
 1.000  0.7059  160.5   3.128   67.0  0.0952   57.2  0.2385 -162.1
 1.100  0.7092  157.4   2.854   64.2  0.1035   57.0  0.2419 -164.0
 1.200  0.7102  154.3   2.621   61.2  0.1115   56.3  0.2452 -165.8
 1.300  0.7131  151.5   2.428   58.5  0.1194   56.1  0.2505 -167.4
 1.400  0.7155  148.7   2.268   55.8  0.1283   55.2  0.2565 -169.1
 1.500  0.7211  145.9   2.119   53.1  0.1361   54.5  0.2627 -170.7
 1.600  0.7229  142.8   1.998   50.3  0.1441   53.8  0.2689 -171.7
 1.700  0.7267  140.2   1.889   47.8  0.1521   53.0  0.2765 -172.9
 1.800  0.7324  137.5   1.795   45.1  0.1601   51.8  0.2845 -174.4
 1.900  0.7345  134.9   1.704   42.7  0.1674   50.8  0.2919 -175.5
 2.000  0.7356  132.2   1.621   40.1  0.1751   49.8  0.3002 -176.5
 2.100  0.7397  129.6   1.549   37.8  0.1826   48.7  0.3082 -177.7
 2.200  0.7453  127.0   1.479   35.2  0.1901   47.6  0.3164 -178.8
 2.300  0.7475  124.7   1.421   33.0  0.1978   46.4  0.3248 -179.7
 2.400  0.7508  122.5   1.365   30.7  0.2056   45.3  0.3332  179.4
 2.500  0.7542  120.2   1.313   28.7  0.2123   44.0  0.3420  178.3
 2.600  0.7589  117.9   1.263   26.5  0.2192   42.8  0.3509  177.3
 2.700  0.7621  115.8   1.220   24.5  0.2258   41.6  0.3582  176.2
 2.800  0.7662  113.8   1.178   22.3  0.2324   40.4  0.3656  175.1
 2.900  0.7694  111.7   1.140   20.5  0.2389   39.2  0.3727  173.7
 3.000  0.7737  109.6   1.103   18.5  0.2455   38.0  0.3801  172.4
 3.100  0.7749  107.7   1.073   16.9  0.2514   36.8  0.3854  171.0
 3.200  0.7770  105.8   1.043   15.3  0.2574   35.6  0.3908  169.6
 3.300  0.7799  104.0   1.015   13.5  0.2635   34.5  0.3966  168.3
 3.400  0.7837  102.1   0.987   11.7  0.2696   33.5  0.4025  167.0
 3.500  0.7882  100.3   0.961    9.7  0.2759   32.5  0.4086  165.7
 3.600  0.7900   98.7   0.938    8.3  0.2814   31.2  0.4143  164.0
 3.700  0.7924   97.1   0.917    6.8  0.2871   30.0  0.4204  162.4
 3.800  0.7955   95.5   0.895    5.2  0.2929   28.8  0.4267  160.9
 3.900  0.7991   93.9   0.875    3.5  0.2989   27.6  0.4334  159.4
 4.000  0.8034   92.3   0.855    1.8  0.3049   26.5  0.4404  157.9
 4.100  0.8032   90.8   0.837    0.5  0.3102   25.2  0.4471  156.2
 4.200  0.8036   89.3   0.820   -0.8  0.3156   24.0  0.4543  154.5
 4.300  0.8045   87.7   0.803   -2.2  0.3211   22.8  0.4618  152.9
 4.400  0.8060   86.2   0.787   -3.7  0.3268   21.7  0.4697  151.3
 4.500  0.8081   84.7   0.771   -5.2  0.3326   20.6  0.4779  149.8
 4.600  0.8094   83.4   0.757   -6.2  0.3374   19.4  0.4854  148.4
 4.700  0.8111   82.0   0.743   -7.3  0.3424   18.2  0.4932  147.0
 4.800  0.8133   80.7   0.730   -8.4  0.3475   17.1  0.5012  145.7
 4.900  0.8159   79.4   0.717   -9.5  0.3527   16.0  0.5095  144.4
 5.000  0.8189   78.1   0.704  -10.7  0.3581   14.9  0.5181  143.2
 5.100  0.8175   76.8   0.695  -11.7  0.3624   13.7  0.5255  142.2
 5.200  0.8165   75.5   0.687  -12.7  0.3669   12.5  0.5331  141.2
 5.300  0.8159   74.1   0.679  -13.7  0.3716   11.3  0.5408  140.3
 5.400  0.8158   72.8   0.671  -14.7  0.3764   10.2  0.5487  139.4
 5.500  0.8161   71.5   0.663  -15.8  0.3813    9.1  0.5567  138.5
 5.600  0.8148   70.3   0.655  -16.6  0.3851    8.0  0.5602  137.6
 5.700  0.8139   69.2   0.647  -17.4  0.3891    6.9  0.5638  136.8
 5.800  0.8132   68.0   0.639  -18.3  0.3932    5.8  0.5675  135.9
 5.900  0.8130   66.9   0.631  -19.1  0.3975    4.7  0.5713  135.1
 6.000  0.8130   65.7   0.623  -20.0  0.4019    3.7  0.5753  134.3
!
!  f       NFmin   Gammaopt  rn/50
! GHz       dB    MAG  ANG    -
 0.450      1.10  0.34  159   0.05
 0.900      1.30  0.47  179   0.06
 1.900      2.20  0.68 -137   0.24
 2.400      2.65  0.72 -122   0.59
!
! (c) 2017  Infineon Technologies AG, Munich