! Infineon Technologies  Discrete & RF Semiconductors
! BFP196
! VCE =  4.0 V,  IC = 0.14 A
! Common Emitter S-Parameters:                            Jan 2017
# GHz  S  MA  R  50
!  f         S11            S21            S12            S22
! GHz     MAG   ANG      MAG   ANG      MAG   ANG      MAG   ANG
 0.010  0.2496 -127.1  91.981  161.3  0.0032   72.2  0.7708  -22.5
 0.020  0.4225 -134.4  81.128  145.8  0.0053   67.0  0.6852  -43.7
 0.030  0.4840 -143.0  69.195  139.8  0.0068   61.5  0.5816  -53.3
 0.040  0.5539 -149.6  58.339  131.4  0.0083   57.9  0.5008  -66.5
 0.050  0.6294 -154.6  49.278  119.5  0.0098   55.5  0.4553  -83.5
 0.060  0.6405 -157.5  44.730  117.6  0.0106   57.1  0.4190  -88.0
 0.070  0.6532 -160.3  40.240  115.4  0.0114   58.5  0.3858  -93.4
 0.080  0.6674 -163.0  35.830  112.5  0.0122   59.7  0.3565  -99.7
 0.090  0.6830 -165.6  31.534  108.9  0.0131   60.7  0.3323 -107.0
 0.100  0.6999 -168.0  27.404  104.1  0.0139   61.6  0.3143 -115.3
 0.110  0.7022 -169.2  25.637  103.1  0.0147   61.9  0.3031 -118.2
 0.120  0.7048 -170.4  23.879  102.0  0.0155   62.2  0.2928 -121.4
 0.130  0.7077 -171.6  22.130  100.8  0.0163   62.4  0.2834 -124.7
 0.140  0.7109 -172.8  20.395   99.3  0.0171   62.6  0.2751 -128.3
 0.150  0.7144 -174.0  18.676   97.5  0.0179   62.8  0.2679 -132.1
 0.200  0.7213 -177.6  14.103   93.3  0.0221   68.0  0.2498 -142.6
 0.250  0.7242  179.6  11.330   90.1  0.0271   68.9  0.2397 -149.0
 0.300  0.7225  177.3   9.457   87.8  0.0313   71.0  0.2350 -154.4
 0.350  0.7228  175.4   8.291   86.0  0.0358   71.5  0.2328 -157.5
 0.400  0.7239  173.5   7.135   83.7  0.0404   71.9  0.2312 -160.6
 0.450  0.7256  171.7   6.421   82.1  0.0451   71.8  0.2310 -162.6
 0.500  0.7280  170.0   5.712   80.2  0.0499   71.7  0.2311 -164.7
 0.600  0.7299  166.8   4.782   77.1  0.0598   71.7  0.2334 -168.0
 0.700  0.7298  164.3   4.105   74.3  0.0683   71.5  0.2333 -170.5
 0.800  0.7312  161.3   3.600   71.2  0.0787   70.6  0.2360 -172.0
 0.900  0.7314  158.4   3.202   68.4  0.0876   69.3  0.2408 -173.6
 1.000  0.7332  155.8   2.901   65.7  0.0969   68.2  0.2444 -175.2
 1.100  0.7364  153.0   2.646   63.1  0.1061   67.0  0.2476 -176.4
 1.200  0.7385  150.2   2.434   60.3  0.1148   65.6  0.2509 -177.4
 1.300  0.7410  147.6   2.258   57.8  0.1240   64.1  0.2570 -178.3
 1.400  0.7425  145.0   2.109   55.1  0.1330   62.7  0.2632 -179.6
 1.500  0.7472  142.4   1.972   52.6  0.1417   61.5  0.2691  179.4
 1.600  0.7497  139.7   1.860   49.9  0.1507   59.9  0.2740  178.7
 1.700  0.7504  137.1   1.762   47.4  0.1595   58.5  0.2822  178.0
 1.800  0.7573  134.3   1.675   44.8  0.1674   56.9  0.2901  177.0
 1.900  0.7588  131.9   1.591   42.6  0.1755   55.4  0.2963  175.9
 2.000  0.7591  129.3   1.515   40.0  0.1834   54.0  0.3031  175.4
 2.100  0.7624  126.8   1.448   37.7  0.1911   52.5  0.3111  174.4
 2.200  0.7672  124.3   1.384   35.2  0.1990   51.1  0.3192  173.5
 2.300  0.7684  122.1   1.331   33.2  0.2068   49.6  0.3261  172.9
 2.400  0.7707  120.0   1.280   31.0  0.2147   48.2  0.3330  172.3
 2.500  0.7737  117.8   1.234   29.0  0.2216   46.7  0.3416  171.3
 2.600  0.7778  115.6   1.189   26.8  0.2286   45.2  0.3502  170.4
 2.700  0.7798  113.6   1.150   24.9  0.2352   43.8  0.3561  169.6
 2.800  0.7828  111.6   1.112   22.9  0.2419   42.4  0.3620  168.8
 2.900  0.7849  109.5   1.077   21.1  0.2482   41.0  0.3688  167.5
 3.000  0.7880  107.5   1.044   19.1  0.2546   39.6  0.3757  166.3
 3.100  0.7887  105.7   1.017   17.5  0.2603   38.2  0.3801  165.0
 3.200  0.7903  103.8   0.990   15.9  0.2660   36.9  0.3847  163.8
 3.300  0.7926  102.0   0.964   14.2  0.2720   35.7  0.3894  162.6
 3.400  0.7958  100.2   0.940   12.3  0.2780   34.5  0.3943  161.4
 3.500  0.7997   98.4   0.916   10.4  0.2842   33.3  0.3994  160.2
 3.600  0.8006   96.8   0.896    9.0  0.2895   31.9  0.4046  158.7
 3.700  0.8020   95.2   0.876    7.5  0.2950   30.6  0.4100  157.2
 3.800  0.8041   93.6   0.857    6.0  0.3006   29.4  0.4157  155.8
 3.900  0.8068   92.1   0.838    4.4  0.3064   28.2  0.4217  154.4
 4.000  0.8101   90.5   0.820    2.7  0.3123   27.0  0.4279  153.1
 4.100  0.8098   89.0   0.804    1.4  0.3173   25.7  0.4340  151.5
 4.200  0.8100   87.6   0.789    0.1  0.3224   24.4  0.4405  149.9
 4.300  0.8107   86.1   0.774   -1.2  0.3277   23.1  0.4473  148.4
 4.400  0.8120   84.7   0.759   -2.6  0.3332   21.9  0.4544  146.9
 4.500  0.8138   83.2   0.745   -4.1  0.3388   20.7  0.4618  145.5
 4.600  0.8150   81.9   0.732   -5.1  0.3432   19.5  0.4684  144.2
 4.700  0.8167   80.6   0.720   -6.2  0.3478   18.3  0.4751  143.0
 4.800  0.8187   79.3   0.708   -7.3  0.3526   17.1  0.4821  141.8
 4.900  0.8211   78.1   0.696   -8.5  0.3575   16.0  0.4893  140.6
 5.000  0.8240   76.8   0.685   -9.7  0.3625   14.9  0.4967  139.5
 5.100  0.8222   75.5   0.678  -10.7  0.3665   13.6  0.5035  138.7
 5.200  0.8207   74.2   0.671  -11.7  0.3708   12.4  0.5105  137.9
 5.300  0.8197   72.9   0.664  -12.7  0.3752   11.2  0.5175  137.1
 5.400  0.8192   71.6   0.657  -13.7  0.3797   10.0  0.5247  136.3
 5.500  0.8190   70.3   0.651  -14.8  0.3844    8.9  0.5319  135.6
 5.600  0.8174   69.2   0.643  -15.6  0.3880    7.8  0.5348  134.8
 5.700  0.8162   68.0   0.635  -16.5  0.3918    6.7  0.5377  134.1
 5.800  0.8153   66.9   0.628  -17.4  0.3957    5.6  0.5408  133.4
 5.900  0.8147   65.7   0.620  -18.3  0.3998    4.5  0.5439  132.6
 6.000  0.8144   64.6   0.613  -19.2  0.4040    3.5  0.5471  131.9
!
!  f       NFmin   Gammaopt  rn/50
! GHz       dB    MAG  ANG    -
!
! noise parameter not available yet for this operation point!
!
! (c) 2017  Infineon Technologies AG, Munich