! Infineon Technologies  Discrete & RF Semiconductors
! BFP196
! VCE =  4.0 V,  IC =  55 mA
! Common Emitter S-Parameters:                            Jan 2017
# GHz  S  MA  R  50
!  f         S11            S21            S12            S22
! GHz     MAG   ANG      MAG   ANG      MAG   ANG      MAG   ANG
 0.010  0.2389  -51.9  83.094  166.5  0.0032   76.0  0.9385  -15.7
 0.020  0.3329  -84.2  78.499  154.6  0.0057   75.5  0.8744  -30.7
 0.030  0.3678 -102.6  69.579  148.1  0.0077   65.0  0.7731  -39.5
 0.040  0.4326 -116.6  61.794  139.9  0.0099   58.9  0.6950  -50.6
 0.050  0.5162 -126.6  55.622  129.6  0.0122   55.1  0.6485  -63.8
 0.060  0.5266 -132.3  50.933  127.2  0.0133   54.8  0.5950  -68.0
 0.070  0.5420 -137.7  46.353  124.3  0.0143   54.6  0.5453  -73.1
 0.080  0.5620 -142.8  41.918  120.7  0.0154   54.4  0.5007  -79.1
 0.090  0.5860 -147.5  37.679  116.4  0.0164   54.2  0.4625  -86.1
 0.100  0.6137 -151.8  33.710  111.0  0.0175   54.1  0.4326  -94.3
 0.110  0.6163 -154.1  31.624  109.8  0.0183   54.6  0.4113  -97.2
 0.120  0.6199 -156.4  29.556  108.3  0.0191   55.1  0.3911 -100.4
 0.130  0.6244 -158.7  27.508  106.7  0.0199   55.6  0.3723 -103.9
 0.140  0.6299 -160.9  25.486  104.8  0.0207   56.0  0.3550 -107.8
 0.150  0.6364 -163.1  23.497  102.6  0.0215   56.4  0.3396 -112.1
 0.200  0.6491 -169.1  17.911   97.3  0.0249   59.3  0.2972 -124.3
 0.250  0.6540 -173.7  14.434   93.5  0.0292   61.1  0.2731 -133.0
 0.300  0.6554 -176.9  12.080   90.8  0.0331   63.4  0.2583 -139.9
 0.350  0.6563 -179.5  10.603   88.8  0.0376   64.7  0.2508 -144.4
 0.400  0.6585  178.0   9.143   86.2  0.0421   65.8  0.2449 -149.2
 0.450  0.6600  175.9   8.228   84.6  0.0464   66.5  0.2417 -152.4
 0.500  0.6623  173.9   7.322   82.6  0.0508   67.1  0.2393 -155.6
 0.600  0.6651  170.3   6.133   79.3  0.0602   66.8  0.2386 -160.4
 0.700  0.6657  167.1   5.258   76.5  0.0688   67.5  0.2365 -164.0
 0.800  0.6699  164.0   4.613   73.4  0.0787   67.2  0.2382 -166.8
 0.900  0.6684  160.9   4.100   70.7  0.0873   66.1  0.2407 -168.9
 1.000  0.6731  157.9   3.709   68.0  0.0958   65.2  0.2437 -171.4
 1.100  0.6751  155.0   3.380   65.4  0.1050   64.4  0.2458 -172.9
 1.200  0.6781  152.1   3.103   62.7  0.1139   63.1  0.2490 -174.4
 1.300  0.6799  149.5   2.874   60.2  0.1225   62.1  0.2538 -175.7
 1.400  0.6830  146.8   2.684   57.6  0.1316   61.0  0.2592 -177.4
 1.500  0.6869  144.2   2.505   55.2  0.1398   59.5  0.2645 -178.5
 1.600  0.6908  141.4   2.361   52.6  0.1483   58.1  0.2700 -179.4
 1.700  0.6935  138.7   2.230   50.2  0.1567   56.8  0.2770  179.6
 1.800  0.6998  136.0   2.117   47.6  0.1646   55.5  0.2842  178.4
 1.900  0.7027  133.6   2.008   45.4  0.1727   54.3  0.2903  177.3
 2.000  0.7040  131.0   1.909   42.9  0.1808   52.7  0.2970  176.5
 2.100  0.7079  128.4   1.823   40.7  0.1881   51.3  0.3044  175.4
 2.200  0.7133  125.9   1.740   38.3  0.1955   50.0  0.3119  174.4
 2.300  0.7157  123.7   1.671   36.2  0.2032   48.5  0.3187  173.7
 2.400  0.7191  121.5   1.604   34.0  0.2111   47.2  0.3256  173.1
 2.500  0.7232  119.4   1.543   32.0  0.2179   45.7  0.3335  172.1
 2.600  0.7282  117.3   1.485   29.8  0.2248   44.3  0.3415  171.2
 2.700  0.7315  115.2   1.434   27.9  0.2312   42.9  0.3476  170.2
 2.800  0.7358  113.1   1.385   25.8  0.2378   41.6  0.3538  169.3
 2.900  0.7385  111.0   1.340   24.0  0.2439   40.2  0.3600  168.0
 3.000  0.7422  109.0   1.297   22.0  0.2501   38.9  0.3663  166.8
 3.100  0.7441  107.2   1.261   20.4  0.2557   37.6  0.3705  165.5
 3.200  0.7468  105.4   1.226   18.7  0.2615   36.3  0.3748  164.1
 3.300  0.7502  103.5   1.193   17.0  0.2673   35.1  0.3794  162.9
 3.400  0.7544  101.8   1.160   15.1  0.2733   33.9  0.3841  161.6
 3.500  0.7593  100.0   1.129   13.1  0.2794   32.8  0.3890  160.4
 3.600  0.7613   98.4   1.102   11.6  0.2847   31.5  0.3937  158.9
 3.700  0.7639   96.8   1.076   10.1  0.2901   30.2  0.3987  157.4
 3.800  0.7671   95.3   1.051    8.4  0.2956   28.9  0.4039  155.9
 3.900  0.7708   93.7   1.026    6.7  0.3013   27.7  0.4094  154.5
 4.000  0.7751   92.2   1.003    4.9  0.3071   26.6  0.4151  153.1
 4.100  0.7754   90.7   0.982    3.6  0.3119   25.3  0.4208  151.5
 4.200  0.7762   89.2   0.962    2.2  0.3169   24.0  0.4269  149.9
 4.300  0.7775   87.7   0.942    0.7  0.3221   22.8  0.4332  148.4
 4.400  0.7793   86.3   0.923   -0.8  0.3274   21.6  0.4399  146.9
 4.500  0.7817   84.8   0.904   -2.4  0.3328   20.4  0.4468  145.5
 4.600  0.7834   83.5   0.887   -3.5  0.3372   19.2  0.4534  144.3
 4.700  0.7856   82.2   0.871   -4.7  0.3417   18.1  0.4601  143.1
 4.800  0.7882   80.9   0.855   -6.0  0.3463   16.9  0.4671  141.9
 4.900  0.7911   79.6   0.839   -7.3  0.3511   15.9  0.4742  140.8
 5.000  0.7945   78.3   0.824   -8.6  0.3560   14.8  0.4815  139.7
 5.100  0.7938   77.0   0.813   -9.7  0.3600   13.6  0.4881  138.9
 5.200  0.7935   75.7   0.803  -10.8  0.3643   12.4  0.4947  138.0
 5.300  0.7936   74.5   0.793  -12.0  0.3686   11.2  0.5015  137.2
 5.400  0.7940   73.2   0.783  -13.2  0.3731   10.0  0.5083  136.5
 5.500  0.7949   71.9   0.774  -14.4  0.3778    8.9  0.5153  135.7
 5.600  0.7935   70.7   0.764  -15.4  0.3813    7.8  0.5181  135.0
 5.700  0.7924   69.6   0.754  -16.4  0.3850    6.7  0.5210  134.3
 5.800  0.7917   68.4   0.744  -17.4  0.3888    5.6  0.5239  133.6
 5.900  0.7913   67.3   0.734  -18.4  0.3927    4.5  0.5270  132.9
 6.000  0.7912   66.1   0.725  -19.5  0.3968    3.5  0.5301  132.2
!
!  f       NFmin   Gammaopt  rn/50
! GHz       dB    MAG  ANG    -
!
! noise parameter not available yet for this operation point!
!
! (c) 2017  Infineon Technologies AG, Munich