! Infineon Technologies  Discrete & RF Semiconductors
! BFP196
! VCE =  7.0 V,  IC =  5.0 mA
! Common Emitter S-Parameters:                            Jan 2017
# GHz  S  MA  R  50
!  f         S11            S21            S12            S22
! GHz     MAG   ANG      MAG   ANG      MAG   ANG      MAG   ANG
 0.010  0.8568   -7.1  16.148  176.2  0.0047   86.0  1.0000   -3.1
 0.020  0.8674  -14.1  16.237  172.3  0.0096   86.1  0.9894   -6.4
 0.030  0.8460  -20.6  15.921  168.6  0.0145   78.2  0.9741   -9.3
 0.040  0.8359  -27.3  15.674  164.7  0.0195   74.4  0.9613  -12.3
 0.050  0.8375  -34.1  15.499  160.8  0.0246   72.1  0.9511  -15.3
 0.060  0.8168  -39.8  15.068  157.8  0.0283   68.0  0.9278  -17.5
 0.070  0.8047  -45.8  14.680  154.7  0.0321   64.8  0.9060  -19.9
 0.080  0.8014  -51.8  14.338  151.4  0.0359   62.3  0.8858  -22.4
 0.090  0.8072  -57.9  14.045  148.0  0.0398   60.3  0.8673  -24.9
 0.100  0.8218  -63.8  13.805  144.4  0.0438   58.7  0.8506  -27.6
 0.110  0.8048  -68.2  13.352  142.1  0.0461   56.1  0.8265  -29.1
 0.120  0.7928  -72.8  12.921  139.7  0.0485   53.7  0.8030  -30.8
 0.130  0.7859  -77.5  12.516  137.1  0.0509   51.6  0.7802  -32.5
 0.140  0.7844  -82.2  12.137  134.3  0.0534   49.7  0.7582  -34.4
 0.150  0.7882  -86.9  11.789  131.4  0.0560   47.9  0.7370  -36.3
 0.200  0.7726 -104.9  10.106  121.6  0.0620   41.2  0.6454  -42.0
 0.250  0.7559 -118.6   8.709  113.6  0.0674   35.8  0.5714  -45.7
 0.300  0.7457 -129.3   7.577  107.8  0.0703   32.3  0.5150  -48.2
 0.350  0.7346 -136.9   6.764  103.7  0.0716   30.4  0.4772  -49.5
 0.400  0.7365 -144.5   5.994   98.6  0.0730   28.6  0.4398  -51.1
 0.450  0.7287 -150.1   5.441   95.4  0.0742   27.8  0.4175  -52.1
 0.500  0.7279 -155.7   4.908   91.6  0.0755   27.0  0.3954  -53.3
 0.600  0.7291 -164.1   4.159   85.9  0.0773   26.2  0.3662  -55.2
 0.700  0.7243 -170.7   3.592   81.0  0.0775   26.6  0.3475  -57.1
 0.800  0.7273 -176.7   3.170   76.3  0.0789   27.9  0.3368  -59.5
 0.900  0.7265  178.2   2.826   72.2  0.0799   29.1  0.3289  -62.0
 1.000  0.7283  173.6   2.561   68.3  0.0807   30.7  0.3230  -64.9
 1.100  0.7316  169.4   2.341   64.7  0.0823   33.0  0.3213  -67.9
 1.200  0.7330  165.2   2.152   61.0  0.0840   34.4  0.3196  -71.1
 1.300  0.7346  161.6   1.992   57.6  0.0864   36.3  0.3206  -74.5
 1.400  0.7391  158.1   1.859   54.3  0.0893   38.8  0.3217  -78.2
 1.500  0.7458  154.6   1.737   51.1  0.0927   40.6  0.3239  -81.8
 1.600  0.7486  151.2   1.633   47.9  0.0961   42.4  0.3289  -85.3
 1.700  0.7524  147.9   1.543   44.9  0.1006   44.5  0.3331  -89.3
 1.800  0.7589  144.7   1.464   41.8  0.1052   46.0  0.3378  -93.1
 1.900  0.7636  141.6   1.386   39.1  0.1104   47.5  0.3446  -96.8
 2.000  0.7655  138.6   1.317   36.1  0.1166   48.4  0.3522 -100.3
 2.100  0.7694  135.6   1.255   33.5  0.1227   49.4  0.3595 -104.1
 2.200  0.7755  132.6   1.195   30.7  0.1289   50.3  0.3684 -107.7
 2.300  0.7795  130.0   1.143   28.3  0.1362   50.7  0.3785 -111.2
 2.400  0.7851  127.4   1.093   25.7  0.1435   51.0  0.3900 -114.5
 2.500  0.7888  124.8   1.047   23.5  0.1511   50.9  0.3999 -118.0
 2.600  0.7941  122.3   1.003   21.2  0.1588   50.8  0.4112 -121.3
 2.700  0.7974  119.9   0.964   19.1  0.1665   50.5  0.4213 -124.4
 2.800  0.8022  117.5   0.927   16.9  0.1743   50.3  0.4325 -127.4
 2.900  0.8058  115.1   0.894   15.1  0.1824   49.6  0.4409 -130.5
 3.000  0.8107  112.8   0.862   13.1  0.1905   49.0  0.4506 -133.4
 3.100  0.8120  110.7   0.835   11.7  0.1989   48.1  0.4569 -136.5
 3.200  0.8144  108.6   0.808   10.2  0.2073   47.2  0.4645 -139.4
 3.300  0.8178  106.6   0.782    8.6  0.2158   46.5  0.4733 -142.3
 3.400  0.8223  104.5   0.757    6.8  0.2243   45.8  0.4832 -145.1
 3.500  0.8278  102.5   0.732    5.0  0.2329   45.1  0.4942 -147.7
 3.600  0.8286  100.7   0.713    3.9  0.2411   43.7  0.4992 -150.7
 3.700  0.8302   98.8   0.694    2.7  0.2494   42.5  0.5057 -153.7
 3.800  0.8327   97.0   0.675    1.5  0.2578   41.3  0.5134 -156.6
 3.900  0.8360   95.2   0.657    0.2  0.2664   40.1  0.5224 -159.4
 4.000  0.8401   93.4   0.639   -1.2  0.2750   39.1  0.5326 -162.1
 4.100  0.8390   91.8   0.625   -2.1  0.2827   37.6  0.5378 -165.1
 4.200  0.8386   90.1   0.612   -3.0  0.2906   36.1  0.5444 -168.1
 4.300  0.8389   88.5   0.598   -4.0  0.2986   34.7  0.5525 -170.9
 4.400  0.8399   86.8   0.585   -5.0  0.3068   33.4  0.5618 -173.7
 4.500  0.8416   85.2   0.572   -6.0  0.3152   32.2  0.5725 -176.4
 4.600  0.8422   83.8   0.562   -6.6  0.3221   30.7  0.5789 -179.0
 4.700  0.8433   82.3   0.552   -7.1  0.3291   29.3  0.5865  178.4
 4.800  0.8449   80.9   0.542   -7.7  0.3364   27.9  0.5953  175.9
 4.900  0.8471   79.4   0.533   -8.4  0.3438   26.6  0.6052  173.4
 5.000  0.8498   78.0   0.523   -9.0  0.3514   25.4  0.6161  171.1
 5.100  0.8479   76.6   0.519   -9.5  0.3573   23.9  0.6235  169.0
 5.200  0.8464   75.2   0.514  -10.0  0.3635   22.4  0.6318  167.0
 5.300  0.8455   73.8   0.510  -10.5  0.3699   21.0  0.6408  165.0
 5.400  0.8451   72.4   0.505  -11.0  0.3765   19.6  0.6505  163.1
 5.500  0.8452   71.0   0.501  -11.5  0.3833   18.3  0.6610  161.2
 5.600  0.8426   69.8   0.497  -11.9  0.3883   16.9  0.6646  159.6
 5.700  0.8405   68.5   0.494  -12.2  0.3934   15.5  0.6687  157.9
 5.800  0.8387   67.3   0.490  -12.6  0.3989   14.2  0.6734  156.3
 5.900  0.8373   66.0   0.487  -13.0  0.4045   12.9  0.6786  154.8
 6.000  0.8363   64.8   0.483  -13.4  0.4103   11.6  0.6843  153.2
!
!  f       NFmin   Gammaopt  rn/50
! GHz       dB    MAG  ANG    -
 0.450      1.01  0.42  127   0.08
 0.900      1.47  0.55  170   0.06
 1.900      2.90  0.74 -142   0.31
 2.400      3.55  0.76 -125   0.95
!
! (c) 2017  Infineon Technologies AG, Munich