! Infineon Technologies  Discrete & RF Semiconductors
! BFP196
! VCE =  8.0 V,  IC =  65 mA
! Common Emitter S-Parameters:                            Jan 2017
# GHz  S  MA  R  50
!  f         S11            S21            S12            S22
! GHz     MAG   ANG      MAG   ANG      MAG   ANG      MAG   ANG
 0.010  0.2851  -40.5  85.580  167.0  0.0032   79.8  0.9341  -14.0
 0.020  0.3511  -71.1  80.737  155.7  0.0063   74.4  0.8737  -27.6
 0.030  0.3681  -90.5  72.108  149.2  0.0081   66.0  0.7784  -35.7
 0.040  0.4216 -106.6  64.646  141.1  0.0100   60.7  0.7027  -45.8
 0.050  0.5000 -118.4  58.798  131.1  0.0120   57.1  0.6533  -57.8
 0.060  0.5066 -124.8  53.947  128.6  0.0130   56.8  0.5993  -61.6
 0.070  0.5194 -131.0  49.219  125.6  0.0141   56.6  0.5485  -66.0
 0.080  0.5379 -136.9  44.652  122.0  0.0151   56.4  0.5016  -71.4
 0.090  0.5616 -142.3  40.300  117.6  0.0162   56.2  0.4600  -77.8
 0.100  0.5899 -147.2  36.243  112.2  0.0172   56.1  0.4251  -85.3
 0.110  0.5913 -149.8  34.008  110.9  0.0179   55.9  0.4019  -87.8
 0.120  0.5940 -152.3  31.792  109.4  0.0187   55.8  0.3796  -90.6
 0.130  0.5978 -154.9  29.601  107.7  0.0194   55.6  0.3584  -93.8
 0.140  0.6027 -157.4  27.439  105.8  0.0202   55.5  0.3383  -97.3
 0.150  0.6088 -159.8  25.315  103.5  0.0209   55.4  0.3197 -101.3
 0.200  0.6229 -166.4  19.356   98.1  0.0237   60.3  0.2684 -112.9
 0.250  0.6266 -171.7  15.606   94.1  0.0280   60.8  0.2376 -121.4
 0.300  0.6287 -175.1  13.071   91.4  0.0316   63.5  0.2184 -128.7
 0.350  0.6297 -177.9  11.475   89.4  0.0360   64.9  0.2080 -133.4
 0.400  0.6322  179.3   9.897   86.7  0.0404   66.0  0.1991 -138.5
 0.450  0.6331  177.1   8.908   85.1  0.0447   66.5  0.1944 -142.0
 0.500  0.6348  175.0   7.928   83.1  0.0490   66.9  0.1905 -145.7
 0.600  0.6384  171.2   6.641   79.8  0.0577   67.2  0.1877 -151.3
 0.700  0.6402  168.0   5.695   76.9  0.0657   67.5  0.1847 -155.3
 0.800  0.6444  164.6   4.993   73.9  0.0748   67.4  0.1858 -158.1
 0.900  0.6440  161.6   4.437   71.2  0.0837   66.5  0.1884 -160.7
 1.000  0.6455  158.7   4.011   68.5  0.0916   65.7  0.1910 -163.5
 1.100  0.6514  155.8   3.657   65.9  0.1004   65.0  0.1930 -165.0
 1.200  0.6523  152.8   3.356   63.2  0.1088   63.6  0.1965 -166.8
 1.300  0.6548  150.1   3.106   60.8  0.1170   62.6  0.2019 -168.1
 1.400  0.6582  147.4   2.899   58.2  0.1259   61.7  0.2075 -169.8
 1.500  0.6635  144.7   2.707   55.7  0.1340   60.2  0.2129 -171.2
 1.600  0.6659  142.0   2.549   53.2  0.1420   59.1  0.2179 -172.1
 1.700  0.6682  139.3   2.406   50.8  0.1503   57.8  0.2259 -173.1
 1.800  0.6752  136.6   2.284   48.2  0.1585   56.4  0.2335 -174.4
 1.900  0.6787  134.1   2.166   46.0  0.1659   55.2  0.2398 -175.4
 2.000  0.6817  131.5   2.058   43.5  0.1735   53.7  0.2475 -176.2
 2.100  0.6853  129.0   1.964   41.3  0.1810   52.3  0.2554 -177.4
 2.200  0.6902  126.5   1.874   38.8  0.1885   51.1  0.2634 -178.5
 2.300  0.6936  124.3   1.799   36.7  0.1959   49.7  0.2708 -179.2
 2.400  0.6980  122.1   1.726   34.5  0.2034   48.4  0.2783 -179.8
 2.500  0.7015  119.9   1.659   32.5  0.2100   46.9  0.2870  179.1
 2.600  0.7061  117.7   1.595   30.3  0.2168   45.5  0.2958  178.0
 2.700  0.7108  115.7   1.539   28.4  0.2233   44.1  0.3024  177.1
 2.800  0.7164  113.7   1.485   26.4  0.2299   42.8  0.3090  176.2
 2.900  0.7196  111.6   1.437   24.5  0.2360   41.5  0.3157  174.8
 3.000  0.7237  109.6   1.390   22.5  0.2423   40.2  0.3225  173.4
 3.100  0.7260  107.8   1.351   20.9  0.2479   38.9  0.3272  172.0
 3.200  0.7290  105.9   1.312   19.2  0.2536   37.6  0.3320  170.6
 3.300  0.7327  104.1   1.275   17.4  0.2595   36.4  0.3370  169.3
 3.400  0.7371  102.4   1.239   15.4  0.2654   35.3  0.3422  168.0
 3.500  0.7423  100.6   1.205   13.4  0.2715   34.2  0.3476  166.8
 3.600  0.7444   99.0   1.176   11.9  0.2767   32.9  0.3527  165.2
 3.700  0.7471   97.4   1.147   10.3  0.2821   31.6  0.3581  163.6
 3.800  0.7504   95.9   1.120    8.6  0.2876   30.4  0.3638  162.0
 3.900  0.7542   94.3   1.093    6.8  0.2932   29.2  0.3697  160.5
 4.000  0.7586   92.8   1.068    5.0  0.2989   28.1  0.3759  159.1
 4.100  0.7596   91.3   1.045    3.6  0.3039   26.8  0.3819  157.4
 4.200  0.7611   89.8   1.022    2.2  0.3090   25.5  0.3883  155.7
 4.300  0.7632   88.3   1.000    0.6  0.3142   24.3  0.3950  154.1
 4.400  0.7657   86.9   0.979   -0.9  0.3196   23.1  0.4019  152.6
 4.500  0.7688   85.4   0.958   -2.6  0.3251   22.0  0.4092  151.1
 4.600  0.7712   84.1   0.940   -3.8  0.3296   20.8  0.4162  149.8
 4.700  0.7740   82.7   0.921   -5.0  0.3342   19.7  0.4235  148.4
 4.800  0.7772   81.4   0.904   -6.2  0.3390   18.5  0.4310  147.2
 4.900  0.7808   80.1   0.887   -7.5  0.3439   17.5  0.4386  146.0
 5.000  0.7848   78.8   0.870   -8.9  0.3489   16.4  0.4465  144.8
 5.100  0.7841   77.5   0.858  -10.0  0.3531   15.2  0.4538  143.9
 5.200  0.7838   76.2   0.846  -11.2  0.3574   14.0  0.4611  143.1
 5.300  0.7839   74.9   0.834  -12.4  0.3619   12.8  0.4686  142.3
 5.400  0.7845   73.6   0.823  -13.6  0.3665   11.7  0.4762  141.5
 5.500  0.7854   72.3   0.812  -14.9  0.3713   10.6  0.4838  140.7
 5.600  0.7846   71.1   0.800  -15.9  0.3750    9.5  0.4874  140.0
 5.700  0.7840   69.9   0.788  -16.9  0.3788    8.3  0.4911  139.2
 5.800  0.7839   68.8   0.776  -18.0  0.3828    7.2  0.4948  138.5
 5.900  0.7840   67.6   0.765  -19.1  0.3869    6.2  0.4987  137.8
 6.000  0.7845   66.4   0.754  -20.2  0.3911    5.1  0.5026  137.1
!
!  f       NFmin   Gammaopt  rn/50
! GHz       dB    MAG  ANG    -
 0.450      1.62  0.43 -173   0.06
 0.900      1.78  0.49 -160   0.08
 1.900      2.59  0.69 -131   0.35
 2.400      3.00  0.70 -118   0.75
!
! (c) 2017  Infineon Technologies AG, Munich