! Infineon Technologies  Discrete & RF Semiconductors
! BFP196
! VCE =  1.0 V,  IC = 0.10 A
! Common Emitter S-Parameters:                            Jan 2017
# GHz  S  MA  R  50
!  f         S11            S21            S12            S22
! GHz     MAG   ANG      MAG   ANG      MAG   ANG      MAG   ANG
 0.010  0.4189 -138.5  69.990  152.4  0.0052   64.9  0.5731  -48.9
 0.020  0.6342 -148.0  55.106  133.7  0.0085   50.0  0.5335  -84.6
 0.030  0.6793 -154.4  45.417  128.9  0.0098   49.0  0.4784  -99.1
 0.040  0.7318 -160.0  36.211  121.7  0.0111   48.2  0.4603 -116.1
 0.050  0.7903 -164.8  27.966  109.8  0.0124   47.6  0.4834 -132.8
 0.060  0.7962 -166.7  25.257  108.4  0.0133   49.5  0.4748 -137.3
 0.070  0.8029 -168.7  22.567  106.7  0.0142   51.2  0.4691 -141.9
 0.080  0.8106 -170.5  19.901  104.6  0.0151   52.7  0.4666 -146.6
 0.090  0.8191 -172.4  17.271  101.8  0.0160   54.0  0.4672 -151.3
 0.100  0.8284 -174.2  14.698   98.0  0.0169   55.2  0.4710 -156.0
 0.110  0.8296 -175.0  13.733   97.3  0.0179   56.3  0.4692 -157.7
 0.120  0.8309 -175.9  12.770   96.5  0.0189   57.4  0.4679 -159.4
 0.130  0.8324 -176.7  11.811   95.5  0.0199   58.3  0.4669 -161.1
 0.140  0.8341 -177.6  10.855   94.4  0.0209   59.1  0.4664 -162.9
 0.150  0.8360 -178.4   9.904   93.1  0.0219   59.9  0.4663 -164.6
 0.200  0.8383  179.0   7.445   89.5  0.0265   64.1  0.4664 -169.5
 0.250  0.8394  176.6   5.959   86.8  0.0321   66.3  0.4651 -172.5
 0.300  0.8341  174.7   4.973   84.6  0.0373   67.8  0.4644 -175.0
 0.350  0.8355  172.9   4.359   82.9  0.0429   68.9  0.4648 -176.6
 0.400  0.8377  171.2   3.751   80.6  0.0486   69.8  0.4655 -178.1
 0.450  0.8359  169.6   3.378   79.1  0.0541   69.5  0.4655 -179.4
 0.500  0.8347  168.0   3.008   77.2  0.0597   69.3  0.4658  179.4
 0.600  0.8369  165.1   2.524   73.9  0.0710   68.9  0.4691  177.3
 0.700  0.8362  162.4   2.175   71.0  0.0808   68.6  0.4678  175.4
 0.800  0.8370  159.5   1.916   67.7  0.0930   67.5  0.4703  173.9
 0.900  0.8346  156.7   1.712   64.8  0.1032   66.4  0.4723  172.5
 1.000  0.8377  154.0   1.559   61.9  0.1136   65.0  0.4756  170.9
 1.100  0.8391  151.3   1.432   59.2  0.1246   63.6  0.4772  169.6
 1.200  0.8385  148.5   1.324   56.4  0.1352   62.2  0.4786  168.2
 1.300  0.8394  145.8   1.236   53.8  0.1447   60.8  0.4824  167.0
 1.400  0.8404  143.1   1.165   51.0  0.1552   59.2  0.4867  165.7
 1.500  0.8425  140.5   1.096   48.5  0.1650   57.7  0.4904  164.4
 1.600  0.8447  137.8   1.041   45.8  0.1746   55.9  0.4934  163.4
 1.700  0.8453  135.1   0.994   43.3  0.1840   54.4  0.4986  162.4
 1.800  0.8490  132.4   0.952   40.7  0.1939   52.8  0.5034  161.2
 1.900  0.8497  129.8   0.910   38.6  0.2025   51.1  0.5071  160.1
 2.000  0.8472  127.3   0.874   36.0  0.2110   49.5  0.5113  159.2
 2.100  0.8485  124.7   0.842   33.9  0.2190   47.9  0.5162  158.1
 2.200  0.8514  122.2   0.811   31.6  0.2272   46.4  0.5212  157.0
 2.300  0.8509  120.0   0.787   29.7  0.2356   44.8  0.5247  156.2
 2.400  0.8517  117.8   0.764   27.7  0.2442   43.3  0.5283  155.4
 2.500  0.8515  115.6   0.742   25.9  0.2512   41.6  0.5335  154.4
 2.600  0.8525  113.4   0.720   24.0  0.2585   40.0  0.5389  153.4
 2.700  0.8531  111.3   0.702   22.3  0.2650   38.5  0.5415  152.4
 2.800  0.8547  109.3   0.685   20.5  0.2717   37.0  0.5442  151.5
 2.900  0.8544  107.2   0.670   19.0  0.2780   35.5  0.5480  150.3
 3.000  0.8552  105.2   0.655   17.4  0.2845   34.1  0.5520  149.1
 3.100  0.8539  103.4   0.643   16.0  0.2899   32.7  0.5535  147.9
 3.200  0.8534  101.6   0.632   14.6  0.2955   31.3  0.5552  146.7
 3.300  0.8537   99.8   0.621   13.1  0.3012   30.0  0.5571  145.5
 3.400  0.8550   98.0   0.610   11.6  0.3072   28.7  0.5594  144.3
 3.500  0.8570   96.2   0.600   10.0  0.3132   27.5  0.5618  143.1
 3.600  0.8560   94.6   0.591    8.8  0.3181   26.1  0.5646  141.8
 3.700  0.8556   93.0   0.583    7.6  0.3231   24.8  0.5676  140.5
 3.800  0.8559   91.5   0.575    6.3  0.3284   23.5  0.5709  139.3
 3.900  0.8569   89.9   0.567    5.0  0.3338   22.3  0.5745  138.0
 4.000  0.8585   88.3   0.560    3.7  0.3393   21.1  0.5784  136.8
 4.100  0.8561   86.9   0.554    2.6  0.3438   19.8  0.5824  135.4
 4.200  0.8542   85.4   0.548    1.6  0.3485   18.5  0.5867  134.1
 4.300  0.8529   83.9   0.543    0.5  0.3534   17.3  0.5913  132.8
 4.400  0.8522   82.5   0.537   -0.7  0.3584   16.1  0.5963  131.5
 4.500  0.8520   81.0   0.532   -1.8  0.3636   14.9  0.6015  130.2
 4.600  0.8519   79.8   0.527   -2.6  0.3675   13.7  0.6056  129.2
 4.700  0.8522   78.5   0.523   -3.4  0.3715   12.5  0.6100  128.1
 4.800  0.8530   77.3   0.518   -4.3  0.3757   11.3  0.6145  127.1
 4.900  0.8541   76.0   0.514   -5.1  0.3801   10.2  0.6193  126.1
 5.000  0.8556   74.8   0.510   -6.0  0.3846    9.1  0.6242  125.1
 5.100  0.8529   73.5   0.509   -6.9  0.3882    7.9  0.6282  124.4
 5.200  0.8506   72.3   0.507   -7.7  0.3920    6.7  0.6322  123.6
 5.300  0.8487   71.0   0.506   -8.6  0.3960    5.5  0.6364  122.9
 5.400  0.8472   69.7   0.505   -9.5  0.4001    4.4  0.6406  122.2
 5.500  0.8462   68.4   0.504  -10.4  0.4044    3.3  0.6450  121.5
 5.600  0.8438   67.3   0.502  -11.1  0.4076    2.2  0.6452  120.8
 5.700  0.8417   66.2   0.501  -11.8  0.4110    1.1  0.6454  120.1
 5.800  0.8400   65.1   0.499  -12.5  0.4145    0.1  0.6458  119.4
 5.900  0.8385   63.9   0.497  -13.2  0.4182   -1.0  0.6462  118.7
 6.000  0.8374   62.8   0.496  -13.9  0.4220   -2.0  0.6468  118.0
!
!  f       NFmin   Gammaopt  rn/50
! GHz       dB    MAG  ANG    -
 0.450      2.04  0.54 -169   0.07
 0.900      2.24  0.56 -156   0.12
 1.900      3.18  0.71 -128   0.52
 2.400      3.65  0.70 -115   1.08
!
! (c) 2017  Infineon Technologies AG, Munich