! Infineon Technologies  Discrete & RF Semiconductors
! BFP196
! VCE =  1.0 V,  IC =  10 mA
! Common Emitter S-Parameters:                            Jan 2017
# GHz  S  MA  R  50
!  f         S11            S21            S12            S22
! GHz     MAG   ANG      MAG   ANG      MAG   ANG      MAG   ANG
 0.010  0.6981  -15.2  30.178  172.7  0.0072   83.8  0.9876   -8.6
 0.020  0.7083  -29.5  29.886  165.5  0.0142   79.8  0.9594  -17.3
 0.030  0.6722  -41.8  28.231  159.7  0.0198   69.3  0.9058  -24.1
 0.040  0.6693  -54.7  26.896  153.3  0.0258   63.6  0.8664  -31.6
 0.050  0.7001  -67.2  25.932  146.3  0.0319   60.0  0.8432  -39.7
 0.060  0.6767  -75.1  24.363  143.1  0.0349   55.9  0.7907  -43.8
 0.070  0.6668  -83.4  22.881  139.5  0.0381   52.5  0.7428  -48.5
 0.080  0.6713  -91.8  21.502  135.4  0.0413   49.6  0.7005  -53.7
 0.090  0.6897  -99.9  20.249  130.7  0.0447   47.1  0.6648  -59.6
 0.100  0.7210 -107.4  19.146  125.5  0.0481   45.0  0.6369  -66.1
 0.110  0.7120 -111.8  18.134  123.6  0.0493   43.2  0.6052  -68.8
 0.120  0.7073 -116.2  17.144  121.5  0.0506   41.5  0.5751  -71.9
 0.130  0.7069 -120.7  16.180  119.1  0.0519   39.8  0.5468  -75.2
 0.140  0.7108 -125.2  15.248  116.4  0.0532   38.3  0.5205  -78.9
 0.150  0.7190 -129.6  14.353  113.4  0.0546   36.8  0.4966  -83.0
 0.200  0.7295 -143.2  11.347  105.6  0.0571   33.6  0.4137  -95.2
 0.250  0.7293 -152.7   9.295   99.7  0.0605   32.4  0.3592 -104.3
 0.300  0.7279 -159.2   7.848   95.7  0.0623   32.2  0.3236 -112.0
 0.350  0.7271 -163.9   6.910   92.8  0.0646   33.0  0.3018 -117.2
 0.400  0.7312 -168.6   5.996   89.0  0.0670   33.7  0.2829 -123.1
 0.450  0.7301 -172.1   5.406   86.7  0.0691   34.6  0.2722 -127.0
 0.500  0.7318 -175.6   4.827   83.9  0.0713   35.5  0.2628 -131.3
 0.600  0.7336  179.1   4.055   79.5  0.0763   37.7  0.2528 -137.8
 0.700  0.7343  174.7   3.485   75.7  0.0805   39.5  0.2466 -142.4
 0.800  0.7369  170.5   3.061   71.8  0.0868   41.9  0.2458 -146.0
 0.900  0.7359  166.7   2.725   68.4  0.0928   42.9  0.2476 -149.2
 1.000  0.7389  163.3   2.470   65.0  0.0984   44.1  0.2503 -152.2
 1.100  0.7427  159.9   2.253   61.9  0.1053   45.0  0.2540 -154.2
 1.200  0.7435  156.6   2.073   58.6  0.1114   45.5  0.2583 -156.3
 1.300  0.7464  153.6   1.923   55.7  0.1182   45.9  0.2654 -158.2
 1.400  0.7498  150.5   1.798   52.6  0.1256   46.2  0.2727 -160.3
 1.500  0.7533  147.7   1.681   49.8  0.1323   46.2  0.2806 -162.0
 1.600  0.7574  144.6   1.586   46.8  0.1392   46.1  0.2885 -163.2
 1.700  0.7601  141.8   1.501   44.0  0.1464   46.2  0.2981 -164.9
 1.800  0.7668  139.0   1.428   41.1  0.1542   45.7  0.3081 -166.5
 1.900  0.7705  136.2   1.355   38.7  0.1610   45.3  0.3175 -167.9
 2.000  0.7710  133.5   1.292   35.9  0.1685   44.7  0.3270 -169.2
 2.100  0.7739  130.7   1.234   33.5  0.1756   44.1  0.3371 -170.7
 2.200  0.7786  128.0   1.179   30.8  0.1827   43.6  0.3474 -172.2
 2.300  0.7808  125.7   1.133   28.6  0.1902   42.9  0.3579 -173.3
 2.400  0.7842  123.4   1.088   26.2  0.1978   42.2  0.3686 -174.4
 2.500  0.7874  121.0   1.047   24.1  0.2049   41.2  0.3792 -175.8
 2.600  0.7919  118.7   1.008   21.9  0.2120   40.2  0.3900 -177.1
 2.700  0.7952  116.5   0.973   20.0  0.2189   39.3  0.3992 -178.4
 2.800  0.7997  114.3   0.940   17.9  0.2258   38.5  0.4086 -179.7
 2.900  0.8024  112.2   0.910   16.1  0.2325   37.5  0.4170  178.7
 3.000  0.8061  110.1   0.880   14.2  0.2393   36.5  0.4258  177.2
 3.100  0.8070  108.1   0.856   12.7  0.2457   35.4  0.4327  175.5
 3.200  0.8088  106.2   0.833   11.1  0.2522   34.4  0.4400  173.9
 3.300  0.8115  104.2   0.811    9.5  0.2588   33.5  0.4476  172.4
 3.400  0.8152  102.3   0.789    7.7  0.2655   32.6  0.4555  170.9
 3.500  0.8198  100.4   0.768    5.9  0.2722   31.7  0.4637  169.4
 3.600  0.8205   98.7   0.751    4.6  0.2784   30.5  0.4703  167.6
 3.700  0.8219   97.0   0.734    3.3  0.2848   29.3  0.4774  165.8
 3.800  0.8240   95.3   0.717    2.0  0.2912   28.1  0.4850  164.0
 3.900  0.8269   93.7   0.701    0.5  0.2978   27.0  0.4930  162.3
 4.000  0.8304   92.0   0.685   -1.0  0.3045   26.0  0.5014  160.7
 4.100  0.8295   90.4   0.672   -2.1  0.3102   24.7  0.5087  158.8
 4.200  0.8293   88.9   0.659   -3.1  0.3161   23.5  0.5166  156.9
 4.300  0.8296   87.3   0.646   -4.3  0.3222   22.3  0.5250  155.1
 4.400  0.8306   85.8   0.634   -5.5  0.3283   21.2  0.5339  153.4
 4.500  0.8322   84.2   0.622   -6.7  0.3346   20.1  0.5433  151.7
 4.600  0.8329   82.9   0.612   -7.5  0.3398   18.9  0.5510  150.1
 4.700  0.8340   81.5   0.603   -8.3  0.3452   17.8  0.5591  148.5
 4.800  0.8356   80.2   0.593   -9.2  0.3508   16.6  0.5676  147.0
 4.900  0.8376   78.8   0.584  -10.1  0.3564   15.5  0.5764  145.5
 5.000  0.8401   77.5   0.575  -11.0  0.3622   14.5  0.5857  144.1
 5.100  0.8384   76.2   0.570  -11.7  0.3669   13.2  0.5931  142.9
 5.200  0.8371   74.8   0.565  -12.4  0.3718   12.0  0.6008  141.7
 5.300  0.8363   73.5   0.560  -13.2  0.3768   10.8  0.6087  140.6
 5.400  0.8359   72.1   0.555  -13.9  0.3820    9.6  0.6169  139.5
 5.500  0.8360   70.8   0.550  -14.7  0.3874    8.5  0.6253  138.4
 5.600  0.8341   69.6   0.545  -15.3  0.3914    7.3  0.6284  137.4
 5.700  0.8326   68.5   0.541  -15.9  0.3956    6.2  0.6316  136.4
 5.800  0.8314   67.3   0.537  -16.6  0.4000    5.1  0.6350  135.4
 5.900  0.8306   66.1   0.532  -17.2  0.4045    4.0  0.6387  134.4
 6.000  0.8301   64.9   0.528  -17.9  0.4091    2.9  0.6425  133.4
!
!  f       NFmin   Gammaopt  rn/50
! GHz       dB    MAG  ANG    -
 0.450      0.99  0.35  147   0.06
 0.900      1.29  0.50  174   0.05
 1.900      2.40  0.70 -139   0.25
 2.400      2.90  0.73 -123   0.68
!
! (c) 2017  Infineon Technologies AG, Munich