! Infineon Technologies  Discrete & RF Semiconductors
! BFP196
! VCE =  8.0 V,  IC =  50 mA
! Common Emitter S-Parameters:                            Jan 2017
# GHz  S  MA  R  50
!  f         S11            S21            S12            S22
! GHz     MAG   ANG      MAG   ANG      MAG   ANG      MAG   ANG
 0.010  0.3376  -32.8  78.161  168.0  0.0032   82.4  0.9487  -12.8
 0.020  0.3844  -60.7  74.759  157.5  0.0063   76.0  0.8935  -25.3
 0.030  0.3868  -79.6  67.398  151.1  0.0085   67.1  0.8056  -33.1
 0.040  0.4283  -96.5  61.086  143.2  0.0108   62.0  0.7360  -42.6
 0.050  0.4994 -109.5  56.178  133.7  0.0132   58.7  0.6904  -53.7
 0.060  0.5027 -116.6  51.703  131.1  0.0143   57.1  0.6348  -57.4
 0.070  0.5137 -123.5  47.356  128.0  0.0154   55.6  0.5824  -61.9
 0.080  0.5318 -130.1  43.177  124.3  0.0165   54.4  0.5341  -67.1
 0.090  0.5563 -136.1  39.217  119.8  0.0176   53.3  0.4912  -73.4
 0.100  0.5864 -141.6  35.552  114.3  0.0187   52.4  0.4552  -80.7
 0.110  0.5877 -144.5  33.402  112.9  0.0193   52.7  0.4302  -83.2
 0.120  0.5904 -147.4  31.275  111.3  0.0200   53.1  0.4060  -85.9
 0.130  0.5947 -150.2  29.174  109.5  0.0206   53.4  0.3829  -89.0
 0.140  0.6004 -153.1  27.108  107.4  0.0213   53.6  0.3611  -92.5
 0.150  0.6075 -155.8  25.083  105.0  0.0219   53.9  0.3408  -96.4
 0.200  0.6185 -163.5  19.231   99.3  0.0244   56.6  0.2822 -107.6
 0.250  0.6267 -169.0  15.535   95.1  0.0291   58.6  0.2465 -116.1
 0.300  0.6284 -173.0  13.015   92.2  0.0323   60.2  0.2241 -123.4
 0.350  0.6284 -176.1  11.434   90.1  0.0363   62.1  0.2115 -128.2
 0.400  0.6301 -179.1   9.873   87.3  0.0404   63.7  0.2005 -133.5
 0.450  0.6311  178.5   8.890   85.6  0.0445   64.4  0.1947 -137.1
 0.500  0.6332  176.2   7.917   83.5  0.0486   65.0  0.1897 -141.0
 0.600  0.6382  172.2   6.633   80.2  0.0575   65.8  0.1845 -147.0
 0.700  0.6380  168.8   5.687   77.3  0.0653   66.2  0.1807 -151.3
 0.800  0.6428  165.6   4.990   74.1  0.0742   66.0  0.1814 -154.6
 0.900  0.6430  162.3   4.431   71.4  0.0827   65.5  0.1835 -157.3
 1.000  0.6458  159.4   4.009   68.7  0.0909   64.8  0.1860 -160.2
 1.100  0.6508  156.3   3.654   66.1  0.0995   63.7  0.1883 -161.9
 1.200  0.6513  153.5   3.353   63.4  0.1078   63.0  0.1908 -163.9
 1.300  0.6543  150.6   3.105   60.9  0.1160   62.0  0.1964 -165.3
 1.400  0.6577  147.8   2.897   58.3  0.1246   61.0  0.2023 -167.1
 1.500  0.6621  145.1   2.703   55.8  0.1326   59.6  0.2077 -168.5
 1.600  0.6657  142.5   2.547   53.2  0.1409   58.5  0.2127 -169.5
 1.700  0.6671  139.8   2.404   50.8  0.1483   57.4  0.2208 -170.7
 1.800  0.6744  137.0   2.281   48.2  0.1565   56.1  0.2282 -172.0
 1.900  0.6794  134.5   2.163   46.0  0.1640   54.9  0.2353 -173.2
 2.000  0.6811  131.9   2.057   43.5  0.1717   53.5  0.2432 -174.0
 2.100  0.6850  129.4   1.963   41.3  0.1791   52.2  0.2510 -175.2
 2.200  0.6902  126.9   1.872   38.8  0.1866   51.0  0.2590 -176.4
 2.300  0.6930  124.6   1.797   36.7  0.1941   49.6  0.2666 -177.2
 2.400  0.6969  122.4   1.724   34.5  0.2018   48.3  0.2743 -177.9
 2.500  0.7011  120.2   1.657   32.5  0.2084   46.8  0.2830 -179.0
 2.600  0.7062  118.1   1.593   30.3  0.2151   45.4  0.2918  179.9
 2.700  0.7107  116.0   1.538   28.4  0.2214   44.1  0.2987  178.9
 2.800  0.7162  113.9   1.484   26.3  0.2278   42.9  0.3057  178.0
 2.900  0.7191  111.8   1.436   24.4  0.2339   41.6  0.3125  176.6
 3.000  0.7230  109.8   1.389   22.4  0.2401   40.3  0.3195  175.2
 3.100  0.7252  108.0   1.349   20.8  0.2458   39.0  0.3243  173.8
 3.200  0.7282  106.1   1.310   19.1  0.2517   37.8  0.3294  172.4
 3.300  0.7319  104.3   1.273   17.3  0.2576   36.6  0.3346  171.0
 3.400  0.7364  102.6   1.237   15.3  0.2637   35.5  0.3400  169.7
 3.500  0.7415  100.8   1.202   13.3  0.2698   34.4  0.3456  168.4
 3.600  0.7441   99.2   1.173   11.8  0.2750   33.1  0.3509  166.7
 3.700  0.7473   97.6   1.144   10.2  0.2804   31.8  0.3564  165.1
 3.800  0.7511   96.1   1.117    8.5  0.2859   30.6  0.3623  163.6
 3.900  0.7554   94.5   1.090    6.7  0.2915   29.4  0.3684  162.1
 4.000  0.7603   93.0   1.065    4.9  0.2972   28.3  0.3747  160.6
 4.100  0.7613   91.5   1.042    3.5  0.3023   27.0  0.3808  158.8
 4.200  0.7629   90.0   1.019    2.1  0.3075   25.8  0.3873  157.1
 4.300  0.7650   88.5   0.998    0.6  0.3128   24.6  0.3940  155.5
 4.400  0.7676   87.0   0.976   -1.0  0.3183   23.4  0.4011  153.9
 4.500  0.7707   85.5   0.956   -2.6  0.3239   22.3  0.4085  152.4
 4.600  0.7728   84.2   0.937   -3.8  0.3285   21.1  0.4157  151.0
 4.700  0.7753   82.8   0.919   -5.0  0.3333   19.9  0.4232  149.7
 4.800  0.7782   81.5   0.901   -6.3  0.3383   18.8  0.4308  148.4
 4.900  0.7816   80.2   0.883   -7.6  0.3433   17.7  0.4387  147.2
 5.000  0.7853   78.9   0.866   -9.0  0.3485   16.6  0.4468  146.0
 5.100  0.7849   77.6   0.854  -10.1  0.3526   15.4  0.4543  145.1
 5.200  0.7848   76.3   0.842  -11.3  0.3569   14.2  0.4620  144.2
 5.300  0.7851   75.1   0.830  -12.5  0.3613   13.0  0.4697  143.3
 5.400  0.7859   73.8   0.819  -13.7  0.3659   11.8  0.4776  142.5
 5.500  0.7870   72.5   0.808  -15.0  0.3706   10.7  0.4855  141.7
 5.600  0.7862   71.3   0.796  -16.0  0.3744    9.6  0.4892  140.9
 5.700  0.7858   70.2   0.784  -17.0  0.3782    8.5  0.4931  140.1
 5.800  0.7857   69.0   0.773  -18.0  0.3823    7.5  0.4970  139.4
 5.900  0.7859   67.9   0.762  -19.0  0.3864    6.4  0.5010  138.6
 6.000  0.7864   66.7   0.751  -20.1  0.3907    5.4  0.5051  137.9
!
!  f       NFmin   Gammaopt  rn/50
! GHz       dB    MAG  ANG    -
 0.450      1.45  0.40 -176   0.06
 0.900      1.60  0.47 -164   0.08
 1.900      2.42  0.68 -132   0.32
 2.400      2.82  0.70 -119   0.66
!
! (c) 2017  Infineon Technologies AG, Munich