! Infineon Technologies  Discrete & RF Semiconductors
! BFP196
! VCE =  7.0 V,  IC =  70 mA
! Common Emitter S-Parameters:                            Jan 2017
# GHz  S  MA  R  50
!  f         S11            S21            S12            S22
! GHz     MAG   ANG      MAG   ANG      MAG   ANG      MAG   ANG
 0.010  0.2514  -47.7  88.350  166.5  0.0031   78.7  0.9291  -14.8
 0.020  0.3353  -79.8  83.379  154.6  0.0054   73.9  0.8669  -29.3
 0.030  0.3628  -98.7  73.961  148.1  0.0075   64.4  0.7675  -37.6
 0.040  0.4224 -113.5  65.743  140.0  0.0097   59.2  0.6884  -48.0
 0.050  0.5028 -124.2  59.226  129.7  0.0120   55.9  0.6374  -60.6
 0.060  0.5114 -130.2  54.252  127.3  0.0128   55.9  0.5843  -64.5
 0.070  0.5253 -135.9  49.393  124.4  0.0137   55.9  0.5343  -69.1
 0.080  0.5441 -141.2  44.687  120.9  0.0145   56.0  0.4884  -74.6
 0.090  0.5674 -146.2  40.188  116.6  0.0154   56.0  0.4480  -81.1
 0.100  0.5945 -150.7  35.973  111.2  0.0162   56.0  0.4146  -88.9
 0.110  0.5969 -153.0  33.745  110.0  0.0169   56.1  0.3926  -91.5
 0.120  0.6002 -155.3  31.534  108.5  0.0177   56.2  0.3716  -94.5
 0.130  0.6045 -157.6  29.346  106.9  0.0184   56.3  0.3517  -97.8
 0.140  0.6097 -159.8  27.186  105.0  0.0192   56.3  0.3330 -101.4
 0.150  0.6158 -162.0  25.060  102.8  0.0199   56.4  0.3159 -105.5
 0.200  0.6265 -168.2  19.131   97.5  0.0232   59.9  0.2682 -117.3
 0.250  0.6335 -173.0  15.411   93.7  0.0276   62.1  0.2406 -125.7
 0.300  0.6335 -176.4  12.894   91.0  0.0316   64.4  0.2239 -133.1
 0.350  0.6356 -178.9  11.319   89.1  0.0362   66.0  0.2149 -137.7
 0.400  0.6390  178.6   9.762   86.5  0.0409   67.2  0.2074 -142.7
 0.450  0.6394  176.4   8.784   84.9  0.0449   67.6  0.2035 -146.0
 0.500  0.6408  174.2   7.816   82.8  0.0490   67.9  0.2003 -149.4
 0.600  0.6446  170.5   6.552   79.6  0.0583   68.1  0.1980 -154.7
 0.700  0.6452  167.4   5.616   76.8  0.0660   68.3  0.1959 -158.6
 0.800  0.6478  164.2   4.924   73.7  0.0759   68.1  0.1968 -161.4
 0.900  0.6484  161.2   4.375   71.0  0.0846   66.9  0.1996 -163.8
 1.000  0.6531  158.2   3.957   68.3  0.0925   66.2  0.2026 -166.2
 1.100  0.6562  155.4   3.607   65.8  0.1017   65.1  0.2051 -167.9
 1.200  0.6569  152.4   3.310   63.1  0.1098   64.0  0.2082 -169.5
 1.300  0.6605  149.8   3.064   60.6  0.1184   62.9  0.2129 -170.7
 1.400  0.6632  147.1   2.862   58.0  0.1275   61.8  0.2192 -172.4
 1.500  0.6682  144.5   2.670   55.6  0.1354   60.5  0.2248 -173.7
 1.600  0.6716  141.7   2.514   53.1  0.1441   59.1  0.2299 -174.4
 1.700  0.6739  139.1   2.374   50.6  0.1521   57.9  0.2372 -175.5
 1.800  0.6806  136.4   2.254   48.1  0.1602   56.4  0.2449 -176.8
 1.900  0.6836  133.9   2.136   45.9  0.1677   55.1  0.2512 -177.8
 2.000  0.6857  131.3   2.031   43.4  0.1754   53.7  0.2587 -178.5
 2.100  0.6898  128.7   1.939   41.2  0.1826   52.3  0.2663 -179.7
 2.200  0.6952  126.2   1.850   38.7  0.1899   51.0  0.2740  179.2
 2.300  0.6982  124.0   1.776   36.7  0.1976   49.6  0.2814  178.6
 2.400  0.7021  121.9   1.704   34.5  0.2054   48.3  0.2888  178.0
 2.500  0.7061  119.7   1.639   32.5  0.2122   46.8  0.2971  176.9
 2.600  0.7111  117.5   1.576   30.3  0.2192   45.4  0.3054  175.9
 2.700  0.7153  115.5   1.521   28.4  0.2255   44.0  0.3119  175.0
 2.800  0.7204  113.5   1.468   26.3  0.2320   42.6  0.3184  174.1
 2.900  0.7234  111.5   1.420   24.5  0.2380   41.3  0.3253  172.7
 3.000  0.7272  109.5   1.373   22.5  0.2441   40.0  0.3323  171.4
 3.100  0.7294  107.6   1.334   20.9  0.2497   38.7  0.3367  170.0
 3.200  0.7323  105.8   1.296   19.2  0.2555   37.4  0.3414  168.7
 3.300  0.7360  104.0   1.260   17.4  0.2614   36.2  0.3462  167.5
 3.400  0.7404  102.2   1.225   15.4  0.2674   35.0  0.3512  166.2
 3.500  0.7455  100.4   1.191   13.4  0.2735   33.9  0.3563  165.0
 3.600  0.7478   98.8   1.162   11.9  0.2787   32.6  0.3613  163.4
 3.700  0.7507   97.2   1.135   10.3  0.2841   31.3  0.3666  161.8
 3.800  0.7541   95.7   1.108    8.7  0.2897   30.0  0.3721  160.3
 3.900  0.7581   94.1   1.082    6.9  0.2953   28.8  0.3779  158.8
 4.000  0.7626   92.6   1.057    5.1  0.3011   27.7  0.3839  157.4
 4.100  0.7634   91.1   1.034    3.7  0.3060   26.4  0.3898  155.7
 4.200  0.7647   89.6   1.012    2.3  0.3111   25.1  0.3961  154.1
 4.300  0.7666   88.1   0.990    0.8  0.3163   23.9  0.4026  152.5
 4.400  0.7689   86.7   0.969   -0.8  0.3217   22.7  0.4095  151.0
 4.500  0.7718   85.2   0.949   -2.4  0.3272   21.6  0.4166  149.5
 4.600  0.7740   83.9   0.931   -3.6  0.3317   20.4  0.4235  148.2
 4.700  0.7766   82.6   0.912   -4.8  0.3364   19.3  0.4306  146.9
 4.800  0.7795   81.3   0.895   -6.1  0.3412   18.1  0.4380  145.7
 4.900  0.7829   80.0   0.878   -7.4  0.3461   17.1  0.4455  144.5
 5.000  0.7867   78.7   0.861   -8.8  0.3511   16.0  0.4532  143.4
 5.100  0.7861   77.4   0.849   -9.9  0.3551   14.8  0.4602  142.6
 5.200  0.7860   76.1   0.838  -11.1  0.3592   13.6  0.4673  141.7
 5.300  0.7863   74.8   0.827  -12.3  0.3635   12.4  0.4745  140.9
 5.400  0.7869   73.5   0.817  -13.5  0.3679   11.2  0.4818  140.2
 5.500  0.7880   72.2   0.807  -14.8  0.3725   10.1  0.4892  139.4
 5.600  0.7869   71.1   0.795  -15.8  0.3762    9.0  0.4926  138.7
 5.700  0.7862   69.9   0.784  -16.8  0.3799    7.9  0.4960  137.9
 5.800  0.7857   68.8   0.773  -17.8  0.3839    6.9  0.4995  137.2
 5.900  0.7856   67.6   0.762  -18.8  0.3879    5.8  0.5031  136.5
 6.000  0.7858   66.5   0.751  -19.9  0.3921    4.8  0.5068  135.8
!
!  f       NFmin   Gammaopt  rn/50
! GHz       dB    MAG  ANG    -
 0.450      1.68  0.46 -172   0.06
 0.900      1.84  0.50 -159   0.09
 1.900      2.66  0.69 -131   0.36
 2.400      3.05  0.70 -117   0.79
!
! (c) 2017  Infineon Technologies AG, Munich