! Infineon Technologies  Discrete & RF Semiconductors
! BFP196
! VCE =  10. V,  IC =  15 mA
! Common Emitter S-Parameters:                            Jan 2017
# GHz  S  MA  R  50
!  f         S11            S21            S12            S22
! GHz     MAG   ANG      MAG   ANG      MAG   ANG      MAG   ANG
 0.010  0.6579  -13.1  39.687  173.2  0.0042   81.2  0.9844   -6.5
 0.020  0.6676  -25.8  39.351  166.8  0.0084   79.7  0.9601  -13.1
 0.030  0.6368  -36.8  37.491  161.5  0.0118   72.0  0.9176  -18.3
 0.040  0.6311  -48.4  35.986  155.7  0.0153   67.8  0.8834  -24.0
 0.050  0.6511  -59.7  34.882  149.4  0.0189   65.2  0.8585  -30.1
 0.060  0.6282  -67.3  32.975  146.2  0.0209   61.5  0.8126  -33.3
 0.070  0.6172  -75.4  31.183  142.6  0.0229   58.4  0.7694  -36.8
 0.080  0.6186  -83.5  29.529  138.6  0.0250   55.8  0.7295  -40.7
 0.090  0.6323  -91.5  28.036  134.1  0.0271   53.7  0.6934  -45.1
 0.100  0.6577  -99.0  26.731  129.2  0.0293   51.8  0.6617  -49.9
 0.110  0.6475 -103.6  25.395  127.2  0.0303   50.1  0.6298  -51.8
 0.120  0.6416 -108.3  24.092  125.1  0.0314   48.6  0.5987  -53.9
 0.130  0.6400 -113.0  22.828  122.6  0.0324   47.1  0.5684  -56.2
 0.140  0.6428 -117.7  21.610  119.9  0.0335   45.8  0.5392  -58.7
 0.150  0.6499 -122.4  20.445  116.9  0.0346   44.5  0.5112  -61.6
 0.200  0.6546 -137.0  16.306  108.8  0.0375   42.1  0.4150  -69.1
 0.250  0.6526 -147.3  13.453  102.8  0.0405   41.0  0.3487  -74.1
 0.300  0.6519 -154.6  11.406   98.6  0.0430   41.4  0.3003  -78.2
 0.350  0.6493 -159.8  10.060   95.7  0.0452   43.0  0.2707  -80.7
 0.400  0.6519 -164.9   8.747   92.0  0.0474   44.4  0.2417  -83.9
 0.450  0.6516 -168.7   7.893   89.8  0.0501   45.6  0.2246  -86.0
 0.500  0.6542 -172.5   7.054   87.0  0.0528   46.6  0.2078  -88.5
 0.600  0.6571 -178.2   5.926   82.7  0.0588   48.5  0.1863  -92.6
 0.700  0.6579  177.1   5.093   79.1  0.0633   50.6  0.1714  -95.9
 0.800  0.6597  172.7   4.473   75.4  0.0702   52.6  0.1651  -99.1
 0.900  0.6613  168.6   3.979   72.2  0.0758   53.1  0.1606 -102.8
 1.000  0.6637  165.1   3.600   69.1  0.0825   54.1  0.1572 -106.2
 1.100  0.6678  161.6   3.284   66.1  0.0890   54.5  0.1579 -109.0
 1.200  0.6695  158.3   3.016   63.1  0.0954   54.5  0.1587 -112.2
 1.300  0.6725  155.2   2.790   60.3  0.1021   54.9  0.1623 -115.5
 1.400  0.6755  152.1   2.605   57.4  0.1088   54.9  0.1659 -119.0
 1.500  0.6811  149.2   2.430   54.7  0.1155   54.3  0.1707 -122.1
 1.600  0.6846  146.2   2.289   51.9  0.1225   54.2  0.1773 -124.8
 1.700  0.6870  143.3   2.160   49.3  0.1291   54.0  0.1845 -127.9
 1.800  0.6945  140.4   2.051   46.5  0.1364   53.3  0.1916 -130.9
 1.900  0.6991  137.6   1.945   44.1  0.1425   52.7  0.1993 -133.5
 2.000  0.7004  134.8   1.848   41.4  0.1498   52.0  0.2089 -136.0
 2.100  0.7050  132.1   1.763   39.0  0.1565   51.3  0.2174 -138.7
 2.200  0.7111  129.5   1.681   36.3  0.1633   50.6  0.2263 -141.1
 2.300  0.7148  127.1   1.612   34.1  0.1705   49.7  0.2367 -143.2
 2.400  0.7197  124.8   1.546   31.7  0.1777   48.9  0.2473 -145.1
 2.500  0.7240  122.5   1.484   29.6  0.1842   47.9  0.2574 -147.4
 2.600  0.7294  120.3   1.425   27.3  0.1908   46.9  0.2679 -149.5
 2.700  0.7332  118.1   1.375   25.2  0.1973   46.0  0.2774 -151.4
 2.800  0.7380  115.9   1.326   23.0  0.2038   45.1  0.2872 -153.1
 2.900  0.7429  113.8   1.280   21.1  0.2104   44.0  0.2955 -155.3
 3.000  0.7488  111.7   1.236   19.0  0.2170   42.9  0.3042 -157.3
 3.100  0.7508  109.7   1.199   17.4  0.2233   41.8  0.3110 -159.4
 3.200  0.7537  107.8   1.163   15.6  0.2297   40.8  0.3182 -161.5
 3.300  0.7575  105.9   1.129   13.8  0.2361   39.9  0.3257 -163.4
 3.400  0.7621  104.0   1.095   11.8  0.2426   39.0  0.3336 -165.2
 3.500  0.7675  102.1   1.063    9.7  0.2492   38.1  0.3419 -167.0
 3.600  0.7700  100.4   1.036    8.2  0.2553   36.9  0.3484 -169.3
 3.700  0.7733   98.7   1.009    6.6  0.2615   35.7  0.3555 -171.5
 3.800  0.7771   97.1   0.984    5.0  0.2677   34.6  0.3630 -173.6
 3.900  0.7816   95.4   0.959    3.2  0.2741   33.5  0.3710 -175.6
 4.000  0.7868   93.8   0.935    1.4  0.2806   32.5  0.3795 -177.5
 4.100  0.7872   92.2   0.913    0.1  0.2866   31.2  0.3867 -179.9
 4.200  0.7882   90.7   0.892   -1.3  0.2928   30.0  0.3946  177.8
 4.300  0.7898   89.1   0.871   -2.7  0.2991   28.8  0.4030  175.6
 4.400  0.7920   87.5   0.851   -4.2  0.3055   27.7  0.4121  173.4
 4.500  0.7948   86.0   0.831   -5.8  0.3120   26.6  0.4217  171.4
 4.600  0.7968   84.6   0.814   -6.9  0.3174   25.4  0.4305  169.4
 4.700  0.7993   83.3   0.797   -8.0  0.3230   24.2  0.4397  167.4
 4.800  0.8023   81.9   0.781   -9.2  0.3287   23.1  0.4495  165.6
 4.900  0.8057   80.5   0.765  -10.4  0.3345   22.0  0.4597  163.8
 5.000  0.8095   79.2   0.749  -11.7  0.3404   20.9  0.4703  162.1
 5.100  0.8089   77.9   0.737  -12.6  0.3455   19.6  0.4798  160.6
 5.200  0.8087   76.5   0.726  -13.6  0.3508   18.3  0.4896  159.1
 5.300  0.8089   75.2   0.715  -14.6  0.3562   17.1  0.4997  157.7
 5.400  0.8096   73.8   0.704  -15.6  0.3618   15.9  0.5101  156.4
 5.500  0.8107   72.5   0.693  -16.7  0.3675   14.8  0.5208  155.1
 5.600  0.8096   71.3   0.683  -17.5  0.3720   13.6  0.5264  153.9
 5.700  0.8088   70.1   0.673  -18.3  0.3766   12.4  0.5323  152.7
 5.800  0.8085   68.8   0.663  -19.2  0.3815   11.3  0.5383  151.5
 5.900  0.8084   67.6   0.653  -20.1  0.3864   10.2  0.5446  150.4
 6.000  0.8088   66.4   0.643  -21.0  0.3915    9.1  0.5511  149.3
!
!  f       NFmin   Gammaopt  rn/50
! GHz       dB    MAG  ANG    -
!
! noise parameter not available yet for this operation point!
!
! (c) 2017  Infineon Technologies AG, Munich