! Infineon Technologies  Discrete & RF Semiconductors
! BFP196
! VCE =  10. V,  IC =  55 mA
! Common Emitter S-Parameters:                            Jan 2017
# GHz  S  MA  R  50
!  f         S11            S21            S12            S22
! GHz     MAG   ANG      MAG   ANG      MAG   ANG      MAG   ANG
 0.010  0.3501  -31.5  79.033  167.9  0.0033   76.1  0.9327  -12.5
 0.020  0.3922  -58.8  75.675  157.6  0.0063   74.5  0.8826  -24.8
 0.030  0.3918  -77.5  68.239  151.2  0.0083   65.6  0.7957  -32.5
 0.040  0.4306  -94.4  61.857  143.3  0.0105   60.2  0.7262  -41.8
 0.050  0.4997 -107.6  56.884  133.9  0.0127   56.7  0.6796  -52.7
 0.060  0.5014 -114.9  52.364  131.3  0.0138   55.7  0.6252  -56.4
 0.070  0.5110 -122.0  47.976  128.1  0.0150   54.9  0.5737  -60.7
 0.080  0.5281 -128.7  43.759  124.4  0.0161   54.2  0.5262  -65.8
 0.090  0.5519 -134.9  39.768  119.9  0.0173   53.5  0.4837  -71.9
 0.100  0.5818 -140.6  36.077  114.4  0.0184   53.0  0.4477  -79.1
 0.110  0.5828 -143.5  33.900  113.0  0.0190   53.0  0.4228  -81.5
 0.120  0.5853 -146.5  31.746  111.4  0.0196   52.9  0.3987  -84.1
 0.130  0.5893 -149.4  29.619  109.6  0.0202   52.9  0.3755  -87.1
 0.140  0.5948 -152.2  27.527  107.5  0.0208   52.8  0.3535  -90.4
 0.150  0.6017 -155.0  25.477  105.1  0.0214   52.8  0.3328  -94.2
 0.200  0.6153 -162.9  19.539   99.4  0.0248   57.4  0.2736 -105.2
 0.250  0.6200 -168.7  15.793   95.2  0.0288   58.6  0.2371 -113.3
 0.300  0.6204 -172.7  13.227   92.3  0.0320   60.8  0.2140 -120.5
 0.350  0.6217 -175.8  11.619   90.2  0.0360   62.4  0.2011 -125.2
 0.400  0.6248 -178.8  10.032   87.4  0.0401   63.6  0.1897 -130.5
 0.450  0.6264  178.8   9.032   85.7  0.0443   64.5  0.1835 -134.3
 0.500  0.6290  176.5   8.042   83.6  0.0485   65.2  0.1781 -138.3
 0.600  0.6304  172.4   6.736   80.3  0.0568   65.8  0.1727 -144.3
 0.700  0.6327  169.2   5.780   77.4  0.0650   65.8  0.1690 -148.6
 0.800  0.6352  165.6   5.069   74.2  0.0740   66.2  0.1695 -151.9
 0.900  0.6348  162.4   4.502   71.4  0.0822   65.3  0.1714 -154.9
 1.000  0.6406  159.4   4.073   68.7  0.0901   65.0  0.1730 -157.6
 1.100  0.6431  156.5   3.713   66.2  0.0984   64.3  0.1756 -159.5
 1.200  0.6461  153.5   3.406   63.4  0.1067   62.9  0.1787 -161.4
 1.300  0.6472  150.8   3.153   60.9  0.1146   61.9  0.1843 -163.0
 1.400  0.6510  148.0   2.941   58.4  0.1231   61.2  0.1895 -164.9
 1.500  0.6557  145.3   2.746   55.9  0.1314   59.9  0.1953 -166.4
 1.600  0.6598  142.5   2.585   53.3  0.1398   58.7  0.2008 -167.2
 1.700  0.6636  139.8   2.441   50.9  0.1472   57.7  0.2090 -168.5
 1.800  0.6693  137.1   2.318   48.3  0.1554   56.3  0.2161 -169.9
 1.900  0.6722  134.6   2.198   46.1  0.1627   55.0  0.2231 -171.1
 2.000  0.6735  132.0   2.087   43.6  0.1703   53.6  0.2312 -171.9
 2.100  0.6786  129.4   1.991   41.4  0.1775   52.3  0.2392 -173.2
 2.200  0.6851  126.9   1.899   38.9  0.1848   51.1  0.2473 -174.4
 2.300  0.6885  124.7   1.823   36.8  0.1921   49.8  0.2550 -175.2
 2.400  0.6930  122.5   1.750   34.6  0.1995   48.5  0.2628 -175.9
 2.500  0.6966  120.3   1.682   32.6  0.2063   47.1  0.2716 -177.0
 2.600  0.7013  118.1   1.617   30.4  0.2132   45.8  0.2806 -178.1
 2.700  0.7058  116.0   1.560   28.4  0.2194   44.4  0.2877 -179.1
 2.800  0.7112  114.0   1.505   26.3  0.2258   43.1  0.2948  180.0
 2.900  0.7153  112.0   1.455   24.4  0.2319   41.8  0.3018  178.5
 3.000  0.7203  110.0   1.407   22.4  0.2382   40.6  0.3090  177.1
 3.100  0.7225  108.1   1.367   20.8  0.2439   39.3  0.3139  175.6
 3.200  0.7255  106.3   1.328   19.1  0.2496   38.1  0.3190  174.2
 3.300  0.7293  104.5   1.290   17.3  0.2555   36.9  0.3242  172.8
 3.400  0.7337  102.7   1.254   15.3  0.2615   35.8  0.3297  171.5
 3.500  0.7389  100.9   1.219   13.3  0.2676   34.7  0.3353  170.2
 3.600  0.7413   99.3   1.189   11.8  0.2729   33.4  0.3405  168.5
 3.700  0.7443   97.7   1.160   10.2  0.2784   32.1  0.3459  166.9
 3.800  0.7479   96.1   1.131    8.5  0.2840   30.9  0.3516  165.3
 3.900  0.7520   94.5   1.104    6.7  0.2898   29.7  0.3576  163.8
 4.000  0.7567   93.0   1.078    4.9  0.2956   28.6  0.3638  162.3
 4.100  0.7578   91.5   1.054    3.5  0.3006   27.3  0.3701  160.5
 4.200  0.7595   90.1   1.031    2.0  0.3058   26.0  0.3768  158.8
 4.300  0.7616   88.6   1.009    0.5  0.3111   24.8  0.3838  157.1
 4.400  0.7642   87.1   0.988   -1.1  0.3166   23.6  0.3911  155.5
 4.500  0.7673   85.7   0.967   -2.8  0.3222   22.5  0.3987  154.0
 4.600  0.7697   84.4   0.948   -4.0  0.3268   21.3  0.4060  152.6
 4.700  0.7724   83.0   0.929   -5.2  0.3315   20.2  0.4136  151.3
 4.800  0.7756   81.7   0.911   -6.4  0.3364   19.0  0.4213  150.0
 4.900  0.7792   80.4   0.893   -7.7  0.3414   18.0  0.4293  148.7
 5.000  0.7832   79.1   0.876   -9.1  0.3465   16.9  0.4375  147.5
 5.100  0.7824   77.8   0.863  -10.2  0.3507   15.7  0.4451  146.6
 5.200  0.7820   76.5   0.850  -11.4  0.3550   14.5  0.4528  145.6
 5.300  0.7820   75.1   0.838  -12.7  0.3594   13.3  0.4606  144.8
 5.400  0.7824   73.8   0.826  -13.9  0.3641   12.2  0.4686  143.9
 5.500  0.7833   72.5   0.815  -15.2  0.3688   11.1  0.4766  143.1
 5.600  0.7826   71.3   0.803  -16.2  0.3726   10.0  0.4806  142.3
 5.700  0.7823   70.1   0.791  -17.2  0.3765    8.9  0.4847  141.5
 5.800  0.7823   69.0   0.779  -18.2  0.3805    7.8  0.4888  140.8
 5.900  0.7826   67.8   0.768  -19.3  0.3847    6.7  0.4931  140.0
 6.000  0.7833   66.6   0.757  -20.4  0.3890    5.7  0.4974  139.3
!
!  f       NFmin   Gammaopt  rn/50
! GHz       dB    MAG  ANG    -
!
! noise parameter not available yet for this operation point!
!
! (c) 2017  Infineon Technologies AG, Munich