! Infineon Technologies  Discrete & RF Semiconductors
! BFP196
! VCE =  6.0 V,  IC =  60 mA
! Common Emitter S-Parameters:                            Jan 2017
# GHz  S  MA  R  50
!  f         S11            S21            S12            S22
! GHz     MAG   ANG      MAG   ANG      MAG   ANG      MAG   ANG
 0.010  0.2587  -45.6  84.889  166.9  0.0031   81.7  0.9384  -14.6
 0.020  0.3381  -77.5  80.518  155.2  0.0065   74.4  0.8799  -29.0
 0.030  0.3639  -96.4  71.622  148.8  0.0084   66.9  0.7808  -37.3
 0.040  0.4224 -111.5  63.879  140.6  0.0103   62.2  0.7025  -47.7
 0.050  0.5024 -122.3  57.754  130.5  0.0123   59.0  0.6525  -60.2
 0.060  0.5111 -128.5  52.951  128.0  0.0132   57.9  0.5984  -64.2
 0.070  0.5254 -134.3  48.267  125.1  0.0141   56.9  0.5477  -68.9
 0.080  0.5450 -139.9  43.737  121.5  0.0151   56.1  0.5014  -74.5
 0.090  0.5692 -145.0  39.417  117.1  0.0160   55.4  0.4610  -81.2
 0.100  0.5976 -149.6  35.383  111.7  0.0169   54.7  0.4280  -89.1
 0.110  0.6000 -152.0  33.195  110.4  0.0177   55.1  0.4056  -91.8
 0.120  0.6034 -154.4  31.025  109.0  0.0186   55.5  0.3842  -94.8
 0.130  0.6078 -156.7  28.878  107.4  0.0194   55.8  0.3639  -98.1
 0.140  0.6133 -159.0  26.759  105.4  0.0203   56.1  0.3450 -101.9
 0.150  0.6197 -161.3  24.674  103.2  0.0211   56.4  0.3278 -106.0
 0.200  0.6321 -167.7  18.844   97.8  0.0243   60.2  0.2797 -118.0
 0.250  0.6393 -172.5  15.188   93.9  0.0286   62.2  0.2519 -126.5
 0.300  0.6373 -176.0  12.715   91.2  0.0323   63.5  0.2348 -133.7
 0.350  0.6390 -178.7  11.161   89.2  0.0365   65.2  0.2255 -138.5
 0.400  0.6420  178.7   9.625   86.6  0.0407   66.6  0.2178 -143.6
 0.450  0.6435  176.5   8.665   85.0  0.0452   66.9  0.2140 -146.9
 0.500  0.6459  174.4   7.713   82.9  0.0498   67.1  0.2110 -150.3
 0.600  0.6490  170.7   6.462   79.7  0.0585   67.3  0.2090 -155.7
 0.700  0.6500  167.4   5.540   76.8  0.0669   67.5  0.2061 -159.5
 0.800  0.6525  164.3   4.857   73.7  0.0766   67.3  0.2078 -162.3
 0.900  0.6527  161.3   4.316   71.0  0.0847   66.6  0.2100 -164.7
 1.000  0.6568  158.5   3.904   68.4  0.0937   65.6  0.2129 -167.3
 1.100  0.6605  155.4   3.558   65.8  0.1022   65.0  0.2154 -168.9
 1.200  0.6621  152.5   3.265   63.1  0.1109   63.3  0.2189 -170.5
 1.300  0.6636  149.7   3.023   60.6  0.1190   62.4  0.2236 -171.8
 1.400  0.6678  147.2   2.822   58.0  0.1282   61.2  0.2293 -173.4
 1.500  0.6728  144.4   2.635   55.6  0.1364   60.0  0.2349 -174.7
 1.600  0.6749  141.8   2.481   53.0  0.1451   58.8  0.2398 -175.6
 1.700  0.6783  139.1   2.343   50.6  0.1531   57.4  0.2474 -176.6
 1.800  0.6852  136.3   2.225   48.0  0.1609   56.1  0.2548 -177.8
 1.900  0.6878  133.8   2.109   45.9  0.1686   54.6  0.2615 -178.9
 2.000  0.6887  131.4   2.004   43.4  0.1765   53.3  0.2686 -179.6
 2.100  0.6934  128.8   1.914   41.2  0.1840   51.9  0.2759  179.3
 2.200  0.6994  126.3   1.827   38.7  0.1917   50.6  0.2834  178.2
 2.300  0.7018  124.0   1.753   36.6  0.1990   49.2  0.2906  177.5
 2.400  0.7053  121.8   1.682   34.4  0.2065   47.9  0.2978  176.9
 2.500  0.7094  119.6   1.618   32.4  0.2134   46.5  0.3062  175.8
 2.600  0.7144  117.5   1.557   30.3  0.2204   45.1  0.3147  174.8
 2.700  0.7185  115.4   1.503   28.3  0.2268   43.7  0.3211  173.9
 2.800  0.7236  113.4   1.450   26.2  0.2333   42.4  0.3276  173.0
 2.900  0.7271  111.3   1.402   24.4  0.2395   41.0  0.3342  171.7
 3.000  0.7315  109.3   1.356   22.4  0.2458   39.7  0.3410  170.4
 3.100  0.7335  107.5   1.318   20.8  0.2514   38.4  0.3454  169.0
 3.200  0.7363  105.7   1.281   19.1  0.2571   37.1  0.3500  167.7
 3.300  0.7397  103.9   1.245   17.3  0.2629   35.9  0.3548  166.4
 3.400  0.7439  102.1   1.211   15.4  0.2689   34.7  0.3598  165.1
 3.500  0.7488  100.4   1.178   13.4  0.2749   33.6  0.3649  163.9
 3.600  0.7510   98.8   1.149   11.9  0.2801   32.3  0.3698  162.3
 3.700  0.7539   97.2   1.122   10.4  0.2855   31.0  0.3750  160.8
 3.800  0.7573   95.6   1.095    8.7  0.2909   29.7  0.3805  159.3
 3.900  0.7613   94.0   1.069    7.0  0.2966   28.5  0.3862  157.8
 4.000  0.7658   92.5   1.044    5.2  0.3023   27.4  0.3922  156.4
 4.100  0.7664   91.0   1.022    3.8  0.3072   26.1  0.3981  154.7
 4.200  0.7675   89.6   1.000    2.4  0.3123   24.8  0.4043  153.1
 4.300  0.7690   88.1   0.979    0.8  0.3175   23.6  0.4109  151.5
 4.400  0.7711   86.6   0.959   -0.7  0.3229   22.4  0.4178  150.0
 4.500  0.7737   85.2   0.939   -2.4  0.3284   21.3  0.4249  148.5
 4.600  0.7759   83.9   0.921   -3.6  0.3329   20.1  0.4317  147.2
 4.700  0.7785   82.5   0.904   -4.8  0.3375   18.9  0.4387  146.0
 4.800  0.7815   81.2   0.887   -6.0  0.3422   17.8  0.4459  144.8
 4.900  0.7849   79.9   0.870   -7.3  0.3471   16.7  0.4533  143.6
 5.000  0.7887   78.6   0.854   -8.7  0.3521   15.6  0.4609  142.5
 5.100  0.7881   77.3   0.843   -9.8  0.3562   14.4  0.4678  141.7
 5.200  0.7879   76.0   0.831  -11.0  0.3604   13.2  0.4749  140.8
 5.300  0.7881   74.7   0.821  -12.1  0.3648   12.0  0.4820  140.0
 5.400  0.7887   73.4   0.810  -13.4  0.3693   10.9  0.4893  139.3
 5.500  0.7897   72.1   0.800  -14.6  0.3740    9.8  0.4966  138.5
 5.600  0.7883   70.9   0.789  -15.6  0.3776    8.7  0.4999  137.7
 5.700  0.7872   69.8   0.777  -16.6  0.3814    7.6  0.5032  137.0
 5.800  0.7865   68.6   0.766  -17.6  0.3854    6.5  0.5067  136.2
 5.900  0.7860   67.5   0.755  -18.7  0.3894    5.4  0.5102  135.5
 6.000  0.7859   66.3   0.745  -19.8  0.3936    4.4  0.5138  134.8
!
!  f       NFmin   Gammaopt  rn/50
! GHz       dB    MAG  ANG    -
 0.450      1.56  0.41 -174   0.06
 0.900      1.72  0.48 -162   0.08
 1.900      2.54  0.68 -132   0.35
 2.400      2.93  0.70 -119   0.72
!
! (c) 2017  Infineon Technologies AG, Munich