! Infineon Technologies  Discrete & RF Semiconductors
! BFP196
! VCE =  1.0 V,  IC =  70 mA
! Common Emitter S-Parameters:                            Jan 2017
# GHz  S  MA  R  50
!  f         S11            S21            S12            S22
! GHz     MAG   ANG      MAG   ANG      MAG   ANG      MAG   ANG
 0.010  0.2762 -113.4  81.021  159.2  0.0048   71.1  0.8110  -29.8
 0.020  0.4732 -128.8  69.626  142.8  0.0080   61.4  0.7240  -55.6
 0.030  0.5306 -139.2  58.979  137.1  0.0098   55.3  0.6177  -67.8
 0.040  0.6021 -147.4  49.177  128.9  0.0116   51.1  0.5494  -83.9
 0.050  0.6831 -153.8  40.835  117.1  0.0135   48.0  0.5338 -102.7
 0.060  0.6931 -156.8  37.035  115.3  0.0144   49.2  0.5039 -108.2
 0.070  0.7050 -159.8  33.277  113.2  0.0153   50.3  0.4793 -114.3
 0.080  0.7186 -162.6  29.578  110.5  0.0162   51.3  0.4606 -121.0
 0.090  0.7340 -165.3  25.963  107.0  0.0171   52.1  0.4488 -128.2
 0.100  0.7509 -167.9  22.473  102.5  0.0180   52.9  0.4442 -135.6
 0.110  0.7524 -169.2  21.018  101.6  0.0188   54.1  0.4371 -138.3
 0.120  0.7542 -170.4  19.568  100.6  0.0197   55.1  0.4310 -141.1
 0.130  0.7564 -171.6  18.125   99.4  0.0206   56.1  0.4259 -143.9
 0.140  0.7589 -172.9  16.692   98.0  0.0214   57.0  0.4220 -146.8
 0.150  0.7618 -174.1  15.270   96.4  0.0223   57.8  0.4191 -149.8
 0.200  0.7673 -177.6  11.533   92.3  0.0264   62.2  0.4110 -157.8
 0.250  0.7711  179.3   9.241   89.2  0.0320   62.9  0.4053 -162.9
 0.300  0.7686  177.0   7.717   86.9  0.0365   64.8  0.4035 -166.8
 0.350  0.7688  175.1   6.765   85.1  0.0418   66.4  0.4027 -169.2
 0.400  0.7698  173.2   5.821   82.8  0.0472   67.7  0.4026 -171.7
 0.450  0.7697  171.5   5.239   81.3  0.0522   67.8  0.4024 -173.4
 0.500  0.7703  169.8   4.661   79.4  0.0573   67.8  0.4026 -175.1
 0.600  0.7731  166.7   3.904   76.2  0.0681   67.9  0.4056 -177.9
 0.700  0.7739  164.0   3.355   73.4  0.0779   67.8  0.4053  179.9
 0.800  0.7742  161.0   2.944   70.2  0.0889   67.2  0.4073  177.9
 0.900  0.7731  158.0   2.622   67.4  0.0990   65.6  0.4094  176.3
 1.000  0.7755  155.4   2.377   64.7  0.1089   64.7  0.4123  174.6
 1.100  0.7778  152.5   2.173   62.0  0.1199   63.5  0.4145  173.2
 1.200  0.7792  149.8   2.000   59.2  0.1293   62.2  0.4166  171.7
 1.300  0.7806  147.0   1.859   56.7  0.1388   60.7  0.4207  170.5
 1.400  0.7829  144.4   1.742   54.0  0.1491   59.4  0.4255  169.1
 1.500  0.7862  141.7   1.631   51.5  0.1585   57.7  0.4300  167.9
 1.600  0.7877  139.0   1.542   48.8  0.1677   56.3  0.4331  166.9
 1.700  0.7889  136.4   1.463   46.3  0.1775   54.9  0.4387  165.9
 1.800  0.7946  133.7   1.394   43.7  0.1860   53.3  0.4441  164.7
 1.900  0.7948  131.3   1.326   41.6  0.1944   51.7  0.4492  163.6
 2.000  0.7965  128.7   1.266   38.9  0.2033   50.1  0.4538  162.8
 2.100  0.7971  126.1   1.214   36.7  0.2112   48.5  0.4593  161.7
 2.200  0.7993  123.6   1.163   34.3  0.2192   47.1  0.4650  160.6
 2.300  0.8003  121.3   1.122   32.3  0.2272   45.5  0.4696  159.8
 2.400  0.8025  119.1   1.082   30.2  0.2354   44.0  0.4743  159.0
 2.500  0.8042  117.0   1.045   28.3  0.2425   42.4  0.4800  158.0
 2.600  0.8069  114.9   1.010   26.2  0.2497   40.9  0.4858  157.1
 2.700  0.8090  112.8   0.979   24.4  0.2563   39.4  0.4895  156.1
 2.800  0.8122  110.8   0.949   22.4  0.2631   38.0  0.4933  155.2
 2.900  0.8130  108.7   0.923   20.7  0.2694   36.5  0.4977  154.0
 3.000  0.8149  106.7   0.897   18.9  0.2759   35.1  0.5024  152.8
 3.100  0.8148  104.9   0.876   17.4  0.2813   33.7  0.5047  151.6
 3.200  0.8154  103.1   0.856   15.8  0.2869   32.4  0.5071  150.4
 3.300  0.8169  101.3   0.837   14.1  0.2926   31.1  0.5098  149.2
 3.400  0.8192   99.5   0.818   12.3  0.2984   29.9  0.5128  148.0
 3.500  0.8223   97.7   0.800   10.5  0.3044   28.7  0.5159  146.8
 3.600  0.8225   96.1   0.784    9.2  0.3094   27.3  0.5191  145.4
 3.700  0.8233   94.5   0.769    7.8  0.3146   26.0  0.5225  144.1
 3.800  0.8248   92.9   0.754    6.3  0.3199   24.7  0.5262  142.8
 3.900  0.8269   91.4   0.740    4.9  0.3254   23.5  0.5302  141.5
 4.000  0.8296   89.8   0.726    3.3  0.3310   22.3  0.5345  140.2
 4.100  0.8281   88.3   0.714    2.1  0.3356   21.0  0.5390  138.8
 4.200  0.8271   86.9   0.703    0.8  0.3404   19.7  0.5438  137.4
 4.300  0.8267   85.4   0.693   -0.5  0.3454   18.5  0.5489  136.1
 4.400  0.8268   84.0   0.682   -1.8  0.3505   17.3  0.5543  134.8
 4.500  0.8275   82.5   0.672   -3.2  0.3558   16.1  0.5600  133.5
 4.600  0.8281   81.2   0.663   -4.2  0.3599   14.9  0.5648  132.4
 4.700  0.8292   79.9   0.653   -5.2  0.3642   13.7  0.5698  131.4
 4.800  0.8306   78.6   0.644   -6.2  0.3686   12.6  0.5750  130.3
 4.900  0.8325   77.4   0.636   -7.2  0.3731   11.5  0.5804  129.3
 5.000  0.8348   76.1   0.627   -8.3  0.3778   10.4  0.5860  128.3
 5.100  0.8332   74.8   0.622   -9.3  0.3814    9.2  0.5906  127.6
 5.200  0.8320   73.5   0.618  -10.3  0.3852    8.0  0.5952  126.8
 5.300  0.8312   72.3   0.613  -11.3  0.3891    6.8  0.6000  126.1
 5.400  0.8308   71.0   0.609  -12.3  0.3932    5.7  0.6049  125.4
 5.500  0.8309   69.7   0.605  -13.3  0.3975    4.6  0.6098  124.7
 5.600  0.8284   68.6   0.600  -14.1  0.4008    3.5  0.6105  124.0
 5.700  0.8263   67.5   0.595  -14.9  0.4042    2.5  0.6114  123.3
 5.800  0.8244   66.4   0.590  -15.7  0.4078    1.4  0.6123  122.7
 5.900  0.8228   65.3   0.585  -16.6  0.4115    0.4  0.6133  122.0
 6.000  0.8216   64.2   0.580  -17.4  0.4153   -0.6  0.6144  121.3
!
!  f       NFmin   Gammaopt  rn/50
! GHz       dB    MAG  ANG    -
 0.450      1.68  0.46 -172   0.06
 0.900      1.84  0.50 -159   0.09
 1.900      2.66  0.69 -131   0.36
 2.400      3.05  0.70 -117   0.79
!
! (c) 2017  Infineon Technologies AG, Munich