! Infineon Technologies  Discrete & RF Semiconductors
! BFP196W
! VCE =  11. V,  IC =  25 mA
! Common Emitter S-Parameters:                            Jan 2017
# GHz  S  MA  R  50
!  f         S11            S21            S12            S22
! GHz     MAG   ANG      MAG   ANG      MAG   ANG      MAG   ANG
 0.010  0.5282  -18.6  55.244  172.5  0.0039   74.5  0.9510   -9.2
 0.020  0.5366  -38.9  53.363  164.2  0.0080   75.3  0.9207  -17.9
 0.030  0.5253  -53.8  50.148  158.4  0.0108   65.5  0.8650  -24.9
 0.040  0.5496  -68.3  47.519  151.8  0.0139   59.8  0.8239  -32.8
 0.050  0.6053  -80.9  45.579  144.6  0.0170   56.2  0.7998  -41.3
 0.060  0.5986  -89.2  42.619  141.5  0.0184   52.7  0.7472  -45.2
 0.070  0.6046  -97.6  39.801  138.0  0.0199   49.8  0.6986  -49.7
 0.080  0.6231 -105.6  37.156  133.9  0.0215   47.2  0.6549  -54.9
 0.090  0.6530 -113.0  34.724  129.3  0.0231   45.0  0.6173  -60.7
 0.100  0.6928 -119.7  32.553  124.0  0.0247   43.1  0.5868  -67.2
 0.110  0.6938 -123.7  30.799  122.3  0.0253   41.7  0.5564  -69.9
 0.120  0.6981 -127.7  29.076  120.3  0.0259   40.4  0.5273  -72.8
 0.130  0.7058 -131.6  27.390  118.2  0.0265   39.1  0.4998  -76.1
 0.140  0.7167 -135.4  25.750  115.7  0.0272   37.9  0.4741  -79.7
 0.150  0.7306 -139.1  24.163  112.9  0.0278   36.8  0.4505  -83.8
 0.200  0.7452 -150.0  18.885  105.7  0.0292   35.2  0.3727  -95.0
 0.250  0.7557 -157.5  15.432  100.7  0.0311   35.4  0.3216 -103.7
 0.300  0.7594 -162.7  12.981   97.1  0.0324   35.3  0.2892 -110.5
 0.350  0.7601 -166.4  11.428   94.8  0.0337   36.9  0.2688 -115.2
 0.400  0.7638 -170.0   9.900   91.7  0.0350   38.3  0.2505 -120.7
 0.450  0.7638 -172.6   8.921   89.9  0.0363   39.3  0.2403 -124.2
 0.500  0.7654 -175.2   7.952   87.7  0.0376   40.3  0.2311 -127.9
 0.600  0.7665 -179.1   6.658   84.2  0.0411   43.5  0.2211 -133.4
 0.700  0.7677  177.6   5.705   81.4  0.0438   46.6  0.2132 -137.3
 0.800  0.7716  174.5   5.004   78.4  0.0480   48.4  0.2111 -140.2
 0.900  0.7676  171.8   4.441   75.8  0.0517   49.5  0.2094 -142.6
 1.000  0.7715  169.4   4.013   73.3  0.0551   51.6  0.2089 -144.8
 1.100  0.7734  167.0   3.652   71.0  0.0591   52.1  0.2100 -146.4
 1.200  0.7738  164.8   3.349   68.4  0.0630   53.1  0.2111 -147.8
 1.300  0.7752  162.4   3.094   66.2  0.0671   53.5  0.2133 -149.1
 1.400  0.7771  160.5   2.886   63.9  0.0722   54.6  0.2165 -150.7
 1.500  0.7806  158.5   2.691   61.7  0.0756   54.3  0.2200 -151.9
 1.600  0.7834  156.5   2.532   59.5  0.0798   55.0  0.2234 -153.0
 1.700  0.7860  154.2   2.389   57.2  0.0838   54.9  0.2281 -154.2
 1.800  0.7885  152.3   2.267   54.9  0.0884   54.9  0.2331 -155.5
 1.900  0.7922  150.6   2.146   53.0  0.0924   55.1  0.2385 -156.7
 2.000  0.7932  148.6   2.037   50.7  0.0967   54.6  0.2439 -157.8
 2.100  0.7954  146.6   1.945   48.7  0.1010   54.3  0.2502 -159.1
 2.200  0.7986  144.7   1.855   46.4  0.1053   54.0  0.2566 -160.3
 2.300  0.8015  143.0   1.776   44.4  0.1095   53.6  0.2634 -161.4
 2.400  0.8051  141.3   1.700   42.3  0.1137   53.2  0.2702 -162.4
 2.500  0.8062  139.5   1.632   40.4  0.1177   52.7  0.2774 -163.5
 2.600  0.8081  137.8   1.565   38.4  0.1218   52.3  0.2847 -164.5
 2.700  0.8115  136.2   1.507   36.6  0.1260   51.8  0.2916 -165.6
 2.800  0.8156  134.6   1.450   34.7  0.1302   51.3  0.2986 -166.7
 2.900  0.8170  133.0   1.400   32.9  0.1342   50.6  0.3057 -167.9
 3.000  0.8191  131.4   1.351   31.0  0.1383   49.9  0.3129 -169.1
 3.100  0.8211  129.8   1.309   29.5  0.1423   49.3  0.3194 -170.4
 3.200  0.8237  128.3   1.268   27.8  0.1463   48.7  0.3261 -171.6
 3.300  0.8269  126.7   1.229   26.1  0.1503   48.1  0.3329 -172.8
 3.400  0.8307  125.2   1.190   24.3  0.1544   47.6  0.3399 -174.0
 3.500  0.8351  123.7   1.153   22.3  0.1584   47.1  0.3470 -175.1
 3.600  0.8364  122.3   1.121   20.9  0.1623   46.3  0.3542 -176.5
 3.700  0.8383  120.8   1.090   19.4  0.1663   45.6  0.3616 -177.9
 3.800  0.8406  119.4   1.060   17.8  0.1703   44.8  0.3691 -179.2
 3.900  0.8435  118.0   1.030   16.1  0.1743   44.2  0.3769  179.6
 4.000  0.8469  116.6   1.002   14.3  0.1784   43.5  0.3848  178.4
 4.100  0.8476  115.3   0.976   13.0  0.1821   42.6  0.3927  176.9
 4.200  0.8487  114.0   0.951   11.6  0.1858   41.8  0.4009  175.5
 4.300  0.8502  112.7   0.926   10.2  0.1896   41.0  0.4094  174.1
 4.400  0.8521  111.5   0.902    8.6  0.1934   40.2  0.4180  172.8
 4.500  0.8545  110.2   0.879    7.0  0.1972   39.5  0.4269  171.5
 4.600  0.8561  109.2   0.857    6.0  0.2008   38.7  0.4355  170.2
 4.700  0.8579  108.1   0.836    4.9  0.2043   38.0  0.4442  169.0
 4.800  0.8600  107.1   0.814    3.8  0.2080   37.3  0.4532  167.8
 4.900  0.8624  106.1   0.794    2.6  0.2116   36.7  0.4624  166.7
 5.000  0.8651  105.1   0.773    1.3  0.2153   36.0  0.4717  165.6
 5.100  0.8661  104.2   0.758    0.4  0.2189   35.2  0.4806  164.7
 5.200  0.8674  103.2   0.744   -0.6  0.2226   34.5  0.4896  163.8
 5.300  0.8689  102.3   0.730   -1.6  0.2264   33.8  0.4987  162.9
 5.400  0.8706  101.3   0.716   -2.7  0.2301   33.1  0.5079  162.1
 5.500  0.8726  100.4   0.702   -3.8  0.2339   32.4  0.5172  161.3
 5.600  0.8717   99.4   0.689   -4.6  0.2374   31.6  0.5233  160.5
 5.700  0.8710   98.5   0.675   -5.4  0.2409   30.8  0.5295  159.8
 5.800  0.8705   97.5   0.662   -6.3  0.2444   30.0  0.5357  159.1
 5.900  0.8704   96.6   0.649   -7.2  0.2481   29.2  0.5421  158.4
 6.000  0.8704   95.6   0.636   -8.1  0.2517   28.5  0.5485  157.7
!
!  f       NFmin   Gammaopt  rn/50
! GHz       dB    MAG  ANG    -
 0.450      1.07  0.43  175   0.05
 0.900      1.24  0.51 -179   0.06
 1.900      2.11  0.68 -152   0.12
 2.400      2.53  0.74 -146   0.21
!
! (c) 2017  Infineon Technologies AG, Munich