! Infineon Technologies  Discrete & RF Semiconductors
! BFP196W
! VCE =  1.0 V,  IC =  75 mA
! Common Emitter S-Parameters:                            Jan 2017
# GHz  S  MA  R  50
!  f         S11            S21            S12            S22
! GHz     MAG   ANG      MAG   ANG      MAG   ANG      MAG   ANG
 0.010  0.3212 -125.1  84.054  159.9  0.0045   70.4  0.8067  -32.0
 0.020  0.5341 -135.8  71.790  142.9  0.0073   60.9  0.7357  -59.2
 0.030  0.6015 -144.2  60.869  137.2  0.0087   51.3  0.6334  -72.5
 0.040  0.6792 -150.8  50.810  129.1  0.0104   44.5  0.5761  -89.5
 0.050  0.7640 -156.0  42.234  117.4  0.0121   39.6  0.5774 -108.3
 0.060  0.7746 -158.8  38.299  115.7  0.0125   40.0  0.5514 -113.8
 0.070  0.7870 -161.4  34.407  113.6  0.0130   40.4  0.5309 -119.7
 0.080  0.8011 -164.0  30.572  110.9  0.0134   40.8  0.5165 -126.1
 0.090  0.8167 -166.5  26.821  107.6  0.0139   41.2  0.5089 -132.7
 0.100  0.8338 -168.9  23.193  103.1  0.0143   41.5  0.5082 -139.5
 0.110  0.8370 -169.9  21.690  102.2  0.0147   42.2  0.5017 -142.1
 0.120  0.8404 -170.9  20.194  101.2  0.0151   42.8  0.4963 -144.7
 0.130  0.8440 -171.9  18.704  100.1  0.0155   43.4  0.4919 -147.3
 0.140  0.8480 -172.8  17.223   98.7  0.0159   44.0  0.4886 -150.1
 0.150  0.8521 -173.8  15.754   97.1  0.0163   44.5  0.4864 -152.8
 0.200  0.8526 -177.1  11.890   93.4  0.0178   50.3  0.4817 -159.6
 0.250  0.8553 -179.5   9.528   90.5  0.0212   51.9  0.4782 -164.0
 0.300  0.8563  178.8   7.940   88.5  0.0234   55.5  0.4752 -167.1
 0.350  0.8558  177.3   6.957   87.0  0.0259   57.8  0.4740 -169.1
 0.400  0.8559  175.7   5.980   84.9  0.0285   59.7  0.4734 -171.2
 0.450  0.8544  174.6   5.381   83.7  0.0316   61.5  0.4732 -172.6
 0.500  0.8532  173.4   4.785   82.1  0.0348   63.0  0.4733 -174.0
 0.600  0.8545  171.0   4.006   79.5  0.0405   64.0  0.4752 -176.2
 0.700  0.8532  169.0   3.432   77.2  0.0462   65.7  0.4731 -177.9
 0.800  0.8552  166.8   3.010   74.6  0.0526   66.2  0.4741 -179.2
 0.900  0.8541  164.9   2.673   72.4  0.0586   65.9  0.4749  179.6
 1.000  0.8559  163.0   2.421   70.1  0.0644   65.9  0.4756  178.1
 1.100  0.8567  161.1   2.211   68.0  0.0706   65.5  0.4758  177.1
 1.200  0.8564  159.0   2.031   65.6  0.0760   64.9  0.4760  176.1
 1.300  0.8560  157.2   1.881   63.6  0.0821   64.3  0.4779  175.1
 1.400  0.8567  155.4   1.761   61.4  0.0880   63.5  0.4799  173.9
 1.500  0.8604  153.6   1.645   59.3  0.0933   62.9  0.4814  172.8
 1.600  0.8640  151.7   1.552   57.0  0.0999   61.7  0.4830  171.8
 1.700  0.8645  149.7   1.471   54.9  0.1056   61.2  0.4865  170.8
 1.800  0.8668  147.8   1.400   52.6  0.1114   59.9  0.4890  169.7
 1.900  0.8675  146.2   1.330   50.9  0.1166   59.2  0.4917  168.7
 2.000  0.8673  144.3   1.266   48.5  0.1222   57.9  0.4945  167.9
 2.100  0.8679  142.4   1.212   46.5  0.1275   56.9  0.4983  166.8
 2.200  0.8694  140.6   1.160   44.4  0.1329   55.9  0.5023  165.8
 2.300  0.8710  138.9   1.115   42.5  0.1381   54.9  0.5053  164.9
 2.400  0.8733  137.3   1.071   40.5  0.1433   53.9  0.5085  164.0
 2.500  0.8730  135.7   1.031   38.7  0.1480   52.8  0.5127  163.1
 2.600  0.8734  134.1   0.993   36.8  0.1527   51.7  0.5170  162.2
 2.700  0.8749  132.4   0.959   35.2  0.1573   50.6  0.5195  161.3
 2.800  0.8771  130.8   0.926   33.4  0.1619   49.6  0.5222  160.4
 2.900  0.8771  129.2   0.897   31.8  0.1663   48.5  0.5267  159.4
 3.000  0.8778  127.7   0.868   30.1  0.1708   47.5  0.5313  158.5
 3.100  0.8783  126.2   0.845   28.7  0.1748   46.5  0.5338  157.5
 3.200  0.8795  124.7   0.822   27.2  0.1788   45.4  0.5364  156.6
 3.300  0.8812  123.2   0.800   25.7  0.1828   44.5  0.5392  155.6
 3.400  0.8836  121.7   0.779   24.0  0.1869   43.6  0.5421  154.6
 3.500  0.8865  120.2   0.758   22.3  0.1911   42.7  0.5452  153.7
 3.600  0.8861  118.8   0.740   21.0  0.1949   41.7  0.5491  152.8
 3.700  0.8862  117.4   0.723   19.7  0.1987   40.7  0.5532  151.8
 3.800  0.8869  116.1   0.706   18.3  0.2026   39.8  0.5574  150.9
 3.900  0.8880  114.7   0.690   16.8  0.2065   38.9  0.5617  150.0
 4.000  0.8897  113.3   0.674   15.3  0.2105   38.0  0.5662  149.1
 4.100  0.8890  112.1   0.660   14.2  0.2138   37.0  0.5713  148.1
 4.200  0.8888  110.8   0.646   13.1  0.2172   36.0  0.5766  147.1
 4.300  0.8890  109.6   0.632   11.9  0.2207   35.1  0.5821  146.1
 4.400  0.8896  108.3   0.619   10.6  0.2242   34.2  0.5878  145.1
 4.500  0.8906  107.1   0.606    9.3  0.2278   33.3  0.5936  144.2
 4.600  0.8908  106.2   0.595    8.5  0.2308   32.4  0.5984  143.4
 4.700  0.8913  105.2   0.583    7.6  0.2339   31.6  0.6033  142.5
 4.800  0.8920  104.3   0.572    6.7  0.2370   30.8  0.6083  141.7
 4.900  0.8930  103.3   0.561    5.8  0.2402   30.0  0.6134  140.9
 5.000  0.8942  102.4   0.550    4.8  0.2434   29.2  0.6187  140.1
 5.100  0.8944  101.5   0.543    4.0  0.2465   28.4  0.6233  139.5
 5.200  0.8948  100.6   0.536    3.2  0.2496   27.6  0.6280  139.0
 5.300  0.8955   99.7   0.530    2.3  0.2528   26.8  0.6327  138.5
 5.400  0.8963   98.8   0.523    1.5  0.2560   26.0  0.6375  137.9
 5.500  0.8974   97.9   0.517    0.6  0.2593   25.3  0.6423  137.4
 5.600  0.8957   96.9   0.510   -0.0  0.2622   24.4  0.6439  136.9
 5.700  0.8942   96.0   0.504   -0.7  0.2652   23.6  0.6455  136.5
 5.800  0.8930   95.0   0.498   -1.3  0.2683   22.8  0.6472  136.0
 5.900  0.8921   94.1   0.491   -2.0  0.2714   22.0  0.6489  135.6
 6.000  0.8914   93.1   0.485   -2.7  0.2745   21.2  0.6506  135.1
!
!  f       NFmin   Gammaopt  rn/50
! GHz       dB    MAG  ANG    -
 0.450      1.62  0.56 -175   0.06
 0.900      1.75  0.59 -169   0.07
 1.900      2.61  0.70 -148   0.19
 2.400      3.01  0.74 -143   0.31
!
! (c) 2017  Infineon Technologies AG, Munich