! Infineon Technologies  Discrete & RF Semiconductors
! BFP196W
! VCE =  8.0 V,  IC =  35 mA
! Common Emitter S-Parameters:                            Jan 2017
# GHz  S  MA  R  50
!  f         S11            S21            S12            S22
! GHz     MAG   ANG      MAG   ANG      MAG   ANG      MAG   ANG
 0.010  0.4039  -27.4  67.694  170.8  0.0034   78.3  0.9601  -11.7
 0.020  0.4373  -53.5  64.781  161.1  0.0071   73.3  0.9213  -22.6
 0.030  0.4461  -71.6  59.733  154.8  0.0097   64.8  0.8467  -30.8
 0.040  0.4956  -87.5  55.522  147.5  0.0124   60.0  0.7922  -40.2
 0.050  0.5754  -99.8  52.349  139.2  0.0151   56.9  0.7622  -50.8
 0.060  0.5800 -107.6  48.509  136.3  0.0161   53.4  0.7061  -55.1
 0.070  0.5951 -115.2  44.812  133.0  0.0172   50.4  0.6545  -60.1
 0.080  0.6201 -122.3  41.296  129.0  0.0183   47.7  0.6088  -65.9
 0.090  0.6537 -128.7  38.011  124.4  0.0195   45.4  0.5702  -72.5
 0.100  0.6948 -134.5  35.022  118.9  0.0207   43.3  0.5403  -80.0
 0.110  0.6987 -137.7  33.005  117.4  0.0211   42.3  0.5126  -82.9
 0.120  0.7048 -140.9  31.014  115.6  0.0215   41.3  0.4864  -86.2
 0.130  0.7130 -144.0  29.056  113.7  0.0219   40.4  0.4620  -89.9
 0.140  0.7232 -147.0  27.137  111.4  0.0224   39.5  0.4397  -93.9
 0.150  0.7354 -149.9  25.267  108.8  0.0228   38.6  0.4197  -98.3
 0.200  0.7497 -158.7  19.485  102.5  0.0238   38.2  0.3575 -110.3
 0.250  0.7610 -164.5  15.823   98.1  0.0264   39.6  0.3195 -119.6
 0.300  0.7618 -168.6  13.265   95.0  0.0276   42.0  0.2957 -126.6
 0.350  0.7646 -171.6  11.660   92.9  0.0291   43.6  0.2822 -131.4
 0.400  0.7695 -174.5  10.076   90.1  0.0307   45.1  0.2709 -136.6
 0.450  0.7681 -176.6   9.073   88.5  0.0328   46.5  0.2641 -140.0
 0.500  0.7678 -178.8   8.079   86.5  0.0349   47.8  0.2583 -143.5
 0.600  0.7713  177.8   6.759   83.4  0.0391   51.2  0.2528 -148.3
 0.700  0.7707  175.0   5.789   80.7  0.0424   53.5  0.2482 -151.8
 0.800  0.7739  172.2   5.076   77.9  0.0474   55.6  0.2471 -154.3
 0.900  0.7717  169.8   4.502   75.5  0.0514   56.4  0.2469 -156.5
 1.000  0.7748  167.4   4.071   73.1  0.0561   57.0  0.2465 -158.6
 1.100  0.7758  165.3   3.706   70.9  0.0605   57.7  0.2472 -159.8
 1.200  0.7772  163.1   3.398   68.5  0.0651   58.2  0.2482 -161.1
 1.300  0.7775  161.0   3.138   66.4  0.0689   58.5  0.2505 -162.3
 1.400  0.7803  159.0   2.929   64.1  0.0744   58.7  0.2532 -163.7
 1.500  0.7834  157.2   2.731   62.0  0.0788   58.7  0.2564 -164.9
 1.600  0.7866  155.1   2.569   59.8  0.0830   58.3  0.2586 -165.8
 1.700  0.7896  153.1   2.424   57.7  0.0878   58.2  0.2626 -166.8
 1.800  0.7909  151.2   2.302   55.4  0.0927   57.7  0.2674 -167.9
 1.900  0.7938  149.5   2.179   53.5  0.0970   57.4  0.2719 -168.9
 2.000  0.7944  147.6   2.069   51.3  0.1019   56.8  0.2766 -169.7
 2.100  0.7965  145.7   1.975   49.3  0.1064   56.2  0.2821 -170.8
 2.200  0.7994  143.8   1.884   47.1  0.1110   55.7  0.2877 -171.8
 2.300  0.8021  142.1   1.805   45.2  0.1154   55.0  0.2936 -172.7
 2.400  0.8055  140.4   1.728   43.1  0.1199   54.3  0.2995 -173.6
 2.500  0.8071  138.7   1.659   41.3  0.1241   53.7  0.3054 -174.5
 2.600  0.8093  137.1   1.592   39.3  0.1283   53.1  0.3114 -175.3
 2.700  0.8119  135.4   1.533   37.6  0.1324   52.3  0.3174 -176.3
 2.800  0.8151  133.8   1.476   35.7  0.1365   51.6  0.3235 -177.2
 2.900  0.8166  132.2   1.425   33.9  0.1409   50.8  0.3297 -178.2
 3.000  0.8188  130.6   1.375   32.0  0.1453   50.1  0.3360 -179.1
 3.100  0.8209  129.1   1.333   30.5  0.1493   49.3  0.3417  179.8
 3.200  0.8235  127.6   1.293   28.9  0.1533   48.6  0.3475  178.8
 3.300  0.8267  126.1   1.253   27.2  0.1574   47.9  0.3535  177.7
 3.400  0.8305  124.6   1.214   25.4  0.1614   47.2  0.3595  176.8
 3.500  0.8348  123.1   1.177   23.5  0.1655   46.6  0.3657  175.8
 3.600  0.8360  121.7   1.145   22.1  0.1693   45.7  0.3720  174.6
 3.700  0.8376  120.3   1.115   20.6  0.1731   44.9  0.3785  173.4
 3.800  0.8398  118.9   1.085   19.1  0.1770   44.1  0.3851  172.3
 3.900  0.8424  117.5   1.055   17.4  0.1809   43.3  0.3919  171.2
 4.000  0.8456  116.1   1.027   15.7  0.1848   42.6  0.3988  170.1
 4.100  0.8464  114.8   1.001   14.4  0.1883   41.7  0.4060  168.8
 4.200  0.8476  113.5   0.975   13.0  0.1919   40.8  0.4135  167.6
 4.300  0.8492  112.2   0.950   11.6  0.1955   40.0  0.4211  166.4
 4.400  0.8513  111.0   0.926   10.1  0.1992   39.2  0.4289  165.3
 4.500  0.8538  109.7   0.902    8.5  0.2029   38.4  0.4368  164.2
 4.600  0.8552  108.7   0.881    7.5  0.2063   37.6  0.4446  163.1
 4.700  0.8568  107.7   0.859    6.4  0.2098   36.9  0.4526  162.1
 4.800  0.8586  106.7   0.839    5.2  0.2132   36.2  0.4607  161.1
 4.900  0.8607  105.8   0.818    4.1  0.2168   35.5  0.4689  160.1
 5.000  0.8631  104.8   0.798    2.8  0.2203   34.8  0.4773  159.2
 5.100  0.8638  103.9   0.783    1.8  0.2237   34.0  0.4852  158.4
 5.200  0.8648  102.9   0.768    0.8  0.2272   33.3  0.4933  157.7
 5.300  0.8659  102.0   0.754   -0.2  0.2307   32.5  0.5014  157.0
 5.400  0.8674  101.0   0.740   -1.3  0.2342   31.8  0.5095  156.3
 5.500  0.8690  100.1   0.726   -2.4  0.2378   31.1  0.5178  155.6
 5.600  0.8684   99.2   0.713   -3.2  0.2410   30.2  0.5230  155.0
 5.700  0.8681   98.2   0.700   -4.1  0.2443   29.4  0.5282  154.4
 5.800  0.8679   97.3   0.687   -5.0  0.2477   28.6  0.5335  153.8
 5.900  0.8681   96.3   0.674   -5.9  0.2511   27.8  0.5388  153.3
 6.000  0.8684   95.4   0.662   -6.9  0.2545   27.0  0.5442  152.7
!
!  f       NFmin   Gammaopt  rn/50
! GHz       dB    MAG  ANG    -
 0.450      1.19  0.46  180   0.06
 0.900      1.33  0.53 -174   0.06
 1.900      2.17  0.68 -151   0.13
 2.400      2.57  0.73 -145   0.23
!
! (c) 2017  Infineon Technologies AG, Munich