! Infineon Technologies  Discrete & RF Semiconductors
! BFP196W
! VCE =  5.0 V,  IC =  80 mA
! Common Emitter S-Parameters:                            Jan 2017
# GHz  S  MA  R  50
!  f         S11            S21            S12            S22
! GHz     MAG   ANG      MAG   ANG      MAG   ANG      MAG   ANG
 0.010  0.2005  -85.9  94.802  166.6  0.0030   76.7  0.9143  -18.0
 0.020  0.3562 -107.9  87.439  153.6  0.0055   67.8  0.8556  -34.8
 0.030  0.4280 -121.8  77.258  147.1  0.0072   58.7  0.7507  -44.9
 0.040  0.5174 -131.3  68.366  138.7  0.0090   53.2  0.6761  -57.7
 0.050  0.6168 -137.9  61.327  128.2  0.0109   49.6  0.6422  -72.8
 0.060  0.6333 -142.5  56.061  125.9  0.0114   48.8  0.5923  -77.7
 0.070  0.6537 -146.9  50.905  123.1  0.0119   48.0  0.5475  -83.6
 0.080  0.6777 -150.9  45.897  119.7  0.0124   47.3  0.5094  -90.3
 0.090  0.7048 -154.7  41.088  115.5  0.0129   46.7  0.4794  -98.0
 0.100  0.7348 -158.2  36.560  110.2  0.0134   46.1  0.4591 -106.6
 0.110  0.7401 -159.9  34.279  109.0  0.0138   46.3  0.4415 -109.8
 0.120  0.7460 -161.6  32.013  107.7  0.0142   46.4  0.4254 -113.4
 0.130  0.7525 -163.2  29.767  106.2  0.0147   46.6  0.4110 -117.1
 0.140  0.7597 -164.8  27.545  104.5  0.0151   46.8  0.3986 -121.1
 0.150  0.7674 -166.4  25.354  102.4  0.0155   46.9  0.3882 -125.4
 0.200  0.7751 -171.3  19.253   97.4  0.0171   51.2  0.3586 -136.4
 0.250  0.7826 -174.7  15.485   94.0  0.0196   53.7  0.3421 -144.4
 0.300  0.7821 -177.2  12.941   91.6  0.0215   55.0  0.3322 -149.8
 0.350  0.7836 -179.1  11.354   89.9  0.0241   57.6  0.3272 -153.4
 0.400  0.7860  179.0   9.780   87.6  0.0268   59.6  0.3234 -157.0
 0.450  0.7856  177.4   8.801   86.3  0.0294   61.1  0.3210 -159.3
 0.500  0.7858  175.8   7.827   84.6  0.0320   62.4  0.3191 -161.7
 0.600  0.7865  173.3   6.544   81.8  0.0371   63.3  0.3186 -165.0
 0.700  0.7869  171.2   5.604   79.5  0.0416   65.4  0.3163 -167.4
 0.800  0.7889  168.8   4.910   76.9  0.0477   67.1  0.3164 -169.2
 0.900  0.7870  166.7   4.354   74.7  0.0528   65.7  0.3165 -170.9
 1.000  0.7893  164.7   3.939   72.5  0.0577   66.1  0.3177 -172.5
 1.100  0.7918  162.6   3.587   70.4  0.0633   66.2  0.3185 -173.5
 1.200  0.7919  160.6   3.288   68.2  0.0684   65.5  0.3190 -174.8
 1.300  0.7922  158.7   3.039   66.2  0.0733   65.0  0.3205 -175.8
 1.400  0.7932  156.9   2.839   64.0  0.0791   64.6  0.3228 -176.9
 1.500  0.7977  155.2   2.647   62.0  0.0842   63.9  0.3255 -177.9
 1.600  0.7988  153.2   2.491   59.9  0.0895   63.2  0.3271 -178.9
 1.700  0.8012  151.3   2.353   57.9  0.0947   62.7  0.3307 -179.9
 1.800  0.8044  149.4   2.233   55.6  0.0994   61.4  0.3336  179.2
 1.900  0.8059  147.8   2.116   53.9  0.1044   60.9  0.3375  178.3
 2.000  0.8081  145.9   2.011   51.7  0.1098   60.0  0.3417  177.5
 2.100  0.8095  144.0   1.920   49.7  0.1148   59.0  0.3461  176.6
 2.200  0.8117  142.2   1.832   47.5  0.1198   58.1  0.3506  175.7
 2.300  0.8136  140.6   1.756   45.7  0.1244   57.1  0.3553  174.8
 2.400  0.8162  139.0   1.682   43.7  0.1291   56.1  0.3600  174.0
 2.500  0.8172  137.3   1.615   41.9  0.1335   55.1  0.3647  173.2
 2.600  0.8189  135.7   1.549   40.0  0.1380   54.2  0.3694  172.5
 2.700  0.8215  134.1   1.493   38.3  0.1425   53.3  0.3741  171.6
 2.800  0.8248  132.5   1.438   36.5  0.1470   52.4  0.3788  170.8
 2.900  0.8264  130.9   1.389   34.8  0.1513   51.3  0.3838  169.9
 3.000  0.8287  129.4   1.341   33.0  0.1556   50.3  0.3888  169.1
 3.100  0.8301  127.9   1.301   31.6  0.1595   49.4  0.3931  168.1
 3.200  0.8320  126.4   1.263   30.0  0.1634   48.5  0.3976  167.2
 3.300  0.8345  124.9   1.225   28.4  0.1673   47.7  0.4021  166.3
 3.400  0.8376  123.5   1.188   26.6  0.1713   46.9  0.4068  165.4
 3.500  0.8412  122.0   1.153   24.8  0.1753   46.1  0.4115  164.5
 3.600  0.8422  120.6   1.123   23.4  0.1790   45.1  0.4165  163.4
 3.700  0.8436  119.2   1.093   22.0  0.1828   44.1  0.4217  162.4
 3.800  0.8455  117.8   1.064   20.4  0.1867   43.2  0.4270  161.4
 3.900  0.8480  116.5   1.035   18.8  0.1906   42.3  0.4324  160.5
 4.000  0.8509  115.1   1.008   17.1  0.1945   41.5  0.4379  159.5
 4.100  0.8512  113.9   0.984   15.8  0.1979   40.5  0.4440  158.4
 4.200  0.8519  112.7   0.960   14.5  0.2014   39.6  0.4502  157.4
 4.300  0.8530  111.4   0.936   13.1  0.2049   38.7  0.4566  156.4
 4.400  0.8545  110.2   0.913   11.6  0.2085   37.8  0.4631  155.4
 4.500  0.8564  109.0   0.891   10.1  0.2121   37.0  0.4697  154.4
 4.600  0.8576  108.0   0.871    9.1  0.2152   36.2  0.4761  153.5
 4.700  0.8591  107.0   0.851    8.1  0.2184   35.4  0.4827  152.7
 4.800  0.8609  106.0   0.831    7.0  0.2216   34.6  0.4893  151.8
 4.900  0.8629  105.0   0.812    5.8  0.2248   33.8  0.4961  151.0
 5.000  0.8652  104.0   0.793    4.6  0.2281   33.1  0.5029  150.2
 5.100  0.8658  103.1   0.780    3.6  0.2314   32.3  0.5093  149.6
 5.200  0.8667  102.2   0.766    2.7  0.2347   31.6  0.5157  149.0
 5.300  0.8677  101.3   0.753    1.6  0.2381   30.8  0.5221  148.5
 5.400  0.8690  100.4   0.741    0.6  0.2415   30.1  0.5286  147.9
 5.500  0.8705   99.5   0.728   -0.5  0.2450   29.4  0.5352  147.4
 5.600  0.8695   98.6   0.716   -1.3  0.2481   28.5  0.5387  146.9
 5.700  0.8686   97.6   0.704   -2.2  0.2512   27.7  0.5423  146.5
 5.800  0.8681   96.7   0.692   -3.1  0.2543   26.9  0.5460  146.0
 5.900  0.8677   95.7   0.680   -4.0  0.2575   26.1  0.5496  145.5
 6.000  0.8676   94.8   0.669   -5.0  0.2608   25.3  0.5533  145.1
!
!  f       NFmin   Gammaopt  rn/50
! GHz       dB    MAG  ANG    -
 0.450      1.68  0.56 -175   0.06
 0.900      1.80  0.59 -169   0.08
 1.900      2.67  0.70 -148   0.20
 2.400      3.09  0.74 -143   0.32
!
! (c) 2017  Infineon Technologies AG, Munich