! Infineon Technologies  Discrete & RF Semiconductors
! BFP196W
! VCE =  5.0 V,  IC =  40 mA
! Common Emitter S-Parameters:                            Jan 2017
# GHz  S  MA  R  50
!  f         S11            S21            S12            S22
! GHz     MAG   ANG      MAG   ANG      MAG   ANG      MAG   ANG
 0.010  0.3183  -38.0  73.665  169.6  0.0035   75.5  0.9544  -13.8
 0.020  0.3889  -68.6  70.077  158.8  0.0066   74.4  0.9074  -26.7
 0.030  0.4188  -87.6  63.666  152.4  0.0091   64.1  0.8215  -35.7
 0.040  0.4868 -102.7  58.227  144.6  0.0117   58.3  0.7604  -46.5
 0.050  0.5796 -113.6  54.053  135.5  0.0144   54.7  0.7302  -58.7
 0.060  0.5908 -120.5  49.814  132.8  0.0152   51.9  0.6743  -63.3
 0.070  0.6103 -127.0  45.706  129.6  0.0160   49.3  0.6235  -68.7
 0.080  0.6371 -133.1  41.767  125.8  0.0168   47.1  0.5792  -75.0
 0.090  0.6705 -138.6  38.051  121.2  0.0176   45.0  0.5429  -82.2
 0.100  0.7095 -143.6  34.628  115.7  0.0185   43.1  0.5164  -90.3
 0.110  0.7148 -146.2  32.569  114.3  0.0191   42.4  0.4919  -93.5
 0.120  0.7217 -148.8  30.532  112.7  0.0196   41.8  0.4692  -97.0
 0.130  0.7299 -151.4  28.521  110.9  0.0202   41.1  0.4483 -100.9
 0.140  0.7396 -153.9  26.544  108.8  0.0207   40.6  0.4297 -105.1
 0.150  0.7507 -156.3  24.607  106.4  0.0213   40.0  0.4137 -109.7
 0.200  0.7635 -163.5  18.865  100.6  0.0220   40.8  0.3657 -121.9
 0.250  0.7723 -168.5  15.257   96.5  0.0247   42.2  0.3370 -131.1
 0.300  0.7758 -172.1  12.768   93.7  0.0260   44.5  0.3198 -137.7
 0.350  0.7766 -174.7  11.213   91.7  0.0280   46.6  0.3103 -142.1
 0.400  0.7789 -177.2   9.676   89.1  0.0300   48.4  0.3027 -146.7
 0.450  0.7791 -179.0   8.711   87.6  0.0321   50.1  0.2981 -149.7
 0.500  0.7800  179.2   7.753   85.7  0.0343   51.6  0.2943 -152.7
 0.600  0.7807  176.0   6.485   82.7  0.0389   54.3  0.2918 -156.8
 0.700  0.7835  173.5   5.554   80.2  0.0430   56.9  0.2881 -160.0
 0.800  0.7845  170.9   4.869   77.4  0.0478   58.6  0.2878 -162.2
 0.900  0.7828  168.5   4.319   75.1  0.0522   58.9  0.2884 -164.1
 1.000  0.7861  166.4   3.905   72.8  0.0576   60.2  0.2875 -166.0
 1.100  0.7875  164.3   3.556   70.6  0.0621   60.1  0.2887 -167.3
 1.200  0.7871  162.1   3.260   68.2  0.0668   60.0  0.2895 -168.6
 1.300  0.7876  160.0   3.012   66.2  0.0716   60.0  0.2915 -169.7
 1.400  0.7909  158.2   2.812   63.9  0.0766   60.3  0.2941 -170.9
 1.500  0.7933  156.3   2.623   61.9  0.0816   59.8  0.2970 -172.1
 1.600  0.7965  154.4   2.468   59.7  0.0866   59.4  0.2993 -173.0
 1.700  0.7978  152.4   2.329   57.6  0.0918   59.6  0.3033 -174.0
 1.800  0.8012  150.4   2.212   55.3  0.0960   58.7  0.3071 -175.0
 1.900  0.8033  148.7   2.095   53.5  0.1011   58.2  0.3114 -175.9
 2.000  0.8052  146.9   1.991   51.3  0.1059   57.3  0.3154 -176.8
 2.100  0.8066  145.0   1.901   49.3  0.1106   56.6  0.3203 -177.8
 2.200  0.8088  143.1   1.813   47.0  0.1154   56.0  0.3253 -178.7
 2.300  0.8116  141.4   1.737   45.1  0.1201   55.2  0.3306 -179.6
 2.400  0.8152  139.7   1.664   43.1  0.1248   54.5  0.3359  179.6
 2.500  0.8161  138.0   1.597   41.3  0.1292   53.7  0.3415  178.7
 2.600  0.8176  136.4   1.532   39.4  0.1336   53.0  0.3471  177.9
 2.700  0.8206  134.8   1.477   37.6  0.1378   52.1  0.3524  177.0
 2.800  0.8242  133.2   1.423   35.7  0.1421   51.3  0.3577  176.2
 2.900  0.8249  131.6   1.374   34.0  0.1462   50.5  0.3634  175.3
 3.000  0.8263  130.1   1.326   32.2  0.1504   49.7  0.3692  174.4
 3.100  0.8281  128.6   1.286   30.7  0.1543   48.9  0.3742  173.4
 3.200  0.8305  127.1   1.247   29.1  0.1582   48.1  0.3794  172.4
 3.300  0.8334  125.6   1.209   27.5  0.1622   47.3  0.3846  171.4
 3.400  0.8369  124.1   1.173   25.7  0.1662   46.6  0.3899  170.5
 3.500  0.8410  122.6   1.137   23.8  0.1702   45.9  0.3954  169.6
 3.600  0.8418  121.2   1.107   22.4  0.1741   44.9  0.4012  168.5
 3.700  0.8432  119.8   1.078   21.0  0.1780   44.0  0.4072  167.4
 3.800  0.8451  118.4   1.049   19.4  0.1819   43.1  0.4133  166.3
 3.900  0.8474  117.0   1.021   17.8  0.1859   42.3  0.4196  165.3
 4.000  0.8503  115.6   0.994   16.1  0.1899   41.5  0.4260  164.3
 4.100  0.8509  114.3   0.969   14.8  0.1933   40.6  0.4326  163.1
 4.200  0.8519  113.1   0.945   13.5  0.1968   39.7  0.4394  162.0
 4.300  0.8533  111.8   0.921   12.1  0.2003   38.9  0.4464  160.9
 4.400  0.8552  110.6   0.898   10.6  0.2039   38.1  0.4535  159.8
 4.500  0.8574  109.3   0.875    9.0  0.2075   37.3  0.4608  158.8
 4.600  0.8588  108.3   0.855    8.0  0.2109   36.5  0.4680  157.8
 4.700  0.8604  107.3   0.834    6.9  0.2143   35.7  0.4754  156.9
 4.800  0.8623  106.3   0.815    5.8  0.2177   35.0  0.4829  156.0
 4.900  0.8645  105.4   0.795    4.6  0.2212   34.3  0.4905  155.1
 5.000  0.8669  104.4   0.776    3.4  0.2247   33.6  0.4982  154.3
 5.100  0.8678  103.5   0.763    2.5  0.2280   32.8  0.5054  153.6
 5.200  0.8689  102.6   0.750    1.5  0.2313   32.0  0.5127  153.0
 5.300  0.8702  101.6   0.737    0.5  0.2347   31.3  0.5200  152.3
 5.400  0.8718  100.7   0.724   -0.5  0.2381   30.5  0.5274  151.7
 5.500  0.8736   99.8   0.712   -1.6  0.2416   29.8  0.5349  151.1
 5.600  0.8721   98.9   0.699   -2.4  0.2448   29.0  0.5392  150.6
 5.700  0.8708   98.0   0.687   -3.3  0.2481   28.1  0.5436  150.0
 5.800  0.8697   97.0   0.675   -4.1  0.2514   27.3  0.5480  149.5
 5.900  0.8688   96.1   0.663   -5.1  0.2548   26.6  0.5525  149.0
 6.000  0.8682   95.2   0.651   -6.0  0.2582   25.8  0.5570  148.5
!
!  f       NFmin   Gammaopt  rn/50
! GHz       dB    MAG  ANG    -
 0.450      1.24  0.48 -179   0.06
 0.900      1.39  0.54 -173   0.06
 1.900      2.21  0.69 -150   0.14
 2.400      2.61  0.73 -145   0.23
!
! (c) 2017  Infineon Technologies AG, Munich