! Infineon Technologies  Discrete & RF Semiconductors
! BFP196W
! VCE =  7.0 V,  IC =  85 mA
! Common Emitter S-Parameters:                            Jan 2017
# GHz  S  MA  R  50
!  f         S11            S21            S12            S22
! GHz     MAG   ANG      MAG   ANG      MAG   ANG      MAG   ANG
 0.010  0.2111  -72.2  95.090  167.0  0.0030   77.0  0.9124  -16.8
 0.020  0.3540  -99.8  88.380  154.3  0.0055   67.7  0.8535  -32.7
 0.030  0.4182 -115.3  78.354  147.8  0.0072   59.0  0.7526  -42.4
 0.040  0.5040 -126.0  69.608  139.6  0.0091   53.7  0.6794  -54.7
 0.050  0.6024 -133.5  62.678  129.3  0.0110   50.2  0.6437  -69.1
 0.060  0.6180 -138.6  57.342  126.9  0.0115   48.8  0.5924  -73.8
 0.070  0.6383 -143.4  52.125  124.1  0.0120   47.5  0.5459  -79.4
 0.080  0.6628 -147.9  47.067  120.6  0.0125   46.3  0.5054  -85.9
 0.090  0.6911 -152.1  42.224  116.3  0.0131   45.2  0.4727  -93.5
 0.100  0.7227 -155.9  37.679  110.9  0.0136   44.2  0.4492 -102.0
 0.110  0.7280 -157.7  35.347  109.7  0.0140   44.6  0.4303 -105.2
 0.120  0.7340 -159.6  33.032  108.4  0.0145   45.0  0.4128 -108.7
 0.130  0.7407 -161.3  30.739  106.8  0.0149   45.3  0.3969 -112.4
 0.140  0.7481 -163.1  28.471  105.0  0.0154   45.7  0.3829 -116.5
 0.150  0.7562 -164.8  26.237  102.9  0.0158   46.0  0.3710 -120.8
 0.200  0.7641 -170.0  19.943   97.9  0.0167   50.0  0.3367 -132.1
 0.250  0.7726 -173.7  16.066   94.4  0.0195   51.4  0.3179 -140.4
 0.300  0.7741 -176.4  13.421   91.9  0.0211   54.9  0.3067 -146.1
 0.350  0.7750 -178.5  11.776   90.1  0.0237   57.5  0.3007 -149.9
 0.400  0.7768  179.5  10.145   87.8  0.0264   59.6  0.2960 -153.9
 0.450  0.7763  178.0   9.129   86.4  0.0288   61.1  0.2935 -156.3
 0.500  0.7764  176.5   8.120   84.7  0.0312   62.4  0.2916 -158.8
 0.600  0.7772  173.7   6.790   82.0  0.0362   62.9  0.2903 -162.3
 0.700  0.7799  171.6   5.813   79.7  0.0410   65.2  0.2877 -164.9
 0.800  0.7791  169.2   5.095   77.1  0.0465   66.3  0.2873 -166.7
 0.900  0.7781  167.0   4.518   74.8  0.0514   65.9  0.2885 -168.5
 1.000  0.7810  165.0   4.084   72.6  0.0566   65.9  0.2885 -170.1
 1.100  0.7850  163.0   3.719   70.5  0.0620   65.7  0.2899 -170.9
 1.200  0.7835  161.0   3.410   68.2  0.0670   65.2  0.2903 -172.2
 1.300  0.7827  159.1   3.150   66.2  0.0722   64.7  0.2919 -173.2
 1.400  0.7865  157.2   2.943   64.1  0.0776   64.6  0.2940 -174.4
 1.500  0.7897  155.4   2.744   62.0  0.0826   63.9  0.2972 -175.3
 1.600  0.7927  153.4   2.580   59.9  0.0873   63.2  0.2996 -176.3
 1.700  0.7932  151.5   2.437   57.8  0.0925   62.8  0.3025 -177.2
 1.800  0.7959  149.7   2.312   55.6  0.0981   61.6  0.3063 -178.1
 1.900  0.7992  148.0   2.190   53.9  0.1031   60.9  0.3106 -178.9
 2.000  0.8005  146.2   2.082   51.7  0.1075   60.1  0.3146 -179.7
 2.100  0.8019  144.3   1.988   49.7  0.1124   59.1  0.3189  179.3
 2.200  0.8042  142.5   1.896   47.6  0.1173   58.2  0.3232  178.4
 2.300  0.8064  140.8   1.817   45.7  0.1221   57.3  0.3283  177.6
 2.400  0.8093  139.2   1.740   43.7  0.1269   56.5  0.3335  176.8
 2.500  0.8102  137.6   1.671   41.9  0.1312   55.6  0.3385  176.1
 2.600  0.8118  136.0   1.603   40.0  0.1355   54.7  0.3436  175.4
 2.700  0.8144  134.3   1.544   38.3  0.1400   53.7  0.3486  174.5
 2.800  0.8177  132.7   1.486   36.4  0.1445   52.8  0.3537  173.6
 2.900  0.8188  131.2   1.435   34.7  0.1487   51.8  0.3588  172.7
 3.000  0.8205  129.7   1.386   32.9  0.1529   50.9  0.3639  171.9
 3.100  0.8223  128.2   1.345   31.4  0.1568   50.0  0.3686  171.0
 3.200  0.8246  126.7   1.304   29.9  0.1608   49.1  0.3733  170.0
 3.300  0.8275  125.2   1.265   28.2  0.1647   48.3  0.3782  169.1
 3.400  0.8310  123.8   1.227   26.5  0.1688   47.5  0.3832  168.3
 3.500  0.8350  122.3   1.190   24.6  0.1728   46.7  0.3882  167.4
 3.600  0.8363  120.9   1.159   23.2  0.1765   45.7  0.3936  166.3
 3.700  0.8380  119.5   1.128   21.8  0.1803   44.8  0.3991  165.3
 3.800  0.8403  118.1   1.098   20.2  0.1841   43.9  0.4047  164.3
 3.900  0.8430  116.7   1.069   18.6  0.1880   43.0  0.4104  163.3
 4.000  0.8463  115.3   1.041   16.9  0.1919   42.2  0.4163  162.3
 4.100  0.8467  114.1   1.015   15.6  0.1953   41.2  0.4225  161.2
 4.200  0.8475  112.8   0.990   14.3  0.1987   40.3  0.4288  160.1
 4.300  0.8487  111.6   0.965   12.9  0.2021   39.3  0.4353  159.1
 4.400  0.8503  110.3   0.941   11.4  0.2056   38.5  0.4419  158.1
 4.500  0.8523  109.1   0.917    9.8  0.2092   37.6  0.4487  157.1
 4.600  0.8535  108.1   0.896    8.8  0.2124   36.8  0.4556  156.2
 4.700  0.8549  107.1   0.875    7.7  0.2157   36.1  0.4626  155.3
 4.800  0.8566  106.1   0.855    6.6  0.2190   35.4  0.4697  154.4
 4.900  0.8586  105.2   0.835    5.4  0.2223   34.7  0.4770  153.6
 5.000  0.8608  104.2   0.815    4.2  0.2257   34.0  0.4843  152.8
 5.100  0.8618  103.3   0.801    3.2  0.2290   33.2  0.4911  152.2
 5.200  0.8631  102.4   0.787    2.2  0.2323   32.4  0.4980  151.6
 5.300  0.8645  101.5   0.773    1.2  0.2357   31.6  0.5049  151.1
 5.400  0.8662  100.6   0.759    0.1  0.2391   30.8  0.5119  150.5
 5.500  0.8681   99.7   0.746   -1.0  0.2425   30.1  0.5189  150.0
 5.600  0.8671   98.8   0.733   -1.9  0.2457   29.3  0.5229  149.5
 5.700  0.8664   97.8   0.720   -2.8  0.2489   28.4  0.5269  149.0
 5.800  0.8658   96.9   0.707   -3.7  0.2522   27.6  0.5310  148.5
 5.900  0.8656   95.9   0.694   -4.7  0.2555   26.9  0.5351  148.1
 6.000  0.8655   95.0   0.682   -5.7  0.2589   26.1  0.5393  147.6
!
!  f       NFmin   Gammaopt  rn/50
! GHz       dB    MAG  ANG    -
 0.450      1.73  0.57 -175   0.06
 0.900      1.87  0.60 -168   0.08
 1.900      2.74  0.70 -148   0.21
 2.400      3.15  0.74 -143   0.34
!
! (c) 2017  Infineon Technologies AG, Munich