! Infineon Technologies  Discrete & RF Semiconductors
! BFP196W
! VCE =  6.0 V,  IC =  75 mA
! Common Emitter S-Parameters:                            Jan 2017
# GHz  S  MA  R  50
!  f         S11            S21            S12            S22
! GHz     MAG   ANG      MAG   ANG      MAG   ANG      MAG   ANG
 0.010  0.2125  -70.7  92.812  167.2  0.0031   81.1  0.9224  -16.9
 0.020  0.3522  -98.6  86.398  154.7  0.0053   73.8  0.8645  -32.7
 0.030  0.4162 -114.4  76.703  148.2  0.0071   62.3  0.7634  -42.5
 0.040  0.5029 -125.4  68.265  140.0  0.0090   55.5  0.6907  -54.8
 0.050  0.6024 -133.0  61.606  129.7  0.0110   51.2  0.6559  -69.1
 0.060  0.6183 -138.1  56.394  127.3  0.0116   49.7  0.6042  -73.9
 0.070  0.6387 -142.9  51.299  124.4  0.0122   48.4  0.5575  -79.6
 0.080  0.6633 -147.3  46.360  121.0  0.0128   47.2  0.5172  -86.2
 0.090  0.6916 -151.4  41.634  116.7  0.0135   46.1  0.4850  -93.9
 0.100  0.7232 -155.2  37.201  111.3  0.0141   45.1  0.4625 -102.4
 0.110  0.7290 -157.1  34.902  110.1  0.0146   45.4  0.4432 -105.6
 0.120  0.7356 -159.0  32.620  108.7  0.0152   45.6  0.4254 -109.1
 0.130  0.7429 -160.9  30.361  107.1  0.0157   45.9  0.4093 -112.9
 0.140  0.7511 -162.7  28.128  105.3  0.0163   46.1  0.3952 -117.0
 0.150  0.7600 -164.5  25.930  103.1  0.0168   46.3  0.3832 -121.4
 0.200  0.7665 -169.8  19.731   98.1  0.0177   48.8  0.3494 -132.7
 0.250  0.7739 -173.4  15.879   94.5  0.0201   50.2  0.3308 -140.9
 0.300  0.7774 -176.3  13.274   92.0  0.0218   53.6  0.3193 -146.6
 0.350  0.7778 -178.3  11.649   90.2  0.0241   56.1  0.3133 -150.4
 0.400  0.7791  179.7  10.039   87.9  0.0264   58.2  0.3088 -154.4
 0.450  0.7788  178.1   9.034   86.5  0.0292   59.7  0.3060 -156.8
 0.500  0.7792  176.5   8.035   84.8  0.0321   60.9  0.3037 -159.3
 0.600  0.7808  173.9   6.715   82.1  0.0368   62.4  0.3027 -162.9
 0.700  0.7811  171.6   5.752   79.8  0.0415   64.5  0.3006 -165.5
 0.800  0.7832  169.1   5.039   77.1  0.0474   65.8  0.3007 -167.4
 0.900  0.7812  167.1   4.470   74.9  0.0521   65.0  0.3015 -169.1
 1.000  0.7842  165.0   4.042   72.7  0.0571   65.5  0.3012 -170.8
 1.100  0.7853  163.0   3.682   70.6  0.0625   65.4  0.3023 -171.8
 1.200  0.7874  160.9   3.374   68.3  0.0673   64.7  0.3032 -173.1
 1.300  0.7866  159.0   3.118   66.3  0.0725   64.6  0.3045 -174.0
 1.400  0.7881  157.2   2.911   64.2  0.0779   64.2  0.3068 -175.3
 1.500  0.7915  155.4   2.716   62.1  0.0832   63.4  0.3093 -176.2
 1.600  0.7952  153.3   2.554   60.0  0.0880   62.7  0.3115 -177.2
 1.700  0.7959  151.6   2.413   57.9  0.0935   62.3  0.3150 -178.2
 1.800  0.7985  149.6   2.289   55.7  0.0985   61.5  0.3185 -179.1
 1.900  0.8014  148.1   2.169   53.9  0.1032   60.7  0.3222 -180.0
 2.000  0.8026  146.1   2.060   51.7  0.1083   59.8  0.3262  179.2
 2.100  0.8036  144.2   1.968   49.8  0.1133   58.8  0.3308  178.3
 2.200  0.8054  142.4   1.878   47.7  0.1183   57.9  0.3355  177.4
 2.300  0.8086  140.7   1.799   45.8  0.1230   56.9  0.3403  176.6
 2.400  0.8124  139.1   1.722   43.8  0.1278   56.0  0.3451  175.8
 2.500  0.8129  137.5   1.654   42.0  0.1321   55.1  0.3499  175.0
 2.600  0.8141  135.9   1.588   40.1  0.1365   54.3  0.3548  174.2
 2.700  0.8167  134.3   1.529   38.4  0.1409   53.4  0.3597  173.3
 2.800  0.8200  132.7   1.472   36.6  0.1453   52.6  0.3647  172.5
 2.900  0.8211  131.1   1.422   34.9  0.1495   51.5  0.3697  171.6
 3.000  0.8228  129.6   1.373   33.1  0.1538   50.5  0.3747  170.8
 3.100  0.8245  128.1   1.332   31.6  0.1576   49.6  0.3792  169.8
 3.200  0.8269  126.6   1.293   30.1  0.1615   48.7  0.3838  168.9
 3.300  0.8297  125.1   1.254   28.4  0.1655   47.9  0.3885  168.0
 3.400  0.8331  123.7   1.216   26.7  0.1694   47.1  0.3933  167.1
 3.500  0.8371  122.2   1.180   24.8  0.1734   46.3  0.3982  166.2
 3.600  0.8380  120.8   1.149   23.4  0.1772   45.3  0.4035  165.1
 3.700  0.8394  119.4   1.118   22.0  0.1811   44.4  0.4089  164.1
 3.800  0.8413  118.0   1.088   20.4  0.1850   43.5  0.4145  163.1
 3.900  0.8436  116.7   1.059   18.8  0.1889   42.7  0.4202  162.1
 4.000  0.8465  115.3   1.031   17.1  0.1929   41.9  0.4260  161.1
 4.100  0.8471  114.1   1.006   15.8  0.1963   40.9  0.4322  160.0
 4.200  0.8481  112.8   0.981   14.5  0.1997   40.0  0.4385  158.9
 4.300  0.8496  111.6   0.957   13.1  0.2031   39.1  0.4449  157.9
 4.400  0.8514  110.3   0.933   11.6  0.2066   38.2  0.4516  156.9
 4.500  0.8536  109.1   0.910   10.0  0.2102   37.4  0.4583  155.9
 4.600  0.8551  108.1   0.889    9.0  0.2134   36.6  0.4650  155.0
 4.700  0.8568  107.1   0.869    7.9  0.2166   35.8  0.4718  154.1
 4.800  0.8587  106.1   0.849    6.7  0.2198   35.0  0.4786  153.3
 4.900  0.8609  105.2   0.829    5.5  0.2231   34.2  0.4856  152.5
 5.000  0.8634  104.2   0.810    4.3  0.2264   33.5  0.4927  151.7
 5.100  0.8639  103.3   0.796    3.4  0.2296   32.7  0.4994  151.1
 5.200  0.8646  102.4   0.782    2.4  0.2329   31.9  0.5061  150.5
 5.300  0.8655  101.5   0.768    1.3  0.2362   31.2  0.5129  150.0
 5.400  0.8667  100.6   0.754    0.3  0.2395   30.4  0.5197  149.4
 5.500  0.8680   99.7   0.741   -0.8  0.2429   29.7  0.5266  148.9
 5.600  0.8673   98.7   0.728   -1.6  0.2461   28.8  0.5304  148.4
 5.700  0.8669   97.8   0.716   -2.5  0.2493   28.0  0.5341  148.0
 5.800  0.8667   96.8   0.703   -3.4  0.2526   27.2  0.5380  147.5
 5.900  0.8667   95.9   0.691   -4.3  0.2560   26.4  0.5418  147.0
 6.000  0.8670   94.9   0.679   -5.3  0.2594   25.6  0.5457  146.6
!
!  f       NFmin   Gammaopt  rn/50
! GHz       dB    MAG  ANG    -
 0.450      1.62  0.56 -175   0.06
 0.900      1.75  0.59 -169   0.07
 1.900      2.61  0.70 -148   0.19
 2.400      3.01  0.74 -143   0.31
!
! (c) 2017  Infineon Technologies AG, Munich