! Infineon Technologies  Discrete & RF Semiconductors
! BFP196W
! VCE =  4.0 V,  IC =  70 mA
! Common Emitter S-Parameters:                            Jan 2017
# GHz  S  MA  R  50
!  f         S11            S21            S12            S22
! GHz     MAG   ANG      MAG   ANG      MAG   ANG      MAG   ANG
 0.010  0.2011  -85.4  91.693  166.8  0.0033   78.2  0.9213  -18.2
 0.020  0.3569 -108.1  84.726  153.8  0.0055   69.2  0.8633  -35.1
 0.030  0.4294 -121.8  74.923  147.3  0.0074   59.6  0.7584  -45.3
 0.040  0.5190 -131.2  66.363  139.0  0.0094   53.9  0.6847  -58.3
 0.050  0.6183 -137.7  59.584  128.5  0.0114   50.3  0.6529  -73.4
 0.060  0.6350 -142.3  54.466  126.2  0.0120   49.0  0.6027  -78.5
 0.070  0.6556 -146.6  49.456  123.4  0.0126   47.7  0.5580  -84.4
 0.080  0.6796 -150.6  44.590  120.0  0.0132   46.6  0.5203  -91.3
 0.090  0.7068 -154.4  39.922  115.7  0.0138   45.6  0.4912  -99.1
 0.100  0.7367 -157.8  35.528  110.4  0.0144   44.7  0.4722 -107.7
 0.110  0.7425 -159.5  33.321  109.2  0.0149   44.7  0.4546 -110.9
 0.120  0.7489 -161.3  31.129  107.9  0.0153   44.7  0.4386 -114.4
 0.130  0.7560 -162.9  28.957  106.4  0.0158   44.8  0.4243 -118.2
 0.140  0.7637 -164.6  26.810  104.6  0.0162   44.8  0.4119 -122.2
 0.150  0.7721 -166.2  24.692  102.5  0.0167   44.8  0.4017 -126.4
 0.200  0.7795 -171.1  18.762   97.5  0.0178   49.5  0.3739 -137.4
 0.250  0.7869 -174.7  15.090   94.1  0.0204   52.0  0.3573 -145.3
 0.300  0.7875 -177.0  12.606   91.7  0.0222   53.8  0.3479 -150.7
 0.350  0.7888 -179.1  11.059   89.9  0.0245   56.4  0.3432 -154.2
 0.400  0.7911  178.9   9.526   87.6  0.0269   58.5  0.3398 -157.8
 0.450  0.7907  177.5   8.574   86.3  0.0294   59.9  0.3371 -160.1
 0.500  0.7908  176.0   7.627   84.6  0.0319   61.1  0.3350 -162.5
 0.600  0.7915  173.4   6.378   81.8  0.0380   62.4  0.3349 -165.7
 0.700  0.7913  171.1   5.461   79.5  0.0423   65.3  0.3324 -168.2
 0.800  0.7928  168.7   4.785   76.9  0.0483   65.7  0.3326 -170.1
 0.900  0.7927  166.7   4.246   74.7  0.0531   65.3  0.3337 -171.7
 1.000  0.7945  164.7   3.838   72.5  0.0589   65.5  0.3336 -173.3
 1.100  0.7958  162.7   3.496   70.4  0.0640   65.2  0.3350 -174.4
 1.200  0.7967  160.7   3.205   68.2  0.0693   64.5  0.3354 -175.7
 1.300  0.7962  158.7   2.964   66.2  0.0746   64.6  0.3365 -176.7
 1.400  0.8001  156.8   2.768   64.0  0.0800   64.3  0.3393 -177.9
 1.500  0.8022  155.1   2.580   61.9  0.0851   63.4  0.3415 -178.9
 1.600  0.8049  153.2   2.430   59.8  0.0906   62.8  0.3435 -179.9
 1.700  0.8050  151.2   2.294   57.8  0.0953   62.0  0.3465  179.2
 1.800  0.8085  149.3   2.179   55.6  0.1009   61.0  0.3501  178.1
 1.900  0.8107  147.8   2.064   53.8  0.1056   60.5  0.3537  177.3
 2.000  0.8108  145.9   1.962   51.6  0.1109   59.4  0.3573  176.4
 2.100  0.8125  144.1   1.874   49.6  0.1158   58.4  0.3616  175.4
 2.200  0.8151  142.3   1.788   47.5  0.1207   57.5  0.3660  174.5
 2.300  0.8178  140.5   1.714   45.6  0.1255   56.6  0.3705  173.7
 2.400  0.8212  138.8   1.641   43.6  0.1304   55.7  0.3751  172.9
 2.500  0.8216  137.2   1.576   41.9  0.1348   54.7  0.3797  172.1
 2.600  0.8227  135.6   1.513   40.0  0.1392   53.8  0.3843  171.3
 2.700  0.8255  134.0   1.458   38.3  0.1438   52.8  0.3891  170.4
 2.800  0.8290  132.5   1.405   36.4  0.1484   51.9  0.3939  169.6
 2.900  0.8298  130.9   1.357   34.8  0.1524   50.9  0.3985  168.7
 3.000  0.8312  129.4   1.310   33.0  0.1565   49.9  0.4031  167.8
 3.100  0.8326  127.9   1.271   31.6  0.1605   49.0  0.4073  166.8
 3.200  0.8346  126.4   1.233   30.0  0.1645   48.1  0.4116  165.9
 3.300  0.8372  124.9   1.197   28.4  0.1686   47.2  0.4160  165.0
 3.400  0.8403  123.5   1.161   26.6  0.1727   46.4  0.4206  164.1
 3.500  0.8440  122.0   1.126   24.8  0.1768   45.6  0.4252  163.2
 3.600  0.8449  120.6   1.097   23.4  0.1805   44.6  0.4302  162.2
 3.700  0.8463  119.2   1.068   22.0  0.1842   43.7  0.4354  161.1
 3.800  0.8482  117.8   1.040   20.4  0.1880   42.8  0.4406  160.1
 3.900  0.8506  116.5   1.013   18.8  0.1918   41.9  0.4461  159.2
 4.000  0.8535  115.1   0.987   17.1  0.1957   41.1  0.4516  158.2
 4.100  0.8540  113.8   0.963   15.9  0.1991   40.1  0.4574  157.1
 4.200  0.8550  112.6   0.940   14.5  0.2026   39.2  0.4634  156.1
 4.300  0.8563  111.3   0.917   13.2  0.2062   38.2  0.4695  155.1
 4.400  0.8581  110.1   0.895   11.7  0.2098   37.4  0.4757  154.1
 4.500  0.8603  108.8   0.873   10.2  0.2134   36.5  0.4821  153.1
 4.600  0.8611  107.8   0.853    9.2  0.2165   35.7  0.4885  152.2
 4.700  0.8621  106.8   0.834    8.2  0.2197   34.9  0.4949  151.4
 4.800  0.8634  105.9   0.814    7.1  0.2229   34.2  0.5015  150.6
 4.900  0.8649  104.9   0.796    5.9  0.2261   33.4  0.5081  149.8
 5.000  0.8667  103.9   0.777    4.7  0.2294   32.7  0.5149  149.0
 5.100  0.8674  103.0   0.764    3.8  0.2326   31.9  0.5212  148.4
 5.200  0.8683  102.1   0.752    2.8  0.2358   31.1  0.5275  147.8
 5.300  0.8694  101.2   0.739    1.9  0.2390   30.3  0.5339  147.3
 5.400  0.8707  100.3   0.727    0.8  0.2424   29.5  0.5403  146.7
 5.500  0.8722   99.4   0.715   -0.2  0.2457   28.8  0.5468  146.2
 5.600  0.8711   98.5   0.703   -1.0  0.2488   28.0  0.5501  145.7
 5.700  0.8703   97.5   0.691   -1.9  0.2520   27.1  0.5533  145.3
 5.800  0.8696   96.6   0.680   -2.8  0.2552   26.3  0.5567  144.9
 5.900  0.8693   95.6   0.668   -3.7  0.2585   25.6  0.5600  144.4
 6.000  0.8691   94.7   0.657   -4.7  0.2618   24.8  0.5634  144.0
!
!  f       NFmin   Gammaopt  rn/50
! GHz       dB    MAG  ANG    -
 0.450      1.58  0.55 -175   0.06
 0.900      1.70  0.58 -169   0.07
 1.900      2.54  0.70 -148   0.18
 2.400      2.95  0.74 -143   0.30
!
! (c) 2017  Infineon Technologies AG, Munich