! Infineon Technologies  Discrete & RF Semiconductors
! BFP196W
! VCE =  2.0 V,  IC =  10 mA
! Common Emitter S-Parameters:                            Jan 2017
# GHz  S  MA  R  50
!  f         S11            S21            S12            S22
! GHz     MAG   ANG      MAG   ANG      MAG   ANG      MAG   ANG
 0.010  0.7022  -13.0  30.667  174.6  0.0060   84.3  0.9879   -7.4
 0.020  0.6963  -28.4  30.110  167.3  0.0121   80.9  0.9687  -14.4
 0.030  0.6746  -39.7  28.783  162.0  0.0170   71.1  0.9260  -20.5
 0.040  0.6802  -51.3  27.721  156.3  0.0223   65.9  0.8948  -27.1
 0.050  0.7124  -62.2  26.956  150.2  0.0276   62.6  0.8762  -34.1
 0.060  0.6934  -70.2  25.503  146.9  0.0303   57.9  0.8282  -37.9
 0.070  0.6886  -78.5  24.142  143.3  0.0331   53.9  0.7843  -42.2
 0.080  0.6982  -86.7  22.889  139.3  0.0361   50.6  0.7452  -46.9
 0.090  0.7216  -94.6  21.764  134.8  0.0391   47.8  0.7118  -52.1
 0.100  0.7576 -101.8  20.787  129.8  0.0423   45.4  0.6848  -57.8
 0.110  0.7522 -106.4  19.773  127.8  0.0436   43.2  0.6523  -60.4
 0.120  0.7518 -111.0  18.784  125.6  0.0450   41.1  0.6212  -63.3
 0.130  0.7563 -115.7  17.827  123.2  0.0465   39.1  0.5920  -66.5
 0.140  0.7656 -120.2  16.904  120.5  0.0480   37.2  0.5647  -70.0
 0.150  0.7796 -124.6  16.024  117.5  0.0495   35.5  0.5398  -73.9
 0.200  0.7882 -138.2  12.772  109.3  0.0524   30.2  0.4487  -84.7
 0.250  0.7949 -147.9  10.552  103.3  0.0550   27.0  0.3859  -93.0
 0.300  0.7974 -154.7   8.932   99.1  0.0556   25.2  0.3433  -99.6
 0.350  0.7974 -159.3   7.877   96.2  0.0565   24.7  0.3171 -104.1
 0.400  0.8025 -163.9   6.848   92.5  0.0575   24.3  0.2933 -109.4
 0.450  0.8013 -167.0   6.176   90.4  0.0582   24.1  0.2796 -112.7
 0.500  0.8025 -170.1   5.514   87.7  0.0589   23.9  0.2669 -116.4
 0.600  0.8043 -175.0   4.623   83.6  0.0603   24.9  0.2525 -121.9
 0.700  0.8023 -178.7   3.964   80.2  0.0616   25.9  0.2432 -125.8
 0.800  0.8068  177.8   3.479   76.7  0.0633   28.2  0.2408 -128.6
 0.900  0.8033  174.8   3.089   73.6  0.0650   29.1  0.2402 -131.4
 1.000  0.8082  172.0   2.792   70.7  0.0670   30.7  0.2405 -133.6
 1.100  0.8101  169.4   2.544   68.0  0.0690   32.6  0.2438 -135.2
 1.200  0.8102  166.8   2.332   65.1  0.0709   34.1  0.2467 -136.9
 1.300  0.8106  164.5   2.154   62.5  0.0729   35.0  0.2512 -138.5
 1.400  0.8157  162.3   2.010   59.9  0.0758   36.9  0.2570 -140.2
 1.500  0.8192  160.3   1.874   57.3  0.0779   37.9  0.2625 -141.8
 1.600  0.8217  158.1   1.763   54.7  0.0812   39.3  0.2690 -143.1
 1.700  0.8240  155.8   1.664   52.3  0.0841   40.4  0.2776 -144.7
 1.800  0.8285  153.7   1.580   49.8  0.0870   41.6  0.2845 -146.4
 1.900  0.8312  151.9   1.495   47.6  0.0902   42.2  0.2926 -147.8
 2.000  0.8325  149.7   1.421   45.0  0.0939   43.0  0.3002 -149.3
 2.100  0.8345  147.7   1.356   42.8  0.0975   43.6  0.3092 -150.9
 2.200  0.8375  145.7   1.294   40.3  0.1011   44.2  0.3185 -152.5
 2.300  0.8401  143.9   1.239   38.2  0.1048   44.5  0.3282 -153.9
 2.400  0.8436  142.1   1.186   35.9  0.1086   44.8  0.3380 -155.3
 2.500  0.8452  140.3   1.137   33.9  0.1122   45.1  0.3479 -156.9
 2.600  0.8477  138.5   1.089   31.8  0.1159   45.4  0.3580 -158.4
 2.700  0.8507  136.7   1.049   29.9  0.1199   45.5  0.3673 -159.8
 2.800  0.8544  135.0   1.010   27.8  0.1239   45.6  0.3768 -161.2
 2.900  0.8555  133.3   0.974   25.9  0.1281   45.4  0.3860 -162.8
 3.000  0.8573  131.7   0.939   23.9  0.1324   45.2  0.3956 -164.4
 3.100  0.8587  130.1   0.909   22.4  0.1367   45.0  0.4042 -166.0
 3.200  0.8608  128.5   0.880   20.8  0.1409   44.7  0.4132 -167.6
 3.300  0.8636  126.9   0.851   19.1  0.1452   44.5  0.4224 -169.1
 3.400  0.8670  125.4   0.824   17.3  0.1494   44.3  0.4319 -170.5
 3.500  0.8711  123.8   0.797   15.3  0.1537   44.1  0.4417 -171.9
 3.600  0.8721  122.3   0.774   14.0  0.1580   43.5  0.4503 -173.6
 3.700  0.8737  120.8   0.752   12.6  0.1624   43.0  0.4594 -175.3
 3.800  0.8759  119.3   0.731   11.2  0.1667   42.5  0.4687 -176.8
 3.900  0.8787  117.9   0.710    9.6  0.1711   42.0  0.4785 -178.3
 4.000  0.8821  116.4   0.689    8.0  0.1755   41.5  0.4885 -179.8
 4.100  0.8819  115.1   0.671    6.9  0.1798   40.7  0.4973  178.4
 4.200  0.8821  113.7   0.653    5.7  0.1841   40.0  0.5066  176.7
 4.300  0.8828  112.4   0.635    4.4  0.1885   39.3  0.5164  175.1
 4.400  0.8840  111.0   0.618    3.1  0.1929   38.6  0.5265  173.5
 4.500  0.8857  109.7   0.601    1.7  0.1973   38.0  0.5370  172.0
 4.600  0.8865  108.7   0.586    0.9  0.2013   37.3  0.5460  170.5
 4.700  0.8876  107.7   0.571    0.1  0.2053   36.6  0.5554  169.0
 4.800  0.8889  106.6   0.556   -0.7  0.2093   35.9  0.5652  167.5
 4.900  0.8906  105.6   0.542   -1.6  0.2134   35.3  0.5753  166.1
 5.000  0.8925  104.6   0.527   -2.6  0.2175   34.7  0.5857  164.8
 5.100  0.8931  103.6   0.518   -3.2  0.2216   33.9  0.5947  163.6
 5.200  0.8940  102.7   0.508   -3.8  0.2258   33.1  0.6039  162.5
 5.300  0.8952  101.7   0.499   -4.4  0.2300   32.3  0.6134  161.3
 5.400  0.8966  100.8   0.490   -5.0  0.2343   31.6  0.6231  160.3
 5.500  0.8982   99.8   0.481   -5.7  0.2386   30.9  0.6330  159.2
 5.600  0.8965   98.8   0.473   -6.1  0.2424   30.0  0.6385  158.2
 5.700  0.8951   97.8   0.465   -6.5  0.2463   29.2  0.6442  157.3
 5.800  0.8939   96.9   0.456   -7.0  0.2503   28.4  0.6500  156.4
 5.900  0.8930   95.9   0.448   -7.4  0.2543   27.6  0.6560  155.5
 6.000  0.8923   94.9   0.440   -7.9  0.2583   26.8  0.6622  154.6
!
!  f       NFmin   Gammaopt  rn/50
! GHz       dB    MAG  ANG    -
 0.450      0.91  0.36  146   0.06
 0.900      1.19  0.53  168   0.05
 1.900      2.27  0.71 -158   0.10
 2.400      2.77  0.76 -149   0.22
!
! (c) 2017  Infineon Technologies AG, Munich