! Infineon Technologies  Discrete & RF Semiconductors
! BFP196W
! VCE =  5.0 V,  IC =  75 mA
! Common Emitter S-Parameters:                            Jan 2017
# GHz  S  MA  R  50
!  f         S11            S21            S12            S22
! GHz     MAG   ANG      MAG   ANG      MAG   ANG      MAG   ANG
 0.010  0.2029  -80.3  93.287  166.9  0.0029   81.1  0.9204  -17.6
 0.020  0.3531 -105.1  86.382  154.0  0.0056   66.5  0.8580  -34.1
 0.030  0.4232 -119.5  76.474  147.5  0.0074   57.4  0.7556  -44.2
 0.040  0.5120 -129.3  67.829  139.2  0.0094   51.9  0.6830  -56.8
 0.050  0.6112 -136.1  60.987  128.8  0.0114   48.4  0.6503  -71.6
 0.060  0.6277 -140.9  55.773  126.5  0.0119   47.3  0.5996  -76.5
 0.070  0.6483 -145.4  50.671  123.6  0.0124   46.4  0.5542  -82.3
 0.080  0.6728 -149.6  45.719  120.2  0.0129   45.5  0.5155  -89.1
 0.090  0.7005 -153.5  40.971  115.9  0.0134   44.7  0.4849  -96.8
 0.100  0.7313 -157.1  36.508  110.6  0.0139   43.9  0.4643 -105.4
 0.110  0.7367 -158.9  34.246  109.4  0.0144   44.4  0.4460 -108.7
 0.120  0.7429 -160.6  31.999  108.1  0.0149   44.8  0.4294 -112.2
 0.130  0.7497 -162.3  29.773  106.6  0.0153   45.2  0.4144 -116.0
 0.140  0.7571 -164.0  27.571  104.8  0.0158   45.6  0.4014 -120.0
 0.150  0.7652 -165.6  25.401  102.7  0.0163   46.0  0.3905 -124.3
 0.200  0.7733 -170.8  19.283   97.7  0.0175   49.7  0.3593 -135.4
 0.250  0.7802 -174.2  15.525   94.2  0.0200   51.5  0.3422 -143.5
 0.300  0.7818 -176.8  12.984   91.8  0.0220   54.6  0.3324 -148.9
 0.350  0.7832 -178.8  11.390   90.0  0.0243   56.8  0.3270 -152.5
 0.400  0.7856  179.2   9.811   87.7  0.0267   58.6  0.3229 -156.3
 0.450  0.7844  177.7   8.828   86.4  0.0292   60.2  0.3204 -158.7
 0.500  0.7837  176.1   7.851   84.7  0.0318   61.5  0.3184 -161.1
 0.600  0.7864  173.6   6.566   81.9  0.0371   62.6  0.3177 -164.5
 0.700  0.7863  171.4   5.622   79.6  0.0413   64.8  0.3153 -167.0
 0.800  0.7869  169.0   4.924   77.0  0.0475   65.3  0.3157 -168.9
 0.900  0.7862  166.7   4.367   74.8  0.0526   65.7  0.3161 -170.6
 1.000  0.7887  164.9   3.950   72.6  0.0577   65.4  0.3168 -172.1
 1.100  0.7918  162.8   3.597   70.5  0.0630   65.9  0.3173 -173.2
 1.200  0.7914  160.7   3.298   68.3  0.0681   65.2  0.3180 -174.5
 1.300  0.7913  158.8   3.049   66.2  0.0734   64.6  0.3196 -175.5
 1.400  0.7930  156.9   2.846   64.1  0.0792   64.2  0.3220 -176.6
 1.500  0.7969  155.2   2.656   62.1  0.0842   63.7  0.3247 -177.7
 1.600  0.7993  153.3   2.498   59.9  0.0893   62.8  0.3265 -178.6
 1.700  0.8011  151.3   2.360   57.9  0.0946   62.2  0.3296 -179.6
 1.800  0.8025  149.4   2.240   55.7  0.0997   61.4  0.3331  179.4
 1.900  0.8058  148.0   2.122   53.9  0.1044   60.3  0.3369  178.6
 2.000  0.8060  145.9   2.016   51.7  0.1098   59.7  0.3407  177.7
 2.100  0.8077  144.1   1.925   49.7  0.1146   58.8  0.3452  176.8
 2.200  0.8102  142.3   1.837   47.6  0.1194   58.0  0.3497  175.9
 2.300  0.8128  140.6   1.761   45.7  0.1241   56.9  0.3542  175.1
 2.400  0.8161  139.0   1.687   43.7  0.1289   55.9  0.3587  174.3
 2.500  0.8170  137.4   1.620   42.0  0.1334   55.0  0.3635  173.5
 2.600  0.8185  135.8   1.555   40.1  0.1379   54.1  0.3683  172.7
 2.700  0.8213  134.2   1.498   38.4  0.1424   53.2  0.3732  171.8
 2.800  0.8248  132.6   1.443   36.5  0.1469   52.3  0.3781  171.0
 2.900  0.8260  131.0   1.393   34.8  0.1510   51.2  0.3829  170.1
 3.000  0.8278  129.5   1.345   33.0  0.1552   50.2  0.3877  169.2
 3.100  0.8294  128.0   1.305   31.6  0.1591   49.3  0.3921  168.2
 3.200  0.8315  126.5   1.266   30.0  0.1631   48.4  0.3965  167.3
 3.300  0.8342  125.0   1.228   28.4  0.1671   47.6  0.4011  166.4
 3.400  0.8374  123.6   1.192   26.6  0.1711   46.8  0.4057  165.5
 3.500  0.8412  122.1   1.156   24.8  0.1752   46.0  0.4105  164.6
 3.600  0.8420  120.7   1.126   23.4  0.1789   45.0  0.4157  163.6
 3.700  0.8433  119.3   1.096   22.0  0.1827   44.1  0.4210  162.6
 3.800  0.8451  117.9   1.067   20.5  0.1865   43.2  0.4265  161.6
 3.900  0.8473  116.6   1.038   18.9  0.1903   42.3  0.4320  160.6
 4.000  0.8501  115.2   1.011   17.2  0.1942   41.5  0.4377  159.7
 4.100  0.8505  114.0   0.986   15.9  0.1976   40.5  0.4437  158.6
 4.200  0.8512  112.7   0.962   14.6  0.2010   39.6  0.4498  157.5
 4.300  0.8524  111.5   0.938   13.2  0.2046   38.7  0.4561  156.5
 4.400  0.8539  110.2   0.915   11.7  0.2081   37.8  0.4625  155.5
 4.500  0.8559  109.0   0.893   10.2  0.2117   37.0  0.4691  154.5
 4.600  0.8571  108.0   0.873    9.2  0.2149   36.2  0.4756  153.6
 4.700  0.8585  107.0   0.853    8.1  0.2181   35.4  0.4822  152.8
 4.800  0.8602  106.0   0.833    7.0  0.2213   34.7  0.4889  152.0
 4.900  0.8622  105.0   0.814    5.8  0.2246   33.9  0.4957  151.2
 5.000  0.8644  104.0   0.795    4.6  0.2279   33.2  0.5026  150.4
 5.100  0.8651  103.1   0.782    3.7  0.2312   32.4  0.5091  149.8
 5.200  0.8660  102.2   0.768    2.7  0.2346   31.6  0.5156  149.2
 5.300  0.8672  101.3   0.755    1.7  0.2380   30.9  0.5222  148.6
 5.400  0.8685  100.4   0.743    0.7  0.2414   30.1  0.5288  148.1
 5.500  0.8701   99.5   0.730   -0.4  0.2449   29.4  0.5355  147.5
 5.600  0.8694   98.6   0.718   -1.3  0.2479   28.5  0.5390  147.0
 5.700  0.8690   97.6   0.705   -2.2  0.2509   27.7  0.5425  146.6
 5.800  0.8687   96.7   0.693   -3.1  0.2540   26.8  0.5461  146.2
 5.900  0.8688   95.7   0.682   -4.1  0.2572   26.0  0.5497  145.7
 6.000  0.8690   94.8   0.670   -5.1  0.2604   25.2  0.5533  145.3
!
!  f       NFmin   Gammaopt  rn/50
! GHz       dB    MAG  ANG    -
 0.450      1.62  0.56 -175   0.06
 0.900      1.75  0.59 -169   0.07
 1.900      2.61  0.70 -148   0.19
 2.400      3.01  0.74 -143   0.31
!
! (c) 2017  Infineon Technologies AG, Munich