! Infineon Technologies  Discrete & RF Semiconductors
! BFP196W
! VCE =  10. V,  IC =  40 mA
! Common Emitter S-Parameters:                            Jan 2017
# GHz  S  MA  R  50
!  f         S11            S21            S12            S22
! GHz     MAG   ANG      MAG   ANG      MAG   ANG      MAG   ANG
 0.010  0.3945  -27.9  70.850  170.5  0.0034   75.7  0.9415  -11.8
 0.020  0.4336  -55.2  67.954  160.7  0.0065   70.7  0.9048  -23.0
 0.030  0.4441  -73.2  62.462  154.5  0.0092   61.7  0.8297  -31.2
 0.040  0.4943  -88.9  57.845  147.1  0.0121   57.0  0.7746  -40.7
 0.050  0.5738 -101.0  54.326  138.7  0.0150   54.0  0.7439  -51.4
 0.060  0.5783 -108.8  50.307  135.9  0.0159   51.5  0.6888  -55.7
 0.070  0.5932 -116.3  46.432  132.5  0.0167   49.2  0.6381  -60.7
 0.080  0.6176 -123.3  42.743  128.6  0.0176   47.1  0.5931  -66.5
 0.090  0.6506 -129.7  39.290  124.0  0.0186   45.3  0.5552  -73.2
 0.100  0.6908 -135.4  36.142  118.5  0.0195   43.6  0.5258  -80.7
 0.110  0.6950 -138.5  34.049  117.0  0.0200   42.6  0.4987  -83.6
 0.120  0.7013 -141.6  31.984  115.3  0.0205   41.7  0.4731  -86.9
 0.130  0.7096 -144.7  29.950  113.4  0.0210   40.8  0.4492  -90.5
 0.140  0.7199 -147.6  27.955  111.1  0.0215   39.9  0.4273  -94.6
 0.150  0.7320 -150.5  26.008  108.6  0.0220   39.1  0.4077  -99.0
 0.200  0.7464 -159.1  20.054  102.3  0.0231   39.6  0.3481 -111.0
 0.250  0.7552 -165.0  16.261   97.9  0.0255   39.6  0.3111 -120.2
 0.300  0.7575 -169.0  13.632   94.9  0.0264   42.5  0.2891 -127.3
 0.350  0.7594 -171.9  11.982   92.8  0.0281   44.7  0.2759 -132.1
 0.400  0.7632 -174.8  10.353   90.0  0.0298   46.6  0.2648 -137.3
 0.450  0.7626 -176.9   9.323   88.4  0.0318   48.5  0.2584 -140.5
 0.500  0.7631 -179.0   8.301   86.5  0.0338   50.1  0.2529 -143.9
 0.600  0.7654  177.6   6.946   83.4  0.0379   51.9  0.2476 -148.6
 0.700  0.7658  174.9   5.949   80.8  0.0418   55.1  0.2428 -152.3
 0.800  0.7689  172.1   5.217   77.9  0.0468   56.8  0.2419 -154.7
 0.900  0.7665  169.6   4.626   75.5  0.0512   57.4  0.2419 -156.8
 1.000  0.7685  167.4   4.182   73.2  0.0550   58.0  0.2414 -158.8
 1.100  0.7722  165.2   3.807   71.0  0.0602   58.7  0.2426 -160.1
 1.200  0.7724  163.0   3.491   68.6  0.0647   58.7  0.2430 -161.5
 1.300  0.7733  160.9   3.224   66.5  0.0690   59.2  0.2455 -162.6
 1.400  0.7770  159.0   3.009   64.3  0.0740   59.3  0.2477 -163.9
 1.500  0.7786  157.1   2.806   62.2  0.0786   59.2  0.2510 -165.0
 1.600  0.7820  155.1   2.639   60.0  0.0834   59.0  0.2536 -166.0
 1.700  0.7821  153.1   2.490   57.9  0.0880   58.7  0.2576 -167.0
 1.800  0.7862  151.2   2.363   55.7  0.0926   58.4  0.2618 -168.1
 1.900  0.7884  149.5   2.239   53.8  0.0972   57.8  0.2665 -169.0
 2.000  0.7908  147.5   2.126   51.6  0.1022   57.3  0.2708 -169.9
 2.100  0.7927  145.6   2.029   49.6  0.1065   56.7  0.2762 -171.0
 2.200  0.7954  143.8   1.935   47.4  0.1108   56.1  0.2817 -172.0
 2.300  0.7983  142.1   1.854   45.5  0.1154   55.3  0.2874 -172.8
 2.400  0.8019  140.4   1.776   43.4  0.1200   54.5  0.2932 -173.6
 2.500  0.8033  138.7   1.705   41.6  0.1242   54.0  0.2993 -174.5
 2.600  0.8054  137.1   1.635   39.7  0.1285   53.5  0.3055 -175.4
 2.700  0.8083  135.4   1.575   37.9  0.1328   52.7  0.3115 -176.3
 2.800  0.8119  133.7   1.516   36.0  0.1371   51.9  0.3175 -177.2
 2.900  0.8134  132.1   1.463   34.3  0.1411   51.1  0.3234 -178.2
 3.000  0.8154  130.6   1.412   32.4  0.1452   50.3  0.3293 -179.1
 3.100  0.8172  129.1   1.369   30.9  0.1491   49.5  0.3349  179.8
 3.200  0.8195  127.6   1.327   29.3  0.1531   48.7  0.3407  178.8
 3.300  0.8225  126.1   1.287   27.6  0.1571   48.0  0.3466  177.7
 3.400  0.8260  124.6   1.247   25.8  0.1612   47.3  0.3525  176.8
 3.500  0.8300  123.1   1.209   23.9  0.1652   46.7  0.3586  175.8
 3.600  0.8313  121.7   1.176   22.5  0.1690   45.8  0.3648  174.6
 3.700  0.8331  120.3   1.144   21.0  0.1728   45.0  0.3712  173.4
 3.800  0.8354  118.9   1.113   19.4  0.1766   44.2  0.3778  172.3
 3.900  0.8382  117.5   1.082   17.8  0.1805   43.4  0.3845  171.2
 4.000  0.8415  116.1   1.053   16.0  0.1844   42.7  0.3913  170.2
 4.100  0.8424  114.8   1.026   14.7  0.1879   41.8  0.3984  168.9
 4.200  0.8436  113.6   1.000   13.3  0.1915   40.9  0.4057  167.7
 4.300  0.8453  112.3   0.974   11.9  0.1951   40.1  0.4132  166.5
 4.400  0.8474  111.0   0.949   10.4  0.1987   39.3  0.4208  165.4
 4.500  0.8499  109.8   0.925    8.8  0.2024   38.5  0.4286  164.3
 4.600  0.8513  108.8   0.903    7.7  0.2057   37.7  0.4363  163.2
 4.700  0.8530  107.8   0.882    6.6  0.2091   37.0  0.4441  162.2
 4.800  0.8549  106.8   0.860    5.5  0.2125   36.3  0.4521  161.3
 4.900  0.8571  105.8   0.839    4.3  0.2159   35.6  0.4602  160.3
 5.000  0.8595  104.8   0.819    3.0  0.2194   34.9  0.4684  159.4
 5.100  0.8606  103.9   0.804    2.1  0.2229   34.1  0.4763  158.6
 5.200  0.8619  103.0   0.789    1.1  0.2264   33.4  0.4844  157.9
 5.300  0.8635  102.1   0.775    0.1  0.2300   32.6  0.4925  157.2
 5.400  0.8652  101.2   0.761   -1.0  0.2336   31.9  0.5006  156.5
 5.500  0.8672  100.3   0.747   -2.1  0.2372   31.2  0.5089  155.8
 5.600  0.8661   99.3   0.733   -3.0  0.2404   30.4  0.5141  155.2
 5.700  0.8652   98.4   0.720   -3.8  0.2437   29.6  0.5193  154.7
 5.800  0.8645   97.4   0.706   -4.8  0.2470   28.8  0.5245  154.1
 5.900  0.8641   96.5   0.693   -5.7  0.2504   28.0  0.5298  153.6
 6.000  0.8639   95.5   0.680   -6.7  0.2538   27.3  0.5352  153.1
!
!  f       NFmin   Gammaopt  rn/50
! GHz       dB    MAG  ANG    -
 0.450      1.24  0.48 -179   0.06
 0.900      1.39  0.54 -173   0.06
 1.900      2.21  0.69 -150   0.14
 2.400      2.61  0.73 -145   0.23
!
! (c) 2017  Infineon Technologies AG, Munich