! Infineon Technologies  Discrete & RF Semiconductors
! BFP196W
! VCE =  11. V,  IC =  50 mA
! Common Emitter S-Parameters:                            Jan 2017
# GHz  S  MA  R  50
!  f         S11            S21            S12            S22
! GHz     MAG   ANG      MAG   ANG      MAG   ANG      MAG   ANG
 0.010  0.3503  -32.3  76.694  169.7  0.0035   70.0  0.9115  -12.7
 0.020  0.4054  -61.2  72.696  159.5  0.0063   71.6  0.8699  -24.6
 0.030  0.4236  -80.1  66.485  153.2  0.0085   61.4  0.7926  -33.2
 0.040  0.4819  -95.9  61.244  145.6  0.0109   55.6  0.7366  -43.3
 0.050  0.5680 -107.6  57.241  136.9  0.0134   51.9  0.7068  -54.7
 0.060  0.5757 -114.9  52.855  134.2  0.0142   49.3  0.6530  -59.1
 0.070  0.5926 -122.0  48.612  130.9  0.0151   47.0  0.6036  -64.2
 0.080  0.6178 -128.5  44.554  127.1  0.0160   45.0  0.5599  -70.2
 0.090  0.6503 -134.5  40.735  122.5  0.0169   43.1  0.5233  -77.1
 0.100  0.6892 -139.8  37.230  117.0  0.0178   41.5  0.4954  -84.9
 0.110  0.6946 -142.7  35.045  115.5  0.0183   41.0  0.4706  -87.9
 0.120  0.7018 -145.6  32.887  113.9  0.0189   40.6  0.4472  -91.3
 0.130  0.7107 -148.4  30.760  112.0  0.0194   40.2  0.4255  -95.0
 0.140  0.7213 -151.1  28.671  109.8  0.0200   39.8  0.4058  -99.0
 0.150  0.7334 -153.7  26.630  107.3  0.0205   39.4  0.3883 -103.5
 0.200  0.7441 -161.5  20.458  101.3  0.0209   41.5  0.3358 -115.6
 0.250  0.7538 -167.0  16.559   97.2  0.0237   42.8  0.3037 -124.9
 0.300  0.7580 -170.6  13.875   94.3  0.0252   44.5  0.2851 -131.7
 0.350  0.7586 -173.4  12.188   92.3  0.0270   47.1  0.2738 -136.3
 0.400  0.7609 -176.1  10.522   89.6  0.0289   49.3  0.2645 -141.3
 0.450  0.7611 -178.1   9.473   88.1  0.0308   51.1  0.2596 -144.4
 0.500  0.7622  180.0   8.432   86.2  0.0327   52.7  0.2555 -147.6
 0.600  0.7648  176.8   7.053   83.1  0.0377   55.1  0.2507 -152.0
 0.700  0.7648  174.1   6.042   80.6  0.0416   57.5  0.2475 -155.3
 0.800  0.7661  171.4   5.297   77.9  0.0464   59.6  0.2464 -157.8
 0.900  0.7641  168.9   4.698   75.5  0.0507   59.2  0.2463 -159.7
 1.000  0.7677  166.8   4.246   73.2  0.0556   60.6  0.2466 -161.7
 1.100  0.7704  164.7   3.867   71.0  0.0605   60.7  0.2472 -162.7
 1.200  0.7729  162.5   3.546   68.6  0.0650   60.7  0.2482 -164.1
 1.300  0.7726  160.5   3.274   66.6  0.0695   60.9  0.2503 -165.2
 1.400  0.7745  158.6   3.056   64.4  0.0751   60.9  0.2525 -166.5
 1.500  0.7768  156.8   2.849   62.3  0.0792   60.8  0.2552 -167.6
 1.600  0.7794  154.7   2.681   60.1  0.0842   59.9  0.2578 -168.4
 1.700  0.7813  152.8   2.530   58.0  0.0887   59.9  0.2619 -169.5
 1.800  0.7856  150.9   2.401   55.8  0.0939   58.8  0.2657 -170.5
 1.900  0.7881  149.1   2.274   54.0  0.0982   58.5  0.2700 -171.4
 2.000  0.7878  147.2   2.159   51.8  0.1032   58.0  0.2746 -172.2
 2.100  0.7900  145.3   2.061   49.8  0.1076   57.4  0.2799 -173.2
 2.200  0.7930  143.5   1.966   47.6  0.1121   56.8  0.2852 -174.2
 2.300  0.7961  141.8   1.883   45.7  0.1167   56.0  0.2904 -175.1
 2.400  0.8000  140.1   1.803   43.7  0.1214   55.3  0.2957 -175.9
 2.500  0.8003  138.5   1.731   41.9  0.1256   54.5  0.3016 -176.7
 2.600  0.8013  136.9   1.661   39.9  0.1299   53.7  0.3075 -177.5
 2.700  0.8045  135.2   1.600   38.2  0.1341   52.9  0.3131 -178.4
 2.800  0.8084  133.6   1.540   36.3  0.1383   52.2  0.3187 -179.2
 2.900  0.8104  132.0   1.487   34.6  0.1424   51.4  0.3247  179.8
 3.000  0.8130  130.5   1.435   32.8  0.1466   50.6  0.3307  178.9
 3.100  0.8148  129.0   1.391   31.3  0.1505   49.7  0.3360  177.9
 3.200  0.8171  127.5   1.349   29.7  0.1545   48.9  0.3414  176.9
 3.300  0.8200  126.0   1.307   28.0  0.1585   48.1  0.3470  175.9
 3.400  0.8235  124.5   1.267   26.2  0.1625   47.4  0.3526  175.0
 3.500  0.8275  123.0   1.228   24.3  0.1665   46.7  0.3583  174.1
 3.600  0.8287  121.6   1.195   22.9  0.1702   45.8  0.3643  172.9
 3.700  0.8305  120.2   1.163   21.4  0.1740   44.9  0.3705  171.8
 3.800  0.8327  118.8   1.131   19.9  0.1778   44.1  0.3768  170.7
 3.900  0.8355  117.4   1.101   18.2  0.1816   43.3  0.3832  169.6
 4.000  0.8387  116.0   1.071   16.5  0.1855   42.5  0.3898  168.6
 4.100  0.8397  114.8   1.044   15.2  0.1890   41.6  0.3967  167.4
 4.200  0.8410  113.5   1.017   13.8  0.1926   40.8  0.4037  166.2
 4.300  0.8428  112.3   0.992   12.3  0.1962   39.9  0.4109  165.1
 4.400  0.8450  111.0   0.966   10.7  0.1999   39.2  0.4183  164.0
 4.500  0.8475  109.8   0.942    9.1  0.2036   38.4  0.4258  162.9
 4.600  0.8488  108.8   0.920    8.1  0.2069   37.6  0.4333  161.9
 4.700  0.8504  107.8   0.898    7.0  0.2102   36.8  0.4409  160.9
 4.800  0.8522  106.8   0.876    5.8  0.2136   36.1  0.4487  160.0
 4.900  0.8543  105.8   0.855    4.7  0.2170   35.4  0.4565  159.1
 5.000  0.8567  104.8   0.834    3.4  0.2204   34.7  0.4645  158.2
 5.100  0.8577  103.9   0.819    2.4  0.2238   33.9  0.4721  157.5
 5.200  0.8589  103.0   0.804    1.4  0.2273   33.2  0.4798  156.8
 5.300  0.8603  102.0   0.789    0.4  0.2308   32.4  0.4876  156.2
 5.400  0.8619  101.1   0.774   -0.7  0.2344   31.7  0.4954  155.5
 5.500  0.8638  100.2   0.760   -1.8  0.2380   31.0  0.5033  154.9
 5.600  0.8629   99.3   0.746   -2.7  0.2413   30.2  0.5083  154.4
 5.700  0.8622   98.3   0.733   -3.6  0.2446   29.3  0.5134  153.8
 5.800  0.8618   97.4   0.719   -4.5  0.2479   28.5  0.5185  153.3
 5.900  0.8616   96.4   0.706   -5.5  0.2513   27.8  0.5236  152.8
 6.000  0.8616   95.5   0.693   -6.5  0.2548   27.0  0.5288  152.3
!
!  f       NFmin   Gammaopt  rn/50
! GHz       dB    MAG  ANG    -
 0.450      1.36  0.51 -177   0.05
 0.900      1.48  0.55 -171   0.07
 1.900      2.30  0.69 -149   0.16
 2.400      2.70  0.73 -144   0.26
!
! (c) 2017  Infineon Technologies AG, Munich