! Infineon Technologies  Discrete & RF Semiconductors
! BFP196W
! VCE =  5.0 V,  IC =  20 mA
! Common Emitter S-Parameters:                            Jan 2017
# GHz  S  MA  R  50
!  f         S11            S21            S12            S22
! GHz     MAG   ANG      MAG   ANG      MAG   ANG      MAG   ANG
 0.010  0.5288  -19.3  50.050  172.7  0.0044   81.1  0.9779   -9.6
 0.020  0.5387  -39.7  48.660  164.2  0.0087   78.7  0.9454  -18.4
 0.030  0.5284  -54.8  45.648  158.3  0.0119   68.0  0.8870  -25.7
 0.040  0.5548  -69.5  43.178  151.7  0.0154   62.1  0.8447  -33.8
 0.050  0.6132  -82.1  41.349  144.4  0.0190   58.3  0.8210  -42.6
 0.060  0.6071  -90.5  38.647  141.3  0.0206   54.7  0.7667  -46.7
 0.070  0.6143  -98.9  36.074  137.8  0.0222   51.6  0.7168  -51.3
 0.080  0.6341 -106.9  33.659  133.7  0.0240   49.0  0.6724  -56.6
 0.090  0.6656 -114.4  31.440  129.0  0.0257   46.7  0.6344  -62.6
 0.100  0.7071 -121.0  29.460  123.7  0.0275   44.7  0.6043  -69.3
 0.110  0.7088 -124.9  27.866  122.0  0.0281   42.8  0.5732  -72.1
 0.120  0.7138 -128.8  26.300  120.0  0.0287   41.0  0.5437  -75.2
 0.130  0.7220 -132.5  24.770  117.8  0.0294   39.2  0.5158  -78.6
 0.140  0.7332 -136.2  23.280  115.3  0.0301   37.6  0.4901  -82.4
 0.150  0.7474 -139.8  21.840  112.5  0.0308   36.0  0.4667  -86.6
 0.200  0.7606 -150.8  17.045  105.4  0.0323   34.4  0.3896  -98.2
 0.250  0.7708 -158.1  13.928  100.3  0.0342   33.1  0.3396 -107.3
 0.300  0.7738 -163.2  11.734   96.8  0.0356   33.0  0.3072 -114.2
 0.350  0.7758 -166.9  10.321   94.4  0.0367   33.8  0.2877 -119.1
 0.400  0.7810 -170.5   8.932   91.2  0.0379   34.5  0.2707 -124.7
 0.450  0.7800 -173.0   8.047   89.4  0.0393   36.1  0.2612 -128.2
 0.500  0.7804 -175.5   7.172   87.2  0.0408   37.6  0.2527 -131.9
 0.600  0.7842 -179.4   6.007   83.7  0.0438   40.0  0.2432 -137.3
 0.700  0.7835  177.3   5.147   80.8  0.0463   43.5  0.2359 -141.2
 0.800  0.7843  174.3   4.513   77.7  0.0499   45.9  0.2343 -144.0
 0.900  0.7846  171.6   4.004   75.1  0.0538   46.9  0.2332 -146.4
 1.000  0.7869  169.3   3.621   72.5  0.0571   48.4  0.2333 -148.7
 1.100  0.7897  166.9   3.298   70.1  0.0611   49.7  0.2345 -150.0
 1.200  0.7895  164.5   3.024   67.6  0.0648   50.8  0.2354 -151.5
 1.300  0.7897  162.3   2.792   65.3  0.0685   51.4  0.2379 -152.7
 1.400  0.7926  160.4   2.605   62.9  0.0732   52.1  0.2417 -154.1
 1.500  0.7963  158.4   2.431   60.7  0.0769   52.3  0.2451 -155.3
 1.600  0.8006  156.1   2.285   58.4  0.0814   52.8  0.2494 -156.5
 1.700  0.8024  154.1   2.158   56.1  0.0856   53.1  0.2545 -157.6
 1.800  0.8060  152.2   2.048   53.8  0.0900   53.0  0.2600 -158.9
 1.900  0.8073  150.4   1.941   51.8  0.0937   53.3  0.2655 -160.0
 2.000  0.8093  148.3   1.842   49.4  0.0984   52.9  0.2712 -161.0
 2.100  0.8115  146.4   1.758   47.4  0.1026   52.7  0.2777 -162.2
 2.200  0.8146  144.5   1.676   45.1  0.1068   52.5  0.2843 -163.4
 2.300  0.8170  142.7   1.606   43.1  0.1112   52.2  0.2916 -164.5
 2.400  0.8202  141.0   1.538   40.9  0.1156   51.9  0.2990 -165.5
 2.500  0.8216  139.3   1.476   39.0  0.1196   51.4  0.3062 -166.6
 2.600  0.8236  137.7   1.416   37.0  0.1237   51.0  0.3136 -167.6
 2.700  0.8263  136.0   1.364   35.2  0.1278   50.6  0.3207 -168.7
 2.800  0.8297  134.3   1.313   33.2  0.1319   50.2  0.3279 -169.8
 2.900  0.8314  132.7   1.266   31.4  0.1360   49.5  0.3352 -171.0
 3.000  0.8337  131.1   1.221   29.5  0.1402   48.8  0.3427 -172.1
 3.100  0.8354  129.5   1.184   28.0  0.1443   48.2  0.3495 -173.4
 3.200  0.8378  128.0   1.147   26.3  0.1484   47.6  0.3565 -174.6
 3.300  0.8407  126.4   1.112   24.6  0.1525   47.1  0.3636 -175.7
 3.400  0.8443  124.9   1.077   22.8  0.1567   46.6  0.3709 -176.8
 3.500  0.8484  123.4   1.044   20.8  0.1608   46.1  0.3783 -177.9
 3.600  0.8496  122.0   1.015   19.4  0.1648   45.3  0.3856 -179.3
 3.700  0.8513  120.5   0.987   17.9  0.1688   44.6  0.3932  179.4
 3.800  0.8535  119.1   0.960   16.3  0.1728   43.9  0.4009  178.1
 3.900  0.8563  117.7   0.934   14.7  0.1769   43.2  0.4089  176.9
 4.000  0.8596  116.3   0.908   12.9  0.1810   42.6  0.4170  175.7
 4.100  0.8600  115.0   0.884   11.6  0.1847   41.7  0.4250  174.2
 4.200  0.8609  113.7   0.861   10.3  0.1884   40.9  0.4334  172.8
 4.300  0.8623  112.4   0.839    8.9  0.1922   40.1  0.4419  171.4
 4.400  0.8641  111.1   0.817    7.4  0.1960   39.3  0.4507  170.1
 4.500  0.8663  109.8   0.795    5.8  0.1999   38.6  0.4598  168.8
 4.600  0.8675  108.8   0.775    4.8  0.2036   37.9  0.4685  167.6
 4.700  0.8689  107.8   0.756    3.8  0.2073   37.2  0.4774  166.3
 4.800  0.8707  106.8   0.737    2.7  0.2110   36.5  0.4865  165.2
 4.900  0.8727  105.8   0.718    1.6  0.2148   35.8  0.4957  164.1
 5.000  0.8749  104.8   0.700    0.4  0.2186   35.2  0.5052  163.0
 5.100  0.8758  103.8   0.687   -0.5  0.2223   34.4  0.5139  162.1
 5.200  0.8769  102.9   0.674   -1.3  0.2260   33.6  0.5228  161.2
 5.300  0.8782  101.9   0.662   -2.3  0.2298   32.9  0.5318  160.3
 5.400  0.8798  101.0   0.649   -3.2  0.2336   32.2  0.5409  159.5
 5.500  0.8817  100.0   0.637   -4.2  0.2374   31.5  0.5501  158.7
 5.600  0.8805   99.0   0.625   -4.9  0.2408   30.7  0.5559  157.9
 5.700  0.8796   98.1   0.613   -5.7  0.2443   29.8  0.5617  157.2
 5.800  0.8789   97.1   0.602   -6.4  0.2479   29.0  0.5677  156.4
 5.900  0.8785   96.2   0.590   -7.3  0.2515   28.3  0.5738  155.7
 6.000  0.8783   95.2   0.579   -8.1  0.2551   27.5  0.5799  155.0
!
!  f       NFmin   Gammaopt  rn/50
! GHz       dB    MAG  ANG    -
 0.450      1.02  0.40  170   0.05
 0.900      1.20  0.51  178   0.05
 1.900      2.11  0.69 -155   0.11
 2.400      2.55  0.74 -147   0.20
!
! (c) 2017  Infineon Technologies AG, Munich