! Infineon Technologies  Discrete & RF Semiconductors
! BFP196W
! VCE =  4.0 V,  IC =  25 mA
! Common Emitter S-Parameters:                            Jan 2017
# GHz  S  MA  R  50
!  f         S11            S21            S12            S22
! GHz     MAG   ANG      MAG   ANG      MAG   ANG      MAG   ANG
 0.010  0.4458  -25.1  57.778  171.5  0.0042   81.9  0.9706  -11.4
 0.020  0.4736  -49.6  55.429  162.0  0.0082   75.5  0.9332  -22.1
 0.030  0.4755  -66.9  51.369  155.8  0.0112   65.7  0.8619  -30.3
 0.040  0.5185  -82.7  48.017  148.5  0.0144   60.2  0.8110  -39.7
 0.050  0.5937  -95.3  45.531  140.4  0.0177   56.7  0.7844  -50.0
 0.060  0.5950 -103.3  42.265  137.5  0.0189   52.9  0.7277  -54.4
 0.070  0.6077 -111.1  39.126  134.1  0.0202   49.5  0.6760  -59.5
 0.080  0.6312 -118.5  36.149  130.1  0.0215   46.5  0.6304  -65.4
 0.090  0.6644 -125.3  33.375  125.5  0.0229   43.9  0.5925  -72.1
 0.100  0.7058 -131.3  30.861  120.0  0.0243   41.6  0.5638  -79.6
 0.110  0.7104 -134.7  29.110  118.4  0.0249   40.7  0.5355  -82.6
 0.120  0.7175 -138.1  27.385  116.6  0.0255   39.8  0.5089  -86.0
 0.130  0.7270 -141.3  25.691  114.5  0.0261   39.0  0.4842  -89.7
 0.140  0.7388 -144.5  24.035  112.2  0.0267   38.2  0.4618  -93.8
 0.150  0.7528 -147.6  22.425  109.5  0.0273   37.4  0.4420  -98.3
 0.200  0.7649 -156.9  17.343  103.0  0.0281   34.6  0.3792 -110.7
 0.250  0.7747 -163.1  14.078   98.4  0.0305   35.2  0.3406 -120.1
 0.300  0.7792 -167.6  11.838   95.2  0.0315   36.4  0.3163 -127.1
 0.350  0.7807 -170.7  10.403   93.0  0.0331   38.3  0.3021 -131.9
 0.400  0.7845 -173.7   8.988   90.1  0.0348   40.1  0.2903 -137.2
 0.450  0.7838 -175.9   8.093   88.4  0.0364   41.7  0.2837 -140.5
 0.500  0.7843 -178.1   7.207   86.3  0.0381   43.2  0.2780 -143.9
 0.600  0.7876  178.4   6.029   83.1  0.0421   45.7  0.2726 -148.8
 0.700  0.7882  175.5   5.167   80.4  0.0451   48.5  0.2675 -152.3
 0.800  0.7897  172.5   4.532   77.4  0.0494   50.8  0.2665 -154.9
 0.900  0.7875  170.0   4.019   74.9  0.0537   52.0  0.2665 -157.1
 1.000  0.7901  167.8   3.634   72.4  0.0577   53.2  0.2663 -159.1
 1.100  0.7939  165.6   3.311   70.1  0.0620   53.8  0.2680 -160.3
 1.200  0.7931  163.4   3.035   67.7  0.0658   54.8  0.2684 -161.7
 1.300  0.7930  161.3   2.804   65.5  0.0710   54.6  0.2710 -162.8
 1.400  0.7974  159.3   2.619   63.2  0.0755   55.4  0.2745 -164.2
 1.500  0.8005  157.4   2.440   61.0  0.0802   55.5  0.2775 -165.4
 1.600  0.8024  155.3   2.297   58.7  0.0845   55.6  0.2811 -166.3
 1.700  0.8045  153.2   2.167   56.5  0.0888   55.5  0.2849 -167.4
 1.800  0.8079  151.3   2.059   54.2  0.0936   55.1  0.2899 -168.5
 1.900  0.8091  149.5   1.949   52.3  0.0977   55.3  0.2947 -169.5
 2.000  0.8112  147.5   1.852   50.0  0.1032   54.4  0.2997 -170.4
 2.100  0.8132  145.6   1.769   47.9  0.1074   54.1  0.3056 -171.4
 2.200  0.8161  143.8   1.688   45.6  0.1116   53.8  0.3115 -172.4
 2.300  0.8185  142.0   1.618   43.7  0.1160   53.2  0.3176 -173.3
 2.400  0.8217  140.3   1.549   41.6  0.1205   52.7  0.3238 -174.2
 2.500  0.8227  138.6   1.487   39.7  0.1249   52.1  0.3303 -175.1
 2.600  0.8244  137.0   1.426   37.7  0.1294   51.5  0.3368 -176.0
 2.700  0.8274  135.4   1.374   35.9  0.1335   50.8  0.3431 -177.0
 2.800  0.8311  133.8   1.323   34.0  0.1377   50.2  0.3495 -177.9
 2.900  0.8319  132.2   1.277   32.2  0.1417   49.4  0.3560 -179.0
 3.000  0.8333  130.6   1.233   30.3  0.1458   48.7  0.3626 -180.0
 3.100  0.8352  129.1   1.196   28.8  0.1499   48.0  0.3686  178.9
 3.200  0.8377  127.5   1.159   27.2  0.1540   47.3  0.3746  177.9
 3.300  0.8408  126.0   1.124   25.6  0.1581   46.7  0.3808  176.8
 3.400  0.8444  124.5   1.089   23.8  0.1622   46.1  0.3872  175.9
 3.500  0.8487  123.0   1.056   21.9  0.1664   45.5  0.3936  174.9
 3.600  0.8496  121.6   1.028   20.5  0.1703   44.6  0.4002  173.7
 3.700  0.8511  120.1   1.000   19.0  0.1742   43.8  0.4070  172.5
 3.800  0.8531  118.7   0.973   17.5  0.1782   43.1  0.4139  171.4
 3.900  0.8557  117.3   0.946   15.8  0.1822   42.3  0.4210  170.3
 4.000  0.8587  115.9   0.921   14.1  0.1862   41.6  0.4283  169.2
 4.100  0.8592  114.6   0.898   12.8  0.1898   40.7  0.4358  167.9
 4.200  0.8601  113.3   0.875   11.5  0.1935   39.9  0.4434  166.6
 4.300  0.8614  112.0   0.852   10.1  0.1972   39.1  0.4513  165.4
 4.400  0.8632  110.8   0.830    8.6  0.2010   38.3  0.4594  164.2
 4.500  0.8654  109.5   0.809    7.1  0.2048   37.6  0.4677  163.1
 4.600  0.8664  108.5   0.790    6.1  0.2082   36.8  0.4757  162.0
 4.700  0.8677  107.5   0.771    5.1  0.2116   36.1  0.4838  161.0
 4.800  0.8693  106.5   0.752    4.0  0.2151   35.4  0.4921  159.9
 4.900  0.8711  105.6   0.734    2.8  0.2186   34.7  0.5006  159.0
 5.000  0.8731  104.6   0.716    1.6  0.2221   34.0  0.5092  158.0
 5.100  0.8738  103.7   0.703    0.7  0.2257   33.2  0.5172  157.2
 5.200  0.8747  102.7   0.691   -0.2  0.2293   32.4  0.5253  156.4
 5.300  0.8758  101.8   0.678   -1.2  0.2329   31.7  0.5335  155.6
 5.400  0.8772  100.8   0.666   -2.2  0.2366   31.0  0.5417  154.9
 5.500  0.8788   99.9   0.654   -3.2  0.2403   30.3  0.5501  154.2
 5.600  0.8783   98.9   0.642   -3.9  0.2437   29.5  0.5551  153.6
 5.700  0.8781   97.9   0.631   -4.7  0.2471   28.6  0.5603  152.9
 5.800  0.8781   97.0   0.619   -5.5  0.2506   27.8  0.5654  152.3
 5.900  0.8784   96.0   0.608   -6.3  0.2541   27.1  0.5707  151.7
 6.000  0.8789   95.0   0.597   -7.2  0.2577   26.3  0.5760  151.1
!
!  f       NFmin   Gammaopt  rn/50
! GHz       dB    MAG  ANG    -
 0.450      1.07  0.43  175   0.05
 0.900      1.24  0.51 -179   0.06
 1.900      2.11  0.68 -152   0.12
 2.400      2.53  0.74 -146   0.21
!
! (c) 2017  Infineon Technologies AG, Munich