! Infineon Technologies  Discrete & RF Semiconductors
! BFP196W
! VCE =  7.0 V,  IC =  70 mA
! Common Emitter S-Parameters:                            Jan 2017
# GHz  S  MA  R  50
!  f         S11            S21            S12            S22
! GHz     MAG   ANG      MAG   ANG      MAG   ANG      MAG   ANG
 0.010  0.2328  -58.6  90.302  167.7  0.0029   76.8  0.9262  -15.8
 0.020  0.3556  -90.1  84.628  155.6  0.0055   72.0  0.8749  -30.9
 0.030  0.4106 -107.2  75.547  149.1  0.0074   61.7  0.7767  -40.4
 0.040  0.4926 -119.5  67.687  141.0  0.0095   55.7  0.7053  -52.2
 0.050  0.5905 -128.0  61.518  131.0  0.0116   51.9  0.6695  -65.9
 0.060  0.6054 -133.6  56.390  128.5  0.0122   50.4  0.6166  -70.6
 0.070  0.6257 -138.8  51.386  125.6  0.0129   49.1  0.5687  -76.1
 0.080  0.6510 -143.7  46.545  122.1  0.0135   47.8  0.5270  -82.6
 0.090  0.6806 -148.2  41.924  117.7  0.0141   46.7  0.4931  -90.1
 0.100  0.7140 -152.3  37.605  112.3  0.0148   45.7  0.4687  -98.5
 0.110  0.7197 -154.4  35.303  111.1  0.0152   45.3  0.4479 -101.7
 0.120  0.7264 -156.5  33.021  109.6  0.0155   45.0  0.4286 -105.2
 0.130  0.7341 -158.5  30.761  108.0  0.0159   44.7  0.4110 -109.0
 0.140  0.7427 -160.5  28.531  106.1  0.0162   44.4  0.3954 -113.1
 0.150  0.7521 -162.5  26.337  103.9  0.0166   44.1  0.3820 -117.5
 0.200  0.7616 -168.4  20.063   98.6  0.0181   45.9  0.3435 -129.2
 0.250  0.7688 -172.4  16.172   95.0  0.0208   48.9  0.3219 -137.7
 0.300  0.7731 -175.2  13.525   92.4  0.0225   51.8  0.3091 -143.7
 0.350  0.7737 -177.4  11.869   90.6  0.0244   54.3  0.3025 -147.7
 0.400  0.7755 -179.6  10.228   88.3  0.0263   56.5  0.2975 -151.8
 0.450  0.7747  178.9   9.203   86.9  0.0290   58.0  0.2940 -154.4
 0.500  0.7745  177.3   8.186   85.1  0.0317   59.3  0.2912 -157.1
 0.600  0.7750  174.4   6.845   82.3  0.0366   60.7  0.2898 -160.8
 0.700  0.7755  172.1   5.863   79.9  0.0413   63.2  0.2871 -163.6
 0.800  0.7783  169.6   5.138   77.3  0.0466   64.0  0.2871 -165.6
 0.900  0.7759  167.4   4.556   75.0  0.0515   64.1  0.2874 -167.3
 1.000  0.7795  165.3   4.118   72.8  0.0570   64.4  0.2874 -169.0
 1.100  0.7818  163.3   3.754   70.7  0.0620   64.5  0.2882 -170.1
 1.200  0.7816  161.3   3.439   68.4  0.0672   64.2  0.2892 -171.4
 1.300  0.7814  159.3   3.179   66.4  0.0719   63.7  0.2908 -172.5
 1.400  0.7841  157.4   2.966   64.2  0.0766   63.8  0.2934 -173.6
 1.500  0.7864  155.7   2.765   62.2  0.0821   62.8  0.2958 -174.6
 1.600  0.7909  153.7   2.603   60.0  0.0877   62.1  0.2981 -175.5
 1.700  0.7917  151.8   2.457   58.0  0.0927   61.8  0.3017 -176.5
 1.800  0.7950  150.0   2.333   55.8  0.0969   60.9  0.3049 -177.5
 1.900  0.7970  148.3   2.209   54.0  0.1019   60.3  0.3089 -178.3
 2.000  0.7976  146.4   2.099   51.8  0.1072   59.6  0.3131 -179.2
 2.100  0.7994  144.5   2.004   49.8  0.1119   58.6  0.3175  179.9
 2.200  0.8021  142.6   1.911   47.7  0.1167   57.7  0.3220  179.0
 2.300  0.8048  140.9   1.831   45.8  0.1216   56.9  0.3271  178.2
 2.400  0.8082  139.3   1.754   43.8  0.1265   56.2  0.3322  177.4
 2.500  0.8093  137.7   1.684   42.0  0.1306   55.2  0.3374  176.6
 2.600  0.8111  136.1   1.616   40.1  0.1347   54.3  0.3426  175.9
 2.700  0.8139  134.5   1.557   38.4  0.1391   53.4  0.3478  175.0
 2.800  0.8173  132.9   1.500   36.6  0.1436   52.5  0.3530  174.2
 2.900  0.8184  131.3   1.448   34.9  0.1478   51.6  0.3580  173.3
 3.000  0.8200  129.8   1.397   33.1  0.1521   50.7  0.3631  172.5
 3.100  0.8218  128.3   1.356   31.6  0.1560   49.8  0.3678  171.5
 3.200  0.8241  126.8   1.315   30.1  0.1599   48.9  0.3726  170.5
 3.300  0.8269  125.3   1.276   28.4  0.1639   48.1  0.3774  169.6
 3.400  0.8303  123.9   1.237   26.7  0.1679   47.3  0.3824  168.7
 3.500  0.8343  122.4   1.200   24.8  0.1719   46.5  0.3875  167.8
 3.600  0.8353  121.0   1.168   23.4  0.1756   45.5  0.3930  166.7
 3.700  0.8368  119.6   1.137   21.9  0.1794   44.6  0.3986  165.7
 3.800  0.8388  118.2   1.106   20.4  0.1832   43.7  0.4043  164.7
 3.900  0.8413  116.8   1.077   18.7  0.1871   42.9  0.4102  163.7
 4.000  0.8443  115.4   1.048   17.0  0.1910   42.1  0.4162  162.7
 4.100  0.8450  114.2   1.022   15.7  0.1944   41.2  0.4225  161.6
 4.200  0.8461  112.9   0.997   14.4  0.1979   40.2  0.4290  160.5
 4.300  0.8475  111.7   0.972   13.0  0.2014   39.4  0.4356  159.4
 4.400  0.8494  110.4   0.948   11.5  0.2049   38.5  0.4423  158.4
 4.500  0.8517  109.2   0.924    9.9  0.2085   37.7  0.4492  157.4
 4.600  0.8529  108.2   0.903    8.9  0.2118   36.9  0.4560  156.5
 4.700  0.8543  107.3   0.881    7.8  0.2151   36.1  0.4628  155.6
 4.800  0.8560  106.3   0.861    6.6  0.2185   35.3  0.4698  154.7
 4.900  0.8579  105.4   0.840    5.5  0.2219   34.6  0.4769  153.9
 5.000  0.8601  104.4   0.820    4.2  0.2253   33.9  0.4841  153.1
 5.100  0.8611  103.5   0.806    3.2  0.2285   33.1  0.4910  152.5
 5.200  0.8622  102.5   0.792    2.2  0.2317   32.3  0.4979  151.9
 5.300  0.8637  101.6   0.778    1.2  0.2350   31.6  0.5049  151.3
 5.400  0.8653  100.6   0.764    0.1  0.2383   30.8  0.5119  150.7
 5.500  0.8672   99.7   0.751   -1.0  0.2417   30.1  0.5190  150.2
 5.600  0.8662   98.8   0.738   -1.9  0.2449   29.2  0.5230  149.7
 5.700  0.8654   97.8   0.725   -2.7  0.2481   28.4  0.5270  149.3
 5.800  0.8648   96.9   0.713   -3.7  0.2513   27.6  0.5311  148.8
 5.900  0.8645   95.9   0.700   -4.6  0.2546   26.8  0.5352  148.3
 6.000  0.8644   95.0   0.688   -5.6  0.2580   26.0  0.5393  147.9
!
!  f       NFmin   Gammaopt  rn/50
! GHz       dB    MAG  ANG    -
 0.450      1.58  0.55 -175   0.06
 0.900      1.70  0.58 -169   0.07
 1.900      2.54  0.70 -148   0.18
 2.400      2.95  0.74 -143   0.30
!
! (c) 2017  Infineon Technologies AG, Munich