! Infineon Technologies  Discrete & RF Semiconductors
! BFP196W
! VCE =  1.0 V,  IC =  10 mA
! Common Emitter S-Parameters:                            Jan 2017
# GHz  S  MA  R  50
!  f         S11            S21            S12            S22
! GHz     MAG   ANG      MAG   ANG      MAG   ANG      MAG   ANG
 0.010  0.6966  -15.0  30.615  173.8  0.0072   82.3  0.9796   -8.9
 0.020  0.6937  -31.8  29.709  165.7  0.0143   79.8  0.9539  -17.5
 0.030  0.6685  -44.4  28.204  160.0  0.0202   68.6  0.9025  -24.7
 0.040  0.6773  -57.4  27.006  153.8  0.0265   62.6  0.8670  -32.7
 0.050  0.7188  -69.4  26.158  147.0  0.0330   58.9  0.8493  -41.1
 0.060  0.6990  -77.5  24.573  143.8  0.0356   54.2  0.7968  -45.5
 0.070  0.6938  -85.9  23.075  140.2  0.0385   50.2  0.7496  -50.4
 0.080  0.7036  -94.2  21.681  136.1  0.0414   46.8  0.7087  -56.0
 0.090  0.7276 -102.2  20.415  131.4  0.0446   43.8  0.6753  -62.2
 0.100  0.7647 -109.5  19.299  126.2  0.0478   41.2  0.6505  -68.9
 0.110  0.7619 -113.9  18.303  124.3  0.0490   39.3  0.6196  -71.9
 0.120  0.7636 -118.3  17.329  122.2  0.0503   37.5  0.5905  -75.2
 0.130  0.7697 -122.6  16.380  119.9  0.0516   35.8  0.5635  -78.8
 0.140  0.7802 -126.9  15.463  117.3  0.0529   34.1  0.5390  -82.7
 0.150  0.7949 -131.0  14.582  114.3  0.0543   32.6  0.5173  -87.0
 0.200  0.8011 -143.6  11.479  106.6  0.0566   27.5  0.4404  -99.8
 0.250  0.8069 -152.5   9.427  101.0  0.0598   24.6  0.3928 -109.1
 0.300  0.8082 -158.4   7.947   97.1  0.0602   23.3  0.3571 -116.6
 0.350  0.8082 -162.7   6.997   94.4  0.0610   22.9  0.3387 -121.7
 0.400  0.8126 -166.9   6.068   90.8  0.0619   22.5  0.3233 -127.3
 0.450  0.8117 -169.8   5.470   88.7  0.0629   22.5  0.3142 -130.8
 0.500  0.8128 -172.6   4.880   86.2  0.0639   22.5  0.3064 -134.4
 0.600  0.8147 -177.0   4.090   82.3  0.0655   23.7  0.2981 -139.9
 0.700  0.8139  179.6   3.506   78.9  0.0665   25.2  0.2908 -143.6
 0.800  0.8150  176.1   3.076   75.4  0.0679   26.8  0.2907 -145.9
 0.900  0.8149  173.2   2.732   72.4  0.0702   28.2  0.2931 -148.4
 1.000  0.8171  170.7   2.471   69.5  0.0719   29.6  0.2939 -150.6
 1.100  0.8188  168.1   2.251   66.7  0.0740   31.4  0.2960 -151.9
 1.200  0.8201  165.7   2.066   63.9  0.0765   32.1  0.2993 -153.1
 1.300  0.8202  163.5   1.908   61.4  0.0788   33.7  0.3057 -154.4
 1.400  0.8243  161.4   1.783   58.7  0.0813   35.3  0.3109 -156.1
 1.500  0.8282  159.2   1.663   56.2  0.0840   36.3  0.3148 -157.3
 1.600  0.8320  157.2   1.566   53.6  0.0875   37.5  0.3213 -158.2
 1.700  0.8340  155.0   1.479   51.2  0.0903   38.6  0.3302 -159.6
 1.800  0.8366  152.9   1.406   48.6  0.0934   39.2  0.3372 -161.1
 1.900  0.8401  151.0   1.331   46.5  0.0970   40.0  0.3439 -162.2
 2.000  0.8413  148.9   1.264   43.8  0.1001   40.5  0.3511 -163.2
 2.100  0.8432  146.9   1.207   41.6  0.1040   41.0  0.3601 -164.5
 2.200  0.8462  144.9   1.153   39.1  0.1079   41.5  0.3693 -165.8
 2.300  0.8491  143.1   1.105   37.0  0.1118   41.9  0.3775 -166.9
 2.400  0.8528  141.4   1.058   34.8  0.1158   42.3  0.3858 -167.9
 2.500  0.8539  139.6   1.015   32.8  0.1194   42.4  0.3961 -169.3
 2.600  0.8557  137.9   0.973   30.7  0.1231   42.5  0.4066 -170.6
 2.700  0.8582  136.1   0.937   28.9  0.1273   42.5  0.4141 -171.7
 2.800  0.8616  134.4   0.903   26.9  0.1315   42.5  0.4218 -172.7
 2.900  0.8622  132.7   0.871   25.1  0.1355   42.2  0.4315 -174.2
 3.000  0.8635  131.1   0.840   23.1  0.1396   42.0  0.4415 -175.7
 3.100  0.8649  129.5   0.814   21.7  0.1437   41.7  0.4489 -177.1
 3.200  0.8670  127.9   0.789   20.1  0.1479   41.5  0.4566 -178.4
 3.300  0.8697  126.3   0.765   18.5  0.1520   41.2  0.4645 -179.7
 3.400  0.8731  124.8   0.741   16.8  0.1562   41.0  0.4727  179.1
 3.500  0.8772  123.2   0.718   14.9  0.1603   40.8  0.4810  177.9
 3.600  0.8778  121.7   0.698   13.7  0.1646   40.2  0.4895  176.5
 3.700  0.8790  120.2   0.679   12.3  0.1689   39.7  0.4983  175.1
 3.800  0.8808  118.7   0.660   10.9  0.1732   39.2  0.5073  173.8
 3.900  0.8831  117.3   0.642    9.5  0.1775   38.8  0.5166  172.5
 4.000  0.8861  115.8   0.624    7.9  0.1818   38.3  0.5262  171.3
 4.100  0.8859  114.5   0.608    6.8  0.1859   37.6  0.5351  169.7
 4.200  0.8861  113.2   0.593    5.7  0.1900   36.9  0.5444  168.1
 4.300  0.8868  111.9   0.578    4.5  0.1942   36.2  0.5541  166.6
 4.400  0.8879  110.6   0.563    3.3  0.1984   35.6  0.5642  165.1
 4.500  0.8895  109.3   0.548    2.0  0.2026   35.0  0.5746  163.7
 4.600  0.8900  108.3   0.536    1.3  0.2065   34.3  0.5823  162.3
 4.700  0.8908  107.2   0.523    0.6  0.2104   33.6  0.5902  161.0
 4.800  0.8919  106.2   0.511   -0.1  0.2144   32.9  0.5985  159.8
 4.900  0.8933  105.1   0.499   -0.9  0.2184   32.2  0.6071  158.5
 5.000  0.8950  104.1   0.487   -1.7  0.2224   31.6  0.6159  157.3
 5.100  0.8956  103.1   0.479   -2.2  0.2263   30.8  0.6242  156.3
 5.200  0.8965  102.2   0.472   -2.8  0.2303   30.1  0.6326  155.3
 5.300  0.8976  101.2   0.464   -3.4  0.2343   29.4  0.6412  154.4
 5.400  0.8990  100.3   0.457   -4.0  0.2383   28.7  0.6500  153.5
 5.500  0.9006   99.3   0.449   -4.6  0.2424   28.0  0.6590  152.6
 5.600  0.8989   98.4   0.442   -5.0  0.2460   27.2  0.6636  151.7
 5.700  0.8975   97.4   0.435   -5.3  0.2496   26.4  0.6684  150.9
 5.800  0.8963   96.5   0.429   -5.7  0.2533   25.6  0.6733  150.0
 5.900  0.8953   95.5   0.422   -6.1  0.2570   24.8  0.6784  149.2
 6.000  0.8946   94.6   0.415   -6.5  0.2608   24.1  0.6836  148.4
!
!  f       NFmin   Gammaopt  rn/50
! GHz       dB    MAG  ANG    -
 0.450      0.91  0.36  146   0.06
 0.900      1.19  0.53  168   0.05
 1.900      2.27  0.71 -158   0.10
 2.400      2.77  0.76 -149   0.22
!
! (c) 2017  Infineon Technologies AG, Munich