! Infineon Technologies  Discrete & RF Semiconductors
! BFP196W
! VCE =  7.0 V,  IC =  30 mA
! Common Emitter S-Parameters:                            Jan 2017
# GHz  S  MA  R  50
!  f         S11            S21            S12            S22
! GHz     MAG   ANG      MAG   ANG      MAG   ANG      MAG   ANG
 0.010  0.4334  -25.0  62.947  171.3  0.0037   82.0  0.9668  -11.1
 0.020  0.4603  -49.8  60.586  161.9  0.0071   74.9  0.9284  -21.5
 0.030  0.4638  -67.2  56.083  155.7  0.0099   65.8  0.8579  -29.5
 0.040  0.5073  -82.9  52.337  148.6  0.0127   60.8  0.8068  -38.7
 0.050  0.5819  -95.4  49.519  140.5  0.0157   57.6  0.7788  -48.8
 0.060  0.5837 -103.4  45.979  137.6  0.0168   53.9  0.7227  -53.0
 0.070  0.5968 -111.3  42.578  134.2  0.0180   50.7  0.6712  -57.9
 0.080  0.6205 -118.7  39.352  130.2  0.0193   47.8  0.6254  -63.6
 0.090  0.6536 -125.4  36.349  125.5  0.0206   45.4  0.5866  -70.1
 0.100  0.6948 -131.4  33.627  120.1  0.0219   43.2  0.5564  -77.4
 0.110  0.6989 -134.8  31.719  118.5  0.0225   42.0  0.5278  -80.3
 0.120  0.7055 -138.1  29.838  116.7  0.0231   40.9  0.5007  -83.5
 0.130  0.7144 -141.4  27.990  114.7  0.0237   39.8  0.4754  -87.1
 0.140  0.7255 -144.5  26.183  112.4  0.0244   38.8  0.4522  -91.1
 0.150  0.7388 -147.6  24.425  109.7  0.0250   37.8  0.4314  -95.5
 0.200  0.7534 -156.7  18.886  103.2  0.0261   37.7  0.3656 -107.5
 0.250  0.7626 -163.1  15.355   98.6  0.0277   37.6  0.3249 -116.8
 0.300  0.7656 -167.5  12.891   95.4  0.0289   39.3  0.2993 -124.0
 0.350  0.7672 -170.6  11.332   93.2  0.0308   40.8  0.2843 -128.9
 0.400  0.7710 -173.6   9.794   90.4  0.0328   42.2  0.2715 -134.2
 0.450  0.7704 -175.8   8.821   88.8  0.0342   44.1  0.2640 -137.5
 0.500  0.7710 -178.1   7.857   86.7  0.0356   45.9  0.2575 -140.9
 0.600  0.7728  178.4   6.574   83.4  0.0404   48.4  0.2517 -146.1
 0.700  0.7742  175.5   5.632   80.8  0.0430   50.9  0.2462 -149.7
 0.800  0.7768  172.7   4.937   77.9  0.0475   53.6  0.2447 -152.3
 0.900  0.7758  170.3   4.380   75.4  0.0525   54.3  0.2442 -154.4
 1.000  0.7790  167.9   3.961   73.0  0.0560   55.1  0.2443 -156.6
 1.100  0.7794  165.7   3.605   70.7  0.0607   56.0  0.2453 -157.8
 1.200  0.7801  163.4   3.305   68.3  0.0645   56.7  0.2462 -159.3
 1.300  0.7816  161.2   3.054   66.1  0.0690   57.1  0.2481 -160.6
 1.400  0.7843  159.3   2.849   63.9  0.0740   57.3  0.2511 -161.8
 1.500  0.7867  157.4   2.656   61.7  0.0781   57.3  0.2543 -163.0
 1.600  0.7896  155.4   2.500   59.5  0.0829   57.3  0.2571 -163.9
 1.700  0.7918  153.4   2.360   57.3  0.0877   57.2  0.2620 -165.1
 1.800  0.7951  151.4   2.238   55.1  0.0922   56.5  0.2661 -166.1
 1.900  0.7971  149.7   2.121   53.2  0.0967   56.4  0.2706 -167.1
 2.000  0.7988  147.7   2.014   50.9  0.1009   56.1  0.2758 -168.1
 2.100  0.8012  145.8   1.923   48.9  0.1054   55.6  0.2815 -169.1
 2.200  0.8044  143.9   1.834   46.6  0.1100   55.1  0.2872 -170.1
 2.300  0.8068  142.2   1.757   44.7  0.1145   54.5  0.2933 -171.0
 2.400  0.8100  140.5   1.682   42.7  0.1191   53.9  0.2995 -171.9
 2.500  0.8114  138.8   1.615   40.8  0.1232   53.2  0.3058 -172.9
 2.600  0.8134  137.2   1.549   38.8  0.1274   52.6  0.3122 -173.8
 2.700  0.8165  135.5   1.492   37.0  0.1316   51.9  0.3183 -174.8
 2.800  0.8203  133.9   1.437   35.1  0.1358   51.2  0.3244 -175.7
 2.900  0.8211  132.3   1.387   33.4  0.1399   50.4  0.3309 -176.7
 3.000  0.8225  130.7   1.338   31.5  0.1441   49.7  0.3375 -177.7
 3.100  0.8244  129.2   1.297   30.0  0.1481   49.0  0.3434 -178.8
 3.200  0.8269  127.7   1.258   28.4  0.1521   48.3  0.3495 -179.9
 3.300  0.8299  126.2   1.219   26.7  0.1562   47.6  0.3556  179.0
 3.400  0.8335  124.7   1.181   24.9  0.1602   47.0  0.3619  178.0
 3.500  0.8377  123.2   1.145   23.0  0.1643   46.4  0.3683  177.0
 3.600  0.8389  121.8   1.114   21.6  0.1681   45.6  0.3749  175.8
 3.700  0.8406  120.3   1.084   20.1  0.1720   44.8  0.3817  174.6
 3.800  0.8428  118.9   1.054   18.5  0.1759   44.0  0.3886  173.5
 3.900  0.8455  117.5   1.026   16.9  0.1798   43.3  0.3957  172.4
 4.000  0.8488  116.1   0.998   15.1  0.1838   42.6  0.4029  171.3
 4.100  0.8496  114.8   0.972   13.8  0.1874   41.7  0.4103  170.0
 4.200  0.8508  113.6   0.947   12.4  0.1911   40.9  0.4179  168.7
 4.300  0.8525  112.3   0.923   11.0  0.1948   40.0  0.4257  167.5
 4.400  0.8545  111.0   0.899    9.5  0.1985   39.3  0.4337  166.3
 4.500  0.8570  109.8   0.876    7.9  0.2023   38.5  0.4419  165.2
 4.600  0.8582  108.8   0.855    6.9  0.2058   37.7  0.4499  164.1
 4.700  0.8596  107.8   0.834    5.8  0.2093   36.9  0.4581  163.0
 4.800  0.8613  106.8   0.814    4.7  0.2128   36.2  0.4664  162.0
 4.900  0.8632  105.8   0.794    3.5  0.2164   35.5  0.4749  161.0
 5.000  0.8654  104.8   0.774    2.2  0.2200   34.8  0.4835  160.0
 5.100  0.8664  103.9   0.760    1.3  0.2234   34.0  0.4916  159.2
 5.200  0.8676  103.0   0.745    0.4  0.2269   33.3  0.4998  158.4
 5.300  0.8690  102.0   0.731   -0.6  0.2305   32.6  0.5081  157.7
 5.400  0.8706  101.1   0.718   -1.6  0.2340   31.9  0.5165  157.0
 5.500  0.8725  100.2   0.704   -2.7  0.2376   31.2  0.5249  156.3
 5.600  0.8716   99.2   0.691   -3.5  0.2410   30.4  0.5302  155.7
 5.700  0.8709   98.2   0.679   -4.4  0.2445   29.5  0.5356  155.0
 5.800  0.8704   97.3   0.667   -5.2  0.2480   28.7  0.5410  154.4
 5.900  0.8702   96.3   0.655   -6.2  0.2516   28.0  0.5465  153.8
 6.000  0.8703   95.3   0.643   -7.1  0.2552   27.2  0.5521  153.2
!
!  f       NFmin   Gammaopt  rn/50
! GHz       dB    MAG  ANG    -
 0.450      1.13  0.45  178   0.05
 0.900      1.29  0.52 -176   0.06
 1.900      2.14  0.68 -151   0.13
 2.400      2.54  0.73 -146   0.22
!
! (c) 2017  Infineon Technologies AG, Munich