! Infineon Technologies  Discrete & RF Semiconductors
! BFP196W
! VCE =  4.0 V,  IC =  50 mA
! Common Emitter S-Parameters:                            Jan 2017
# GHz  S  MA  R  50
!  f         S11            S21            S12            S22
! GHz     MAG   ANG      MAG   ANG      MAG   ANG      MAG   ANG
 0.010  0.2437  -55.4  81.548  168.3  0.0033   74.5  0.9424  -16.0
 0.020  0.3590  -87.2  76.774  156.4  0.0063   67.7  0.8916  -30.9
 0.030  0.4128 -104.9  68.745  149.9  0.0085   59.7  0.7942  -40.6
 0.040  0.4956 -117.5  61.828  141.8  0.0107   55.0  0.7256  -52.6
 0.050  0.5955 -126.3  56.435  131.9  0.0130   51.9  0.6942  -66.4
 0.060  0.6106 -132.0  51.786  129.4  0.0137   49.6  0.6405  -71.3
 0.070  0.6316 -137.5  47.256  126.4  0.0145   47.6  0.5923  -77.0
 0.080  0.6578 -142.5  42.883  122.8  0.0152   45.8  0.5510  -83.7
 0.090  0.6887 -147.1  38.720  118.3  0.0160   44.1  0.5184  -91.3
 0.100  0.7236 -151.3  34.841  112.9  0.0168   42.6  0.4960  -99.8
 0.110  0.7295 -153.4  32.714  111.6  0.0172   42.1  0.4751 -103.1
 0.120  0.7363 -155.5  30.606  110.2  0.0176   41.6  0.4560 -106.6
 0.130  0.7442 -157.6  28.521  108.5  0.0181   41.2  0.4387 -110.5
 0.140  0.7530 -159.6  26.463  106.6  0.0185   40.7  0.4236 -114.7
 0.150  0.7627 -161.6  24.441  104.3  0.0189   40.3  0.4109 -119.1
 0.200  0.7729 -167.8  18.646   99.0  0.0201   43.8  0.3740 -130.9
 0.250  0.7797 -171.9  15.026   95.2  0.0225   45.9  0.3528 -139.5
 0.300  0.7839 -174.8  12.570   92.6  0.0238   48.8  0.3408 -145.5
 0.350  0.7846 -177.1  11.034   90.7  0.0263   51.2  0.3337 -149.4
 0.400  0.7865 -179.4   9.514   88.3  0.0289   53.1  0.3283 -153.5
 0.450  0.7862  179.0   8.562   86.9  0.0308   54.9  0.3253 -156.1
 0.500  0.7866  177.4   7.616   85.1  0.0328   56.5  0.3229 -158.7
 0.600  0.7895  174.6   6.369   82.2  0.0379   58.7  0.3213 -162.5
 0.700  0.7881  172.2   5.456   79.8  0.0423   60.6  0.3187 -165.1
 0.800  0.7898  169.6   4.779   77.1  0.0484   62.0  0.3189 -167.2
 0.900  0.7893  167.5   4.241   74.9  0.0534   61.6  0.3189 -168.9
 1.000  0.7908  165.4   3.835   72.6  0.0582   62.3  0.3195 -170.7
 1.100  0.7939  163.3   3.493   70.5  0.0632   62.4  0.3203 -171.8
 1.200  0.7943  161.3   3.202   68.2  0.0684   62.0  0.3206 -173.1
 1.300  0.7942  159.2   2.962   66.1  0.0734   62.3  0.3221 -174.2
 1.400  0.7961  157.5   2.763   64.0  0.0790   62.1  0.3249 -175.4
 1.500  0.7992  155.7   2.578   61.9  0.0839   61.3  0.3273 -176.5
 1.600  0.8023  153.7   2.427   59.7  0.0889   61.0  0.3295 -177.4
 1.700  0.8040  151.7   2.292   57.7  0.0940   60.6  0.3328 -178.4
 1.800  0.8072  149.7   2.176   55.4  0.0992   59.7  0.3366 -179.5
 1.900  0.8092  148.2   2.060   53.6  0.1042   59.0  0.3402  179.6
 2.000  0.8095  146.3   1.958   51.4  0.1093   58.4  0.3443  178.8
 2.100  0.8111  144.4   1.870   49.4  0.1140   57.5  0.3488  177.8
 2.200  0.8136  142.6   1.785   47.3  0.1188   56.7  0.3533  176.9
 2.300  0.8159  140.9   1.710   45.4  0.1237   55.8  0.3583  176.0
 2.400  0.8190  139.2   1.638   43.3  0.1287   54.9  0.3633  175.2
 2.500  0.8200  137.6   1.573   41.5  0.1331   54.0  0.3682  174.3
 2.600  0.8216  136.0   1.510   39.6  0.1375   53.2  0.3732  173.5
 2.700  0.8239  134.3   1.455   37.9  0.1416   52.3  0.3781  172.7
 2.800  0.8268  132.7   1.401   36.1  0.1458   51.4  0.3830  171.9
 2.900  0.8282  131.1   1.354   34.4  0.1500   50.4  0.3881  171.0
 3.000  0.8303  129.6   1.308   32.6  0.1543   49.5  0.3933  170.1
 3.100  0.8320  128.1   1.269   31.1  0.1583   48.6  0.3978  169.1
 3.200  0.8342  126.6   1.231   29.6  0.1623   47.8  0.4024  168.2
 3.300  0.8370  125.1   1.194   27.9  0.1663   47.0  0.4071  167.2
 3.400  0.8403  123.7   1.158   26.2  0.1704   46.2  0.4120  166.3
 3.500  0.8442  122.2   1.123   24.3  0.1745   45.5  0.4169  165.4
 3.600  0.8452  120.8   1.093   22.9  0.1782   44.5  0.4221  164.3
 3.700  0.8467  119.4   1.064   21.5  0.1820   43.6  0.4275  163.3
 3.800  0.8487  118.0   1.036   20.0  0.1858   42.8  0.4331  162.3
 3.900  0.8513  116.6   1.009   18.4  0.1897   41.9  0.4387  161.3
 4.000  0.8543  115.2   0.982   16.7  0.1936   41.1  0.4445  160.3
 4.100  0.8545  114.0   0.958   15.4  0.1971   40.1  0.4507  159.2
 4.200  0.8551  112.7   0.935   14.1  0.2006   39.2  0.4571  158.1
 4.300  0.8561  111.5   0.912   12.7  0.2041   38.3  0.4637  157.1
 4.400  0.8575  110.2   0.890   11.2  0.2077   37.4  0.4704  156.1
 4.500  0.8593  109.0   0.868    9.7  0.2114   36.6  0.4772  155.1
 4.600  0.8604  108.0   0.848    8.7  0.2146   35.8  0.4839  154.2
 4.700  0.8617  107.0   0.828    7.7  0.2178   35.0  0.4907  153.3
 4.800  0.8633  106.0   0.809    6.6  0.2211   34.3  0.4976  152.4
 4.900  0.8652  105.1   0.790    5.4  0.2244   33.5  0.5046  151.6
 5.000  0.8673  104.1   0.771    4.2  0.2277   32.8  0.5117  150.8
 5.100  0.8682  103.2   0.758    3.3  0.2310   32.0  0.5183  150.2
 5.200  0.8693  102.3   0.746    2.3  0.2343   31.2  0.5249  149.6
 5.300  0.8706  101.5   0.733    1.4  0.2377   30.5  0.5316  149.0
 5.400  0.8721  100.6   0.721    0.3  0.2411   29.7  0.5384  148.5
 5.500  0.8738   99.7   0.709   -0.7  0.2445   29.0  0.5452  147.9
 5.600  0.8728   98.7   0.697   -1.6  0.2476   28.2  0.5489  147.4
 5.700  0.8720   97.7   0.685   -2.4  0.2508   27.3  0.5526  146.9
 5.800  0.8714   96.8   0.673   -3.4  0.2541   26.5  0.5563  146.4
 5.900  0.8711   95.8   0.661   -4.3  0.2574   25.8  0.5601  146.0
 6.000  0.8711   94.8   0.650   -5.3  0.2607   25.0  0.5639  145.5
!
!  f       NFmin   Gammaopt  rn/50
! GHz       dB    MAG  ANG    -
 0.450      1.36  0.51 -177   0.05
 0.900      1.48  0.55 -171   0.07
 1.900      2.30  0.69 -149   0.16
 2.400      2.70  0.73 -144   0.26
!
! (c) 2017  Infineon Technologies AG, Munich