! Infineon Technologies  Discrete & RF Semiconductors
! BFP196W
! VCE =  9.0 V,  IC =  75 mA
! Common Emitter S-Parameters:                            Jan 2017
# GHz  S  MA  R  50
!  f         S11            S21            S12            S22
! GHz     MAG   ANG      MAG   ANG      MAG   ANG      MAG   ANG
 0.010  0.2518  -52.2  90.244  167.9  0.0034   76.7  0.9164  -15.2
 0.020  0.3593  -84.6  84.673  156.1  0.0062   71.1  0.8613  -29.6
 0.030  0.4082 -102.6  75.780  149.6  0.0079   62.2  0.7681  -38.9
 0.040  0.4876 -115.8  68.100  141.6  0.0096   56.5  0.7003  -50.4
 0.050  0.5853 -125.0  62.087  131.7  0.0115   52.6  0.6657  -63.7
 0.060  0.5993 -130.9  56.958  129.2  0.0122   50.3  0.6125  -68.2
 0.070  0.6192 -136.5  51.958  126.2  0.0129   48.3  0.5638  -73.6
 0.080  0.6446 -141.6  47.127  122.6  0.0136   46.4  0.5209  -79.9
 0.090  0.6749 -146.4  42.525  118.2  0.0143   44.8  0.4855  -87.3
 0.100  0.7094 -150.7  38.233  112.8  0.0150   43.3  0.4592  -95.6
 0.110  0.7148 -152.9  35.898  111.5  0.0154   43.3  0.4381  -98.7
 0.120  0.7213 -155.1  33.583  110.1  0.0157   43.2  0.4184 -102.1
 0.130  0.7287 -157.2  31.293  108.4  0.0161   43.2  0.4003 -105.9
 0.140  0.7372 -159.3  29.034  106.5  0.0164   43.1  0.3841 -110.0
 0.150  0.7466 -161.3  26.813  104.2  0.0168   43.1  0.3700 -114.4
 0.200  0.7548 -167.3  20.440   98.9  0.0182   46.8  0.3291 -126.1
 0.250  0.7620 -171.6  16.481   95.2  0.0207   49.7  0.3052 -134.9
 0.300  0.7660 -174.6  13.781   92.6  0.0225   51.4  0.2920 -141.0
 0.350  0.7665 -176.9  12.095   90.8  0.0247   54.4  0.2843 -145.1
 0.400  0.7682 -179.1  10.424   88.4  0.0270   56.9  0.2781 -149.5
 0.450  0.7675  179.3   9.382   87.0  0.0293   58.3  0.2745 -152.2
 0.500  0.7675  177.6   8.348   85.2  0.0317   59.4  0.2716 -154.9
 0.600  0.7704  174.7   6.982   82.4  0.0368   60.6  0.2696 -158.6
 0.700  0.7719  172.3   5.979   80.0  0.0405   62.8  0.2668 -161.6
 0.800  0.7715  169.9   5.239   77.3  0.0465   64.3  0.2664 -163.6
 0.900  0.7714  167.7   4.648   75.0  0.0511   64.2  0.2665 -165.3
 1.000  0.7722  165.5   4.200   72.8  0.0561   64.4  0.2668 -167.0
 1.100  0.7763  163.6   3.825   70.7  0.0612   64.8  0.2682 -168.0
 1.200  0.7770  161.6   3.505   68.4  0.0663   64.2  0.2685 -169.2
 1.300  0.7750  159.4   3.238   66.3  0.0709   64.0  0.2705 -170.3
 1.400  0.7791  157.6   3.024   64.2  0.0762   63.4  0.2730 -171.4
 1.500  0.7816  155.9   2.820   62.1  0.0810   62.9  0.2756 -172.4
 1.600  0.7861  153.9   2.654   60.0  0.0863   62.3  0.2780 -173.3
 1.700  0.7856  152.0   2.503   57.9  0.0909   61.8  0.2819 -174.4
 1.800  0.7888  150.0   2.376   55.7  0.0958   61.0  0.2854 -175.2
 1.900  0.7925  148.4   2.250   53.9  0.1009   60.7  0.2894 -176.0
 2.000  0.7938  146.5   2.138   51.7  0.1055   59.7  0.2935 -176.9
 2.100  0.7955  144.6   2.041   49.7  0.1103   58.7  0.2982 -177.8
 2.200  0.7980  142.8   1.947   47.6  0.1152   57.8  0.3030 -178.7
 2.300  0.8005  141.1   1.865   45.7  0.1200   57.1  0.3084 -179.5
 2.400  0.8037  139.5   1.786   43.7  0.1248   56.4  0.3138  179.7
 2.500  0.8047  137.9   1.715   41.9  0.1290   55.4  0.3189  178.9
 2.600  0.8063  136.3   1.645   40.0  0.1332   54.5  0.3240  178.2
 2.700  0.8092  134.7   1.585   38.3  0.1375   53.6  0.3292  177.3
 2.800  0.8127  133.1   1.526   36.4  0.1419   52.8  0.3345  176.5
 2.900  0.8139  131.5   1.473   34.7  0.1463   51.8  0.3401  175.6
 3.000  0.8158  129.9   1.421   32.9  0.1507   50.9  0.3458  174.8
 3.100  0.8177  128.4   1.379   31.4  0.1545   50.0  0.3507  173.8
 3.200  0.8202  126.9   1.337   29.8  0.1584   49.1  0.3556  172.9
 3.300  0.8232  125.5   1.297   28.2  0.1623   48.3  0.3607  172.0
 3.400  0.8267  124.0   1.258   26.4  0.1662   47.5  0.3659  171.1
 3.500  0.8308  122.6   1.220   24.5  0.1702   46.8  0.3711  170.2
 3.600  0.8319  121.2   1.187   23.1  0.1739   45.8  0.3768  169.1
 3.700  0.8335  119.8   1.155   21.6  0.1777   44.9  0.3826  168.0
 3.800  0.8356  118.4   1.124   20.1  0.1815   44.0  0.3886  167.0
 3.900  0.8382  117.0   1.093   18.4  0.1854   43.2  0.3947  166.0
 4.000  0.8413  115.6   1.064   16.7  0.1893   42.4  0.4009  165.0
 4.100  0.8418  114.4   1.037   15.4  0.1927   41.5  0.4073  163.8
 4.200  0.8427  113.1   1.011   14.0  0.1962   40.6  0.4138  162.7
 4.300  0.8440  111.9   0.986   12.6  0.1997   39.7  0.4205  161.7
 4.400  0.8457  110.6   0.961   11.1  0.2033   38.9  0.4273  160.6
 4.500  0.8478  109.4   0.937    9.5  0.2069   38.1  0.4343  159.6
 4.600  0.8493  108.4   0.915    8.4  0.2101   37.3  0.4415  158.7
 4.700  0.8510  107.4   0.894    7.3  0.2134   36.6  0.4488  157.8
 4.800  0.8530  106.4   0.872    6.2  0.2168   35.8  0.4562  156.9
 4.900  0.8553  105.4   0.851    5.0  0.2201   35.1  0.4637  156.0
 5.000  0.8578  104.4   0.831    3.7  0.2235   34.4  0.4713  155.2
 5.100  0.8589  103.5   0.816    2.8  0.2268   33.6  0.4785  154.6
 5.200  0.8601  102.6   0.802    1.8  0.2301   32.8  0.4857  153.9
 5.300  0.8616  101.8   0.788    0.7  0.2334   32.0  0.4930  153.3
 5.400  0.8632  100.9   0.774   -0.3  0.2368   31.2  0.5004  152.8
 5.500  0.8651  100.0   0.760   -1.4  0.2402   30.5  0.5078  152.2
 5.600  0.8643   99.1   0.747   -2.3  0.2434   29.7  0.5122  151.7
 5.700  0.8637   98.1   0.733   -3.2  0.2466   28.9  0.5167  151.2
 5.800  0.8633   97.2   0.720   -4.2  0.2499   28.1  0.5212  150.7
 5.900  0.8632   96.2   0.708   -5.2  0.2532   27.3  0.5257  150.3
 6.000  0.8633   95.3   0.695   -6.2  0.2566   26.6  0.5303  149.8
!
!  f       NFmin   Gammaopt  rn/50
! GHz       dB    MAG  ANG    -
 0.450      1.62  0.56 -175   0.06
 0.900      1.75  0.59 -169   0.07
 1.900      2.61  0.70 -148   0.19
 2.400      3.01  0.74 -143   0.31
!
! (c) 2017  Infineon Technologies AG, Munich