! Infineon Technologies  Discrete & RF Semiconductors
! BFP196W
! VCE =  9.0 V,  IC =  30 mA
! Common Emitter S-Parameters:                            Jan 2017
# GHz  S  MA  R  50
!  f         S11            S21            S12            S22
! GHz     MAG   ANG      MAG   ANG      MAG   ANG      MAG   ANG
 0.010  0.4584  -22.8  62.044  171.6  0.0038   78.3  0.9620  -10.6
 0.020  0.4787  -46.3  59.587  162.5  0.0073   74.5  0.9301  -20.5
 0.030  0.4769  -63.1  55.432  156.4  0.0100   65.8  0.8627  -28.1
 0.040  0.5142  -78.6  51.999  149.4  0.0129   60.8  0.8129  -36.9
 0.050  0.5833  -91.3  49.438  141.6  0.0158   57.7  0.7842  -46.5
 0.060  0.5831  -99.5  45.985  138.6  0.0170   54.1  0.7290  -50.6
 0.070  0.5946 -107.5  42.675  135.2  0.0183   51.0  0.6781  -55.4
 0.080  0.6173 -115.1  39.545  131.2  0.0197   48.4  0.6326  -60.9
 0.090  0.6499 -122.0  36.640  126.5  0.0211   46.0  0.5938  -67.1
 0.100  0.6910 -128.2  34.018  121.1  0.0225   44.0  0.5631  -74.2
 0.110  0.6943 -131.8  32.113  119.5  0.0230   42.6  0.5338  -77.0
 0.120  0.7003 -135.3  30.237  117.6  0.0234   41.3  0.5059  -80.1
 0.130  0.7088 -138.7  28.397  115.6  0.0239   40.1  0.4797  -83.6
 0.140  0.7199 -142.1  26.599  113.2  0.0244   38.9  0.4554  -87.5
 0.150  0.7333 -145.3  24.852  110.5  0.0249   37.7  0.4335  -91.8
 0.200  0.7480 -155.0  19.269  103.9  0.0263   36.8  0.3638 -103.6
 0.250  0.7564 -161.6  15.677   99.2  0.0283   37.7  0.3191 -112.7
 0.300  0.7605 -166.2  13.175   95.9  0.0296   39.6  0.2916 -119.8
 0.350  0.7616 -169.5  11.584   93.7  0.0309   41.1  0.2753 -124.7
 0.400  0.7651 -172.7  10.017   90.7  0.0323   42.5  0.2612 -130.2
 0.450  0.7653 -175.0   9.021   89.1  0.0343   43.8  0.2528 -133.5
 0.500  0.7668 -177.3   8.034   87.0  0.0363   44.9  0.2454 -137.1
 0.600  0.7690  179.1   6.726   83.7  0.0398   47.5  0.2386 -142.4
 0.700  0.7695  176.1   5.760   81.0  0.0426   50.6  0.2323 -146.1
 0.800  0.7720  173.1   5.053   78.1  0.0477   53.1  0.2305 -148.8
 0.900  0.7705  170.6   4.483   75.6  0.0516   53.7  0.2300 -151.1
 1.000  0.7723  168.2   4.052   73.2  0.0552   54.9  0.2297 -153.2
 1.100  0.7750  166.0   3.689   70.9  0.0599   55.5  0.2307 -154.5
 1.200  0.7757  163.7   3.381   68.5  0.0641   56.1  0.2313 -155.9
 1.300  0.7764  161.5   3.123   66.3  0.0682   56.5  0.2339 -157.2
 1.400  0.7793  159.7   2.914   64.0  0.0730   57.2  0.2366 -158.6
 1.500  0.7833  157.8   2.717   61.9  0.0771   56.8  0.2394 -159.8
 1.600  0.7841  155.7   2.556   59.6  0.0817   56.9  0.2429 -160.8
 1.700  0.7869  153.6   2.413   57.5  0.0864   57.0  0.2473 -161.9
 1.800  0.7897  151.7   2.290   55.2  0.0905   56.4  0.2518 -163.1
 1.900  0.7924  149.9   2.169   53.3  0.0949   56.5  0.2570 -164.1
 2.000  0.7935  148.0   2.059   51.0  0.0995   55.9  0.2618 -165.1
 2.100  0.7956  146.0   1.965   49.0  0.1039   55.4  0.2675 -166.2
 2.200  0.7987  144.1   1.873   46.8  0.1083   55.0  0.2733 -167.2
 2.300  0.8017  142.4   1.795   44.8  0.1127   54.5  0.2796 -168.2
 2.400  0.8054  140.7   1.719   42.7  0.1172   54.0  0.2859 -169.1
 2.500  0.8068  139.0   1.650   40.9  0.1214   53.3  0.2925 -170.1
 2.600  0.8089  137.4   1.582   38.9  0.1257   52.7  0.2991 -171.0
 2.700  0.8119  135.7   1.524   37.1  0.1300   52.1  0.3055 -172.0
 2.800  0.8156  134.1   1.468   35.2  0.1343   51.5  0.3119 -173.0
 2.900  0.8170  132.5   1.416   33.5  0.1383   50.8  0.3185 -174.1
 3.000  0.8190  131.0   1.366   31.6  0.1423   50.1  0.3252 -175.1
 3.100  0.8210  129.5   1.324   30.1  0.1463   49.4  0.3313 -176.2
 3.200  0.8235  127.9   1.284   28.5  0.1503   48.7  0.3375 -177.3
 3.300  0.8266  126.4   1.244   26.8  0.1543   48.1  0.3439 -178.4
 3.400  0.8303  124.9   1.206   24.9  0.1583   47.5  0.3503 -179.4
 3.500  0.8346  123.4   1.169   23.0  0.1624   46.9  0.3569  179.6
 3.600  0.8358  121.9   1.137   21.6  0.1663   46.0  0.3636  178.3
 3.700  0.8375  120.5   1.106   20.1  0.1701   45.2  0.3704  177.1
 3.800  0.8397  119.1   1.075   18.5  0.1741   44.5  0.3775  175.9
 3.900  0.8425  117.6   1.046   16.9  0.1780   43.7  0.3847  174.7
 4.000  0.8458  116.2   1.017   15.1  0.1820   43.0  0.3920  173.6
 4.100  0.8465  115.0   0.991   13.8  0.1856   42.1  0.3995  172.2
 4.200  0.8476  113.7   0.966   12.4  0.1892   41.2  0.4073  170.9
 4.300  0.8491  112.5   0.941   11.0  0.1929   40.4  0.4153  169.6
 4.400  0.8510  111.2   0.917    9.5  0.1966   39.6  0.4234  168.4
 4.500  0.8533  110.0   0.893    7.9  0.2004   38.8  0.4318  167.2
 4.600  0.8546  109.0   0.871    6.9  0.2039   38.1  0.4399  166.1
 4.700  0.8562  107.9   0.850    5.8  0.2074   37.4  0.4482  165.0
 4.800  0.8580  106.9   0.829    4.7  0.2110   36.7  0.4566  163.9
 4.900  0.8601  105.9   0.808    3.5  0.2146   36.0  0.4652  162.9
 5.000  0.8625  104.9   0.788    2.2  0.2182   35.4  0.4739  161.9
 5.100  0.8637  104.0   0.773    1.3  0.2217   34.6  0.4823  161.1
 5.200  0.8651  103.0   0.759    0.3  0.2252   33.8  0.4907  160.3
 5.300  0.8667  102.1   0.745   -0.7  0.2288   33.0  0.4993  159.5
 5.400  0.8686  101.1   0.731   -1.8  0.2324   32.3  0.5080  158.7
 5.500  0.8707  100.2   0.717   -2.9  0.2361   31.6  0.5167  158.0
 5.600  0.8698   99.3   0.704   -3.7  0.2394   30.8  0.5223  157.3
 5.700  0.8690   98.3   0.690   -4.6  0.2428   30.0  0.5281  156.7
 5.800  0.8686   97.4   0.677   -5.5  0.2462   29.2  0.5338  156.0
 5.900  0.8683   96.4   0.665   -6.4  0.2497   28.4  0.5397  155.4
 6.000  0.8683   95.5   0.652   -7.4  0.2532   27.7  0.5456  154.8
!
!  f       NFmin   Gammaopt  rn/50
! GHz       dB    MAG  ANG    -
 0.450      1.13  0.45  178   0.05
 0.900      1.29  0.52 -176   0.06
 1.900      2.14  0.68 -151   0.13
 2.400      2.54  0.73 -146   0.22
!
! (c) 2017  Infineon Technologies AG, Munich