! Infineon Technologies  Discrete & RF Semiconductors
! BFP196W
! VCE =  6.0 V,  IC =  50 mA
! Common Emitter S-Parameters:                            Jan 2017
# GHz  S  MA  R  50
!  f         S11            S21            S12            S22
! GHz     MAG   ANG      MAG   ANG      MAG   ANG      MAG   ANG
 0.010  0.2812  -44.6  80.712  168.9  0.0034   80.5  0.9454  -14.6
 0.020  0.3679  -76.7  76.434  157.6  0.0065   74.2  0.8977  -28.3
 0.030  0.4088  -95.4  68.947  151.2  0.0084   62.2  0.8064  -37.5
 0.040  0.4838 -109.5  62.536  143.3  0.0105   54.8  0.7407  -48.7
 0.050  0.5797 -119.4  57.561  133.8  0.0128   50.0  0.7077  -61.4
 0.060  0.5927 -125.8  52.928  131.2  0.0136   48.3  0.6527  -66.0
 0.070  0.6126 -131.8  48.425  128.1  0.0144   46.8  0.6028  -71.5
 0.080  0.6389 -137.4  44.092  124.4  0.0152   45.5  0.5592  -77.8
 0.090  0.6707 -142.5  39.984  119.9  0.0160   44.3  0.5237  -85.2
 0.100  0.7074 -147.1  36.178  114.4  0.0168   43.2  0.4978  -93.4
 0.110  0.7136 -149.5  34.007  113.1  0.0172   42.8  0.4747  -96.6
 0.120  0.7210 -151.9  31.857  111.5  0.0177   42.4  0.4532 -100.1
 0.130  0.7296 -154.2  29.733  109.8  0.0181   42.0  0.4336 -103.9
 0.140  0.7394 -156.5  27.641  107.7  0.0186   41.6  0.4161 -108.1
 0.150  0.7503 -158.7  25.589  105.4  0.0190   41.3  0.4010 -112.6
 0.200  0.7600 -165.5  19.555   99.8  0.0201   42.9  0.3566 -124.7
 0.250  0.7704 -170.1  15.797   95.9  0.0223   44.7  0.3314 -133.5
 0.300  0.7721 -173.3  13.218   93.2  0.0243   47.2  0.3155 -140.0
 0.350  0.7735 -175.7  11.605   91.3  0.0264   50.0  0.3069 -144.3
 0.400  0.7762 -178.1  10.009   88.8  0.0285   52.3  0.3002 -148.8
 0.450  0.7751 -179.8   9.008   87.3  0.0307   53.9  0.2963 -151.6
 0.500  0.7748  178.4   8.014   85.5  0.0330   55.3  0.2932 -154.4
 0.600  0.7780  175.3   6.705   82.6  0.0379   56.8  0.2905 -158.5
 0.700  0.7769  172.8   5.742   80.1  0.0418   60.6  0.2875 -161.5
 0.800  0.7823  170.4   5.033   77.4  0.0473   61.0  0.2872 -163.7
 0.900  0.7786  167.9   4.463   75.1  0.0516   61.7  0.2877 -165.6
 1.000  0.7816  165.9   4.034   72.9  0.0570   62.2  0.2873 -167.2
 1.100  0.7845  163.8   3.675   70.7  0.0622   62.2  0.2886 -168.4
 1.200  0.7839  161.7   3.370   68.4  0.0665   62.0  0.2889 -169.8
 1.300  0.7836  159.8   3.114   66.4  0.0714   61.8  0.2908 -171.0
 1.400  0.7861  157.8   2.906   64.2  0.0769   61.8  0.2931 -172.1
 1.500  0.7898  156.1   2.710   62.1  0.0820   61.4  0.2958 -173.2
 1.600  0.7915  154.1   2.551   60.0  0.0869   60.7  0.2981 -174.1
 1.700  0.7938  152.2   2.408   57.9  0.0914   60.1  0.3021 -175.1
 1.800  0.7963  150.2   2.286   55.7  0.0966   59.5  0.3057 -176.1
 1.900  0.7986  148.7   2.165   53.9  0.1013   59.2  0.3099 -176.9
 2.000  0.7998  146.7   2.056   51.6  0.1064   58.1  0.3140 -177.9
 2.100  0.8020  144.8   1.964   49.6  0.1111   57.4  0.3187 -178.9
 2.200  0.8050  142.9   1.874   47.5  0.1158   56.7  0.3235 -179.8
 2.300  0.8074  141.2   1.795   45.6  0.1206   56.0  0.3287  179.4
 2.400  0.8104  139.6   1.719   43.6  0.1254   55.3  0.3339  178.6
 2.500  0.8113  137.9   1.651   41.8  0.1298   54.4  0.3391  177.7
 2.600  0.8129  136.3   1.584   39.9  0.1343   53.5  0.3443  176.9
 2.700  0.8156  134.7   1.526   38.2  0.1384   52.7  0.3495  176.1
 2.800  0.8190  133.1   1.469   36.3  0.1426   52.0  0.3547  175.3
 2.900  0.8203  131.5   1.419   34.6  0.1467   51.1  0.3603  174.4
 3.000  0.8223  130.0   1.370   32.7  0.1509   50.2  0.3659  173.5
 3.100  0.8240  128.5   1.329   31.3  0.1549   49.3  0.3707  172.5
 3.200  0.8263  127.0   1.289   29.7  0.1589   48.4  0.3756  171.5
 3.300  0.8291  125.5   1.250   28.1  0.1629   47.6  0.3806  170.5
 3.400  0.8325  124.1   1.212   26.3  0.1670   46.8  0.3857  169.6
 3.500  0.8364  122.6   1.175   24.5  0.1711   46.1  0.3909  168.7
 3.600  0.8375  121.2   1.144   23.1  0.1749   45.2  0.3966  167.6
 3.700  0.8390  119.8   1.113   21.6  0.1787   44.3  0.4024  166.6
 3.800  0.8411  118.4   1.084   20.1  0.1826   43.4  0.4083  165.6
 3.900  0.8436  117.0   1.055   18.4  0.1865   42.6  0.4144  164.6
 4.000  0.8467  115.6   1.027   16.7  0.1904   41.8  0.4206  163.6
 4.100  0.8473  114.3   1.001   15.4  0.1938   40.9  0.4271  162.5
 4.200  0.8484  113.1   0.976   14.1  0.1973   40.0  0.4337  161.3
 4.300  0.8498  111.8   0.951   12.7  0.2008   39.1  0.4405  160.3
 4.400  0.8517  110.6   0.927   11.2  0.2044   38.3  0.4474  159.2
 4.500  0.8540  109.3   0.904    9.6  0.2080   37.5  0.4545  158.2
 4.600  0.8551  108.3   0.883    8.6  0.2113   36.7  0.4615  157.2
 4.700  0.8565  107.4   0.862    7.5  0.2146   35.9  0.4686  156.3
 4.800  0.8581  106.4   0.842    6.4  0.2179   35.1  0.4759  155.4
 4.900  0.8599  105.5   0.822    5.2  0.2213   34.4  0.4832  154.5
 5.000  0.8620  104.5   0.802    4.0  0.2247   33.7  0.4907  153.7
 5.100  0.8631  103.6   0.788    3.0  0.2280   32.9  0.4977  153.1
 5.200  0.8643  102.6   0.775    2.0  0.2314   32.1  0.5049  152.4
 5.300  0.8659  101.7   0.762    1.0  0.2348   31.4  0.5120  151.8
 5.400  0.8676  100.7   0.749   -0.1  0.2383   30.6  0.5192  151.3
 5.500  0.8696   99.8   0.736   -1.2  0.2418   29.9  0.5265  150.7
 5.600  0.8689   98.9   0.723   -2.0  0.2449   29.1  0.5308  150.2
 5.700  0.8684   97.9   0.710   -2.9  0.2480   28.2  0.5351  149.7
 5.800  0.8682   97.0   0.698   -3.7  0.2512   27.4  0.5394  149.2
 5.900  0.8682   96.0   0.685   -4.7  0.2544   26.7  0.5438  148.7
 6.000  0.8684   95.1   0.673   -5.6  0.2577   25.9  0.5482  148.2
!
!  f       NFmin   Gammaopt  rn/50
! GHz       dB    MAG  ANG    -
 0.450      1.36  0.51 -177   0.05
 0.900      1.48  0.55 -171   0.07
 1.900      2.30  0.69 -149   0.16
 2.400      2.70  0.73 -144   0.26
!
! (c) 2017  Infineon Technologies AG, Munich