! Infineon Technologies  Discrete & RF Semiconductors
! BFP196W
! VCE =  11. V,  IC =  10 mA
! Common Emitter S-Parameters:                            Jan 2017
# GHz  S  MA  R  50
!  f         S11            S21            S12            S22
! GHz     MAG   ANG      MAG   ANG      MAG   ANG      MAG   ANG
 0.010  0.7570   -9.9  29.778  175.5  0.0046   78.9  0.9834   -5.2
 0.020  0.7453  -22.0  29.201  169.6  0.0088   83.7  0.9633  -10.0
 0.030  0.7253  -31.1  28.312  165.0  0.0129   73.9  0.9379  -14.6
 0.040  0.7242  -40.4  27.615  160.2  0.0172   68.9  0.9188  -19.3
 0.050  0.7420  -49.5  27.126  155.1  0.0216   65.9  0.9064  -24.3
 0.060  0.7217  -56.8  25.960  151.9  0.0242   61.6  0.8686  -27.3
 0.070  0.7138  -64.4  24.882  148.4  0.0268   58.1  0.8334  -30.6
 0.080  0.7185  -72.0  23.905  144.6  0.0296   55.2  0.8012  -34.1
 0.090  0.7357  -79.4  23.042  140.5  0.0324   52.9  0.7723  -38.0
 0.100  0.7645  -86.4  22.306  136.1  0.0353   50.9  0.7471  -42.1
 0.110  0.7546  -91.2  21.356  134.0  0.0367   48.5  0.7163  -44.2
 0.120  0.7501  -96.1  20.438  131.7  0.0381   46.3  0.6865  -46.4
 0.130  0.7512 -101.1  19.555  129.2  0.0396   44.3  0.6578  -48.8
 0.140  0.7578 -105.9  18.713  126.5  0.0411   42.4  0.6305  -51.5
 0.150  0.7698 -110.7  17.918  123.5  0.0427   40.7  0.6046  -54.4
 0.200  0.7759 -126.2  14.626  114.5  0.0461   35.0  0.5044  -62.0
 0.250  0.7787 -137.6  12.246  107.9  0.0488   30.6  0.4301  -67.4
 0.300  0.7764 -145.7  10.476  103.2  0.0502   28.3  0.3766  -71.3
 0.350  0.7755 -151.3   9.272  100.0  0.0510   27.3  0.3423  -73.7
 0.400  0.7820 -156.9   8.105   95.9  0.0519   26.3  0.3088  -76.7
 0.450  0.7794 -160.6   7.321   93.6  0.0526   25.8  0.2892  -78.5
 0.500  0.7801 -164.3   6.552   90.7  0.0534   25.4  0.2700  -80.5
 0.600  0.7822 -170.0   5.504   86.3  0.0551   25.6  0.2466  -83.6
 0.700  0.7823 -174.4   4.727   82.7  0.0553   26.7  0.2309  -86.1
 0.800  0.7843 -178.7   4.151   79.0  0.0569   28.4  0.2236  -88.6
 0.900  0.7836  177.9   3.686   75.9  0.0585   29.7  0.2189  -91.0
 1.000  0.7870  175.0   3.331   72.9  0.0595   30.9  0.2166  -93.2
 1.100  0.7882  172.1   3.035   70.2  0.0615   33.2  0.2178  -95.4
 1.200  0.7905  169.5   2.781   67.3  0.0623   34.6  0.2186  -97.6
 1.300  0.7903  166.9   2.566   64.7  0.0644   36.1  0.2218  -99.8
 1.400  0.7934  164.7   2.392   62.1  0.0667   38.3  0.2251 -102.3
 1.500  0.7978  162.4   2.232   59.5  0.0690   39.1  0.2287 -104.8
 1.600  0.8006  160.0   2.095   57.0  0.0710   40.7  0.2340 -107.1
 1.700  0.8038  157.7   1.976   54.6  0.0737   42.1  0.2403 -109.7
 1.800  0.8085  155.5   1.875   52.1  0.0764   43.2  0.2460 -112.2
 1.900  0.8105  153.7   1.772   50.0  0.0790   44.5  0.2525 -114.7
 2.000  0.8125  151.4   1.684   47.4  0.0821   45.5  0.2596 -117.1
 2.100  0.8150  149.3   1.606   45.2  0.0853   46.4  0.2670 -119.6
 2.200  0.8185  147.2   1.530   42.7  0.0886   47.2  0.2748 -122.0
 2.300  0.8217  145.3   1.465   40.5  0.0922   47.8  0.2834 -124.5
 2.400  0.8258  143.5   1.402   38.2  0.0958   48.4  0.2924 -126.8
 2.500  0.8270  141.7   1.343   36.2  0.0992   48.9  0.3017 -129.2
 2.600  0.8290  139.9   1.286   34.1  0.1027   49.4  0.3114 -131.4
 2.700  0.8320  138.1   1.237   32.2  0.1065   49.7  0.3199 -133.7
 2.800  0.8357  136.4   1.189   30.1  0.1104   50.0  0.3288 -135.8
 2.900  0.8380  134.7   1.146   28.2  0.1145   49.9  0.3377 -138.1
 3.000  0.8411  133.0   1.104   26.1  0.1186   49.9  0.3470 -140.2
 3.100  0.8429  131.4   1.068   24.6  0.1230   49.8  0.3549 -142.5
 3.200  0.8453  129.7   1.033   22.9  0.1273   49.6  0.3634 -144.7
 3.300  0.8485  128.1   0.998   21.1  0.1317   49.5  0.3724 -146.7
 3.400  0.8523  126.5   0.965   19.2  0.1360   49.4  0.3818 -148.7
 3.500  0.8568  124.9   0.933   17.2  0.1404   49.3  0.3917 -150.6
 3.600  0.8580  123.4   0.906   15.8  0.1449   48.7  0.3997 -152.9
 3.700  0.8597  121.9   0.879   14.3  0.1494   48.2  0.4084 -155.0
 3.800  0.8621  120.4   0.853   12.7  0.1539   47.7  0.4176 -157.1
 3.900  0.8651  118.9   0.828   11.0  0.1584   47.2  0.4273 -159.1
 4.000  0.8686  117.4   0.803    9.2  0.1629   46.8  0.4375 -161.0
 4.100  0.8691  116.1   0.781    8.0  0.1674   46.0  0.4460 -163.3
 4.200  0.8702  114.7   0.759    6.7  0.1719   45.3  0.4553 -165.4
 4.300  0.8717  113.4   0.737    5.3  0.1765   44.7  0.4651 -167.5
 4.400  0.8736  112.0   0.716    3.8  0.1811   44.0  0.4755 -169.5
 4.500  0.8761  110.7   0.696    2.3  0.1857   43.4  0.4865 -171.4
 4.600  0.8773  109.6   0.677    1.4  0.1900   42.7  0.4957 -173.3
 4.700  0.8787  108.6   0.659    0.5  0.1943   41.9  0.5055 -175.2
 4.800  0.8805  107.5   0.641   -0.5  0.1986   41.3  0.5157 -177.0
 4.900  0.8825  106.5   0.623   -1.6  0.2030   40.6  0.5265 -178.7
 5.000  0.8849  105.4   0.605   -2.7  0.2074   40.0  0.5377  179.6
 5.100  0.8856  104.4   0.593   -3.4  0.2118   39.2  0.5474  178.0
 5.200  0.8865  103.4   0.580   -4.1  0.2163   38.4  0.5576  176.5
 5.300  0.8877  102.5   0.568   -4.9  0.2208   37.6  0.5681  175.1
 5.400  0.8892  101.5   0.556   -5.7  0.2253   36.9  0.5789  173.7
 5.500  0.8909  100.5   0.544   -6.5  0.2299   36.2  0.5901  172.3
 5.600  0.8895   99.5   0.533   -7.0  0.2340   35.2  0.5970  171.1
 5.700  0.8884   98.5   0.523   -7.6  0.2382   34.3  0.6041  169.9
 5.800  0.8876   97.5   0.512   -8.1  0.2424   33.4  0.6116  168.7
 5.900  0.8870   96.5   0.501   -8.7  0.2467   32.5  0.6192  167.6
 6.000  0.8867   95.5   0.491   -9.3  0.2510   31.7  0.6271  166.5
!
!  f       NFmin   Gammaopt  rn/50
! GHz       dB    MAG  ANG    -
 0.450      0.91  0.36  146   0.06
 0.900      1.19  0.53  168   0.05
 1.900      2.27  0.71 -158   0.10
 2.400      2.77  0.76 -149   0.22
!
! (c) 2017  Infineon Technologies AG, Munich