! Infineon Technologies  Discrete & RF Semiconductors
! BFP196W
! VCE =  11. V,  IC =  40 mA
! Common Emitter S-Parameters:                            Jan 2017
# GHz  S  MA  R  50
!  f         S11            S21            S12            S22
! GHz     MAG   ANG      MAG   ANG      MAG   ANG      MAG   ANG
 0.010  0.4044  -27.1  69.994  170.6  0.0036   74.2  0.9256  -11.6
 0.020  0.4393  -53.0  66.800  161.0  0.0070   69.7  0.8866  -22.5
 0.030  0.4463  -71.0  61.604  154.8  0.0093   60.8  0.8158  -30.6
 0.040  0.4938  -87.0  57.262  147.5  0.0116   55.5  0.7644  -40.1
 0.050  0.5720  -99.4  53.981  139.2  0.0141   52.0  0.7364  -50.6
 0.060  0.5762 -107.2  50.031  136.3  0.0151   49.4  0.6820  -54.9
 0.070  0.5910 -114.8  46.226  133.0  0.0162   47.2  0.6320  -59.8
 0.080  0.6154 -121.9  42.606  129.1  0.0173   45.2  0.5876  -65.6
 0.090  0.6485 -128.3  39.223  124.5  0.0184   43.5  0.5500  -72.2
 0.100  0.6889 -134.1  36.141  119.0  0.0195   42.0  0.5208  -79.7
 0.110  0.6931 -137.4  34.059  117.5  0.0200   41.4  0.4941  -82.6
 0.120  0.6994 -140.6  32.005  115.7  0.0204   40.8  0.4689  -85.9
 0.130  0.7079 -143.7  29.984  113.8  0.0209   40.3  0.4454  -89.6
 0.140  0.7185 -146.7  28.004  111.5  0.0213   39.8  0.4238  -93.6
 0.150  0.7310 -149.7  26.074  108.9  0.0218   39.3  0.4046  -98.0
 0.200  0.7429 -158.4  20.117  102.5  0.0237   39.3  0.3449 -110.0
 0.250  0.7540 -164.4  16.316   98.1  0.0255   39.7  0.3075 -119.2
 0.300  0.7564 -168.5  13.683   95.0  0.0263   41.8  0.2847 -126.3
 0.350  0.7579 -171.5  12.031   92.9  0.0285   44.1  0.2714 -131.1
 0.400  0.7615 -174.5  10.399   90.2  0.0307   46.0  0.2601 -136.3
 0.450  0.7613 -176.6   9.362   88.6  0.0324   47.5  0.2536 -139.5
 0.500  0.7621 -178.7   8.335   86.6  0.0342   48.9  0.2480 -142.9
 0.600  0.7645  177.9   6.977   83.5  0.0383   51.3  0.2429 -147.8
 0.700  0.7652  175.0   5.974   80.9  0.0418   54.5  0.2379 -151.3
 0.800  0.7672  172.2   5.241   78.0  0.0466   56.4  0.2367 -153.8
 0.900  0.7655  169.8   4.645   75.6  0.0510   56.8  0.2362 -156.0
 1.000  0.7691  167.6   4.200   73.2  0.0551   58.1  0.2365 -158.0
 1.100  0.7709  165.4   3.825   71.0  0.0604   58.7  0.2375 -159.2
 1.200  0.7717  163.1   3.505   68.7  0.0643   58.6  0.2382 -160.7
 1.300  0.7714  161.1   3.238   66.6  0.0691   58.8  0.2402 -161.7
 1.400  0.7729  159.1   3.024   64.4  0.0739   59.3  0.2428 -163.0
 1.500  0.7779  157.2   2.818   62.2  0.0781   59.0  0.2458 -164.1
 1.600  0.7792  155.1   2.651   60.0  0.0828   58.9  0.2484 -165.1
 1.700  0.7816  153.1   2.501   57.9  0.0874   58.6  0.2530 -166.3
 1.800  0.7850  151.2   2.373   55.7  0.0925   57.9  0.2572 -167.3
 1.900  0.7874  149.6   2.248   53.8  0.0967   57.7  0.2618 -168.2
 2.000  0.7882  147.6   2.136   51.6  0.1016   57.1  0.2664 -169.0
 2.100  0.7904  145.7   2.038   49.6  0.1060   56.5  0.2716 -170.1
 2.200  0.7934  143.8   1.943   47.4  0.1104   55.9  0.2769 -171.2
 2.300  0.7964  142.1   1.862   45.5  0.1150   55.3  0.2828 -172.0
 2.400  0.8002  140.4   1.783   43.4  0.1196   54.7  0.2888 -172.8
 2.500  0.8011  138.8   1.712   41.6  0.1236   53.9  0.2948 -173.7
 2.600  0.8027  137.2   1.642   39.6  0.1277   53.2  0.3008 -174.6
 2.700  0.8059  135.5   1.582   37.9  0.1320   52.5  0.3068 -175.5
 2.800  0.8098  133.9   1.523   36.0  0.1363   51.9  0.3129 -176.4
 2.900  0.8114  132.3   1.470   34.2  0.1404   51.1  0.3190 -177.4
 3.000  0.8136  130.7   1.418   32.3  0.1445   50.3  0.3251 -178.4
 3.100  0.8157  129.2   1.375   30.8  0.1485   49.5  0.3308 -179.5
 3.200  0.8183  127.7   1.333   29.2  0.1525   48.7  0.3366  179.5
 3.300  0.8215  126.2   1.292   27.6  0.1565   48.0  0.3425  178.4
 3.400  0.8253  124.7   1.252   25.8  0.1606   47.3  0.3486  177.5
 3.500  0.8296  123.2   1.214   23.9  0.1647   46.7  0.3547  176.5
 3.600  0.8309  121.8   1.181   22.5  0.1685   45.8  0.3610  175.3
 3.700  0.8327  120.4   1.149   21.0  0.1722   45.0  0.3674  174.1
 3.800  0.8350  119.0   1.118   19.4  0.1761   44.3  0.3740  173.0
 3.900  0.8378  117.6   1.087   17.7  0.1799   43.5  0.3807  171.9
 4.000  0.8411  116.2   1.058   15.9  0.1838   42.8  0.3875  170.9
 4.100  0.8418  114.9   1.031   14.6  0.1874   41.9  0.3947  169.6
 4.200  0.8430  113.6   1.005   13.2  0.1910   41.0  0.4020  168.4
 4.300  0.8445  112.3   0.979   11.8  0.1946   40.2  0.4095  167.2
 4.400  0.8465  111.1   0.954   10.3  0.1983   39.4  0.4172  166.0
 4.500  0.8489  109.8   0.929    8.7  0.2020   38.6  0.4251  164.9
 4.600  0.8504  108.8   0.907    7.7  0.2054   37.8  0.4329  163.8
 4.700  0.8522  107.8   0.885    6.6  0.2088   37.1  0.4408  162.8
 4.800  0.8543  106.8   0.864    5.4  0.2123   36.4  0.4489  161.8
 4.900  0.8566  105.8   0.843    4.3  0.2158   35.7  0.4571  160.8
 5.000  0.8592  104.8   0.822    3.0  0.2193   35.0  0.4654  159.9
 5.100  0.8603  103.9   0.807    2.0  0.2227   34.2  0.4734  159.2
 5.200  0.8616  103.0   0.792    1.0  0.2261   33.5  0.4815  158.4
 5.300  0.8632  102.1   0.777   -0.1  0.2296   32.7  0.4896  157.7
 5.400  0.8649  101.2   0.763   -1.2  0.2331   32.0  0.4978  157.1
 5.500  0.8669  100.3   0.749   -2.3  0.2367   31.3  0.5061  156.4
 5.600  0.8661   99.3   0.735   -3.2  0.2400   30.5  0.5114  155.8
 5.700  0.8655   98.4   0.722   -4.1  0.2433   29.7  0.5167  155.2
 5.800  0.8652   97.4   0.708   -5.0  0.2467   28.9  0.5220  154.7
 5.900  0.8651   96.5   0.695   -6.0  0.2501   28.1  0.5274  154.1
 6.000  0.8652   95.5   0.682   -7.0  0.2536   27.4  0.5329  153.6
!
!  f       NFmin   Gammaopt  rn/50
! GHz       dB    MAG  ANG    -
 0.450      1.24  0.48 -179   0.06
 0.900      1.39  0.54 -173   0.06
 1.900      2.21  0.69 -150   0.14
 2.400      2.61  0.73 -145   0.23
!
! (c) 2017  Infineon Technologies AG, Munich