! Infineon Technologies  Discrete & RF Semiconductors
! BFP196W
! VCE =  6.0 V,  IC =  20 mA
! Common Emitter S-Parameters:                            Jan 2017
# GHz  S  MA  R  50
!  f         S11            S21            S12            S22
! GHz     MAG   ANG      MAG   ANG      MAG   ANG      MAG   ANG
 0.010  0.5404  -18.5  49.773  172.9  0.0040   81.6  0.9781   -9.2
 0.020  0.5468  -38.1  48.186  164.6  0.0080   78.2  0.9494  -17.7
 0.030  0.5350  -52.8  45.384  158.8  0.0113   67.3  0.8925  -24.7
 0.040  0.5589  -67.3  43.111  152.2  0.0149   61.5  0.8508  -32.6
 0.050  0.6143  -79.8  41.453  145.1  0.0185   57.9  0.8266  -41.1
 0.060  0.6068  -88.2  38.790  142.0  0.0201   54.2  0.7729  -45.1
 0.070  0.6126  -96.6  36.257  138.4  0.0218   51.1  0.7234  -49.6
 0.080  0.6312 -104.8  33.885  134.4  0.0236   48.4  0.6792  -54.8
 0.090  0.6616 -112.3  31.709  129.7  0.0254   46.1  0.6412  -60.6
 0.100  0.7023 -119.0  29.773  124.4  0.0272   44.1  0.6106  -67.1
 0.110  0.7039 -123.0  28.178  122.6  0.0278   42.4  0.5792  -69.8
 0.120  0.7088 -127.0  26.614  120.7  0.0285   40.7  0.5492  -72.8
 0.130  0.7171 -130.9  25.085  118.4  0.0291   39.1  0.5209  -76.2
 0.140  0.7287 -134.6  23.598  115.9  0.0298   37.6  0.4946  -79.9
 0.150  0.7433 -138.3  22.163  113.1  0.0305   36.2  0.4706  -84.0
 0.200  0.7569 -149.4  17.348  105.9  0.0323   34.4  0.3906  -95.3
 0.250  0.7675 -157.1  14.184  100.8  0.0344   33.2  0.3383 -104.0
 0.300  0.7718 -162.4  11.960   97.2  0.0352   33.2  0.3043 -110.9
 0.350  0.7724 -166.1  10.522   94.8  0.0365   34.2  0.2835 -115.7
 0.400  0.7763 -169.8   9.108   91.6  0.0378   35.1  0.2651 -121.3
 0.450  0.7759 -172.4   8.208   89.8  0.0390   36.7  0.2542 -124.8
 0.500  0.7770 -175.0   7.319   87.5  0.0402   38.2  0.2444 -128.5
 0.600  0.7803 -179.0   6.129   84.0  0.0434   40.5  0.2347 -134.0
 0.700  0.7807  177.8   5.253   81.0  0.0457   42.9  0.2266 -137.9
 0.800  0.7835  174.6   4.605   77.9  0.0499   45.7  0.2244 -140.6
 0.900  0.7815  171.9   4.086   75.3  0.0537   46.6  0.2235 -143.2
 1.000  0.7843  169.6   3.694   72.7  0.0570   48.4  0.2227 -145.5
 1.100  0.7863  167.1   3.364   70.3  0.0605   49.8  0.2242 -146.9
 1.200  0.7869  164.7   3.084   67.8  0.0645   50.5  0.2247 -148.4
 1.300  0.7869  162.6   2.848   65.5  0.0682   51.1  0.2279 -149.7
 1.400  0.7901  160.6   2.659   63.1  0.0722   52.0  0.2313 -151.2
 1.500  0.7945  158.5   2.479   60.8  0.0763   52.4  0.2357 -152.4
 1.600  0.7976  156.5   2.330   58.5  0.0806   52.8  0.2393 -153.6
 1.700  0.7992  154.4   2.201   56.3  0.0847   53.3  0.2442 -154.9
 1.800  0.8026  152.2   2.088   54.0  0.0889   53.3  0.2499 -156.1
 1.900  0.8047  150.6   1.977   52.0  0.0927   53.3  0.2558 -157.3
 2.000  0.8067  148.5   1.878   49.6  0.0970   53.1  0.2611 -158.4
 2.100  0.8080  146.6   1.792   47.5  0.1011   52.9  0.2678 -159.6
 2.200  0.8102  144.7   1.709   45.2  0.1052   52.8  0.2746 -160.8
 2.300  0.8135  142.9   1.637   43.2  0.1097   52.5  0.2818 -161.9
 2.400  0.8176  141.1   1.568   41.0  0.1142   52.2  0.2891 -163.0
 2.500  0.8187  139.4   1.505   39.2  0.1181   51.7  0.2966 -164.1
 2.600  0.8205  137.8   1.443   37.2  0.1220   51.3  0.3043 -165.2
 2.700  0.8237  136.1   1.389   35.4  0.1263   50.8  0.3116 -166.3
 2.800  0.8276  134.4   1.337   33.4  0.1306   50.3  0.3191 -167.4
 2.900  0.8290  132.8   1.290   31.6  0.1347   49.7  0.3266 -168.7
 3.000  0.8310  131.2   1.245   29.6  0.1389   49.2  0.3342 -169.9
 3.100  0.8328  129.7   1.207   28.1  0.1429   48.6  0.3410 -171.2
 3.200  0.8351  128.1   1.169   26.5  0.1469   48.0  0.3481 -172.4
 3.300  0.8381  126.6   1.133   24.8  0.1510   47.5  0.3552 -173.6
 3.400  0.8416  125.1   1.097   22.9  0.1550   47.0  0.3625 -174.8
 3.500  0.8457  123.6   1.063   21.0  0.1591   46.5  0.3700 -175.9
 3.600  0.8469  122.1   1.034   19.6  0.1631   45.7  0.3774 -177.3
 3.700  0.8487  120.7   1.005   18.1  0.1671   45.0  0.3849 -178.7
 3.800  0.8510  119.3   0.977   16.5  0.1711   44.3  0.3927  180.0
 3.900  0.8539  117.8   0.949   14.8  0.1752   43.6  0.4007  178.7
 4.000  0.8573  116.4   0.923   13.0  0.1793   43.0  0.4089  177.5
 4.100  0.8577  115.1   0.899   11.7  0.1832   42.2  0.4171  176.0
 4.200  0.8586  113.8   0.875   10.4  0.1871   41.4  0.4255  174.6
 4.300  0.8599  112.5   0.852    9.0  0.1910   40.6  0.4342  173.2
 4.400  0.8616  111.3   0.830    7.5  0.1950   39.9  0.4431  171.9
 4.500  0.8638  110.0   0.808    5.9  0.1990   39.2  0.4523  170.6
 4.600  0.8653  109.0   0.788    4.9  0.2026   38.4  0.4610  169.3
 4.700  0.8671  107.9   0.769    3.9  0.2062   37.7  0.4699  168.0
 4.800  0.8691  106.9   0.750    2.8  0.2099   37.0  0.4790  166.8
 4.900  0.8714  105.9   0.731    1.6  0.2136   36.4  0.4884  165.6
 5.000  0.8740  104.9   0.712    0.4  0.2173   35.7  0.4979  164.5
 5.100  0.8747  104.0   0.698   -0.5  0.2210   34.9  0.5068  163.5
 5.200  0.8757  103.0   0.685   -1.4  0.2247   34.1  0.5159  162.6
 5.300  0.8769  102.1   0.672   -2.4  0.2285   33.3  0.5251  161.7
 5.400  0.8783  101.1   0.659   -3.4  0.2323   32.6  0.5344  160.8
 5.500  0.8800  100.2   0.646   -4.4  0.2361   31.9  0.5438  160.0
 5.600  0.8789   99.2   0.634   -5.1  0.2397   31.1  0.5499  159.2
 5.700  0.8781   98.3   0.622   -5.9  0.2434   30.2  0.5560  158.5
 5.800  0.8775   97.3   0.610   -6.7  0.2471   29.4  0.5623  157.7
 5.900  0.8772   96.4   0.599   -7.5  0.2508   28.7  0.5687  157.0
 6.000  0.8771   95.4   0.587   -8.4  0.2546   27.9  0.5751  156.3
!
!  f       NFmin   Gammaopt  rn/50
! GHz       dB    MAG  ANG    -
 0.450      1.02  0.40  170   0.05
 0.900      1.20  0.51  178   0.05
 1.900      2.11  0.69 -155   0.11
 2.400      2.55  0.74 -147   0.20
!
! (c) 2017  Infineon Technologies AG, Munich