! Infineon Technologies  Discrete & RF Semiconductors
! BFP196W
! VCE =  7.0 V,  IC =  45 mA
! Common Emitter S-Parameters:                            Jan 2017
# GHz  S  MA  R  50
!  f         S11            S21            S12            S22
! GHz     MAG   ANG      MAG   ANG      MAG   ANG      MAG   ANG
 0.010  0.3232  -36.8  76.728  169.6  0.0033   77.6  0.9509  -13.5
 0.020  0.3879  -66.9  72.637  158.9  0.0066   71.5  0.9077  -26.2
 0.030  0.4158  -86.1  66.104  152.5  0.0090   62.3  0.8218  -35.0
 0.040  0.4826 -101.5  60.575  144.8  0.0116   57.1  0.7593  -45.5
 0.050  0.5748 -112.5  56.347  135.7  0.0142   53.8  0.7262  -57.4
 0.060  0.5848 -119.5  51.940  133.0  0.0149   51.0  0.6702  -61.9
 0.070  0.6031 -126.1  47.670  129.8  0.0156   48.5  0.6192  -67.2
 0.080  0.6290 -132.2  43.577  126.0  0.0164   46.2  0.5743  -73.4
 0.090  0.6615 -137.9  39.716  121.4  0.0172   44.1  0.5371  -80.5
 0.100  0.6997 -142.9  36.161  115.9  0.0180   42.2  0.5093  -88.5
 0.110  0.7055 -145.6  34.018  114.5  0.0185   41.7  0.4846  -91.6
 0.120  0.7128 -148.2  31.899  112.9  0.0190   41.2  0.4614  -95.0
 0.130  0.7216 -150.8  29.807  111.1  0.0194   40.7  0.4401  -98.8
 0.140  0.7319 -153.4  27.750  109.0  0.0199   40.2  0.4209 -103.0
 0.150  0.7435 -155.8  25.735  106.6  0.0204   39.8  0.4041 -107.5
 0.200  0.7549 -163.3  19.733  100.7  0.0211   40.8  0.3533 -119.6
 0.250  0.7644 -168.1  15.959   96.6  0.0237   43.5  0.3234 -128.8
 0.300  0.7683 -171.9  13.365   93.8  0.0253   45.8  0.3053 -135.5
 0.350  0.7688 -174.4  11.736   91.8  0.0273   48.1  0.2951 -140.0
 0.400  0.7707 -176.9  10.126   89.2  0.0293   50.1  0.2869 -144.8
 0.450  0.7706 -178.8   9.116   87.7  0.0314   51.8  0.2821 -147.8
 0.500  0.7713  179.3   8.113   85.9  0.0335   53.2  0.2781 -150.8
 0.600  0.7744  176.1   6.787   82.9  0.0379   55.4  0.2749 -155.1
 0.700  0.7751  173.6   5.813   80.4  0.0420   57.3  0.2708 -158.3
 0.800  0.7770  170.9   5.095   77.6  0.0476   59.6  0.2707 -160.6
 0.900  0.7742  168.6   4.520   75.3  0.0517   60.0  0.2704 -162.6
 1.000  0.7775  166.5   4.084   73.0  0.0561   60.6  0.2706 -164.5
 1.100  0.7808  164.3   3.721   70.8  0.0613   61.0  0.2720 -165.6
 1.200  0.7801  162.2   3.410   68.5  0.0658   60.9  0.2720 -167.0
 1.300  0.7799  160.1   3.151   66.4  0.0708   60.7  0.2741 -168.1
 1.400  0.7829  158.3   2.941   64.2  0.0762   61.0  0.2768 -169.4
 1.500  0.7858  156.4   2.743   62.1  0.0805   60.7  0.2795 -170.4
 1.600  0.7876  154.5   2.581   60.0  0.0855   60.3  0.2821 -171.3
 1.700  0.7915  152.4   2.437   57.9  0.0905   60.0  0.2859 -172.4
 1.800  0.7933  150.5   2.312   55.6  0.0956   59.2  0.2896 -173.4
 1.900  0.7949  148.9   2.190   53.8  0.1000   58.7  0.2942 -174.3
 2.000  0.7966  146.9   2.079   51.6  0.1046   58.0  0.2982 -175.1
 2.100  0.7984  145.0   1.986   49.6  0.1093   57.2  0.3032 -176.1
 2.200  0.8011  143.2   1.895   47.4  0.1141   56.5  0.3082 -177.1
 2.300  0.8038  141.5   1.815   45.5  0.1188   55.8  0.3136 -178.0
 2.400  0.8073  139.8   1.738   43.5  0.1236   55.1  0.3190 -178.8
 2.500  0.8085  138.2   1.669   41.7  0.1278   54.3  0.3244 -179.6
 2.600  0.8104  136.6   1.601   39.8  0.1321   53.5  0.3299  179.6
 2.700  0.8134  134.9   1.542   38.1  0.1363   52.7  0.3354  178.7
 2.800  0.8170  133.3   1.485   36.2  0.1406   51.9  0.3409  177.8
 2.900  0.8184  131.8   1.434   34.5  0.1446   51.0  0.3466  176.9
 3.000  0.8203  130.3   1.384   32.6  0.1487   50.2  0.3524  176.0
 3.100  0.8220  128.8   1.342   31.1  0.1527   49.3  0.3575  175.0
 3.200  0.8243  127.3   1.302   29.5  0.1567   48.5  0.3628  174.0
 3.300  0.8272  125.8   1.262   27.9  0.1608   47.7  0.3681  173.0
 3.400  0.8306  124.3   1.223   26.1  0.1649   47.0  0.3736  172.1
 3.500  0.8346  122.8   1.186   24.2  0.1690   46.3  0.3791  171.2
 3.600  0.8357  121.4   1.154   22.8  0.1727   45.4  0.3850  170.1
 3.700  0.8374  120.0   1.124   21.3  0.1765   44.6  0.3910  169.0
 3.800  0.8395  118.6   1.094   19.8  0.1804   43.7  0.3972  167.9
 3.900  0.8422  117.2   1.064   18.1  0.1842   43.0  0.4035  166.9
 4.000  0.8453  115.8   1.036   16.4  0.1881   42.2  0.4099  165.9
 4.100  0.8459  114.5   1.010   15.1  0.1916   41.3  0.4166  164.7
 4.200  0.8469  113.3   0.984   13.8  0.1952   40.3  0.4236  163.5
 4.300  0.8483  112.0   0.959   12.4  0.1988   39.5  0.4307  162.4
 4.400  0.8502  110.8   0.935   10.9  0.2024   38.6  0.4379  161.3
 4.500  0.8524  109.5   0.911    9.3  0.2061   37.8  0.4453  160.3
 4.600  0.8536  108.5   0.890    8.3  0.2094   37.0  0.4527  159.3
 4.700  0.8551  107.5   0.868    7.2  0.2127   36.3  0.4601  158.4
 4.800  0.8568  106.5   0.848    6.0  0.2161   35.5  0.4677  157.5
 4.900  0.8588  105.5   0.827    4.9  0.2195   34.8  0.4755  156.6
 5.000  0.8610  104.5   0.807    3.6  0.2229   34.1  0.4833  155.7
 5.100  0.8621  103.6   0.793    2.6  0.2262   33.3  0.4907  155.0
 5.200  0.8633  102.7   0.779    1.6  0.2295   32.6  0.4981  154.4
 5.300  0.8648  101.8   0.765    0.6  0.2329   31.8  0.5056  153.7
 5.400  0.8665  100.9   0.751   -0.5  0.2363   31.1  0.5131  153.1
 5.500  0.8684  100.0   0.738   -1.6  0.2398   30.4  0.5207  152.5
 5.600  0.8676   99.0   0.725   -2.4  0.2430   29.6  0.5251  152.0
 5.700  0.8670   98.1   0.712   -3.3  0.2463   28.7  0.5294  151.4
 5.800  0.8667   97.1   0.700   -4.2  0.2496   27.9  0.5339  150.9
 5.900  0.8666   96.2   0.687   -5.1  0.2530   27.2  0.5384  150.4
 6.000  0.8668   95.2   0.675   -6.1  0.2564   26.4  0.5429  149.9
!
!  f       NFmin   Gammaopt  rn/50
! GHz       dB    MAG  ANG    -
 0.450      1.31  0.50 -177   0.05
 0.900      1.44  0.54 -172   0.07
 1.900      2.26  0.69 -150   0.15
 2.400      2.66  0.73 -145   0.25
!
! (c) 2017  Infineon Technologies AG, Munich