! Infineon Technologies  Discrete & RF Semiconductors
! BFP196W
! VCE =  2.0 V,  IC =  70 mA
! Common Emitter S-Parameters:                            Jan 2017
# GHz  S  MA  R  50
!  f         S11            S21            S12            S22
! GHz     MAG   ANG      MAG   ANG      MAG   ANG      MAG   ANG
 0.010  0.2238 -108.6  90.598  165.1  0.0034   75.3  0.9033  -21.9
 0.020  0.4054 -121.6  82.139  150.8  0.0061   68.7  0.8343  -41.6
 0.030  0.4825 -132.6  71.602  144.4  0.0078   57.9  0.7246  -53.0
 0.040  0.5722 -140.3  62.258  135.9  0.0096   51.0  0.6522  -67.6
 0.050  0.6695 -145.9  54.722  124.8  0.0115   46.4  0.6303  -84.4
 0.060  0.6849 -149.7  49.864  122.7  0.0120   45.5  0.5862  -89.8
 0.070  0.7032 -153.2  45.090  120.1  0.0124   44.6  0.5481  -96.1
 0.080  0.7241 -156.6  40.428  116.9  0.0129   43.8  0.5175 -103.2
 0.090  0.7473 -159.8  35.924  112.9  0.0133   43.1  0.4958 -111.0
 0.100  0.7727 -162.8  31.644  107.8  0.0138   42.4  0.4840 -119.4
 0.110  0.7777 -164.2  29.637  106.7  0.0143   42.9  0.4708 -122.6
 0.120  0.7831 -165.6  27.641  105.5  0.0148   43.3  0.4592 -126.0
 0.130  0.7890 -166.9  25.660  104.1  0.0152   43.7  0.4492 -129.5
 0.140  0.7953 -168.3  23.698  102.4  0.0157   44.0  0.4411 -133.2
 0.150  0.8021 -169.6  21.758  100.5  0.0162   44.4  0.4348 -137.0
 0.200  0.8064 -173.9  16.460   96.1  0.0176   50.3  0.4162 -146.7
 0.250  0.8118 -176.7  13.227   92.8  0.0204   52.9  0.4061 -153.3
 0.300  0.8116 -178.9  11.054   90.6  0.0226   55.3  0.3997 -157.7
 0.350  0.8130  179.3   9.692   88.9  0.0252   57.6  0.3968 -160.7
 0.400  0.8153  177.5   8.341   86.7  0.0279   59.4  0.3950 -163.7
 0.450  0.8139  176.2   7.503   85.4  0.0307   61.0  0.3935 -165.6
 0.500  0.8129  174.8   6.671   83.7  0.0336   62.4  0.3924 -167.6
 0.600  0.8136  172.4   5.577   81.1  0.0384   63.7  0.3936 -170.4
 0.700  0.8139  170.3   4.777   78.9  0.0437   65.2  0.3910 -172.6
 0.800  0.8165  168.0   4.188   76.3  0.0504   66.0  0.3912 -174.3
 0.900  0.8143  165.8   3.716   74.0  0.0558   66.0  0.3922 -175.8
 1.000  0.8161  164.0   3.360   71.8  0.0616   66.1  0.3928 -177.3
 1.100  0.8182  162.0   3.065   69.7  0.0666   65.5  0.3937 -178.4
 1.200  0.8188  160.1   2.808   67.5  0.0721   65.1  0.3933 -179.6
 1.300  0.8180  158.1   2.600   65.5  0.0775   64.4  0.3951  179.4
 1.400  0.8200  156.3   2.429   63.3  0.0835   64.1  0.3976  178.2
 1.500  0.8223  154.6   2.266   61.2  0.0886   63.2  0.3995  177.1
 1.600  0.8251  152.6   2.135   59.1  0.0946   62.4  0.4012  176.2
 1.700  0.8270  150.6   2.018   57.0  0.0996   61.8  0.4042  175.1
 1.800  0.8302  148.7   1.917   54.8  0.1051   60.7  0.4076  174.1
 1.900  0.8308  147.2   1.817   53.0  0.1099   59.9  0.4114  173.2
 2.000  0.8310  145.3   1.728   50.8  0.1155   58.8  0.4145  172.3
 2.100  0.8327  143.4   1.651   48.8  0.1206   57.8  0.4184  171.3
 2.200  0.8353  141.6   1.577   46.6  0.1257   56.8  0.4225  170.4
 2.300  0.8372  139.9   1.513   44.8  0.1309   55.8  0.4263  169.5
 2.400  0.8397  138.3   1.450   42.8  0.1362   54.9  0.4302  168.6
 2.500  0.8405  136.6   1.393   41.0  0.1405   53.9  0.4345  167.7
 2.600  0.8420  135.0   1.338   39.1  0.1449   53.0  0.4389  166.9
 2.700  0.8439  133.4   1.290   37.5  0.1494   52.0  0.4431  166.0
 2.800  0.8465  131.9   1.244   35.7  0.1539   51.0  0.4474  165.1
 2.900  0.8471  130.3   1.202   34.0  0.1582   49.9  0.4516  164.2
 3.000  0.8484  128.8   1.161   32.2  0.1625   48.9  0.4559  163.3
 3.100  0.8495  127.3   1.128   30.8  0.1665   47.9  0.4594  162.4
 3.200  0.8511  125.8   1.095   29.2  0.1705   47.0  0.4631  161.4
 3.300  0.8533  124.3   1.063   27.6  0.1746   46.1  0.4669  160.5
 3.400  0.8561  122.9   1.032   25.9  0.1787   45.2  0.4708  159.6
 3.500  0.8594  121.4   1.002   24.1  0.1829   44.4  0.4748  158.7
 3.600  0.8599  120.0   0.977   22.8  0.1866   43.4  0.4793  157.7
 3.700  0.8610  118.6   0.952   21.3  0.1904   42.4  0.4839  156.7
 3.800  0.8625  117.2   0.927   19.8  0.1943   41.5  0.4887  155.7
 3.900  0.8646  115.8   0.904   18.3  0.1982   40.6  0.4936  154.7
 4.000  0.8672  114.4   0.881   16.6  0.2021   39.7  0.4987  153.8
 4.100  0.8671  113.2   0.860   15.4  0.2054   38.7  0.5041  152.8
 4.200  0.8673  111.9   0.840   14.1  0.2088   37.8  0.5097  151.8
 4.300  0.8680  110.7   0.820   12.8  0.2123   36.9  0.5155  150.8
 4.400  0.8691  109.4   0.801   11.4  0.2158   36.0  0.5214  149.8
 4.500  0.8706  108.2   0.782    9.9  0.2193   35.1  0.5274  148.9
 4.600  0.8714  107.2   0.765    8.9  0.2224   34.3  0.5330  148.0
 4.700  0.8725  106.3   0.749    8.0  0.2256   33.5  0.5388  147.2
 4.800  0.8738  105.3   0.733    6.9  0.2288   32.7  0.5446  146.4
 4.900  0.8754  104.4   0.717    5.8  0.2320   31.9  0.5506  145.6
 5.000  0.8772  103.4   0.701    4.7  0.2353   31.2  0.5567  144.8
 5.100  0.8780  102.5   0.690    3.8  0.2384   30.4  0.5623  144.2
 5.200  0.8791  101.6   0.679    2.9  0.2416   29.6  0.5680  143.7
 5.300  0.8804  100.7   0.669    2.0  0.2448   28.8  0.5737  143.1
 5.400  0.8819   99.8   0.658    1.1  0.2481   28.0  0.5795  142.6
 5.500  0.8836   98.9   0.648    0.1  0.2514   27.3  0.5853  142.1
 5.600  0.8822   98.0   0.638   -0.7  0.2545   26.4  0.5878  141.6
 5.700  0.8811   97.0   0.628   -1.5  0.2576   25.6  0.5903  141.2
 5.800  0.8802   96.1   0.618   -2.4  0.2607   24.8  0.5928  140.7
 5.900  0.8795   95.1   0.609   -3.3  0.2639   24.0  0.5954  140.3
 6.000  0.8791   94.2   0.599   -4.2  0.2672   23.2  0.5980  139.8
!
!  f       NFmin   Gammaopt  rn/50
! GHz       dB    MAG  ANG    -
 0.450      1.58  0.55 -175   0.06
 0.900      1.70  0.58 -169   0.07
 1.900      2.54  0.70 -148   0.18
 2.400      2.95  0.74 -143   0.30
!
! (c) 2017  Infineon Technologies AG, Munich