! Infineon Technologies  Discrete & RF Semiconductors
! BFP196W
! VCE =  8.0 V,  IC =  65 mA
! Common Emitter S-Parameters:                            Jan 2017
# GHz  S  MA  R  50
!  f         S11            S21            S12            S22
! GHz     MAG   ANG      MAG   ANG      MAG   ANG      MAG   ANG
 0.010  0.2613  -49.2  87.533  168.2  0.0029   85.5  0.9317  -15.0
 0.020  0.3586  -81.8  81.998  156.7  0.0059   67.6  0.8761  -29.1
 0.030  0.4062 -100.2  73.667  150.2  0.0078   60.3  0.7835  -38.4
 0.040  0.4854 -113.7  66.521  142.1  0.0097   55.9  0.7165  -49.8
 0.050  0.5836 -123.0  60.978  132.4  0.0117   53.0  0.6827  -62.9
 0.060  0.5971 -129.1  55.991  129.9  0.0125   50.9  0.6288  -67.5
 0.070  0.6170 -134.8  51.136  126.8  0.0133   49.0  0.5798  -72.9
 0.080  0.6426 -140.2  46.452  123.2  0.0141   47.4  0.5368  -79.3
 0.090  0.6734 -145.1  41.998  118.8  0.0149   45.9  0.5015  -86.6
 0.100  0.7087 -149.5  37.855  113.3  0.0157   44.6  0.4756  -94.9
 0.110  0.7142 -151.8  35.553  112.0  0.0160   44.2  0.4535  -98.0
 0.120  0.7207 -154.0  33.271  110.6  0.0163   43.9  0.4328 -101.5
 0.130  0.7284 -156.2  31.015  108.9  0.0166   43.5  0.4139 -105.2
 0.140  0.7370 -158.3  28.788  107.0  0.0169   43.2  0.3969 -109.3
 0.150  0.7467 -160.4  26.600  104.7  0.0172   42.9  0.3822 -113.8
 0.200  0.7556 -166.7  20.293   99.2  0.0188   44.7  0.3400 -125.7
 0.250  0.7635 -171.0  16.380   95.5  0.0211   47.9  0.3155 -134.5
 0.300  0.7659 -174.1  13.702   92.8  0.0229   50.2  0.3012 -140.7
 0.350  0.7676 -176.5  12.026   90.9  0.0251   52.8  0.2934 -144.8
 0.400  0.7706 -178.8  10.366   88.5  0.0273   55.0  0.2872 -149.2
 0.450  0.7704  179.5   9.330   87.1  0.0296   56.6  0.2834 -152.0
 0.500  0.7709  177.9   8.302   85.3  0.0319   57.9  0.2803 -154.8
 0.600  0.7719  175.0   6.940   82.5  0.0373   59.7  0.2779 -158.7
 0.700  0.7731  172.5   5.946   80.1  0.0411   62.3  0.2750 -161.7
 0.800  0.7743  170.0   5.210   77.4  0.0466   62.9  0.2754 -163.7
 0.900  0.7731  167.7   4.622   75.1  0.0512   63.4  0.2755 -165.5
 1.000  0.7748  165.7   4.176   72.9  0.0564   63.6  0.2753 -167.3
 1.100  0.7773  163.6   3.804   70.8  0.0615   63.9  0.2762 -168.3
 1.200  0.7776  161.6   3.486   68.5  0.0660   63.7  0.2770 -169.6
 1.300  0.7770  159.6   3.221   66.4  0.0712   63.3  0.2789 -170.6
 1.400  0.7787  157.8   3.008   64.3  0.0766   63.3  0.2813 -171.9
 1.500  0.7836  156.0   2.804   62.2  0.0812   62.6  0.2841 -172.9
 1.600  0.7865  154.0   2.638   60.1  0.0860   61.9  0.2861 -173.9
 1.700  0.7878  152.0   2.492   58.0  0.0914   61.5  0.2896 -174.8
 1.800  0.7899  150.1   2.363   55.9  0.0968   60.6  0.2935 -175.8
 1.900  0.7931  148.5   2.240   54.0  0.1011   60.1  0.2979 -176.6
 2.000  0.7945  146.6   2.126   51.9  0.1061   59.2  0.3018 -177.4
 2.100  0.7964  144.8   2.030   49.9  0.1109   58.3  0.3065 -178.4
 2.200  0.7990  143.0   1.937   47.7  0.1157   57.5  0.3112 -179.3
 2.300  0.8020  141.2   1.856   45.8  0.1203   56.7  0.3163  179.9
 2.400  0.8058  139.5   1.777   43.8  0.1249   55.9  0.3215  179.1
 2.500  0.8066  137.9   1.706   42.0  0.1292   54.9  0.3265  178.3
 2.600  0.8081  136.3   1.637   40.1  0.1336   54.0  0.3316  177.6
 2.700  0.8107  134.7   1.577   38.4  0.1378   53.3  0.3369  176.7
 2.800  0.8140  133.1   1.518   36.5  0.1421   52.6  0.3422  175.8
 2.900  0.8155  131.5   1.466   34.8  0.1463   51.6  0.3477  174.9
 3.000  0.8175  130.0   1.415   33.0  0.1506   50.7  0.3532  174.0
 3.100  0.8191  128.5   1.373   31.5  0.1545   49.8  0.3580  173.0
 3.200  0.8213  127.0   1.331   30.0  0.1585   48.9  0.3630  172.1
 3.300  0.8241  125.5   1.290   28.3  0.1625   48.1  0.3680  171.2
 3.400  0.8274  124.1   1.251   26.6  0.1665   47.3  0.3732  170.3
 3.500  0.8312  122.6   1.213   24.7  0.1706   46.5  0.3784  169.4
 3.600  0.8324  121.2   1.181   23.3  0.1743   45.6  0.3840  168.3
 3.700  0.8341  119.8   1.149   21.8  0.1780   44.7  0.3897  167.3
 3.800  0.8362  118.4   1.119   20.3  0.1818   43.8  0.3955  166.2
 3.900  0.8389  117.0   1.089   18.6  0.1856   43.0  0.4014  165.3
 4.000  0.8421  115.6   1.060   16.9  0.1895   42.2  0.4075  164.3
 4.100  0.8429  114.4   1.034   15.6  0.1930   41.3  0.4140  163.1
 4.200  0.8441  113.1   1.008   14.3  0.1966   40.4  0.4207  162.0
 4.300  0.8457  111.9   0.983   12.9  0.2002   39.5  0.4275  160.9
 4.400  0.8476  110.6   0.958   11.4  0.2039   38.7  0.4345  159.8
 4.500  0.8500  109.4   0.934    9.8  0.2076   37.9  0.4416  158.8
 4.600  0.8513  108.4   0.912    8.7  0.2107   37.1  0.4487  157.9
 4.700  0.8529  107.4   0.891    7.6  0.2139   36.3  0.4558  157.0
 4.800  0.8547  106.4   0.870    6.5  0.2171   35.6  0.4631  156.1
 4.900  0.8568  105.5   0.849    5.3  0.2204   34.8  0.4705  155.3
 5.000  0.8591  104.5   0.829    4.0  0.2237   34.1  0.4780  154.5
 5.100  0.8601  103.6   0.814    3.0  0.2270   33.3  0.4850  153.9
 5.200  0.8613  102.7   0.800    2.0  0.2304   32.5  0.4921  153.2
 5.300  0.8627  101.7   0.786    1.0  0.2338   31.8  0.4993  152.6
 5.400  0.8643  100.8   0.772   -0.1  0.2373   31.0  0.5065  152.1
 5.500  0.8662   99.9   0.758   -1.2  0.2408   30.3  0.5137  151.5
 5.600  0.8651   99.0   0.745   -2.1  0.2439   29.5  0.5180  151.0
 5.700  0.8641   98.1   0.732   -2.9  0.2470   28.7  0.5223  150.5
 5.800  0.8634   97.1   0.719   -3.9  0.2502   27.9  0.5266  150.0
 5.900  0.8630   96.2   0.706   -4.8  0.2534   27.1  0.5310  149.6
 6.000  0.8627   95.3   0.694   -5.8  0.2567   26.4  0.5354  149.1
!
!  f       NFmin   Gammaopt  rn/50
! GHz       dB    MAG  ANG    -
 0.450      1.51  0.53 -175   0.06
 0.900      1.64  0.57 -170   0.07
 1.900      2.49  0.70 -148   0.18
 2.400      2.88  0.74 -144   0.28
!
! (c) 2017  Infineon Technologies AG, Munich