! Infineon Technologies  Discrete & RF Semiconductors
! BFP196W
! VCE =  3.0 V,  IC =  25 mA
! Common Emitter S-Parameters:                            Jan 2017
# GHz  S  MA  R  50
!  f         S11            S21            S12            S22
! GHz     MAG   ANG      MAG   ANG      MAG   ANG      MAG   ANG
 0.010  0.4321  -27.1  57.997  171.1  0.0043   80.2  0.9691  -12.2
 0.020  0.4644  -53.1  55.587  161.2  0.0091   75.0  0.9324  -23.7
 0.030  0.4706  -70.9  51.258  154.9  0.0119   64.9  0.8558  -32.2
 0.040  0.5187  -86.8  47.660  147.5  0.0150   58.8  0.8013  -42.1
 0.050  0.5989  -99.2  44.969  139.1  0.0181   54.8  0.7736  -53.0
 0.060  0.6019 -107.0  41.660  136.2  0.0193   51.2  0.7169  -57.6
 0.070  0.6159 -114.6  38.474  132.9  0.0205   48.1  0.6655  -62.9
 0.080  0.6402 -121.8  35.442  128.9  0.0219   45.3  0.6208  -69.0
 0.090  0.6737 -128.3  32.609  124.3  0.0232   42.9  0.5842  -76.0
 0.100  0.7151 -134.2  30.030  118.8  0.0246   40.7  0.5574  -83.8
 0.110  0.7197 -137.5  28.302  117.2  0.0253   39.9  0.5302  -87.0
 0.120  0.7266 -140.7  26.598  115.5  0.0259   39.1  0.5048  -90.5
 0.130  0.7357 -143.8  24.922  113.5  0.0266   38.4  0.4814  -94.3
 0.140  0.7470 -146.8  23.280  111.2  0.0273   37.7  0.4605  -98.5
 0.150  0.7603 -149.8  21.681  108.6  0.0280   37.1  0.4422 -103.1
 0.200  0.7744 -158.5  16.718  102.2  0.0285   34.6  0.3854 -115.6
 0.250  0.7839 -164.4  13.559   97.7  0.0307   35.8  0.3507 -125.0
 0.300  0.7864 -168.7  11.389   94.7  0.0320   36.4  0.3297 -132.0
 0.350  0.7875 -171.7  10.005   92.5  0.0335   38.3  0.3173 -136.7
 0.400  0.7907 -174.6   8.641   89.6  0.0350   40.0  0.3073 -141.8
 0.450  0.7911 -176.7   7.783   88.0  0.0367   41.4  0.3017 -144.9
 0.500  0.7925 -178.8   6.932   86.0  0.0385   42.7  0.2971 -148.2
 0.600  0.7928  177.8   5.797   82.7  0.0424   46.2  0.2924 -152.8
 0.700  0.7941  174.9   4.967   80.1  0.0458   48.5  0.2883 -156.1
 0.800  0.7957  172.2   4.354   77.1  0.0503   50.7  0.2872 -158.6
 0.900  0.7947  169.7   3.863   74.6  0.0545   51.3  0.2879 -160.6
 1.000  0.7992  167.5   3.493   72.2  0.0588   52.9  0.2880 -162.5
 1.100  0.7997  165.2   3.183   69.8  0.0632   54.1  0.2891 -163.7
 1.200  0.7995  163.0   2.918   67.4  0.0678   54.3  0.2901 -165.0
 1.300  0.7990  160.9   2.697   65.2  0.0723   54.5  0.2924 -166.3
 1.400  0.8025  158.9   2.518   62.9  0.0770   55.2  0.2957 -167.5
 1.500  0.8062  157.0   2.348   60.7  0.0814   55.4  0.2987 -168.7
 1.600  0.8093  155.1   2.210   58.4  0.0859   55.4  0.3017 -169.6
 1.700  0.8105  153.0   2.088   56.2  0.0905   55.0  0.3063 -170.7
 1.800  0.8132  151.0   1.981   53.9  0.0951   54.9  0.3107 -171.7
 1.900  0.8155  149.3   1.877   52.0  0.0998   54.7  0.3155 -172.6
 2.000  0.8170  147.4   1.785   49.7  0.1052   54.3  0.3204 -173.6
 2.100  0.8186  145.5   1.704   47.7  0.1096   53.8  0.3260 -174.6
 2.200  0.8212  143.6   1.626   45.4  0.1140   53.3  0.3316 -175.6
 2.300  0.8241  141.8   1.558   43.4  0.1185   52.8  0.3377 -176.5
 2.400  0.8278  140.1   1.492   41.3  0.1230   52.3  0.3439 -177.3
 2.500  0.8281  138.4   1.433   39.5  0.1273   51.6  0.3501 -178.2
 2.600  0.8291  136.8   1.375   37.5  0.1316   50.9  0.3564 -179.1
 2.700  0.8324  135.1   1.325   35.7  0.1359   50.2  0.3623  180.0
 2.800  0.8363  133.5   1.277   33.8  0.1403   49.6  0.3682  179.1
 2.900  0.8373  131.9   1.233   32.0  0.1444   48.8  0.3747  178.1
 3.000  0.8389  130.3   1.190   30.1  0.1485   48.1  0.3813  177.1
 3.100  0.8405  128.8   1.154   28.6  0.1525   47.4  0.3869  176.0
 3.200  0.8428  127.2   1.119   27.0  0.1566   46.7  0.3926  175.0
 3.300  0.8456  125.7   1.085   25.3  0.1607   46.0  0.3984  174.0
 3.400  0.8490  124.2   1.052   23.5  0.1648   45.4  0.4044  173.0
 3.500  0.8530  122.7   1.020   21.6  0.1689   44.8  0.4105  172.0
 3.600  0.8538  121.3   0.993   20.2  0.1727   44.0  0.4170  170.8
 3.700  0.8552  119.8   0.966   18.8  0.1765   43.1  0.4237  169.7
 3.800  0.8571  118.4   0.940   17.2  0.1804   42.4  0.4305  168.6
 3.900  0.8596  117.0   0.915   15.6  0.1843   41.6  0.4375  167.5
 4.000  0.8625  115.6   0.890   13.9  0.1882   40.9  0.4446  166.5
 4.100  0.8627  114.3   0.868   12.6  0.1919   40.0  0.4518  165.3
 4.200  0.8634  113.1   0.846   11.3  0.1956   39.2  0.4591  164.1
 4.300  0.8644  111.8   0.824    9.9  0.1994   38.3  0.4667  162.9
 4.400  0.8659  110.6   0.803    8.4  0.2032   37.6  0.4745  161.8
 4.500  0.8678  109.3   0.783    6.9  0.2070   36.8  0.4824  160.7
 4.600  0.8689  108.3   0.765    5.9  0.2104   36.0  0.4901  159.6
 4.700  0.8703  107.3   0.747    4.9  0.2139   35.3  0.4980  158.6
 4.800  0.8719  106.3   0.729    3.9  0.2173   34.6  0.5060  157.6
 4.900  0.8738  105.3   0.711    2.8  0.2209   33.9  0.5142  156.6
 5.000  0.8760  104.3   0.694    1.6  0.2244   33.2  0.5225  155.7
 5.100  0.8767  103.4   0.682    0.7  0.2278   32.4  0.5302  154.9
 5.200  0.8777  102.5   0.670   -0.2  0.2313   31.7  0.5381  154.2
 5.300  0.8789  101.5   0.658   -1.1  0.2348   30.9  0.5460  153.5
 5.400  0.8803  100.6   0.646   -2.1  0.2384   30.2  0.5540  152.8
 5.500  0.8819   99.7   0.635   -3.1  0.2420   29.5  0.5621  152.1
 5.600  0.8808   98.8   0.624   -3.8  0.2454   28.7  0.5668  151.5
 5.700  0.8799   97.8   0.613   -4.6  0.2488   27.9  0.5716  150.9
 5.800  0.8793   96.9   0.603   -5.4  0.2522   27.1  0.5764  150.3
 5.900  0.8789   95.9   0.592   -6.2  0.2557   26.3  0.5813  149.8
 6.000  0.8788   95.0   0.582   -7.0  0.2593   25.6  0.5863  149.2
!
!  f       NFmin   Gammaopt  rn/50
! GHz       dB    MAG  ANG    -
 0.450      1.07  0.43  175   0.05
 0.900      1.24  0.51 -179   0.06
 1.900      2.11  0.68 -152   0.12
 2.400      2.53  0.74 -146   0.21
!
! (c) 2017  Infineon Technologies AG, Munich