! Infineon Technologies  Discrete & RF Semiconductors
! BFP196W
! VCE =  6.0 V,  IC =  90 mA
! Common Emitter S-Parameters:                            Jan 2017
# GHz  S  MA  R  50
!  f         S11            S21            S12            S22
! GHz     MAG   ANG      MAG   ANG      MAG   ANG      MAG   ANG
 0.010  0.2006  -85.3  97.002  166.5  0.0026   82.6  0.9075  -17.7
 0.020  0.3596 -108.8  89.715  153.3  0.0054   68.9  0.8439  -34.6
 0.030  0.4305 -122.4  79.127  146.8  0.0068   59.9  0.7406  -44.6
 0.040  0.5183 -131.8  69.839  138.5  0.0084   54.1  0.6664  -57.3
 0.050  0.6159 -138.3  62.435  128.0  0.0100   50.1  0.6315  -72.2
 0.060  0.6324 -142.8  57.054  125.7  0.0107   48.9  0.5817  -77.1
 0.070  0.6526 -147.1  51.782  122.9  0.0114   47.8  0.5367  -82.8
 0.080  0.6762 -151.1  46.658  119.6  0.0121   46.8  0.4981  -89.4
 0.090  0.7029 -154.9  41.736  115.4  0.0128   46.0  0.4673  -97.1
 0.100  0.7324 -158.3  37.096  110.1  0.0135   45.2  0.4459 -105.7
 0.110  0.7377 -160.0  34.787  108.9  0.0139   45.6  0.4283 -108.9
 0.120  0.7436 -161.7  32.493  107.6  0.0142   45.9  0.4121 -112.3
 0.130  0.7502 -163.3  30.221  106.1  0.0146   46.3  0.3975 -116.1
 0.140  0.7574 -164.9  27.973  104.3  0.0149   46.6  0.3847 -120.1
 0.150  0.7651 -166.5  25.757  102.2  0.0153   46.9  0.3739 -124.3
 0.200  0.7710 -171.3  19.551   97.4  0.0164   51.3  0.3435 -135.3
 0.250  0.7773 -174.6  15.727   93.9  0.0193   53.8  0.3269 -143.4
 0.300  0.7791 -177.3  13.141   91.5  0.0215   56.0  0.3171 -148.8
 0.350  0.7803 -179.2  11.528   89.8  0.0237   58.8  0.3118 -152.4
 0.400  0.7823  179.0   9.929   87.6  0.0259   61.2  0.3077 -156.1
 0.450  0.7821  177.4   8.935   86.2  0.0284   62.2  0.3052 -158.4
 0.500  0.7826  175.8   7.947   84.5  0.0310   63.1  0.3032 -160.8
 0.600  0.7834  173.4   6.642   81.8  0.0367   64.1  0.3031 -164.1
 0.700  0.7844  171.1   5.689   79.5  0.0411   65.9  0.3003 -166.6
 0.800  0.7861  168.8   4.986   76.9  0.0471   66.4  0.3008 -168.3
 0.900  0.7842  166.6   4.421   74.7  0.0518   66.3  0.3013 -170.0
 1.000  0.7856  164.7   3.996   72.5  0.0567   66.6  0.3017 -171.5
 1.100  0.7894  162.8   3.639   70.4  0.0625   66.2  0.3030 -172.6
 1.200  0.7891  160.6   3.337   68.1  0.0675   65.9  0.3036 -173.8
 1.300  0.7891  158.8   3.084   66.1  0.0726   65.4  0.3053 -174.7
 1.400  0.7907  156.9   2.879   64.0  0.0781   65.0  0.3078 -175.8
 1.500  0.7953  155.2   2.684   61.9  0.0837   64.4  0.3099 -176.9
 1.600  0.7973  153.2   2.527   59.8  0.0887   63.8  0.3120 -177.8
 1.700  0.7983  151.3   2.386   57.7  0.0940   63.0  0.3155 -178.8
 1.800  0.8015  149.3   2.264   55.5  0.0990   61.8  0.3192 -179.6
 1.900  0.8020  147.9   2.145   53.8  0.1036   61.3  0.3232  179.6
 2.000  0.8044  145.9   2.038   51.6  0.1089   60.2  0.3272  178.7
 2.100  0.8061  144.1   1.946   49.6  0.1136   59.3  0.3315  177.8
 2.200  0.8085  142.3   1.857   47.5  0.1184   58.5  0.3358  176.9
 2.300  0.8113  140.6   1.780   45.6  0.1233   57.5  0.3408  176.1
 2.400  0.8148  138.9   1.705   43.6  0.1282   56.6  0.3458  175.3
 2.500  0.8155  137.3   1.637   41.8  0.1324   55.6  0.3507  174.5
 2.600  0.8167  135.8   1.571   39.9  0.1367   54.7  0.3556  173.8
 2.700  0.8192  134.2   1.513   38.2  0.1412   53.8  0.3605  172.9
 2.800  0.8224  132.6   1.457   36.3  0.1458   52.9  0.3655  172.1
 2.900  0.8232  131.0   1.408   34.7  0.1501   51.8  0.3704  171.2
 3.000  0.8246  129.5   1.360   32.9  0.1545   50.8  0.3754  170.4
 3.100  0.8262  128.0   1.319   31.4  0.1584   49.9  0.3799  169.4
 3.200  0.8283  126.5   1.280   29.9  0.1623   49.0  0.3845  168.5
 3.300  0.8310  125.0   1.241   28.2  0.1663   48.1  0.3892  167.6
 3.400  0.8342  123.6   1.203   26.5  0.1703   47.3  0.3940  166.7
 3.500  0.8380  122.1   1.167   24.6  0.1743   46.5  0.3989  165.8
 3.600  0.8391  120.7   1.136   23.2  0.1780   45.5  0.4041  164.8
 3.700  0.8407  119.3   1.106   21.8  0.1817   44.6  0.4095  163.8
 3.800  0.8428  117.9   1.077   20.2  0.1855   43.7  0.4150  162.8
 3.900  0.8454  116.6   1.049   18.6  0.1893   42.8  0.4206  161.8
 4.000  0.8485  115.2   1.021   16.9  0.1932   42.0  0.4263  160.9
 4.100  0.8491  114.0   0.996   15.6  0.1967   41.0  0.4325  159.8
 4.200  0.8502  112.7   0.971   14.3  0.2002   40.1  0.4388  158.7
 4.300  0.8516  111.5   0.947   12.9  0.2038   39.1  0.4452  157.7
 4.400  0.8535  110.2   0.924   11.4  0.2074   38.3  0.4519  156.7
 4.500  0.8557  109.0   0.901    9.8  0.2111   37.4  0.4586  155.7
 4.600  0.8567  108.0   0.880    8.8  0.2142   36.6  0.4652  154.8
 4.700  0.8579  107.0   0.860    7.8  0.2174   35.8  0.4719  153.9
 4.800  0.8593  106.0   0.840    6.7  0.2206   35.1  0.4787  153.1
 4.900  0.8610  105.1   0.820    5.5  0.2238   34.3  0.4856  152.3
 5.000  0.8630  104.1   0.801    4.3  0.2271   33.6  0.4926  151.5
 5.100  0.8639  103.2   0.787    3.3  0.2304   32.8  0.4993  150.9
 5.200  0.8650  102.3   0.774    2.3  0.2336   32.0  0.5061  150.3
 5.300  0.8664  101.3   0.761    1.3  0.2370   31.2  0.5129  149.8
 5.400  0.8679  100.4   0.748    0.2  0.2404   30.4  0.5197  149.2
 5.500  0.8697   99.5   0.735   -0.9  0.2438   29.7  0.5266  148.7
 5.600  0.8689   98.6   0.722   -1.7  0.2469   28.9  0.5303  148.2
 5.700  0.8683   97.7   0.710   -2.5  0.2501   28.0  0.5341  147.8
 5.800  0.8680   96.7   0.698   -3.4  0.2534   27.2  0.5379  147.3
 5.900  0.8679   95.8   0.686   -4.3  0.2567   26.5  0.5417  146.8
 6.000  0.8680   94.9   0.674   -5.2  0.2600   25.7  0.5456  146.4
!
!  f       NFmin   Gammaopt  rn/50
! GHz       dB    MAG  ANG    -
 0.450      1.78  0.58 -175   0.06
 0.900      1.93  0.60 -168   0.08
 1.900      2.83  0.71 -147   0.22
 2.400      3.27  0.75 -142   0.36
!
! (c) 2017  Infineon Technologies AG, Munich