! Infineon Technologies  Discrete & RF Semiconductors
! BFP196W
! VCE =  4.0 V,  IC =  20 mA
! Common Emitter S-Parameters:                            Jan 2017
# GHz  S  MA  R  50
!  f         S11            S21            S12            S22
! GHz     MAG   ANG      MAG   ANG      MAG   ANG      MAG   ANG
 0.010  0.5159  -20.4  50.315  172.5  0.0043   82.2  0.9774  -10.0
 0.020  0.5282  -41.7  48.836  163.7  0.0086   74.4  0.9435  -19.3
 0.030  0.5193  -57.3  45.676  157.7  0.0122   65.2  0.8817  -26.8
 0.040  0.5486  -72.3  43.078  151.0  0.0160   60.3  0.8373  -35.4
 0.050  0.6105  -85.0  41.149  143.5  0.0199   57.3  0.8131  -44.6
 0.060  0.6061  -93.3  38.398  140.4  0.0214   53.4  0.7580  -48.8
 0.070  0.6145 -101.6  35.773  136.9  0.0229   50.1  0.7075  -53.6
 0.080  0.6353 -109.5  33.304  132.9  0.0245   47.1  0.6627  -59.1
 0.090  0.6673 -116.8  31.029  128.2  0.0262   44.6  0.6250  -65.4
 0.100  0.7090 -123.3  28.992  122.8  0.0279   42.3  0.5955  -72.3
 0.110  0.7117 -127.1  27.405  121.1  0.0285   40.8  0.5652  -75.2
 0.120  0.7176 -130.9  25.846  119.2  0.0292   39.4  0.5364  -78.3
 0.130  0.7265 -134.6  24.319  117.0  0.0298   38.1  0.5094  -81.8
 0.140  0.7383 -138.1  22.831  114.6  0.0305   36.8  0.4846  -85.7
 0.150  0.7529 -141.6  21.391  111.8  0.0312   35.6  0.4622  -90.0
 0.200  0.7655 -152.2  16.655  104.7  0.0322   32.9  0.3891 -102.0
 0.250  0.7745 -159.4  13.589   99.8  0.0344   32.2  0.3422 -111.3
 0.300  0.7800 -164.3  11.439   96.3  0.0357   33.5  0.3126 -118.4
 0.350  0.7810 -167.8  10.059   94.0  0.0371   34.7  0.2947 -123.4
 0.400  0.7849 -171.2   8.700   90.9  0.0385   35.9  0.2792 -128.9
 0.450  0.7842 -173.7   7.838   89.1  0.0396   36.9  0.2706 -132.3
 0.500  0.7850 -176.1   6.986   86.9  0.0407   37.9  0.2631 -136.0
 0.600  0.7883 -180.0   5.848   83.5  0.0442   40.1  0.2544 -141.4
 0.700  0.7872  176.9   5.011   80.5  0.0469   43.2  0.2482 -145.1
 0.800  0.7910  173.9   4.395   77.5  0.0508   45.8  0.2473 -147.7
 0.900  0.7897  171.2   3.899   74.8  0.0537   46.9  0.2466 -150.0
 1.000  0.7919  168.9   3.526   72.3  0.0577   48.6  0.2467 -152.3
 1.100  0.7934  166.5   3.211   69.9  0.0619   49.5  0.2479 -153.5
 1.200  0.7942  164.3   2.943   67.4  0.0657   50.5  0.2492 -155.0
 1.300  0.7948  162.1   2.719   65.1  0.0698   51.4  0.2522 -156.2
 1.400  0.7971  160.0   2.538   62.7  0.0746   52.3  0.2555 -157.6
 1.500  0.8004  158.0   2.368   60.5  0.0782   52.3  0.2591 -158.9
 1.600  0.8033  156.0   2.226   58.2  0.0823   52.6  0.2629 -159.8
 1.700  0.8062  153.9   2.103   55.9  0.0868   53.3  0.2681 -161.0
 1.800  0.8084  151.9   1.995   53.5  0.0910   52.9  0.2737 -162.2
 1.900  0.8118  150.2   1.890   51.6  0.0953   53.3  0.2791 -163.2
 2.000  0.8137  148.2   1.795   49.2  0.0999   53.0  0.2847 -164.2
 2.100  0.8158  146.2   1.714   47.2  0.1041   52.6  0.2911 -165.4
 2.200  0.8188  144.3   1.635   44.9  0.1084   52.2  0.2977 -166.5
 2.300  0.8211  142.5   1.566   42.8  0.1126   51.9  0.3045 -167.5
 2.400  0.8241  140.8   1.500   40.6  0.1169   51.7  0.3113 -168.4
 2.500  0.8254  139.1   1.439   38.8  0.1211   51.2  0.3188 -169.4
 2.600  0.8274  137.5   1.380   36.8  0.1253   50.7  0.3263 -170.4
 2.700  0.8303  135.8   1.329   35.0  0.1294   50.2  0.3331 -171.5
 2.800  0.8340  134.1   1.280   33.0  0.1336   49.7  0.3401 -172.5
 2.900  0.8353  132.5   1.236   31.2  0.1378   49.0  0.3473 -173.6
 3.000  0.8372  130.9   1.193   29.3  0.1420   48.4  0.3547 -174.7
 3.100  0.8388  129.3   1.156   27.8  0.1460   47.8  0.3613 -175.9
 3.200  0.8410  127.8   1.120   26.2  0.1501   47.2  0.3681 -177.1
 3.300  0.8439  126.2   1.086   24.5  0.1542   46.6  0.3751 -178.2
 3.400  0.8473  124.7   1.052   22.6  0.1583   46.1  0.3822 -179.3
 3.500  0.8514  123.2   1.019   20.7  0.1624   45.6  0.3894  179.6
 3.600  0.8526  121.8   0.991   19.3  0.1665   44.8  0.3966  178.3
 3.700  0.8543  120.3   0.964   17.8  0.1706   44.1  0.4040  177.0
 3.800  0.8565  118.9   0.938   16.2  0.1747   43.3  0.4116  175.7
 3.900  0.8592  117.5   0.912   14.6  0.1788   42.7  0.4193  174.5
 4.000  0.8625  116.1   0.887   12.8  0.1830   42.0  0.4273  173.4
 4.100  0.8630  114.8   0.864   11.5  0.1868   41.2  0.4353  172.0
 4.200  0.8639  113.5   0.842   10.2  0.1906   40.3  0.4435  170.7
 4.300  0.8653  112.2   0.820    8.8  0.1944   39.6  0.4520  169.4
 4.400  0.8671  111.0   0.799    7.4  0.1983   38.8  0.4607  168.1
 4.500  0.8693  109.7   0.778    5.8  0.2022   38.1  0.4696  166.9
 4.600  0.8700  108.7   0.759    4.8  0.2058   37.4  0.4780  165.7
 4.700  0.8710  107.7   0.740    3.8  0.2093   36.6  0.4866  164.5
 4.800  0.8722  106.6   0.722    2.7  0.2130   35.9  0.4955  163.3
 4.900  0.8737  105.6   0.704    1.6  0.2166   35.3  0.5045  162.2
 5.000  0.8755  104.6   0.686    0.4  0.2203   34.6  0.5137  161.1
 5.100  0.8765  103.7   0.673   -0.5  0.2239   33.8  0.5223  160.2
 5.200  0.8777  102.8   0.661   -1.3  0.2276   33.0  0.5310  159.3
 5.300  0.8792  101.8   0.649   -2.3  0.2313   32.3  0.5398  158.5
 5.400  0.8809  100.9   0.637   -3.2  0.2350   31.6  0.5487  157.7
 5.500  0.8828  100.0   0.625   -4.2  0.2388   30.9  0.5577  156.9
 5.600  0.8816   99.0   0.614   -4.9  0.2423   30.1  0.5633  156.2
 5.700  0.8806   98.0   0.602   -5.6  0.2458   29.2  0.5690  155.5
 5.800  0.8799   97.1   0.591   -6.3  0.2493   28.4  0.5747  154.8
 5.900  0.8795   96.1   0.580   -7.1  0.2529   27.7  0.5806  154.1
 6.000  0.8793   95.1   0.569   -7.9  0.2566   26.9  0.5865  153.4
!
!  f       NFmin   Gammaopt  rn/50
! GHz       dB    MAG  ANG    -
 0.450      1.02  0.40  170   0.05
 0.900      1.20  0.51  178   0.05
 1.900      2.11  0.69 -155   0.11
 2.400      2.55  0.74 -147   0.20
!
! (c) 2017  Infineon Technologies AG, Munich