! Infineon Technologies  Discrete & RF Semiconductors
! BFP196W
! VCE =  8.0 V,  IC =  70 mA
! Common Emitter S-Parameters:                            Jan 2017
# GHz  S  MA  R  50
!  f         S11            S21            S12            S22
! GHz     MAG   ANG      MAG   ANG      MAG   ANG      MAG   ANG
 0.010  0.2487  -53.1  89.559  167.9  0.0031   76.4  0.9256  -15.4
 0.020  0.3563  -85.1  83.870  156.1  0.0062   75.4  0.8710  -29.9
 0.030  0.4072 -103.2  75.108  149.6  0.0078   63.2  0.7764  -39.3
 0.040  0.4883 -116.3  67.552  141.5  0.0097   55.5  0.7077  -50.8
 0.050  0.5873 -125.3  61.647  131.7  0.0117   50.3  0.6731  -64.2
 0.060  0.6011 -131.2  56.556  129.2  0.0123   48.9  0.6198  -68.8
 0.070  0.6209 -136.7  51.593  126.2  0.0128   47.6  0.5711  -74.2
 0.080  0.6461 -141.9  46.799  122.6  0.0134   46.5  0.5285  -80.5
 0.090  0.6761 -146.6  42.232  118.2  0.0140   45.4  0.4933  -87.9
 0.100  0.7103 -150.9  37.972  112.8  0.0146   44.4  0.4675  -96.2
 0.110  0.7158 -153.1  35.655  111.5  0.0151   44.2  0.4462  -99.4
 0.120  0.7222 -155.2  33.358  110.1  0.0156   44.1  0.4264 -102.8
 0.130  0.7296 -157.3  31.086  108.4  0.0160   43.9  0.4082 -106.6
 0.140  0.7380 -159.3  28.844  106.5  0.0165   43.7  0.3921 -110.7
 0.150  0.7473 -161.3  26.641  104.2  0.0170   43.6  0.3781 -115.2
 0.200  0.7572 -167.4  20.309   98.9  0.0181   47.0  0.3378 -127.0
 0.250  0.7645 -171.6  16.371   95.2  0.0208   47.4  0.3144 -135.7
 0.300  0.7670 -174.7  13.686   92.6  0.0222   51.7  0.3008 -141.8
 0.350  0.7693 -177.0  12.018   90.8  0.0245   54.1  0.2933 -145.9
 0.400  0.7728 -179.2  10.366   88.4  0.0269   56.0  0.2873 -150.2
 0.450  0.7710  179.2   9.326   87.0  0.0294   57.6  0.2839 -152.9
 0.500  0.7698  177.6   8.294   85.2  0.0320   58.9  0.2812 -155.6
 0.600  0.7732  174.7   6.935   82.4  0.0367   60.4  0.2792 -159.5
 0.700  0.7728  172.4   5.938   80.0  0.0413   62.8  0.2766 -162.4
 0.800  0.7746  169.8   5.206   77.3  0.0464   64.3  0.2766 -164.3
 0.900  0.7726  167.5   4.617   75.0  0.0514   63.6  0.2768 -166.1
 1.000  0.7765  165.5   4.175   72.8  0.0562   64.3  0.2769 -167.8
 1.100  0.7772  163.5   3.800   70.8  0.0615   63.9  0.2779 -168.8
 1.200  0.7789  161.5   3.484   68.4  0.0661   63.9  0.2783 -170.1
 1.300  0.7784  159.4   3.219   66.4  0.0714   63.7  0.2801 -171.1
 1.400  0.7816  157.6   3.005   64.3  0.0766   63.5  0.2827 -172.3
 1.500  0.7839  155.8   2.802   62.2  0.0816   62.9  0.2853 -173.3
 1.600  0.7858  153.9   2.637   60.1  0.0863   62.3  0.2876 -174.3
 1.700  0.7889  151.8   2.488   58.0  0.0919   61.8  0.2912 -175.2
 1.800  0.7907  150.0   2.362   55.8  0.0968   60.8  0.2950 -176.2
 1.900  0.7939  148.4   2.237   54.0  0.1014   60.4  0.2989 -177.0
 2.000  0.7945  146.5   2.125   51.8  0.1064   59.6  0.3031 -177.8
 2.100  0.7970  144.6   2.028   49.8  0.1111   58.7  0.3076 -178.8
 2.200  0.8004  142.8   1.934   47.7  0.1159   57.9  0.3122 -179.8
 2.300  0.8025  141.1   1.853   45.8  0.1205   57.0  0.3173  179.4
 2.400  0.8052  139.5   1.775   43.7  0.1252   56.1  0.3224  178.7
 2.500  0.8060  137.8   1.705   42.0  0.1296   55.2  0.3278  177.9
 2.600  0.8074  136.2   1.636   40.1  0.1340   54.3  0.3332  177.2
 2.700  0.8103  134.6   1.576   38.4  0.1384   53.4  0.3383  176.3
 2.800  0.8139  133.0   1.517   36.5  0.1428   52.6  0.3434  175.4
 2.900  0.8151  131.4   1.465   34.8  0.1470   51.7  0.3487  174.6
 3.000  0.8168  129.9   1.414   33.0  0.1512   50.8  0.3541  173.8
 3.100  0.8187  128.4   1.372   31.5  0.1551   49.9  0.3589  172.8
 3.200  0.8211  126.9   1.330   30.0  0.1589   49.0  0.3638  171.8
 3.300  0.8241  125.4   1.290   28.3  0.1629   48.2  0.3689  170.9
 3.400  0.8276  124.0   1.251   26.6  0.1668   47.4  0.3740  170.0
 3.500  0.8317  122.5   1.213   24.7  0.1708   46.7  0.3792  169.1
 3.600  0.8329  121.1   1.181   23.3  0.1746   45.7  0.3847  168.0
 3.700  0.8345  119.7   1.149   21.8  0.1784   44.8  0.3904  166.9
 3.800  0.8367  118.3   1.118   20.3  0.1822   43.9  0.3962  165.9
 3.900  0.8393  117.0   1.088   18.6  0.1861   43.1  0.4021  164.9
 4.000  0.8424  115.6   1.059   16.9  0.1900   42.3  0.4081  163.9
 4.100  0.8431  114.3   1.033   15.6  0.1934   41.4  0.4145  162.8
 4.200  0.8443  113.1   1.007   14.3  0.1969   40.4  0.4211  161.7
 4.300  0.8459  111.8   0.982   12.9  0.2005   39.6  0.4279  160.6
 4.400  0.8478  110.5   0.958   11.4  0.2041   38.7  0.4348  159.6
 4.500  0.8502  109.3   0.934    9.8  0.2077   37.9  0.4418  158.6
 4.600  0.8516  108.3   0.912    8.8  0.2109   37.1  0.4487  157.7
 4.700  0.8533  107.3   0.891    7.7  0.2141   36.3  0.4558  156.8
 4.800  0.8552  106.3   0.869    6.5  0.2174   35.6  0.4630  155.9
 4.900  0.8574  105.4   0.848    5.4  0.2207   34.8  0.4702  155.0
 5.000  0.8598  104.4   0.828    4.1  0.2241   34.1  0.4776  154.2
 5.100  0.8605  103.5   0.813    3.1  0.2274   33.3  0.4847  153.6
 5.200  0.8615  102.6   0.799    2.1  0.2307   32.5  0.4918  153.0
 5.300  0.8626  101.7   0.785    1.0  0.2341   31.8  0.4990  152.4
 5.400  0.8640  100.8   0.771   -0.1  0.2375   31.0  0.5062  151.8
 5.500  0.8656   99.9   0.758   -1.2  0.2409   30.3  0.5135  151.3
 5.600  0.8652   99.0   0.745   -2.1  0.2441   29.5  0.5177  150.8
 5.700  0.8650   98.0   0.731   -2.9  0.2474   28.6  0.5220  150.3
 5.800  0.8650   97.1   0.718   -3.9  0.2507   27.8  0.5263  149.8
 5.900  0.8653   96.1   0.706   -4.8  0.2541   27.1  0.5306  149.4
 6.000  0.8658   95.2   0.693   -5.8  0.2575   26.3  0.5350  148.9
!
!  f       NFmin   Gammaopt  rn/50
! GHz       dB    MAG  ANG    -
 0.450      1.58  0.55 -175   0.06
 0.900      1.70  0.58 -169   0.07
 1.900      2.54  0.70 -148   0.18
 2.400      2.95  0.74 -143   0.30
!
! (c) 2017  Infineon Technologies AG, Munich