! Infineon Technologies  Discrete & RF Semiconductors
! BFP196W
! VCE =  4.0 V,  IC =  60 mA
! Common Emitter S-Parameters:                            Jan 2017
# GHz  S  MA  R  50
!  f         S11            S21            S12            S22
! GHz     MAG   ANG      MAG   ANG      MAG   ANG      MAG   ANG
 0.010  0.2124  -70.7  87.321  167.4  0.0031   77.8  0.9325  -17.2
 0.020  0.3512  -98.3  81.101  155.0  0.0065   72.7  0.8722  -33.1
 0.030  0.4164 -114.2  72.174  148.5  0.0083   62.9  0.7718  -43.2
 0.040  0.5045 -125.2  64.441  140.2  0.0102   56.6  0.7017  -55.7
 0.050  0.6054 -132.8  58.379  130.0  0.0122   52.4  0.6713  -70.2
 0.060  0.6222 -137.9  53.460  127.6  0.0128   50.3  0.6194  -75.2
 0.070  0.6436 -142.7  48.655  124.7  0.0134   48.4  0.5731  -81.1
 0.080  0.6693 -147.2  44.000  121.2  0.0140   46.7  0.5337  -87.9
 0.090  0.6987 -151.3  39.549  116.9  0.0146   45.1  0.5030  -95.6
 0.100  0.7315 -155.1  35.378  111.5  0.0152   43.6  0.4826 -104.2
 0.110  0.7372 -157.0  33.192  110.3  0.0156   43.7  0.4637 -107.5
 0.120  0.7438 -158.9  31.023  108.9  0.0160   43.9  0.4465 -111.0
 0.130  0.7512 -160.8  28.876  107.3  0.0163   44.0  0.4311 -114.9
 0.140  0.7593 -162.6  26.755  105.4  0.0167   44.1  0.4178 -119.0
 0.150  0.7682 -164.4  24.667  103.2  0.0171   44.2  0.4067 -123.3
 0.200  0.7763 -169.7  18.758   98.2  0.0187   46.5  0.3739 -134.7
 0.250  0.7845 -173.5  15.110   94.6  0.0213   48.4  0.3560 -142.8
 0.300  0.7857 -176.2  12.622   92.1  0.0228   52.3  0.3451 -148.5
 0.350  0.7866 -178.4  11.078   90.3  0.0250   54.5  0.3396 -152.2
 0.400  0.7886  179.5   9.548   87.9  0.0273   56.3  0.3356 -156.0
 0.450  0.7879  178.1   8.591   86.5  0.0300   57.6  0.3327 -158.4
 0.500  0.7877  176.6   7.641   84.8  0.0328   58.7  0.3304 -160.8
 0.600  0.7896  173.8   6.391   82.0  0.0379   60.7  0.3301 -164.4
 0.700  0.7907  171.6   5.473   79.7  0.0429   63.1  0.3276 -167.0
 0.800  0.7920  169.2   4.798   77.0  0.0485   63.8  0.3275 -168.9
 0.900  0.7916  167.0   4.256   74.8  0.0530   63.7  0.3282 -170.6
 1.000  0.7926  165.0   3.847   72.6  0.0582   63.9  0.3278 -172.3
 1.100  0.7941  162.9   3.505   70.5  0.0634   64.8  0.3294 -173.4
 1.200  0.7950  160.9   3.213   68.2  0.0691   63.4  0.3297 -174.6
 1.300  0.7949  158.9   2.969   66.2  0.0734   63.3  0.3313 -175.7
 1.400  0.7980  157.1   2.774   64.1  0.0794   63.3  0.3338 -176.9
 1.500  0.8008  155.4   2.587   61.9  0.0847   62.5  0.3363 -178.0
 1.600  0.8019  153.5   2.435   59.8  0.0902   61.9  0.3379 -178.9
 1.700  0.8049  151.4   2.300   57.7  0.0953   61.4  0.3418 -179.9
 1.800  0.8068  149.5   2.182   55.5  0.1002   60.6  0.3449  179.0
 1.900  0.8083  148.0   2.068   53.8  0.1055   59.8  0.3486  178.2
 2.000  0.8103  146.0   1.965   51.6  0.1101   58.8  0.3520  177.3
 2.100  0.8114  144.1   1.877   49.6  0.1150   57.9  0.3565  176.3
 2.200  0.8134  142.3   1.792   47.5  0.1200   57.1  0.3611  175.4
 2.300  0.8163  140.7   1.717   45.6  0.1249   56.2  0.3657  174.6
 2.400  0.8199  139.1   1.644   43.6  0.1299   55.4  0.3703  173.8
 2.500  0.8207  137.4   1.579   41.8  0.1342   54.5  0.3753  172.9
 2.600  0.8222  135.8   1.516   39.9  0.1385   53.6  0.3803  172.1
 2.700  0.8246  134.2   1.461   38.2  0.1428   52.6  0.3850  171.2
 2.800  0.8277  132.6   1.407   36.4  0.1471   51.7  0.3898  170.4
 2.900  0.8288  131.0   1.359   34.7  0.1515   50.8  0.3947  169.5
 3.000  0.8306  129.5   1.312   32.9  0.1559   49.9  0.3996  168.7
 3.100  0.8321  128.0   1.273   31.4  0.1598   48.9  0.4039  167.7
 3.200  0.8342  126.5   1.236   29.9  0.1638   48.0  0.4083  166.8
 3.300  0.8369  125.0   1.199   28.2  0.1678   47.1  0.4128  165.8
 3.400  0.8401  123.6   1.163   26.5  0.1719   46.3  0.4174  164.9
 3.500  0.8439  122.1   1.129   24.6  0.1760   45.5  0.4221  164.0
 3.600  0.8448  120.7   1.099   23.2  0.1797   44.5  0.4272  163.0
 3.700  0.8462  119.3   1.070   21.8  0.1834   43.6  0.4323  161.9
 3.800  0.8481  117.9   1.042   20.3  0.1872   42.7  0.4377  160.9
 3.900  0.8504  116.6   1.014   18.7  0.1910   41.8  0.4431  160.0
 4.000  0.8533  115.2   0.987   17.0  0.1949   41.0  0.4487  159.0
 4.100  0.8535  114.0   0.963   15.8  0.1983   40.1  0.4547  157.9
 4.200  0.8542  112.7   0.940   14.4  0.2017   39.1  0.4608  156.9
 4.300  0.8552  111.5   0.917   13.1  0.2052   38.3  0.4671  155.9
 4.400  0.8567  110.2   0.895   11.6  0.2087   37.4  0.4735  154.9
 4.500  0.8585  109.0   0.873   10.1  0.2123   36.6  0.4801  153.9
 4.600  0.8597  108.0   0.853    9.1  0.2155   35.8  0.4866  153.0
 4.700  0.8611  107.0   0.834    8.0  0.2187   35.0  0.4932  152.2
 4.800  0.8628  106.0   0.814    6.9  0.2219   34.2  0.4999  151.3
 4.900  0.8648  105.1   0.796    5.7  0.2252   33.4  0.5068  150.5
 5.000  0.8670  104.1   0.777    4.5  0.2285   32.7  0.5137  149.7
 5.100  0.8677  103.2   0.764    3.6  0.2318   31.9  0.5200  149.1
 5.200  0.8687  102.3   0.751    2.6  0.2350   31.1  0.5264  148.5
 5.300  0.8699  101.3   0.739    1.6  0.2384   30.3  0.5329  147.9
 5.400  0.8713  100.4   0.726    0.6  0.2418   29.5  0.5394  147.4
 5.500  0.8729   99.5   0.714   -0.5  0.2452   28.8  0.5459  146.8
 5.600  0.8720   98.6   0.702   -1.3  0.2482   28.0  0.5494  146.3
 5.700  0.8714   97.6   0.690   -2.2  0.2513   27.1  0.5529  145.9
 5.800  0.8709   96.7   0.678   -3.0  0.2545   26.3  0.5564  145.4
 5.900  0.8708   95.7   0.666   -4.0  0.2577   25.6  0.5600  144.9
 6.000  0.8708   94.8   0.655   -4.9  0.2609   24.8  0.5636  144.5
!
!  f       NFmin   Gammaopt  rn/50
! GHz       dB    MAG  ANG    -
 0.450      1.47  0.52 -176   0.06
 0.900      1.59  0.56 -170   0.07
 1.900      2.42  0.69 -149   0.17
 2.400      2.81  0.73 -144   0.27
!
! (c) 2017  Infineon Technologies AG, Munich