! Infineon Technologies  Discrete & RF Semiconductors
! BFP196W
! VCE =  6.0 V,  IC =  30 mA
! Common Emitter S-Parameters:                            Jan 2017
# GHz  S  MA  R  50
!  f         S11            S21            S12            S22
! GHz     MAG   ANG      MAG   ANG      MAG   ANG      MAG   ANG
 0.010  0.4193  -26.4  63.302  171.2  0.0037   81.6  0.9671  -11.5
 0.020  0.4511  -52.1  60.996  161.5  0.0075   72.6  0.9272  -22.3
 0.030  0.4571  -69.8  56.302  155.3  0.0103   64.1  0.8548  -30.4
 0.040  0.5032  -85.5  52.383  148.1  0.0133   59.3  0.8025  -39.8
 0.050  0.5801  -97.9  49.424  139.8  0.0163   56.3  0.7744  -50.2
 0.060  0.5835 -105.8  45.840  136.9  0.0174   53.0  0.7178  -54.5
 0.070  0.5979 -113.5  42.392  133.5  0.0185   50.0  0.6660  -59.5
 0.080  0.6225 -120.8  39.116  129.6  0.0197   47.4  0.6201  -65.4
 0.090  0.6562 -127.3  36.058  125.0  0.0209   45.1  0.5816  -72.0
 0.100  0.6976 -133.2  33.280  119.5  0.0221   43.1  0.5520  -79.5
 0.110  0.7022 -136.5  31.379  117.9  0.0227   41.8  0.5239  -82.5
 0.120  0.7090 -139.7  29.504  116.2  0.0233   40.6  0.4973  -85.8
 0.130  0.7181 -142.9  27.661  114.1  0.0239   39.5  0.4726  -89.4
 0.140  0.7293 -145.9  25.858  111.8  0.0246   38.4  0.4499  -93.5
 0.150  0.7425 -148.9  24.102  109.2  0.0252   37.4  0.4298  -97.9
 0.200  0.7552 -157.8  18.622  102.8  0.0260   38.1  0.3677 -110.0
 0.250  0.7659 -163.9  15.117   98.3  0.0280   37.7  0.3286 -119.5
 0.300  0.7692 -168.1  12.686   95.1  0.0294   39.7  0.3047 -126.5
 0.350  0.7704 -171.2  11.151   93.0  0.0308   41.4  0.2906 -131.4
 0.400  0.7737 -174.2   9.636   90.2  0.0323   42.9  0.2789 -136.7
 0.450  0.7738 -176.3   8.676   88.6  0.0343   44.8  0.2719 -139.9
 0.500  0.7749 -178.4   7.725   86.5  0.0364   46.4  0.2659 -143.3
 0.600  0.7776  178.0   6.467   83.3  0.0398   48.6  0.2606 -148.3
 0.700  0.7780  175.1   5.541   80.6  0.0432   51.8  0.2555 -151.8
 0.800  0.7797  172.4   4.856   77.7  0.0480   54.0  0.2545 -154.3
 0.900  0.7797  169.8   4.305   75.3  0.0525   54.3  0.2538 -156.5
 1.000  0.7822  167.6   3.895   72.8  0.0567   55.9  0.2538 -158.5
 1.100  0.7856  165.4   3.548   70.6  0.0612   56.0  0.2550 -159.8
 1.200  0.7834  163.2   3.252   68.2  0.0658   56.8  0.2559 -161.3
 1.300  0.7845  161.0   3.004   66.0  0.0699   56.9  0.2581 -162.4
 1.400  0.7868  159.2   2.803   63.8  0.0747   57.7  0.2612 -163.6
 1.500  0.7917  157.3   2.614   61.6  0.0791   57.5  0.2643 -164.8
 1.600  0.7940  155.2   2.459   59.4  0.0839   57.4  0.2671 -165.9
 1.700  0.7944  153.2   2.321   57.3  0.0886   57.2  0.2709 -166.9
 1.800  0.7978  151.1   2.204   55.0  0.0934   56.6  0.2757 -168.0
 1.900  0.8003  149.6   2.087   53.1  0.0973   56.4  0.2805 -168.9
 2.000  0.8031  147.6   1.982   50.8  0.1021   55.9  0.2853 -169.9
 2.100  0.8047  145.6   1.892   48.8  0.1066   55.3  0.2909 -170.9
 2.200  0.8072  143.7   1.805   46.5  0.1111   54.8  0.2965 -171.9
 2.300  0.8095  142.0   1.729   44.6  0.1157   54.3  0.3025 -172.8
 2.400  0.8125  140.3   1.656   42.5  0.1204   53.8  0.3086 -173.7
 2.500  0.8132  138.6   1.590   40.7  0.1244   53.0  0.3148 -174.6
 2.600  0.8146  137.0   1.526   38.7  0.1285   52.3  0.3210 -175.5
 2.700  0.8178  135.4   1.469   36.9  0.1329   51.7  0.3273 -176.5
 2.800  0.8217  133.8   1.414   35.0  0.1374   51.2  0.3336 -177.4
 2.900  0.8229  132.2   1.365   33.3  0.1413   50.3  0.3398 -178.4
 3.000  0.8248  130.6   1.318   31.4  0.1453   49.5  0.3460 -179.3
 3.100  0.8266  129.1   1.278   29.9  0.1493   48.8  0.3519  179.6
 3.200  0.8290  127.5   1.239   28.3  0.1534   48.1  0.3579  178.6
 3.300  0.8320  126.0   1.201   26.6  0.1574   47.5  0.3640  177.5
 3.400  0.8356  124.5   1.165   24.8  0.1615   46.9  0.3702  176.6
 3.500  0.8397  123.0   1.129   22.9  0.1656   46.3  0.3765  175.6
 3.600  0.8409  121.6   1.098   21.5  0.1694   45.4  0.3830  174.4
 3.700  0.8426  120.2   1.069   20.0  0.1732   44.6  0.3896  173.2
 3.800  0.8448  118.8   1.040   18.4  0.1771   43.8  0.3964  172.1
 3.900  0.8476  117.4   1.011   16.8  0.1810   43.0  0.4033  171.0
 4.000  0.8508  116.0   0.984   15.0  0.1849   42.3  0.4104  169.9
 4.100  0.8515  114.7   0.959   13.7  0.1886   41.4  0.4177  168.6
 4.200  0.8526  113.5   0.935   12.4  0.1923   40.6  0.4252  167.4
 4.300  0.8541  112.2   0.911   11.0  0.1961   39.7  0.4329  166.2
 4.400  0.8560  110.9   0.888    9.5  0.1999   39.0  0.4408  165.0
 4.500  0.8583  109.7   0.865    7.9  0.2037   38.2  0.4489  163.9
 4.600  0.8597  108.7   0.844    6.9  0.2071   37.4  0.4567  162.8
 4.700  0.8614  107.7   0.823    5.8  0.2105   36.6  0.4647  161.8
 4.800  0.8633  106.7   0.803    4.7  0.2139   35.9  0.4729  160.7
 4.900  0.8655  105.7   0.783    3.5  0.2174   35.2  0.4812  159.8
 5.000  0.8679  104.7   0.763    2.3  0.2209   34.5  0.4896  158.8
 5.100  0.8686  103.8   0.749    1.4  0.2244   33.7  0.4976  158.0
 5.200  0.8695  102.9   0.736    0.4  0.2279   33.0  0.5056  157.3
 5.300  0.8706  101.9   0.723   -0.6  0.2315   32.2  0.5138  156.6
 5.400  0.8719  101.0   0.710   -1.6  0.2351   31.5  0.5220  155.9
 5.500  0.8735  100.1   0.697   -2.7  0.2388   30.8  0.5303  155.2
 5.600  0.8724   99.1   0.684   -3.5  0.2421   30.0  0.5354  154.6
 5.700  0.8716   98.1   0.672   -4.3  0.2455   29.1  0.5406  153.9
 5.800  0.8711   97.2   0.659   -5.2  0.2489   28.3  0.5458  153.3
 5.900  0.8707   96.2   0.647   -6.1  0.2524   27.6  0.5511  152.7
 6.000  0.8707   95.2   0.635   -7.0  0.2559   26.8  0.5565  152.1
!
!  f       NFmin   Gammaopt  rn/50
! GHz       dB    MAG  ANG    -
 0.450      1.13  0.45  178   0.05
 0.900      1.29  0.52 -176   0.06
 1.900      2.14  0.68 -151   0.13
 2.400      2.54  0.73 -146   0.22
!
! (c) 2017  Infineon Technologies AG, Munich