! Infineon Technologies  Discrete & RF Semiconductors
! BFP196W
! VCE =  7.0 V,  IC =  5.0 mA
! Common Emitter S-Parameters:                            Jan 2017
# GHz  S  MA  R  50
!  f         S11            S21            S12            S22
! GHz     MAG   ANG      MAG   ANG      MAG   ANG      MAG   ANG
 0.010  0.8643   -6.6  16.421  177.2  0.0051   83.2  0.9960   -3.4
 0.020  0.8487  -15.8  16.191  172.3  0.0100   87.7  0.9828   -6.4
 0.030  0.8333  -22.2  15.922  168.7  0.0150   78.8  0.9704   -9.5
 0.040  0.8288  -28.8  15.718  165.0  0.0201   74.3  0.9610  -12.7
 0.050  0.8352  -35.4  15.582  161.2  0.0253   71.7  0.9546  -16.0
 0.060  0.8175  -41.4  15.139  158.2  0.0290   67.2  0.9309  -18.3
 0.070  0.8089  -47.5  14.739  155.0  0.0328   63.7  0.9087  -20.7
 0.080  0.8099  -53.8  14.386  151.7  0.0367   60.9  0.8883  -23.3
 0.090  0.8203  -59.9  14.085  148.2  0.0407   58.7  0.8697  -25.9
 0.100  0.8398  -65.8  13.838  144.6  0.0447   56.9  0.8530  -28.7
 0.110  0.8260  -70.5  13.400  142.4  0.0470   54.3  0.8280  -30.4
 0.120  0.8178  -75.2  12.984  140.0  0.0494   51.9  0.8039  -32.3
 0.130  0.8154  -80.1  12.591  137.5  0.0519   49.7  0.7806  -34.2
 0.140  0.8188  -84.9  12.224  134.8  0.0544   47.8  0.7583  -36.3
 0.150  0.8280  -89.7  11.885  132.0  0.0570   46.0  0.7371  -38.5
 0.200  0.8244 -106.9  10.146  122.1  0.0640   37.8  0.6437  -44.5
 0.250  0.8178 -120.2   8.741  114.5  0.0689   32.1  0.5696  -48.7
 0.300  0.8133 -130.2   7.604  108.7  0.0715   27.6  0.5120  -51.6
 0.350  0.8066 -137.3   6.788  104.8  0.0731   24.7  0.4744  -53.3
 0.400  0.8123 -144.4   6.012   99.8  0.0749   22.0  0.4372  -55.3
 0.450  0.8076 -149.2   5.452   96.9  0.0755   20.3  0.4158  -56.4
 0.500  0.8087 -154.1   4.910   93.3  0.0761   18.6  0.3946  -57.7
 0.600  0.8080 -161.4   4.147   87.9  0.0762   16.6  0.3681  -59.9
 0.700  0.8074 -167.0   3.572   83.4  0.0753   15.2  0.3509  -61.9
 0.800  0.8090 -172.0   3.146   79.1  0.0753   14.9  0.3423  -64.2
 0.900  0.8084 -176.1   2.796   75.3  0.0746   14.4  0.3373  -66.7
 1.000  0.8103 -179.6   2.530   71.8  0.0738   14.6  0.3350  -69.3
 1.100  0.8146  177.1   2.303   68.6  0.0726   15.4  0.3367  -71.8
 1.200  0.8132  174.0   2.108   65.2  0.0721   15.9  0.3376  -74.5
 1.300  0.8156  171.0   1.947   62.3  0.0711   17.2  0.3405  -77.3
 1.400  0.8187  168.4   1.815   59.3  0.0703   18.7  0.3436  -80.4
 1.500  0.8247  165.9   1.692   56.4  0.0703   20.4  0.3473  -83.4
 1.600  0.8284  163.2   1.587   53.6  0.0695   22.2  0.3533  -86.3
 1.700  0.8308  160.8   1.496   51.0  0.0695   25.0  0.3588  -89.5
 1.800  0.8348  158.4   1.419   48.2  0.0696   26.7  0.3647  -92.6
 1.900  0.8391  156.4   1.341   45.8  0.0701   29.6  0.3719  -95.7
 2.000  0.8406  153.9   1.272   43.1  0.0711   32.0  0.3782  -98.6
 2.100  0.8426  151.6   1.212   40.7  0.0728   34.5  0.3857 -101.8
 2.200  0.8460  149.4   1.154   38.0  0.0746   36.9  0.3943 -104.9
 2.300  0.8495  147.3   1.103   35.7  0.0769   39.3  0.4029 -108.0
 2.400  0.8541  145.3   1.054   33.2  0.0794   41.6  0.4127 -111.0
 2.500  0.8552  143.4   1.008   31.1  0.0823   43.5  0.4221 -114.1
 2.600  0.8571  141.6   0.963   28.9  0.0853   45.3  0.4326 -117.0
 2.700  0.8606  139.6   0.924   26.9  0.0890   46.9  0.4415 -119.8
 2.800  0.8650  137.7   0.887   24.8  0.0927   48.3  0.4514 -122.5
 2.900  0.8660  135.9   0.853   22.9  0.0972   49.2  0.4601 -125.4
 3.000  0.8678  134.2   0.821   20.8  0.1017   50.1  0.4699 -128.1
 3.100  0.8695  132.5   0.793   19.3  0.1068   50.6  0.4770 -130.9
 3.200  0.8719  130.7   0.765   17.7  0.1119   51.1  0.4853 -133.7
 3.300  0.8752  129.0   0.738   16.0  0.1170   51.5  0.4946 -136.3
 3.400  0.8792  127.3   0.712   14.2  0.1221   51.9  0.5049 -138.9
 3.500  0.8840  125.6   0.686   12.2  0.1272   52.2  0.5162 -141.3
 3.600  0.8847  124.0   0.665   11.0  0.1327   51.8  0.5230 -144.0
 3.700  0.8860  122.4   0.644    9.7  0.1383   51.3  0.5310 -146.6
 3.800  0.8880  120.8   0.623    8.4  0.1439   51.0  0.5400 -149.1
 3.900  0.8907  119.3   0.603    6.9  0.1494   50.6  0.5500 -151.6
 4.000  0.8941  117.7   0.583    5.4  0.1550   50.3  0.5610 -153.9
 4.100  0.8936  116.3   0.566    4.5  0.1603   49.5  0.5680 -156.5
 4.200  0.8937  114.9   0.550    3.5  0.1656   48.8  0.5761 -159.0
 4.300  0.8942  113.5   0.534    2.4  0.1709   48.1  0.5853 -161.5
 4.400  0.8954  112.1   0.518    1.3  0.1763   47.4  0.5955 -163.9
 4.500  0.8970  110.7   0.502    0.1  0.1817   46.8  0.6068 -166.2
 4.600  0.8977  109.6   0.489   -0.4  0.1868   45.9  0.6141 -168.5
 4.700  0.8986  108.5   0.475   -1.0  0.1919   45.0  0.6224 -170.7
 4.800  0.9000  107.4   0.462   -1.6  0.1971   44.1  0.6316 -172.9
 4.900  0.9016  106.3   0.448   -2.2  0.2023   43.4  0.6417 -175.0
 5.000  0.9036  105.2   0.435   -2.9  0.2076   42.6  0.6526 -177.0
 5.100  0.9037  104.2   0.427   -3.2  0.2125   41.6  0.6608 -178.8
 5.200  0.9040  103.2   0.420   -3.4  0.2176   40.7  0.6696  179.4
 5.300  0.9047  102.1   0.412   -3.7  0.2226   39.8  0.6790  177.7
 5.400  0.9056  101.1   0.405   -4.0  0.2277   38.9  0.6890  176.0
 5.500  0.9068  100.1   0.397   -4.3  0.2329   38.1  0.6996  174.4
 5.600  0.9053   99.1   0.391   -4.4  0.2374   37.0  0.7047  172.9
 5.700  0.9040   98.1   0.384   -4.4  0.2419   36.0  0.7102  171.5
 5.800  0.9030   97.1   0.378   -4.5  0.2465   35.0  0.7162  170.1
 5.900  0.9023   96.1   0.371   -4.5  0.2512   34.0  0.7227  168.7
 6.000  0.9019   95.1   0.365   -4.6  0.2560   33.1  0.7295  167.3
!
!  f       NFmin   Gammaopt  rn/50
! GHz       dB    MAG  ANG    -
 0.450      0.90  0.44  123   0.09
 0.900      1.32  0.60  159   0.06
 1.900      2.72  0.75 -161   0.11
 2.400      3.29  0.80 -151   0.28
!
! (c) 2017  Infineon Technologies AG, Munich