! Infineon Technologies  Discrete & RF Semiconductors
! BFP196W
! VCE =  2.0 V,  IC =  50 mA
! Common Emitter S-Parameters:                            Jan 2017
# GHz  S  MA  R  50
!  f         S11            S21            S12            S22
! GHz     MAG   ANG      MAG   ANG      MAG   ANG      MAG   ANG
 0.010  0.2275  -72.6  81.399  166.8  0.0037   76.7  0.9311  -19.0
 0.020  0.3778 -100.6  75.313  153.8  0.0071   72.4  0.8698  -36.5
 0.030  0.4431 -116.2  66.567  147.3  0.0091   60.6  0.7654  -47.3
 0.040  0.5320 -127.2  58.933  138.9  0.0114   53.2  0.6955  -60.8
 0.050  0.6346 -134.8  52.895  128.4  0.0138   48.4  0.6710  -76.2
 0.060  0.6505 -139.8  48.356  126.1  0.0144   46.6  0.6217  -81.5
 0.070  0.6710 -144.4  43.913  123.3  0.0150   45.0  0.5787  -87.7
 0.080  0.6956 -148.8  39.598  119.9  0.0156   43.5  0.5434  -94.8
 0.090  0.7241 -152.9  35.458  115.6  0.0163   42.1  0.5175 -102.7
 0.100  0.7559 -156.6  31.562  110.3  0.0169   40.8  0.5024 -111.3
 0.110  0.7613 -158.4  29.599  109.1  0.0174   40.8  0.4857 -114.6
 0.120  0.7674 -160.1  27.650  107.8  0.0179   40.8  0.4706 -118.1
 0.130  0.7742 -161.9  25.719  106.2  0.0183   40.7  0.4575 -121.9
 0.140  0.7816 -163.5  23.810  104.4  0.0188   40.7  0.4465 -125.9
 0.150  0.7898 -165.2  21.929  102.3  0.0193   40.7  0.4377 -130.0
 0.200  0.7962 -170.6  16.648   97.4  0.0203   44.5  0.4127 -140.8
 0.250  0.8037 -174.2  13.400   93.9  0.0227   46.6  0.3985 -148.3
 0.300  0.8055 -176.8  11.204   91.5  0.0247   49.3  0.3901 -153.4
 0.350  0.8059 -178.8   9.825   89.7  0.0268   51.8  0.3856 -156.8
 0.400  0.8073  179.2   8.458   87.4  0.0289   54.0  0.3826 -160.3
 0.450  0.8072  177.7   7.612   86.0  0.0316   55.8  0.3804 -162.4
 0.500  0.8077  176.2   6.771   84.3  0.0343   57.3  0.3787 -164.6
 0.600  0.8091  173.6   5.660   81.5  0.0396   58.8  0.3790 -167.9
 0.700  0.8081  171.3   4.849   79.2  0.0443   61.6  0.3769 -170.2
 0.800  0.8099  168.8   4.250   76.5  0.0503   62.7  0.3769 -172.1
 0.900  0.8082  166.7   3.771   74.2  0.0555   62.6  0.3773 -173.7
 1.000  0.8111  164.8   3.411   72.0  0.0604   62.4  0.3780 -175.2
 1.100  0.8137  162.6   3.109   69.9  0.0664   62.9  0.3791 -176.4
 1.200  0.8139  160.6   2.852   67.6  0.0713   62.4  0.3796 -177.7
 1.300  0.8137  158.7   2.636   65.6  0.0766   62.2  0.3808 -178.8
 1.400  0.8155  156.8   2.464   63.4  0.0825   62.0  0.3835 -179.9
 1.500  0.8186  155.1   2.299   61.3  0.0876   61.4  0.3855  178.9
 1.600  0.8206  153.1   2.164   59.1  0.0929   60.5  0.3875  177.9
 1.700  0.8212  151.1   2.046   57.0  0.0984   60.3  0.3907  176.9
 1.800  0.8242  149.3   1.944   54.8  0.1033   59.2  0.3939  175.9
 1.900  0.8258  147.6   1.841   53.0  0.1084   58.8  0.3973  175.0
 2.000  0.8264  145.6   1.752   50.7  0.1141   57.4  0.4012  174.1
 2.100  0.8289  143.8   1.674   48.7  0.1189   56.6  0.4053  173.1
 2.200  0.8322  142.0   1.599   46.6  0.1237   55.8  0.4095  172.1
 2.300  0.8337  140.3   1.533   44.7  0.1287   54.9  0.4137  171.2
 2.400  0.8358  138.7   1.468   42.7  0.1338   54.0  0.4180  170.4
 2.500  0.8357  137.1   1.411   40.9  0.1382   53.1  0.4225  169.5
 2.600  0.8363  135.5   1.355   39.0  0.1427   52.2  0.4271  168.7
 2.700  0.8390  133.8   1.307   37.3  0.1473   51.3  0.4314  167.8
 2.800  0.8424  132.1   1.260   35.5  0.1520   50.4  0.4359  166.9
 2.900  0.8437  130.6   1.217   33.8  0.1561   49.4  0.4403  166.0
 3.000  0.8455  129.1   1.176   32.0  0.1602   48.4  0.4449  165.1
 3.100  0.8467  127.6   1.142   30.6  0.1642   47.5  0.4488  164.1
 3.200  0.8485  126.1   1.109   29.0  0.1682   46.6  0.4527  163.2
 3.300  0.8508  124.6   1.076   27.4  0.1723   45.7  0.4568  162.2
 3.400  0.8538  123.1   1.045   25.7  0.1764   44.9  0.4611  161.3
 3.500  0.8573  121.6   1.014   23.9  0.1805   44.1  0.4654  160.4
 3.600  0.8578  120.2   0.988   22.6  0.1843   43.1  0.4702  159.4
 3.700  0.8588  118.8   0.963   21.1  0.1881   42.2  0.4751  158.4
 3.800  0.8603  117.4   0.938   19.6  0.1920   41.4  0.4801  157.4
 3.900  0.8623  116.1   0.914   18.1  0.1959   40.5  0.4853  156.4
 4.000  0.8648  114.7   0.891   16.4  0.1999   39.7  0.4906  155.5
 4.100  0.8650  113.5   0.870   15.2  0.2032   38.7  0.4963  154.4
 4.200  0.8655  112.2   0.849   13.9  0.2066   37.8  0.5021  153.4
 4.300  0.8665  111.0   0.828   12.5  0.2101   36.8  0.5081  152.4
 4.400  0.8679  109.7   0.808   11.1  0.2136   36.0  0.5143  151.4
 4.500  0.8697  108.5   0.789    9.6  0.2171   35.1  0.5206  150.4
 4.600  0.8703  107.5   0.772    8.7  0.2203   34.3  0.5265  149.5
 4.700  0.8711  106.5   0.755    7.7  0.2236   33.5  0.5326  148.7
 4.800  0.8722  105.6   0.738    6.6  0.2269   32.8  0.5388  147.9
 4.900  0.8736  104.6   0.721    5.5  0.2302   32.0  0.5450  147.1
 5.000  0.8752  103.6   0.705    4.4  0.2336   31.3  0.5514  146.3
 5.100  0.8759  102.7   0.694    3.5  0.2367   30.5  0.5574  145.7
 5.200  0.8768  101.8   0.683    2.6  0.2399   29.7  0.5634  145.1
 5.300  0.8780  100.9   0.673    1.6  0.2431   28.9  0.5695  144.6
 5.400  0.8793  100.0   0.662    0.6  0.2464   28.1  0.5756  144.0
 5.500  0.8809   99.1   0.652   -0.4  0.2497   27.4  0.5818  143.5
 5.600  0.8792   98.2   0.642   -1.2  0.2527   26.6  0.5846  143.0
 5.700  0.8778   97.2   0.631   -2.0  0.2558   25.7  0.5874  142.6
 5.800  0.8766   96.3   0.621   -2.8  0.2590   24.9  0.5902  142.1
 5.900  0.8756   95.3   0.611   -3.6  0.2622   24.2  0.5931  141.7
 6.000  0.8749   94.4   0.601   -4.5  0.2654   23.4  0.5960  141.2
!
!  f       NFmin   Gammaopt  rn/50
! GHz       dB    MAG  ANG    -
 0.450      1.36  0.51 -177   0.05
 0.900      1.48  0.55 -171   0.07
 1.900      2.30  0.69 -149   0.16
 2.400      2.70  0.73 -144   0.26
!
! (c) 2017  Infineon Technologies AG, Munich