! Infineon Technologies  Discrete & RF Semiconductors
! BFP196W
! VCE =  10. V,  IC =  25 mA
! Common Emitter S-Parameters:                            Jan 2017
# GHz  S  MA  R  50
!  f         S11            S21            S12            S22
! GHz     MAG   ANG      MAG   ANG      MAG   ANG      MAG   ANG
 0.010  0.5191  -19.1  55.658  172.4  0.0033   77.8  0.9622   -9.3
 0.020  0.5297  -39.6  53.670  164.0  0.0072   77.7  0.9306  -18.1
 0.030  0.5188  -54.7  50.400  158.1  0.0102   67.1  0.8728  -25.2
 0.040  0.5440  -69.4  47.724  151.6  0.0135   61.5  0.8303  -33.2
 0.050  0.6009  -82.1  45.748  144.3  0.0168   58.1  0.8055  -41.9
 0.060  0.5949  -90.5  42.747  141.2  0.0183   54.5  0.7521  -45.9
 0.070  0.6017  -98.9  39.888  137.7  0.0198   51.5  0.7028  -50.4
 0.080  0.6211 -106.9  37.201  133.7  0.0214   49.0  0.6586  -55.6
 0.090  0.6518 -114.4  34.728  129.0  0.0230   46.7  0.6206  -61.5
 0.100  0.6923 -121.0  32.518  123.7  0.0246   44.8  0.5899  -68.1
 0.110  0.6940 -124.9  30.758  122.0  0.0252   43.3  0.5591  -70.8
 0.120  0.6989 -128.8  29.029  120.0  0.0258   41.8  0.5297  -73.7
 0.130  0.7070 -132.6  27.338  117.9  0.0264   40.4  0.5019  -77.0
 0.140  0.7181 -136.3  25.692  115.4  0.0270   39.1  0.4760  -80.7
 0.150  0.7321 -139.9  24.099  112.6  0.0277   37.8  0.4522  -84.8
 0.200  0.7462 -150.7  18.815  105.5  0.0287   35.0  0.3747  -96.0
 0.250  0.7556 -158.1  15.360  100.5  0.0309   35.6  0.3245 -104.7
 0.300  0.7603 -163.3  12.937   97.0  0.0318   35.9  0.2918 -111.6
 0.350  0.7608 -166.9  11.385   94.7  0.0334   37.8  0.2715 -116.4
 0.400  0.7643 -170.5   9.858   91.6  0.0350   39.5  0.2534 -121.9
 0.450  0.7645 -173.0   8.882   89.8  0.0365   40.4  0.2435 -125.3
 0.500  0.7661 -175.5   7.917   87.6  0.0380   41.2  0.2345 -129.0
 0.600  0.7692 -179.3   6.624   84.2  0.0411   44.0  0.2246 -134.4
 0.700  0.7705  177.4   5.682   81.3  0.0440   46.6  0.2171 -138.5
 0.800  0.7723  174.3   4.980   78.3  0.0483   49.3  0.2145 -141.2
 0.900  0.7695  171.6   4.419   75.7  0.0519   49.7  0.2136 -143.8
 1.000  0.7723  169.2   3.992   73.2  0.0554   51.5  0.2128 -146.0
 1.100  0.7761  166.9   3.636   70.9  0.0593   52.7  0.2138 -147.3
 1.200  0.7738  164.6   3.333   68.4  0.0634   53.0  0.2148 -148.9
 1.300  0.7756  162.4   3.078   66.2  0.0670   54.0  0.2174 -150.2
 1.400  0.7784  160.3   2.873   63.9  0.0717   54.7  0.2201 -151.6
 1.500  0.7822  158.4   2.680   61.7  0.0757   54.7  0.2236 -153.0
 1.600  0.7845  156.3   2.519   59.4  0.0800   55.1  0.2270 -154.1
 1.700  0.7876  154.2   2.376   57.2  0.0842   55.2  0.2321 -155.4
 1.800  0.7902  152.2   2.257   54.9  0.0882   55.0  0.2371 -156.6
 1.900  0.7933  150.6   2.135   53.0  0.0929   54.8  0.2424 -157.7
 2.000  0.7946  148.5   2.028   50.7  0.0972   54.8  0.2475 -158.8
 2.100  0.7968  146.5   1.936   48.7  0.1014   54.4  0.2538 -160.0
 2.200  0.8000  144.6   1.846   46.4  0.1056   54.1  0.2602 -161.2
 2.300  0.8033  142.8   1.768   44.4  0.1098   53.7  0.2670 -162.3
 2.400  0.8073  141.1   1.693   42.3  0.1141   53.4  0.2738 -163.3
 2.500  0.8080  139.4   1.625   40.4  0.1182   52.8  0.2811 -164.4
 2.600  0.8094  137.8   1.558   38.4  0.1224   52.2  0.2884 -165.4
 2.700  0.8126  136.1   1.500   36.6  0.1266   51.7  0.2952 -166.5
 2.800  0.8165  134.5   1.444   34.6  0.1308   51.3  0.3022 -167.6
 2.900  0.8181  132.8   1.393   32.9  0.1348   50.6  0.3091 -168.8
 3.000  0.8204  131.2   1.344   31.0  0.1389   50.0  0.3162 -169.9
 3.100  0.8223  129.7   1.303   29.5  0.1429   49.4  0.3227 -171.2
 3.200  0.8249  128.1   1.262   27.8  0.1469   48.7  0.3294 -172.4
 3.300  0.8280  126.6   1.223   26.1  0.1510   48.2  0.3362 -173.6
 3.400  0.8317  125.1   1.185   24.3  0.1550   47.6  0.3432 -174.7
 3.500  0.8360  123.6   1.148   22.3  0.1591   47.1  0.3503 -175.8
 3.600  0.8374  122.2   1.117   20.9  0.1630   46.3  0.3574 -177.2
 3.700  0.8394  120.7   1.086   19.4  0.1669   45.5  0.3647 -178.6
 3.800  0.8418  119.3   1.056   17.8  0.1709   44.8  0.3722 -179.9
 3.900  0.8448  117.9   1.027   16.2  0.1749   44.1  0.3799  178.9
 4.000  0.8483  116.5   0.999   14.4  0.1789   43.4  0.3878  177.7
 4.100  0.8488  115.2   0.973   13.1  0.1826   42.5  0.3957  176.2
 4.200  0.8497  113.9   0.948   11.7  0.1863   41.7  0.4038  174.8
 4.300  0.8510  112.6   0.923   10.2  0.1901   40.9  0.4122  173.5
 4.400  0.8528  111.4   0.899    8.6  0.1939   40.1  0.4208  172.2
 4.500  0.8550  110.1   0.875    7.0  0.1978   39.4  0.4296  170.9
 4.600  0.8568  109.1   0.854    6.0  0.2013   38.7  0.4382  169.6
 4.700  0.8589  108.1   0.832    4.9  0.2049   38.0  0.4469  168.4
 4.800  0.8612  107.1   0.812    3.8  0.2085   37.3  0.4559  167.3
 4.900  0.8638  106.1   0.791    2.6  0.2121   36.6  0.4650  166.2
 5.000  0.8666  105.1   0.771    1.3  0.2157   36.0  0.4743  165.1
 5.100  0.8674  104.1   0.756    0.4  0.2195   35.2  0.4832  164.2
 5.200  0.8683  103.2   0.742   -0.6  0.2233   34.4  0.4921  163.3
 5.300  0.8696  102.2   0.727   -1.6  0.2271   33.7  0.5012  162.4
 5.400  0.8711  101.3   0.713   -2.6  0.2310   33.0  0.5104  161.6
 5.500  0.8728  100.3   0.699   -3.7  0.2349   32.3  0.5197  160.8
 5.600  0.8718   99.4   0.686   -4.5  0.2383   31.5  0.5258  160.1
 5.700  0.8710   98.4   0.673   -5.3  0.2417   30.6  0.5319  159.4
 5.800  0.8705   97.5   0.660   -6.2  0.2451   29.8  0.5381  158.7
 5.900  0.8702   96.5   0.647   -7.1  0.2486   29.1  0.5444  158.0
 6.000  0.8701   95.6   0.635   -8.0  0.2522   28.3  0.5508  157.3
!
!  f       NFmin   Gammaopt  rn/50
! GHz       dB    MAG  ANG    -
 0.450      1.07  0.43  175   0.05
 0.900      1.24  0.51 -179   0.06
 1.900      2.11  0.68 -152   0.12
 2.400      2.53  0.74 -146   0.21
!
! (c) 2017  Infineon Technologies AG, Munich