! Infineon Technologies  Discrete & RF Semiconductors
! BFP196W
! VCE =  5.0 V,  IC =  10 mA
! Common Emitter S-Parameters:                            Jan 2017
# GHz  S  MA  R  50
!  f         S11            S21            S12            S22
! GHz     MAG   ANG      MAG   ANG      MAG   ANG      MAG   ANG
 0.010  0.7202  -11.1  30.344  175.3  0.0048   84.8  0.9905   -6.0
 0.020  0.7112  -24.5  29.656  168.8  0.0100   82.8  0.9698  -11.6
 0.030  0.6913  -34.6  28.645  163.9  0.0143   73.5  0.9381  -16.8
 0.040  0.6938  -44.9  27.855  158.7  0.0188   68.5  0.9145  -22.3
 0.050  0.7183  -54.9  27.305  153.3  0.0234   65.5  0.8998  -28.0
 0.060  0.6985  -62.5  26.008  150.0  0.0260   60.8  0.8578  -31.3
 0.070  0.6917  -70.5  24.803  146.5  0.0287   56.9  0.8189  -34.9
 0.080  0.6983  -78.4  23.705  142.5  0.0316   53.8  0.7835  -38.8
 0.090  0.7179  -86.1  22.729  138.2  0.0345   51.1  0.7523  -43.2
 0.100  0.7495  -93.2  21.891  133.6  0.0375   48.9  0.7256  -47.8
 0.110  0.7428  -98.0  20.906  131.5  0.0388   46.6  0.6932  -50.1
 0.120  0.7413 -102.8  19.951  129.3  0.0401   44.5  0.6620  -52.6
 0.130  0.7452 -107.7  19.029  126.8  0.0416   42.5  0.6322  -55.3
 0.140  0.7542 -112.4  18.147  124.1  0.0430   40.6  0.6040  -58.3
 0.150  0.7683 -117.0  17.310  121.1  0.0445   38.9  0.5776  -61.6
 0.200  0.7754 -131.7  13.990  112.3  0.0479   33.5  0.4788  -70.4
 0.250  0.7817 -142.3  11.639  106.0  0.0505   29.3  0.4066  -76.8
 0.300  0.7840 -149.8   9.922  101.5  0.0515   27.3  0.3562  -81.7
 0.350  0.7834 -154.9   8.766   98.5  0.0527   26.5  0.3242  -85.0
 0.400  0.7890 -160.0   7.642   94.5  0.0540   25.7  0.2935  -89.0
 0.450  0.7872 -163.5   6.899   92.3  0.0546   25.5  0.2756  -91.6
 0.500  0.7884 -167.0   6.168   89.5  0.0552   25.4  0.2584  -94.5
 0.600  0.7906 -172.2   5.177   85.2  0.0570   25.7  0.2377  -98.7
 0.700  0.7910 -176.5   4.443   81.6  0.0569   26.8  0.2247 -101.9
 0.800  0.7940  179.8   3.901   78.1  0.0588   29.1  0.2186 -104.8
 0.900  0.7918  176.5   3.462   74.9  0.0605   30.1  0.2157 -107.5
 1.000  0.7936  173.7   3.131   72.0  0.0619   31.7  0.2142 -109.9
 1.100  0.7987  170.9   2.851   69.3  0.0639   33.7  0.2167 -111.7
 1.200  0.7999  168.3   2.612   66.4  0.0657   34.6  0.2187 -113.9
 1.300  0.7988  165.9   2.412   63.8  0.0674   35.9  0.2229 -115.9
 1.400  0.8032  163.5   2.250   61.2  0.0700   38.1  0.2274 -118.1
 1.500  0.8084  161.4   2.098   58.7  0.0723   39.3  0.2321 -120.4
 1.600  0.8099  159.2   1.971   56.1  0.0747   40.7  0.2386 -122.2
 1.700  0.8121  156.8   1.860   53.7  0.0775   42.3  0.2456 -124.4
 1.800  0.8165  154.7   1.764   51.2  0.0808   43.0  0.2525 -126.6
 1.900  0.8201  152.8   1.669   49.0  0.0834   44.1  0.2604 -128.7
 2.000  0.8211  150.6   1.585   46.5  0.0866   45.2  0.2678 -130.7
 2.100  0.8239  148.5   1.512   44.3  0.0898   45.9  0.2762 -132.9
 2.200  0.8277  146.5   1.441   41.8  0.0931   46.6  0.2850 -134.9
 2.300  0.8300  144.6   1.379   39.6  0.0969   47.1  0.2943 -137.0
 2.400  0.8332  142.8   1.320   37.3  0.1008   47.5  0.3040 -138.9
 2.500  0.8351  141.0   1.265   35.3  0.1044   47.8  0.3140 -140.9
 2.600  0.8378  139.3   1.212   33.1  0.1080   48.1  0.3244 -142.8
 2.700  0.8408  137.5   1.166   31.2  0.1121   48.3  0.3337 -144.7
 2.800  0.8445  135.8   1.121   29.1  0.1163   48.4  0.3433 -146.4
 2.900  0.8455  134.1   1.081   27.2  0.1202   48.3  0.3524 -148.5
 3.000  0.8472  132.4   1.042   25.2  0.1242   48.2  0.3620 -150.4
 3.100  0.8491  130.8   1.008   23.7  0.1286   48.1  0.3707 -152.4
 3.200  0.8516  129.2   0.975   22.0  0.1330   47.9  0.3797 -154.3
 3.300  0.8547  127.6   0.943   20.3  0.1373   47.8  0.3892 -156.1
 3.400  0.8585  126.1   0.912   18.4  0.1417   47.7  0.3990 -157.8
 3.500  0.8630  124.5   0.882   16.4  0.1461   47.6  0.4092 -159.4
 3.600  0.8643  123.0   0.856   15.0  0.1506   47.0  0.4176 -161.4
 3.700  0.8661  121.5   0.831   13.6  0.1551   46.4  0.4266 -163.4
 3.800  0.8686  120.0   0.807   12.0  0.1597   45.9  0.4360 -165.2
 3.900  0.8717  118.5   0.783   10.4  0.1642   45.4  0.4458 -167.0
 4.000  0.8753  117.0   0.760    8.6  0.1688   44.9  0.4561 -168.7
 4.100  0.8754  115.7   0.739    7.4  0.1731   44.2  0.4650 -170.8
 4.200  0.8759  114.3   0.718    6.2  0.1775   43.4  0.4745 -172.7
 4.300  0.8770  113.0   0.698    4.9  0.1819   42.8  0.4846 -174.6
 4.400  0.8785  111.6   0.678    3.5  0.1864   42.1  0.4952 -176.5
 4.500  0.8805  110.3   0.659    2.0  0.1908   41.5  0.5062 -178.2
 4.600  0.8814  109.3   0.642    1.1  0.1951   40.7  0.5154 -180.0
 4.700  0.8827  108.2   0.625    0.2  0.1993   40.0  0.5252  178.3
 4.800  0.8842  107.2   0.608   -0.7  0.2037   39.2  0.5354  176.6
 4.900  0.8860  106.1   0.591   -1.7  0.2080   38.6  0.5460  175.0
 5.000  0.8881  105.1   0.575   -2.8  0.2124   37.9  0.5570  173.5
 5.100  0.8887  104.1   0.564   -3.5  0.2166   37.1  0.5666  172.1
 5.200  0.8895  103.1   0.553   -4.2  0.2209   36.3  0.5766  170.8
 5.300  0.8906  102.2   0.542   -4.9  0.2252   35.6  0.5869  169.5
 5.400  0.8919  101.2   0.531   -5.6  0.2295   34.9  0.5975  168.2
 5.500  0.8935  100.2   0.520   -6.4  0.2339   34.2  0.6083  167.0
 5.600  0.8921   99.2   0.510   -6.9  0.2380   33.3  0.6148  165.9
 5.700  0.8909   98.2   0.500   -7.3  0.2421   32.3  0.6215  164.8
 5.800  0.8900   97.2   0.490   -7.8  0.2463   31.5  0.6284  163.7
 5.900  0.8894   96.2   0.480   -8.4  0.2506   30.6  0.6355  162.6
 6.000  0.8891   95.2   0.470   -8.9  0.2549   29.8  0.6429  161.6
!
!  f       NFmin   Gammaopt  rn/50
! GHz       dB    MAG  ANG    -
 0.450      0.91  0.36  146   0.06
 0.900      1.19  0.53  168   0.05
 1.900      2.27  0.71 -158   0.10
 2.400      2.77  0.76 -149   0.22
!
! (c) 2017  Infineon Technologies AG, Munich