! Infineon Technologies  Discrete & RF Semiconductors
! BFP196W
! VCE =  4.0 V,  IC =  30 mA
! Common Emitter S-Parameters:                            Jan 2017
# GHz  S  MA  R  50
!  f         S11            S21            S12            S22
! GHz     MAG   ANG      MAG   ANG      MAG   ANG      MAG   ANG
 0.010  0.3868  -30.1  64.038  170.6  0.0040   83.4  0.9654  -12.6
 0.020  0.4322  -57.8  61.322  160.5  0.0079   75.8  0.9265  -24.4
 0.030  0.4458  -76.3  56.265  154.1  0.0106   64.5  0.8464  -33.0
 0.040  0.5007  -92.2  52.029  146.6  0.0136   58.0  0.7890  -43.1
 0.050  0.5856 -104.2  48.830  138.0  0.0167   53.9  0.7595  -54.4
 0.060  0.5924 -111.8  45.164  135.2  0.0178   50.9  0.7029  -58.9
 0.070  0.6091 -119.0  41.628  131.9  0.0190   48.2  0.6514  -64.2
 0.080  0.6351 -125.8  38.255  128.0  0.0201   45.9  0.6064  -70.4
 0.090  0.6692 -132.0  35.095  123.3  0.0214   43.8  0.5695  -77.4
 0.100  0.7103 -137.5  32.209  117.8  0.0226   41.9  0.5422  -85.3
 0.110  0.7152 -140.5  30.336  116.3  0.0231   40.9  0.5158  -88.4
 0.120  0.7221 -143.5  28.485  114.6  0.0236   39.9  0.4911  -91.9
 0.130  0.7309 -146.4  26.663  112.7  0.0241   39.0  0.4683  -95.7
 0.140  0.7415 -149.3  24.874  110.5  0.0246   38.1  0.4479  -99.9
 0.150  0.7539 -152.0  23.128  108.0  0.0251   37.2  0.4301 -104.5
 0.200  0.7662 -160.2  17.799  101.8  0.0255   38.1  0.3754 -116.8
 0.250  0.7763 -166.0  14.430   97.4  0.0280   38.1  0.3417 -126.3
 0.300  0.7817 -169.8  12.109   94.4  0.0291   38.7  0.3222 -133.1
 0.350  0.7820 -172.7  10.635   92.3  0.0310   40.9  0.3105 -137.8
 0.400  0.7843 -175.5   9.180   89.5  0.0330   42.8  0.3010 -142.8
 0.450  0.7842 -177.5   8.265   87.9  0.0345   44.8  0.2956 -145.9
 0.500  0.7850 -179.5   7.357   86.0  0.0361   46.6  0.2910 -149.1
 0.600  0.7875  177.1   6.154   82.8  0.0408   50.0  0.2867 -153.7
 0.700  0.7886  174.5   5.273   80.2  0.0439   51.9  0.2831 -157.0
 0.800  0.7892  171.6   4.621   77.3  0.0493   54.0  0.2822 -159.3
 0.900  0.7894  169.1   4.101   74.9  0.0532   55.2  0.2828 -161.3
 1.000  0.7918  167.0   3.707   72.6  0.0578   56.2  0.2823 -163.3
 1.100  0.7927  164.9   3.377   70.3  0.0627   56.6  0.2833 -164.5
 1.200  0.7918  162.7   3.097   67.9  0.0668   57.3  0.2843 -165.9
 1.300  0.7928  160.6   2.861   65.7  0.0714   57.4  0.2864 -167.0
 1.400  0.7967  158.7   2.671   63.5  0.0764   57.6  0.2894 -168.1
 1.500  0.7990  156.9   2.491   61.3  0.0812   57.4  0.2925 -169.4
 1.600  0.8028  154.8   2.344   59.0  0.0860   57.2  0.2950 -170.3
 1.700  0.8028  152.8   2.214   56.9  0.0907   57.1  0.2992 -171.4
 1.800  0.8069  150.9   2.102   54.6  0.0951   56.6  0.3035 -172.5
 1.900  0.8107  149.1   1.991   52.7  0.0999   56.4  0.3083 -173.3
 2.000  0.8100  147.2   1.891   50.5  0.1051   55.8  0.3126 -174.2
 2.100  0.8121  145.3   1.806   48.4  0.1095   55.2  0.3179 -175.3
 2.200  0.8150  143.4   1.723   46.2  0.1140   54.6  0.3234 -176.3
 2.300  0.8173  141.7   1.651   44.2  0.1188   54.0  0.3291 -177.2
 2.400  0.8203  140.1   1.581   42.1  0.1236   53.4  0.3349 -178.0
 2.500  0.8214  138.4   1.518   40.3  0.1276   52.7  0.3408 -178.9
 2.600  0.8232  136.8   1.456   38.4  0.1317   52.1  0.3468 -179.7
 2.700  0.8257  135.1   1.403   36.6  0.1360   51.3  0.3526  179.4
 2.800  0.8290  133.4   1.351   34.7  0.1403   50.6  0.3585  178.5
 2.900  0.8300  131.8   1.304   33.0  0.1445   49.7  0.3645  177.5
 3.000  0.8317  130.2   1.259   31.1  0.1488   48.9  0.3706  176.6
 3.100  0.8334  128.7   1.221   29.6  0.1528   48.1  0.3761  175.6
 3.200  0.8356  127.2   1.184   28.0  0.1568   47.4  0.3817  174.6
 3.300  0.8384  125.7   1.149   26.4  0.1609   46.8  0.3874  173.6
 3.400  0.8418  124.2   1.114   24.6  0.1649   46.1  0.3933  172.6
 3.500  0.8458  122.7   1.080   22.7  0.1690   45.5  0.3992  171.7
 3.600  0.8469  121.3   1.051   21.3  0.1728   44.6  0.4053  170.5
 3.700  0.8485  119.9   1.023   19.8  0.1766   43.8  0.4116  169.4
 3.800  0.8506  118.5   0.995   18.2  0.1805   42.9  0.4180  168.3
 3.900  0.8532  117.1   0.968   16.6  0.1844   42.2  0.4246  167.2
 4.000  0.8563  115.7   0.942   14.8  0.1884   41.4  0.4313  166.2
 4.100  0.8568  114.4   0.919   13.6  0.1920   40.5  0.4384  165.0
 4.200  0.8577  113.2   0.896   12.2  0.1957   39.7  0.4457  163.8
 4.300  0.8590  111.9   0.873   10.9  0.1994   38.8  0.4533  162.6
 4.400  0.8607  110.7   0.851    9.4  0.2031   38.1  0.4609  161.5
 4.500  0.8628  109.4   0.830    7.9  0.2069   37.3  0.4688  160.4
 4.600  0.8641  108.4   0.810    6.9  0.2103   36.5  0.4764  159.4
 4.700  0.8656  107.4   0.791    5.9  0.2137   35.7  0.4840  158.4
 4.800  0.8673  106.4   0.772    4.8  0.2171   34.9  0.4919  157.5
 4.900  0.8694  105.4   0.753    3.6  0.2206   34.2  0.4998  156.6
 5.000  0.8717  104.4   0.735    2.4  0.2241   33.5  0.5079  155.7
 5.100  0.8725  103.5   0.722    1.5  0.2276   32.7  0.5155  155.0
 5.200  0.8735  102.6   0.710    0.6  0.2311   32.0  0.5232  154.3
 5.300  0.8748  101.7   0.697   -0.4  0.2346   31.3  0.5310  153.6
 5.400  0.8762  100.8   0.685   -1.4  0.2382   30.6  0.5388  152.9
 5.500  0.8779   99.9   0.673   -2.4  0.2418   29.9  0.5467  152.3
 5.600  0.8767   98.9   0.661   -3.2  0.2451   29.1  0.5512  151.7
 5.700  0.8758   97.9   0.650   -4.0  0.2484   28.2  0.5558  151.1
 5.800  0.8752   97.0   0.638   -4.9  0.2518   27.4  0.5604  150.5
 5.900  0.8747   96.0   0.627   -5.8  0.2552   26.7  0.5651  150.0
 6.000  0.8746   95.0   0.616   -6.7  0.2587   25.9  0.5699  149.4
!
!  f       NFmin   Gammaopt  rn/50
! GHz       dB    MAG  ANG    -
 0.450      1.13  0.45  178   0.05
 0.900      1.29  0.52 -176   0.06
 1.900      2.14  0.68 -151   0.13
 2.400      2.54  0.73 -146   0.22
!
! (c) 2017  Infineon Technologies AG, Munich