! Infineon Technologies  Discrete & RF Semiconductors
! BFP196W
! VCE =  2.0 V,  IC =  65 mA
! Common Emitter S-Parameters:                            Jan 2017
# GHz  S  MA  R  50
!  f         S11            S21            S12            S22
! GHz     MAG   ANG      MAG   ANG      MAG   ANG      MAG   ANG
 0.010  0.2171 -101.0  88.794  165.5  0.0035   76.1  0.9106  -21.2
 0.020  0.3955 -118.0  81.193  151.4  0.0068   66.7  0.8420  -40.5
 0.030  0.4719 -129.6  70.934  145.0  0.0083   57.0  0.7338  -51.7
 0.040  0.5622 -137.8  61.848  136.6  0.0099   50.4  0.6622  -66.0
 0.050  0.6606 -143.6  54.524  125.6  0.0116   45.7  0.6396  -82.5
 0.060  0.6761 -147.6  49.708  123.4  0.0123   44.8  0.5941  -88.0
 0.070  0.6948 -151.4  44.979  120.8  0.0130   44.0  0.5549  -94.2
 0.080  0.7163 -155.0  40.367  117.5  0.0136   43.3  0.5233 -101.4
 0.090  0.7405 -158.4  35.917  113.5  0.0143   42.7  0.5008 -109.3
 0.100  0.7671 -161.5  31.699  108.3  0.0150   42.1  0.4887 -117.8
 0.110  0.7721 -163.0  29.704  107.2  0.0153   42.2  0.4747 -121.0
 0.120  0.7776 -164.5  27.721  106.0  0.0157   42.4  0.4623 -124.4
 0.130  0.7836 -165.9  25.752  104.6  0.0160   42.5  0.4516 -127.9
 0.140  0.7902 -167.4  23.802  102.9  0.0164   42.6  0.4427 -131.7
 0.150  0.7972 -168.8  21.875  101.0  0.0167   42.7  0.4357 -135.5
 0.200  0.8034 -173.1  16.572   96.3  0.0181   48.4  0.4161 -145.5
 0.250  0.8097 -176.2  13.314   93.1  0.0208   50.4  0.4051 -152.3
 0.300  0.8103 -178.5  11.123   90.8  0.0231   53.8  0.3986 -156.9
 0.350  0.8111  179.7   9.751   89.1  0.0256   56.9  0.3953 -160.0
 0.400  0.8127  177.9   8.391   86.9  0.0282   59.5  0.3931 -163.1
 0.450  0.8116  176.5   7.552   85.6  0.0308   60.8  0.3915 -165.1
 0.500  0.8111  175.0   6.719   83.9  0.0334   61.9  0.3903 -167.1
 0.600  0.8129  172.6   5.613   81.2  0.0392   62.6  0.3906 -170.0
 0.700  0.8125  170.5   4.808   78.9  0.0441   65.0  0.3886 -172.1
 0.800  0.8130  168.2   4.216   76.3  0.0500   65.7  0.3891 -173.8
 0.900  0.8127  166.0   3.740   74.1  0.0548   64.9  0.3894 -175.4
 1.000  0.8158  164.1   3.382   71.9  0.0606   65.3  0.3907 -177.0
 1.100  0.8172  162.0   3.083   69.8  0.0664   65.0  0.3912 -178.0
 1.200  0.8163  160.1   2.827   67.5  0.0719   64.4  0.3910 -179.3
 1.300  0.8165  158.2   2.617   65.5  0.0772   64.4  0.3930  179.7
 1.400  0.8186  156.4   2.444   63.4  0.0831   63.8  0.3952  178.5
 1.500  0.8218  154.7   2.279   61.3  0.0884   62.8  0.3976  177.4
 1.600  0.8248  152.8   2.149   59.1  0.0940   62.0  0.3994  176.4
 1.700  0.8257  150.7   2.032   57.1  0.0994   61.4  0.4023  175.4
 1.800  0.8284  148.8   1.930   54.9  0.1051   60.5  0.4054  174.4
 1.900  0.8292  147.2   1.829   53.1  0.1098   59.7  0.4086  173.5
 2.000  0.8305  145.4   1.737   50.8  0.1152   58.7  0.4120  172.6
 2.100  0.8315  143.5   1.660   48.8  0.1203   57.7  0.4160  171.6
 2.200  0.8334  141.7   1.586   46.7  0.1255   56.8  0.4202  170.6
 2.300  0.8353  140.0   1.522   44.8  0.1304   55.8  0.4242  169.7
 2.400  0.8379  138.4   1.459   42.8  0.1354   54.8  0.4283  168.9
 2.500  0.8386  136.8   1.403   41.1  0.1400   53.8  0.4326  168.0
 2.600  0.8399  135.2   1.348   39.2  0.1446   52.9  0.4369  167.2
 2.700  0.8424  133.5   1.298   37.5  0.1491   51.8  0.4411  166.3
 2.800  0.8455  131.9   1.250   35.7  0.1537   50.7  0.4453  165.5
 2.900  0.8460  130.4   1.209   34.0  0.1579   49.7  0.4495  164.5
 3.000  0.8470  128.9   1.170   32.2  0.1621   48.8  0.4538  163.6
 3.100  0.8482  127.4   1.136   30.8  0.1660   47.8  0.4574  162.6
 3.200  0.8501  125.9   1.103   29.2  0.1700   46.9  0.4611  161.7
 3.300  0.8525  124.4   1.071   27.6  0.1740   46.0  0.4649  160.7
 3.400  0.8555  122.9   1.039   25.9  0.1781   45.1  0.4689  159.8
 3.500  0.8591  121.4   1.009   24.1  0.1822   44.3  0.4730  158.9
 3.600  0.8595  120.0   0.983   22.8  0.1860   43.3  0.4776  157.9
 3.700  0.8605  118.6   0.958   21.4  0.1898   42.3  0.4823  156.9
 3.800  0.8619  117.2   0.934   19.9  0.1936   41.4  0.4872  156.0
 3.900  0.8639  115.9   0.910   18.3  0.1975   40.5  0.4922  155.0
 4.000  0.8663  114.5   0.887   16.7  0.2015   39.7  0.4973  154.1
 4.100  0.8663  113.3   0.866   15.5  0.2049   38.7  0.5027  153.1
 4.200  0.8668  112.0   0.846   14.2  0.2083   37.8  0.5082  152.0
 4.300  0.8676  110.8   0.826   12.8  0.2118   36.8  0.5139  151.0
 4.400  0.8688  109.5   0.806   11.4  0.2153   36.0  0.5198  150.1
 4.500  0.8705  108.3   0.787    9.9  0.2189   35.1  0.5258  149.1
 4.600  0.8713  107.3   0.770    9.0  0.2219   34.3  0.5315  148.3
 4.700  0.8723  106.4   0.753    8.0  0.2250   33.5  0.5374  147.4
 4.800  0.8736  105.4   0.736    6.9  0.2281   32.7  0.5433  146.6
 4.900  0.8751  104.5   0.720    5.8  0.2313   31.9  0.5494  145.9
 5.000  0.8769  103.5   0.704    4.7  0.2345   31.2  0.5555  145.1
 5.100  0.8774  102.6   0.693    3.8  0.2378   30.4  0.5611  144.5
 5.200  0.8780  101.7   0.682    2.9  0.2412   29.6  0.5667  143.9
 5.300  0.8789  100.8   0.672    1.9  0.2446   28.8  0.5724  143.4
 5.400  0.8801   99.9   0.661    0.9  0.2481   28.0  0.5782  142.8
 5.500  0.8814   99.0   0.651   -0.1  0.2516   27.3  0.5840  142.3
 5.600  0.8800   98.1   0.641   -0.8  0.2545   26.5  0.5865  141.9
 5.700  0.8789   97.1   0.631   -1.6  0.2575   25.6  0.5890  141.4
 5.800  0.8780   96.2   0.621   -2.4  0.2605   24.8  0.5916  141.0
 5.900  0.8774   95.2   0.611   -3.2  0.2636   24.1  0.5942  140.5
 6.000  0.8770   94.3   0.601   -4.0  0.2667   23.3  0.5968  140.1
!
!  f       NFmin   Gammaopt  rn/50
! GHz       dB    MAG  ANG    -
 0.450      1.51  0.53 -175   0.06
 0.900      1.64  0.57 -170   0.07
 1.900      2.49  0.70 -148   0.18
 2.400      2.88  0.74 -144   0.28
!
! (c) 2017  Infineon Technologies AG, Munich