! Infineon Technologies  Discrete & RF Semiconductors
! BFR193F
! VCE =  4.0 V,  IC = 0.12 A
! Common Emitter S-Parameters:                            Jan 2017
# GHz  S  MA  R  50
!  f         S11            S21            S12            S22
! GHz     MAG   ANG      MAG   ANG      MAG   ANG      MAG   ANG
 0.010  0.2688 -137.3  65.022  164.4  0.0029   73.0  0.6663  -16.5
 0.020  0.4317 -137.6  58.776  149.9  0.0048   60.3  0.6118  -32.4
 0.030  0.5109 -144.2  51.096  143.6  0.0063   55.9  0.5294  -39.9
 0.040  0.5950 -148.9  44.237  135.3  0.0079   53.2  0.4592  -49.9
 0.050  0.6822 -152.5  38.639  124.2  0.0095   51.4  0.4075  -62.9
 0.060  0.6978 -155.4  35.191  122.1  0.0099   51.1  0.3712  -65.9
 0.070  0.7150 -158.1  31.800  119.6  0.0103   50.9  0.3362  -69.5
 0.080  0.7339 -160.8  28.485  116.5  0.0107   50.7  0.3028  -74.0
 0.090  0.7542 -163.2  25.277  112.5  0.0111   50.5  0.2717  -79.5
 0.100  0.7758 -165.6  22.222  107.5  0.0115   50.3  0.2438  -86.4
 0.110  0.7810 -166.7  20.813  106.5  0.0119   51.4  0.2304  -88.4
 0.120  0.7864 -167.8  19.411  105.3  0.0124   52.4  0.2174  -90.7
 0.130  0.7921 -168.9  18.019  104.0  0.0128   53.3  0.2047  -93.2
 0.140  0.7981 -170.0  16.638  102.4  0.0133   54.2  0.1925  -96.1
 0.150  0.8044 -171.0  15.271  100.6  0.0137   55.0  0.1809  -99.4
 0.200  0.8098 -174.2  11.567   96.4  0.0165   57.7  0.1498 -107.2
 0.250  0.8164 -176.4   9.291   93.6  0.0188   62.9  0.1300 -114.3
 0.300  0.8164 -178.0   7.778   91.5  0.0217   66.2  0.1212 -119.4
 0.350  0.8178 -179.3   6.809   90.0  0.0243   68.5  0.1154 -122.8
 0.400  0.8195  179.5   5.847   88.0  0.0270   70.3  0.1100 -126.6
 0.450  0.8198  178.5   5.273   86.8  0.0303   71.8  0.1083 -128.7
 0.500  0.8204  177.6   4.702   85.4  0.0337   73.0  0.1067 -130.8
 0.600  0.8222  176.0   3.937   83.0  0.0394   74.9  0.1072 -134.3
 0.700  0.8239  174.2   3.383   80.8  0.0451   75.9  0.1102 -136.2
 0.800  0.8227  173.1   2.963   78.9  0.0512   76.2  0.1142 -138.3
 0.900  0.8268  171.7   2.650   77.0  0.0570   77.2  0.1190 -139.5
 1.000  0.8251  170.6   2.394   75.1  0.0637   77.5  0.1237 -139.6
 1.100  0.8278  169.3   2.185   73.1  0.0694   77.8  0.1315 -140.4
 1.200  0.8280  168.2   2.012   71.4  0.0753   77.9  0.1367 -141.7
 1.300  0.8302  167.0   1.865   69.7  0.0815   78.0  0.1428 -141.8
 1.400  0.8295  166.0   1.743   68.0  0.0882   78.1  0.1504 -141.9
 1.500  0.8306  165.1   1.632   66.4  0.0941   78.4  0.1585 -142.7
 1.600  0.8309  163.9   1.536   64.8  0.1003   78.4  0.1647 -143.4
 1.700  0.8285  162.8   1.451   63.1  0.1062   78.1  0.1725 -143.5
 1.800  0.8315  162.1   1.378   61.6  0.1130   78.1  0.1805 -143.8
 1.900  0.8296  161.2   1.312   60.2  0.1189   77.9  0.1884 -144.0
 2.000  0.8334  160.1   1.254   58.8  0.1253   77.9  0.1962 -144.6
 2.100  0.8317  159.2   1.202   57.6  0.1317   77.7  0.2032 -144.7
 2.200  0.8302  158.3   1.151   56.2  0.1382   77.5  0.2103 -144.7
 2.300  0.8313  157.5   1.110   55.0  0.1446   77.2  0.2179 -145.1
 2.400  0.8326  156.7   1.070   53.8  0.1511   77.0  0.2255 -145.5
 2.500  0.8315  155.9   1.035   52.6  0.1578   76.7  0.2325 -145.6
 2.600  0.8306  155.0   1.001   51.4  0.1646   76.5  0.2396 -145.6
 2.700  0.8307  154.0   0.972   50.3  0.1714   76.2  0.2467 -146.1
 2.800  0.8310  153.1   0.944   49.2  0.1783   76.0  0.2538 -146.6
 2.900  0.8309  152.1   0.921   48.2  0.1850   75.7  0.2609 -146.7
 3.000  0.8311  151.2   0.898   47.1  0.1918   75.5  0.2680 -146.7
 3.100  0.8307  150.3   0.878   46.2  0.1995   75.0  0.2744 -147.3
 3.200  0.8305  149.4   0.859   45.3  0.2073   74.5  0.2808 -147.8
 3.300  0.8305  148.4   0.840   44.3  0.2150   74.1  0.2873 -148.3
 3.400  0.8308  147.5   0.821   43.3  0.2228   73.7  0.2938 -148.8
 3.500  0.8312  146.6   0.802   42.2  0.2306   73.3  0.3003 -149.3
 3.600  0.8294  145.6   0.789   41.5  0.2381   72.6  0.3055 -150.1
 3.700  0.8278  144.6   0.776   40.8  0.2457   72.0  0.3108 -150.8
 3.800  0.8265  143.5   0.764   40.0  0.2533   71.5  0.3161 -151.5
 3.900  0.8254  142.5   0.751   39.2  0.2609   70.9  0.3214 -152.2
 4.000  0.8246  141.5   0.739   38.4  0.2685   70.4  0.3268 -152.9
 4.100  0.8240  140.5   0.728   37.6  0.2758   69.6  0.3323 -154.0
 4.200  0.8237  139.5   0.718   36.9  0.2831   68.8  0.3379 -155.1
 4.300  0.8237  138.4   0.707   36.1  0.2904   68.1  0.3436 -156.2
 4.400  0.8239  137.4   0.697   35.2  0.2979   67.4  0.3495 -157.2
 4.500  0.8244  136.4   0.687   34.4  0.3053   66.8  0.3554 -158.2
 4.600  0.8229  135.3   0.675   33.9  0.3120   66.0  0.3590 -159.7
 4.700  0.8217  134.2   0.664   33.3  0.3188   65.2  0.3627 -161.1
 4.800  0.8208  133.0   0.653   32.8  0.3256   64.5  0.3667 -162.5
 4.900  0.8202  131.9   0.641   32.2  0.3325   63.8  0.3710 -163.9
 5.000  0.8199  130.8   0.630   31.6  0.3394   63.1  0.3754 -165.2
 5.100  0.8176  129.7   0.624   31.2  0.3456   62.3  0.3794 -166.5
 5.200  0.8157  128.6   0.617   30.8  0.3518   61.5  0.3836 -167.8
 5.300  0.8140  127.5   0.611   30.4  0.3581   60.8  0.3879 -169.1
 5.400  0.8127  126.4   0.604   30.0  0.3645   60.1  0.3925 -170.3
 5.500  0.8116  125.3   0.598   29.6  0.3709   59.4  0.3972 -171.5
 5.600  0.8129  124.4   0.598   29.3  0.3763   58.6  0.4033 -172.9
 5.700  0.8143  123.4   0.597   29.1  0.3818   57.8  0.4096 -174.2
 5.800  0.8160  122.5   0.597   28.8  0.3874   57.1  0.4161 -175.5
 5.900  0.8179  121.6   0.596   28.6  0.3930   56.3  0.4228 -176.8
 6.000  0.8200  120.7   0.596   28.3  0.3987   55.6  0.4297 -178.0
!
!  f       NFmin   Gammaopt  rn/50
! GHz       dB    MAG  ANG    -
!
! noise parameter not available yet for this operation point!
!
! (c) 2017  Infineon Technologies AG, Munich