! Infineon Technologies  Discrete & RF Semiconductors
! BFR193F
! VCE =  1.0 V,  IC =  32 mA
! Common Emitter S-Parameters:                            Jan 2017
# GHz  S  MA  R  50
!  f         S11            S21            S12            S22
! GHz     MAG   ANG      MAG   ANG      MAG   ANG      MAG   ANG
 0.010  0.2727  -39.0  60.231  170.2  0.0040   84.6  0.9312  -12.6
 0.020  0.3355  -68.2  57.698  160.2  0.0078   73.6  0.8966  -24.5
 0.030  0.3731  -87.6  52.961  153.9  0.0104   65.3  0.8183  -33.1
 0.040  0.4438 -102.1  48.984  146.5  0.0131   60.4  0.7619  -43.2
 0.050  0.5348 -112.2  45.965  137.9  0.0159   57.2  0.7324  -54.5
 0.060  0.5477 -119.1  42.525  135.1  0.0169   55.0  0.6765  -59.0
 0.070  0.5681 -125.6  39.204  131.8  0.0180   53.0  0.6256  -64.3
 0.080  0.5952 -131.5  36.035  127.9  0.0191   51.3  0.5809  -70.4
 0.090  0.6281 -136.9  33.062  123.4  0.0202   49.7  0.5439  -77.5
 0.100  0.6660 -141.7  30.342  117.9  0.0213   48.3  0.5164  -85.5
 0.110  0.6730 -144.3  28.572  116.5  0.0219   47.6  0.4916  -88.6
 0.120  0.6814 -146.9  26.822  114.9  0.0224   46.8  0.4684  -92.0
 0.130  0.6911 -149.4  25.097  113.0  0.0230   46.2  0.4471  -95.8
 0.140  0.7022 -151.8  23.401  110.9  0.0235   45.5  0.4278  -99.9
 0.150  0.7144 -154.2  21.741  108.5  0.0241   44.9  0.4110 -104.4
 0.200  0.7315 -161.1  16.762  102.6  0.0265   46.7  0.3571 -116.7
 0.250  0.7424 -165.9  13.564   98.9  0.0291   48.7  0.3237 -126.6
 0.300  0.7483 -169.1  11.424   96.1  0.0318   51.6  0.3062 -133.7
 0.350  0.7501 -171.5  10.020   94.2  0.0346   53.7  0.2944 -138.7
 0.400  0.7532 -173.8   8.630   91.7  0.0375   55.4  0.2850 -144.0
 0.450  0.7536 -175.3   7.783   90.4  0.0401   57.1  0.2797 -147.3
 0.500  0.7546 -176.8   6.942   88.7  0.0427   58.5  0.2754 -150.7
 0.600  0.7599 -179.2   5.814   86.1  0.0490   62.1  0.2721 -155.6
 0.700  0.7617  178.6   4.995   83.8  0.0549   63.6  0.2716 -158.9
 0.800  0.7613  177.0   4.374   81.9  0.0615   65.0  0.2725 -162.1
 0.900  0.7634  175.2   3.904   79.9  0.0674   66.5  0.2733 -164.2
 1.000  0.7660  173.8   3.525   78.1  0.0736   67.3  0.2746 -165.6
 1.100  0.7675  172.5   3.211   76.2  0.0804   67.9  0.2788 -167.0
 1.200  0.7683  171.2   2.951   74.5  0.0863   68.3  0.2811 -168.6
 1.300  0.7705  169.9   2.733   72.9  0.0929   68.9  0.2828 -169.4
 1.400  0.7692  168.7   2.552   71.3  0.0994   69.1  0.2855 -170.0
 1.500  0.7720  167.7   2.386   69.8  0.1055   69.5  0.2899 -170.9
 1.600  0.7734  166.4   2.241   68.2  0.1123   69.5  0.2923 -171.8
 1.700  0.7732  165.3   2.114   66.7  0.1183   69.4  0.2949 -172.2
 1.800  0.7747  164.5   2.005   65.3  0.1248   69.4  0.2979 -172.5
 1.900  0.7740  163.6   1.908   64.0  0.1310   69.5  0.3009 -172.7
 2.000  0.7770  162.4   1.823   62.6  0.1376   69.6  0.3045 -173.0
 2.100  0.7754  161.6   1.746   61.4  0.1439   69.5  0.3064 -173.2
 2.200  0.7739  160.7   1.669   60.1  0.1502   69.4  0.3084 -173.3
 2.300  0.7755  159.8   1.609   58.9  0.1564   69.2  0.3112 -173.5
 2.400  0.7773  158.9   1.549   57.7  0.1627   69.1  0.3141 -173.6
 2.500  0.7759  158.1   1.499   56.6  0.1695   68.9  0.3160 -173.5
 2.600  0.7747  157.3   1.449   55.4  0.1764   68.7  0.3180 -173.5
 2.700  0.7753  156.4   1.406   54.2  0.1832   68.4  0.3210 -173.7
 2.800  0.7760  155.5   1.363   53.0  0.1900   68.2  0.3240 -173.8
 2.900  0.7757  154.6   1.329   51.9  0.1964   68.0  0.3259 -173.6
 3.000  0.7756  153.7   1.296   50.8  0.2029   67.8  0.3279 -173.5
 3.100  0.7752  152.8   1.267   49.8  0.2102   67.4  0.3305 -173.6
 3.200  0.7751  151.9   1.238   48.8  0.2176   67.0  0.3331 -173.8
 3.300  0.7751  151.0   1.209   47.7  0.2249   66.6  0.3357 -173.9
 3.400  0.7753  150.1   1.181   46.5  0.2322   66.2  0.3383 -174.1
 3.500  0.7757  149.2   1.154   45.3  0.2396   65.9  0.3409 -174.2
 3.600  0.7745  148.3   1.134   44.4  0.2467   65.3  0.3432 -174.6
 3.700  0.7736  147.3   1.115   43.4  0.2538   64.8  0.3455 -174.9
 3.800  0.7729  146.4   1.096   42.5  0.2610   64.3  0.3478 -175.3
 3.900  0.7723  145.4   1.077   41.4  0.2681   63.8  0.3502 -175.6
 4.000  0.7720  144.5   1.059   40.4  0.2753   63.3  0.3525 -176.0
 4.100  0.7720  143.6   1.042   39.4  0.2818   62.6  0.3555 -176.6
 4.200  0.7723  142.6   1.026   38.5  0.2883   61.8  0.3586 -177.2
 4.300  0.7727  141.7   1.010   37.4  0.2948   61.2  0.3617 -177.8
 4.400  0.7733  140.7   0.994   36.4  0.3014   60.5  0.3648 -178.4
 4.500  0.7742  139.8   0.979   35.3  0.3080   59.9  0.3680 -179.0
 4.600  0.7736  138.7   0.961   34.5  0.3137   59.2  0.3704 -180.0
 4.700  0.7732  137.7   0.944   33.6  0.3195   58.6  0.3730  179.0
 4.800  0.7731  136.6   0.927   32.8  0.3253   57.9  0.3757  178.1
 4.900  0.7733  135.6   0.910   31.8  0.3312   57.3  0.3784  177.1
 5.000  0.7737  134.5   0.893   30.9  0.3371   56.7  0.3813  176.2
 5.100  0.7730  133.4   0.882   30.2  0.3426   56.1  0.3843  175.3
 5.200  0.7725  132.3   0.870   29.5  0.3482   55.5  0.3873  174.4
 5.300  0.7723  131.3   0.859   28.8  0.3538   54.9  0.3905  173.5
 5.400  0.7724  130.2   0.848   28.1  0.3594   54.3  0.3938  172.7
 5.500  0.7728  129.1   0.837   27.3  0.3651   53.8  0.3971  171.8
 5.600  0.7751  128.2   0.833   26.7  0.3701   53.1  0.4026  170.8
 5.700  0.7776  127.4   0.829   26.1  0.3752   52.5  0.4083  169.8
 5.800  0.7803  126.5   0.825   25.5  0.3804   51.8  0.4140  168.8
 5.900  0.7832  125.6   0.822   24.9  0.3856   51.2  0.4199  167.9
 6.000  0.7862  124.8   0.818   24.3  0.3908   50.6  0.4259  167.0
!
!  f       NFmin   Gammaopt  rn/50
! GHz       dB    MAG  ANG    -
 0.450      1.21  0.40  177   0.06
 0.900      1.30  0.43  177   0.07
 1.900      1.86  0.58 -167   0.07
 2.400      2.15  0.61 -158   0.12
!
! (c) 2017  Infineon Technologies AG, Munich