! Infineon Technologies  Discrete & RF Semiconductors
! BFR193F
! VCE =  2.0 V,  IC =  40 mA
! Common Emitter S-Parameters:                            Jan 2017
# GHz  S  MA  R  50
!  f         S11            S21            S12            S22
! GHz     MAG   ANG      MAG   ANG      MAG   ANG      MAG   ANG
 0.010  0.2129  -43.1  67.704  170.8  0.0032   82.1  0.9430  -11.1
 0.020  0.2809  -71.4  64.968  161.4  0.0059   77.0  0.9146  -21.8
 0.030  0.3254  -90.6  60.082  155.2  0.0080   68.1  0.8407  -29.5
 0.040  0.3966 -104.1  56.029  147.9  0.0103   63.0  0.7847  -38.4
 0.050  0.4828 -113.2  52.999  139.7  0.0126   59.8  0.7504  -48.5
 0.060  0.4990 -120.0  49.141  136.8  0.0136   57.2  0.6939  -52.5
 0.070  0.5217 -126.2  45.424  133.5  0.0146   55.0  0.6414  -57.3
 0.080  0.5501 -131.9  41.888  129.6  0.0157   53.1  0.5941  -62.8
 0.090  0.5833 -137.0  38.582  125.0  0.0167   51.4  0.5532  -69.2
 0.100  0.6206 -141.5  35.569  119.6  0.0178   49.9  0.5202  -76.5
 0.110  0.6287 -144.1  33.533  118.1  0.0184   49.9  0.4931  -79.2
 0.120  0.6380 -146.7  31.522  116.4  0.0189   50.0  0.4671  -82.2
 0.130  0.6486 -149.2  29.543  114.5  0.0195   50.0  0.4426  -85.5
 0.140  0.6604 -151.6  27.601  112.3  0.0200   50.1  0.4198  -89.3
 0.150  0.6733 -153.9  25.706  109.8  0.0206   50.1  0.3990  -93.4
 0.200  0.6938 -160.8  19.884  103.8  0.0228   50.9  0.3334 -104.8
 0.250  0.7035 -165.7  16.110   99.9  0.0255   53.9  0.2901 -114.5
 0.300  0.7127 -168.8  13.574   97.0  0.0277   56.0  0.2665 -121.5
 0.350  0.7145 -171.1  11.914   95.1  0.0304   58.4  0.2502 -126.7
 0.400  0.7174 -173.4  10.272   92.6  0.0332   60.4  0.2363 -132.6
 0.450  0.7191 -174.9   9.265   91.3  0.0361   62.1  0.2287 -136.3
 0.500  0.7213 -176.3   8.264   89.7  0.0390   63.5  0.2221 -140.3
 0.600  0.7251 -178.8   6.925   87.1  0.0448   65.6  0.2160 -146.1
 0.700  0.7297  178.9   5.948   84.8  0.0510   67.7  0.2133 -150.1
 0.800  0.7277  177.4   5.207   82.9  0.0579   68.9  0.2121 -153.9
 0.900  0.7324  175.5   4.648   81.0  0.0634   69.9  0.2126 -156.5
 1.000  0.7310  174.3   4.193   79.3  0.0698   70.6  0.2132 -158.2
 1.100  0.7351  172.9   3.819   77.4  0.0759   70.9  0.2169 -159.9
 1.200  0.7368  171.5   3.508   75.8  0.0814   71.5  0.2192 -161.8
 1.300  0.7390  170.3   3.249   74.2  0.0882   71.5  0.2203 -162.6
 1.400  0.7386  169.2   3.028   72.6  0.0943   71.9  0.2235 -163.3
 1.500  0.7413  168.2   2.830   71.2  0.1001   72.1  0.2274 -164.4
 1.600  0.7434  166.9   2.658   69.7  0.1068   72.0  0.2300 -165.2
 1.700  0.7415  165.9   2.505   68.2  0.1126   71.8  0.2331 -165.6
 1.800  0.7448  165.1   2.376   66.8  0.1190   72.0  0.2365 -166.1
 1.900  0.7429  164.2   2.256   65.6  0.1252   71.8  0.2397 -166.2
 2.000  0.7474  163.1   2.154   64.2  0.1311   71.9  0.2432 -166.6
 2.100  0.7455  162.2   2.061   63.0  0.1374   71.7  0.2456 -166.6
 2.200  0.7438  161.3   1.968   61.7  0.1437   71.6  0.2481 -166.6
 2.300  0.7457  160.4   1.896   60.6  0.1497   71.4  0.2512 -166.8
 2.400  0.7477  159.6   1.824   59.4  0.1558   71.2  0.2544 -166.9
 2.500  0.7466  158.8   1.762   58.2  0.1622   71.0  0.2567 -166.7
 2.600  0.7457  158.0   1.701   57.0  0.1687   70.9  0.2591 -166.6
 2.700  0.7464  157.1   1.648   55.9  0.1751   70.6  0.2622 -166.7
 2.800  0.7473  156.2   1.596   54.7  0.1816   70.3  0.2654 -166.8
 2.900  0.7475  155.3   1.555   53.6  0.1879   70.1  0.2678 -166.4
 3.000  0.7478  154.5   1.515   52.5  0.1942   70.0  0.2703 -166.1
 3.100  0.7474  153.6   1.479   51.5  0.2014   69.6  0.2732 -166.2
 3.200  0.7472  152.7   1.444   50.5  0.2085   69.2  0.2760 -166.2
 3.300  0.7472  151.9   1.408   49.4  0.2157   68.8  0.2789 -166.3
 3.400  0.7474  151.0   1.374   48.3  0.2229   68.4  0.2817 -166.3
 3.500  0.7477  150.1   1.340   47.1  0.2301   68.1  0.2846 -166.4
 3.600  0.7467  149.2   1.316   46.2  0.2369   67.5  0.2870 -166.6
 3.700  0.7458  148.3   1.292   45.2  0.2437   67.0  0.2894 -166.9
 3.800  0.7452  147.4   1.268   44.2  0.2506   66.5  0.2918 -167.1
 3.900  0.7447  146.5   1.245   43.1  0.2574   66.0  0.2942 -167.4
 4.000  0.7444  145.6   1.222   42.0  0.2643   65.6  0.2966 -167.6
 4.100  0.7448  144.7   1.202   41.0  0.2707   64.9  0.3000 -168.2
 4.200  0.7454  143.8   1.182   40.0  0.2771   64.2  0.3035 -168.8
 4.300  0.7462  142.8   1.162   38.9  0.2836   63.6  0.3070 -169.4
 4.400  0.7472  141.9   1.143   37.8  0.2901   63.0  0.3105 -169.9
 4.500  0.7484  141.0   1.124   36.7  0.2966   62.4  0.3141 -170.5
 4.600  0.7484  139.9   1.103   35.8  0.3026   61.8  0.3168 -171.5
 4.700  0.7486  138.9   1.082   35.0  0.3086   61.1  0.3195 -172.5
 4.800  0.7491  137.8   1.061   34.0  0.3146   60.5  0.3224 -173.5
 4.900  0.7499  136.8   1.040   33.1  0.3207   60.0  0.3254 -174.5
 5.000  0.7509  135.7   1.020   32.1  0.3268   59.4  0.3284 -175.4
 5.100  0.7504  134.7   1.006   31.4  0.3323   58.8  0.3317 -176.3
 5.200  0.7502  133.6   0.993   30.6  0.3379   58.2  0.3351 -177.2
 5.300  0.7503  132.6   0.979   29.9  0.3435   57.6  0.3385 -178.0
 5.400  0.7506  131.5   0.966   29.1  0.3491   57.0  0.3420 -178.9
 5.500  0.7511  130.5   0.953   28.3  0.3548   56.5  0.3456 -179.7
 5.600  0.7541  129.6   0.947   27.6  0.3600   55.8  0.3513  179.2
 5.700  0.7572  128.7   0.941   27.0  0.3652   55.2  0.3571  178.2
 5.800  0.7606  127.8   0.935   26.3  0.3705   54.6  0.3630  177.1
 5.900  0.7641  127.0   0.930   25.6  0.3758   54.0  0.3691  176.2
 6.000  0.7678  126.1   0.924   24.9  0.3812   53.4  0.3752  175.2
!
!  f       NFmin   Gammaopt  rn/50
! GHz       dB    MAG  ANG    -
 0.450      1.34  0.43  179   0.06
 0.900      1.42  0.44  180   0.07
 1.900      1.98  0.59 -165   0.08
 2.400      2.27  0.61 -157   0.13
!
! (c) 2017  Infineon Technologies AG, Munich