! Infineon Technologies  Discrete & RF Semiconductors
! BFR193F
! VCE =  8.0 V,  IC =  25 mA
! Common Emitter S-Parameters:                            Jan 2017
# GHz  S  MA  R  50
!  f         S11            S21            S12            S22
! GHz     MAG   ANG      MAG   ANG      MAG   ANG      MAG   ANG
 0.010  0.4732  -14.3  52.779  173.6  0.0032   89.2  0.9722   -6.5
 0.020  0.4719  -29.7  51.526  167.2  0.0059   84.0  0.9571  -12.8
 0.030  0.4670  -42.6  49.460  162.1  0.0081   75.8  0.9171  -18.2
 0.040  0.4855  -55.1  47.812  156.7  0.0104   71.2  0.8859  -24.0
 0.050  0.5249  -66.2  46.625  150.9  0.0128   68.3  0.8643  -30.1
 0.060  0.5157  -74.3  44.157  147.8  0.0143   64.5  0.8180  -33.4
 0.070  0.5172  -82.6  41.837  144.3  0.0159   61.5  0.7747  -37.1
 0.080  0.5293  -90.7  39.691  140.4  0.0175   59.0  0.7350  -41.2
 0.090  0.5513  -98.2  37.748  136.1  0.0191   56.9  0.6994  -45.7
 0.100  0.5821 -105.1  36.042  131.3  0.0208   55.2  0.6687  -50.7
 0.110  0.5827 -109.5  34.303  129.4  0.0215   53.9  0.6370  -52.8
 0.120  0.5869 -114.0  32.605  127.3  0.0222   52.6  0.6062  -55.0
 0.130  0.5944 -118.3  30.957  125.0  0.0229   51.4  0.5765  -57.5
 0.140  0.6052 -122.5  29.365  122.4  0.0237   50.3  0.5480  -60.3
 0.150  0.6192 -126.5  27.840  119.5  0.0244   49.3  0.5209  -63.4
 0.200  0.6405 -139.0  22.290  111.9  0.0272   48.1  0.4239  -71.6
 0.250  0.6490 -148.0  18.381  106.7  0.0298   47.1  0.3510  -77.8
 0.300  0.6566 -153.7  15.645  102.9  0.0315   48.9  0.3048  -82.7
 0.350  0.6591 -157.8  13.786  100.5  0.0338   50.4  0.2717  -85.9
 0.400  0.6650 -161.9  11.960   97.3  0.0361   51.8  0.2397  -90.0
 0.450  0.6663 -164.5  10.816   95.6  0.0382   53.3  0.2206  -92.6
 0.500  0.6690 -167.0   9.683   93.6  0.0403   54.7  0.2021  -95.7
 0.600  0.6728 -170.9   8.127   90.4  0.0442   57.7  0.1777 -100.6
 0.700  0.6754 -174.2   6.999   87.9  0.0489   59.2  0.1636 -105.0
 0.800  0.6755 -176.5   6.134   85.7  0.0540   61.4  0.1517 -109.3
 0.900  0.6813 -178.9   5.477   83.6  0.0591   63.1  0.1453 -112.7
 1.000  0.6823  179.5   4.939   81.6  0.0636   64.7  0.1416 -115.5
 1.100  0.6852  177.7   4.501   79.8  0.0691   65.8  0.1402 -118.9
 1.200  0.6869  175.9   4.136   78.0  0.0740   66.9  0.1386 -121.7
 1.300  0.6891  174.5   3.828   76.4  0.0796   67.2  0.1387 -123.5
 1.400  0.6887  173.2   3.567   74.7  0.0848   68.2  0.1403 -125.2
 1.500  0.6919  171.9   3.333   73.2  0.0897   69.0  0.1426 -127.6
 1.600  0.6951  170.5   3.130   71.6  0.0950   69.4  0.1443 -129.4
 1.700  0.6940  169.4   2.947   70.1  0.1008   69.8  0.1475 -130.4
 1.800  0.6970  168.4   2.795   68.7  0.1059   70.1  0.1513 -131.6
 1.900  0.6959  167.5   2.651   67.4  0.1114   70.3  0.1548 -132.4
 2.000  0.7004  166.1   2.529   66.0  0.1165   70.5  0.1584 -133.6
 2.100  0.6992  165.2   2.418   64.8  0.1219   70.7  0.1620 -134.1
 2.200  0.6982  164.3   2.308   63.5  0.1274   70.9  0.1657 -134.5
 2.300  0.7001  163.4   2.219   62.3  0.1331   70.9  0.1700 -135.0
 2.400  0.7021  162.6   2.131   61.0  0.1388   70.9  0.1744 -135.5
 2.500  0.7017  161.8   2.056   59.9  0.1445   71.0  0.1788 -135.6
 2.600  0.7015  160.9   1.982   58.7  0.1503   71.0  0.1832 -135.6
 2.700  0.7024  160.0   1.919   57.5  0.1563   71.0  0.1874 -136.0
 2.800  0.7035  159.1   1.856   56.2  0.1623   71.0  0.1917 -136.4
 2.900  0.7041  158.2   1.806   55.1  0.1678   71.0  0.1964 -136.2
 3.000  0.7048  157.4   1.756   54.0  0.1733   71.0  0.2011 -136.1
 3.100  0.7049  156.5   1.712   53.0  0.1799   70.8  0.2054 -136.4
 3.200  0.7052  155.6   1.669   51.9  0.1865   70.6  0.2096 -136.7
 3.300  0.7056  154.7   1.626   50.8  0.1932   70.5  0.2139 -137.0
 3.400  0.7062  153.8   1.584   49.6  0.1998   70.3  0.2182 -137.2
 3.500  0.7070  152.9   1.543   48.4  0.2064   70.2  0.2225 -137.5
 3.600  0.7065  152.0   1.513   47.5  0.2128   69.8  0.2263 -137.9
 3.700  0.7062  151.1   1.483   46.5  0.2193   69.5  0.2302 -138.3
 3.800  0.7061  150.2   1.454   45.5  0.2257   69.1  0.2340 -138.7
 3.900  0.7061  149.3   1.425   44.4  0.2321   68.8  0.2379 -139.1
 4.000  0.7063  148.4   1.397   43.3  0.2386   68.5  0.2418 -139.5
 4.100  0.7073  147.5   1.372   42.3  0.2450   68.0  0.2461 -140.4
 4.200  0.7084  146.5   1.348   41.2  0.2515   67.5  0.2505 -141.3
 4.300  0.7097  145.6   1.324   40.1  0.2579   67.1  0.2549 -142.2
 4.400  0.7112  144.7   1.300   39.0  0.2644   66.6  0.2594 -143.0
 4.500  0.7129  143.8   1.277   37.8  0.2709   66.2  0.2639 -143.8
 4.600  0.7135  142.7   1.252   37.0  0.2771   65.7  0.2666 -145.2
 4.700  0.7144  141.6   1.228   36.1  0.2834   65.1  0.2695 -146.6
 4.800  0.7155  140.5   1.203   35.2  0.2897   64.6  0.2726 -147.9
 4.900  0.7169  139.5   1.180   34.2  0.2960   64.2  0.2758 -149.2
 5.000  0.7185  138.4   1.156   33.2  0.3023   63.7  0.2791 -150.5
 5.100  0.7186  137.3   1.139   32.4  0.3082   63.1  0.2824 -151.8
 5.200  0.7190  136.3   1.122   31.6  0.3142   62.6  0.2859 -153.0
 5.300  0.7196  135.2   1.106   30.8  0.3202   62.1  0.2895 -154.3
 5.400  0.7205  134.2   1.089   30.0  0.3262   61.6  0.2932 -155.4
 5.500  0.7216  133.1   1.073   29.1  0.3323   61.1  0.2970 -156.6
 5.600  0.7252  132.2   1.065   28.4  0.3378   60.4  0.3022 -158.0
 5.700  0.7289  131.4   1.057   27.7  0.3433   59.8  0.3076 -159.4
 5.800  0.7328  130.5   1.050   26.9  0.3489   59.2  0.3131 -160.7
 5.900  0.7369  129.6   1.042   26.2  0.3545   58.6  0.3188 -162.0
 6.000  0.7411  128.8   1.035   25.4  0.3601   58.0  0.3247 -163.2
!
!  f       NFmin   Gammaopt  rn/50
! GHz       dB    MAG  ANG    -
 0.450      1.11  0.36  173   0.06
 0.900      1.19  0.41  174   0.06
 1.900      1.77  0.57 -169   0.07
 2.400      2.06  0.61 -160   0.11
!
! (c) 2017  Infineon Technologies AG, Munich