! Infineon Technologies  Discrete & RF Semiconductors
! BFR193F
! VCE =  12. V,  IC =  40 mA
! Common Emitter S-Parameters:                            Jan 2017
# GHz  S  MA  R  50
!  f         S11            S21            S12            S22
! GHz     MAG   ANG      MAG   ANG      MAG   ANG      MAG   ANG
 0.010  0.4282  -16.7  62.753  172.2  0.0027   76.0  0.9349   -7.2
 0.020  0.4354  -35.2  61.072  165.2  0.0054   74.8  0.9193  -14.3
 0.030  0.4320  -49.8  57.947  159.8  0.0076   68.6  0.8715  -20.1
 0.040  0.4561  -63.8  55.385  153.9  0.0098   65.2  0.8335  -26.4
 0.050  0.5039  -75.7  53.467  147.5  0.0120   63.0  0.8067  -33.3
 0.060  0.4976  -84.0  50.276  144.4  0.0131   59.8  0.7579  -36.5
 0.070  0.5019  -92.3  47.253  140.9  0.0142   57.1  0.7119  -40.2
 0.080  0.5164 -100.3  44.434  136.9  0.0153   54.8  0.6693  -44.4
 0.090  0.5403 -107.7  41.858  132.4  0.0164   52.8  0.6306  -49.1
 0.100  0.5724 -114.4  39.574  127.3  0.0176   51.1  0.5968  -54.4
 0.110  0.5748 -118.5  37.528  125.5  0.0184   50.5  0.5666  -56.4
 0.120  0.5801 -122.6  35.521  123.6  0.0191   50.0  0.5372  -58.5
 0.130  0.5883 -126.6  33.561  121.4  0.0199   49.5  0.5087  -61.0
 0.140  0.5992 -130.4  31.655  119.0  0.0206   49.0  0.4811  -63.7
 0.150  0.6127 -134.1  29.814  116.2  0.0214   48.6  0.4548  -66.7
 0.200  0.6324 -145.1  23.559  109.1  0.0237   49.5  0.3663  -74.4
 0.250  0.6399 -152.9  19.290  104.4  0.0258   50.3  0.3015  -80.3
 0.300  0.6478 -158.0  16.344  100.9  0.0280   51.8  0.2607  -84.7
 0.350  0.6498 -161.6  14.389   98.7  0.0301   53.6  0.2324  -87.7
 0.400  0.6542 -165.1  12.463   95.8  0.0323   55.2  0.2050  -91.5
 0.450  0.6554 -167.4  11.255   94.3  0.0349   57.8  0.1883  -94.0
 0.500  0.6577 -169.7  10.056   92.4  0.0375   60.0  0.1720  -97.0
 0.600  0.6623 -173.1   8.434   89.5  0.0424   61.8  0.1517 -101.9
 0.700  0.6659 -176.0   7.252   87.0  0.0471   64.1  0.1404 -106.1
 0.800  0.6657 -178.2   6.355   85.0  0.0523   65.7  0.1306 -110.4
 0.900  0.6695  179.7   5.670   83.0  0.0577   67.6  0.1252 -113.9
 1.000  0.6720  178.0   5.117   81.2  0.0628   68.1  0.1226 -116.6
 1.100  0.6741  176.4   4.659   79.3  0.0682   68.9  0.1222 -119.7
 1.200  0.6765  174.9   4.284   77.6  0.0736   69.6  0.1211 -122.8
 1.300  0.6786  173.4   3.963   76.0  0.0792   70.3  0.1217 -124.2
 1.400  0.6784  172.4   3.694   74.4  0.0848   70.9  0.1238 -125.8
 1.500  0.6813  171.2   3.452   73.0  0.0902   71.2  0.1263 -128.3
 1.600  0.6838  169.8   3.239   71.4  0.0960   71.3  0.1280 -130.0
 1.700  0.6836  168.5   3.053   69.9  0.1008   71.5  0.1314 -130.8
 1.800  0.6867  167.7   2.894   68.5  0.1067   71.8  0.1349 -131.9
 1.900  0.6854  166.8   2.745   67.2  0.1122   71.9  0.1386 -132.5
 2.000  0.6883  165.6   2.620   65.9  0.1175   72.2  0.1425 -133.7
 2.100  0.6876  164.7   2.504   64.7  0.1232   72.2  0.1460 -134.0
 2.200  0.6871  163.8   2.389   63.3  0.1288   72.2  0.1496 -134.2
 2.300  0.6894  162.9   2.297   62.2  0.1344   72.1  0.1536 -134.7
 2.400  0.6919  162.1   2.206   61.0  0.1400   72.1  0.1577 -135.2
 2.500  0.6905  161.3   2.129   59.8  0.1457   72.0  0.1620 -135.0
 2.600  0.6892  160.4   2.054   58.5  0.1515   72.0  0.1664 -134.9
 2.700  0.6909  159.5   1.988   57.4  0.1573   71.8  0.1705 -135.3
 2.800  0.6928  158.7   1.922   56.2  0.1631   71.7  0.1747 -135.6
 2.900  0.6932  157.8   1.870   55.1  0.1688   71.7  0.1792 -135.2
 3.000  0.6938  157.0   1.819   53.9  0.1744   71.7  0.1838 -134.8
 3.100  0.6939  156.1   1.773   52.9  0.1809   71.4  0.1880 -135.0
 3.200  0.6941  155.3   1.728   51.8  0.1875   71.2  0.1922 -135.2
 3.300  0.6945  154.4   1.683   50.7  0.1940   70.9  0.1963 -135.4
 3.400  0.6951  153.6   1.639   49.5  0.2006   70.7  0.2005 -135.5
 3.500  0.6958  152.7   1.596   48.3  0.2071   70.5  0.2047 -135.7
 3.600  0.6953  151.8   1.565   47.3  0.2134   70.1  0.2085 -136.0
 3.700  0.6949  150.9   1.534   46.3  0.2198   69.8  0.2123 -136.4
 3.800  0.6946  150.1   1.503   45.3  0.2261   69.4  0.2161 -136.7
 3.900  0.6946  149.2   1.473   44.2  0.2324   69.1  0.2199 -137.0
 4.000  0.6947  148.3   1.444   43.1  0.2388   68.8  0.2237 -137.3
 4.100  0.6959  147.4   1.418   42.1  0.2450   68.3  0.2280 -138.2
 4.200  0.6973  146.5   1.392   41.0  0.2512   67.8  0.2324 -139.0
 4.300  0.6988  145.6   1.367   39.9  0.2575   67.3  0.2369 -139.8
 4.400  0.7005  144.8   1.343   38.8  0.2637   66.8  0.2414 -140.6
 4.500  0.7024  143.9   1.319   37.6  0.2700   66.4  0.2459 -141.3
 4.600  0.7031  142.8   1.293   36.7  0.2761   65.9  0.2486 -142.7
 4.700  0.7040  141.8   1.267   35.8  0.2823   65.3  0.2514 -144.1
 4.800  0.7052  140.7   1.242   34.8  0.2885   64.8  0.2544 -145.4
 4.900  0.7066  139.7   1.217   33.8  0.2947   64.4  0.2575 -146.7
 5.000  0.7083  138.6   1.192   32.8  0.3009   63.9  0.2608 -148.0
 5.100  0.7084  137.5   1.174   32.0  0.3069   63.3  0.2640 -149.3
 5.200  0.7088  136.5   1.157   31.2  0.3129   62.8  0.2674 -150.5
 5.300  0.7094  135.4   1.140   30.4  0.3189   62.3  0.2708 -151.7
 5.400  0.7102  134.4   1.123   29.6  0.3250   61.8  0.2744 -152.9
 5.500  0.7113  133.3   1.106   28.7  0.3311   61.3  0.2781 -154.0
 5.600  0.7151  132.5   1.097   28.0  0.3365   60.7  0.2831 -155.4
 5.700  0.7190  131.6   1.089   27.2  0.3419   60.1  0.2883 -156.8
 5.800  0.7231  130.8   1.080   26.5  0.3473   59.6  0.2936 -158.2
 5.900  0.7273  130.0   1.072   25.7  0.3528   59.0  0.2991 -159.5
 6.000  0.7317  129.2   1.064   24.9  0.3583   58.5  0.3047 -160.7
!
!  f       NFmin   Gammaopt  rn/50
! GHz       dB    MAG  ANG    -
 0.450      1.34  0.43  179   0.06
 0.900      1.42  0.44  180   0.07
 1.900      1.98  0.59 -165   0.08
 2.400      2.27  0.61 -157   0.13
!
! (c) 2017  Infineon Technologies AG, Munich