! Infineon Technologies  Discrete & RF Semiconductors
! BFR193F
! VCE =  3.0 V,  IC =  25 mA
! Common Emitter S-Parameters:                            Jan 2017
# GHz  S  MA  R  50
!  f         S11            S21            S12            S22
! GHz     MAG   ANG      MAG   ANG      MAG   ANG      MAG   ANG
 0.010  0.3915  -19.3  54.173  173.1  0.0032   79.5  0.9691   -8.0
 0.020  0.4050  -38.7  52.639  165.7  0.0062   81.2  0.9517  -15.7
 0.030  0.4081  -54.3  50.074  160.2  0.0088   72.1  0.9012  -22.0
 0.040  0.4397  -68.6  48.022  154.1  0.0116   67.2  0.8625  -28.9
 0.050  0.4945  -80.4  46.551  147.6  0.0144   64.2  0.8375  -36.3
 0.060  0.4940  -88.8  43.765  144.5  0.0157   60.8  0.7856  -40.0
 0.070  0.5040  -97.1  41.126  141.0  0.0171   58.0  0.7375  -44.2
 0.080  0.5241 -104.9  38.663  137.0  0.0185   55.6  0.6938  -49.0
 0.090  0.5530 -112.0  36.413  132.5  0.0199   53.6  0.6556  -54.3
 0.100  0.5895 -118.3  34.416  127.4  0.0214   51.8  0.6238  -60.3
 0.110  0.5946 -122.2  32.647  125.6  0.0222   50.7  0.5925  -62.7
 0.120  0.6025 -126.1  30.913  123.6  0.0230   49.8  0.5623  -65.3
 0.130  0.6130 -129.9  29.221  121.4  0.0238   48.9  0.5334  -68.3
 0.140  0.6261 -133.5  27.579  118.9  0.0246   48.0  0.5061  -71.6
 0.150  0.6415 -136.9  25.995  116.1  0.0254   47.2  0.4807  -75.2
 0.200  0.6658 -147.5  20.514  109.0  0.0277   46.8  0.3923  -85.5
 0.250  0.6756 -154.8  16.815  104.2  0.0302   46.8  0.3293  -93.7
 0.300  0.6852 -159.6  14.247  100.7  0.0319   48.7  0.2905 -100.3
 0.350  0.6884 -163.1  12.539   98.5  0.0341   50.5  0.2637 -104.9
 0.400  0.6940 -166.5  10.857   95.5  0.0363   52.1  0.2390 -110.6
 0.450  0.6956 -168.7   9.804   93.9  0.0386   53.9  0.2246 -114.4
 0.500  0.6982 -170.8   8.760   92.0  0.0410   55.5  0.2113 -118.7
 0.600  0.7027 -174.2   7.352   89.0  0.0461   57.8  0.1949 -125.4
 0.700  0.7074 -176.9   6.322   86.5  0.0514   60.5  0.1864 -130.4
 0.800  0.7075 -178.9   5.534   84.5  0.0569   62.4  0.1805 -135.2
 0.900  0.7106  178.9   4.942   82.4  0.0621   63.8  0.1774 -138.8
 1.000  0.7114  177.3   4.458   80.5  0.0674   64.9  0.1765 -141.2
 1.100  0.7153  175.7   4.063   78.6  0.0735   66.3  0.1782 -143.8
 1.200  0.7165  174.2   3.732   76.9  0.0787   67.1  0.1791 -146.3
 1.300  0.7173  172.7   3.455   75.2  0.0845   67.7  0.1799 -147.7
 1.400  0.7187  171.6   3.220   73.6  0.0900   68.1  0.1826 -148.7
 1.500  0.7210  170.3   3.010   72.1  0.0958   68.8  0.1863 -150.3
 1.600  0.7217  169.0   2.826   70.5  0.1014   69.0  0.1886 -151.6
 1.700  0.7209  167.8   2.662   69.0  0.1073   69.1  0.1919 -152.2
 1.800  0.7240  167.0   2.524   67.5  0.1130   69.5  0.1957 -152.9
 1.900  0.7238  166.0   2.396   66.3  0.1186   69.7  0.1994 -153.2
 2.000  0.7271  164.8   2.288   64.9  0.1245   70.0  0.2035 -154.0
 2.100  0.7259  163.9   2.187   63.7  0.1303   70.1  0.2063 -154.1
 2.200  0.7249  163.0   2.088   62.4  0.1362   70.1  0.2091 -154.1
 2.300  0.7272  162.1   2.010   61.2  0.1419   70.1  0.2129 -154.4
 2.400  0.7296  161.2   1.932   60.0  0.1476   70.1  0.2167 -154.7
 2.500  0.7280  160.4   1.866   58.8  0.1536   70.0  0.2204 -154.5
 2.600  0.7265  159.6   1.800   57.6  0.1596   70.0  0.2241 -154.4
 2.700  0.7278  158.6   1.743   56.4  0.1659   69.9  0.2278 -154.6
 2.800  0.7294  157.7   1.687   55.2  0.1723   69.8  0.2315 -154.8
 2.900  0.7298  156.8   1.643   54.1  0.1782   69.6  0.2350 -154.4
 3.000  0.7304  156.0   1.599   52.9  0.1841   69.5  0.2385 -154.1
 3.100  0.7303  155.1   1.560   51.9  0.1910   69.2  0.2422 -154.2
 3.200  0.7304  154.2   1.522   50.9  0.1979   69.0  0.2459 -154.4
 3.300  0.7306  153.4   1.484   49.8  0.2049   68.8  0.2495 -154.5
 3.400  0.7310  152.5   1.447   48.6  0.2118   68.6  0.2532 -154.6
 3.500  0.7316  151.6   1.410   47.4  0.2187   68.4  0.2569 -154.7
 3.600  0.7309  150.7   1.384   46.5  0.2253   68.0  0.2601 -155.0
 3.700  0.7304  149.8   1.358   45.5  0.2320   67.5  0.2632 -155.3
 3.800  0.7301  148.8   1.332   44.5  0.2386   67.1  0.2664 -155.6
 3.900  0.7299  147.9   1.307   43.4  0.2453   66.8  0.2696 -155.9
 4.000  0.7300  147.0   1.282   42.3  0.2520   66.4  0.2728 -156.2
 4.100  0.7306  146.1   1.260   41.3  0.2585   65.8  0.2768 -156.9
 4.200  0.7314  145.2   1.238   40.3  0.2650   65.2  0.2808 -157.6
 4.300  0.7323  144.2   1.216   39.2  0.2715   64.7  0.2849 -158.3
 4.400  0.7335  143.3   1.196   38.1  0.2781   64.2  0.2890 -159.0
 4.500  0.7348  142.4   1.175   36.9  0.2847   63.7  0.2932 -159.6
 4.600  0.7352  141.3   1.152   36.1  0.2908   63.1  0.2961 -160.8
 4.700  0.7359  140.3   1.130   35.2  0.2969   62.5  0.2991 -162.0
 4.800  0.7368  139.2   1.108   34.3  0.3030   62.0  0.3022 -163.1
 4.900  0.7380  138.2   1.086   33.3  0.3092   61.4  0.3054 -164.2
 5.000  0.7394  137.1   1.064   32.3  0.3154   60.9  0.3088 -165.3
 5.100  0.7388  136.0   1.049   31.6  0.3212   60.3  0.3123 -166.3
 5.200  0.7384  134.9   1.035   30.8  0.3271   59.8  0.3159 -167.4
 5.300  0.7383  133.9   1.021   30.0  0.3330   59.2  0.3196 -168.4
 5.400  0.7385  132.8   1.007   29.2  0.3389   58.7  0.3233 -169.3
 5.500  0.7389  131.7   0.993   28.4  0.3449   58.2  0.3272 -170.3
 5.600  0.7424  130.8   0.986   27.7  0.3502   57.5  0.3330 -171.5
 5.700  0.7460  130.0   0.979   27.0  0.3556   56.9  0.3390 -172.7
 5.800  0.7498  129.1   0.973   26.3  0.3610   56.3  0.3451 -173.8
 5.900  0.7538  128.2   0.966   25.6  0.3665   55.7  0.3513 -174.9
 6.000  0.7579  127.4   0.960   24.9  0.3720   55.1  0.3576 -175.9
!
!  f       NFmin   Gammaopt  rn/50
! GHz       dB    MAG  ANG    -
 0.450      1.11  0.36  173   0.06
 0.900      1.19  0.41  174   0.06
 1.900      1.77  0.57 -169   0.07
 2.400      2.06  0.61 -160   0.11
!
! (c) 2017  Infineon Technologies AG, Munich