! Infineon Technologies  Discrete & RF Semiconductors
! BFR193F
! VCE =  2.0 V,  IC =  80 mA
! Common Emitter S-Parameters:                            Jan 2017
# GHz  S  MA  R  50
!  f         S11            S21            S12            S22
! GHz     MAG   ANG      MAG   ANG      MAG   ANG      MAG   ANG
 0.010  0.2323 -128.3  70.962  165.2  0.0032   78.5  0.7554  -18.0
 0.020  0.3903 -131.1  64.638  151.4  0.0060   67.5  0.7003  -34.9
 0.030  0.4721 -139.2  56.524  145.0  0.0072   60.0  0.6081  -43.8
 0.040  0.5606 -144.8  49.333  136.7  0.0085   54.6  0.5354  -55.5
 0.050  0.6529 -148.9  43.523  125.8  0.0098   50.7  0.4910  -70.0
 0.060  0.6697 -152.2  39.687  123.6  0.0105   50.3  0.4489  -74.2
 0.070  0.6886 -155.3  35.921  121.0  0.0113   50.0  0.4097  -79.1
 0.080  0.7093 -158.2  32.246  117.8  0.0120   49.8  0.3742  -85.1
 0.090  0.7318 -160.9  28.701  113.7  0.0128   49.5  0.3435  -92.2
 0.100  0.7559 -163.5  25.337  108.6  0.0135   49.3  0.3192 -100.6
 0.110  0.7611 -164.7  23.742  107.5  0.0139   50.1  0.3049 -103.5
 0.120  0.7667 -166.0  22.156  106.3  0.0143   50.9  0.2915 -106.6
 0.130  0.7726 -167.2  20.581  104.9  0.0148   51.6  0.2790 -110.0
 0.140  0.7788 -168.3  19.020  103.3  0.0152   52.3  0.2677 -113.8
 0.150  0.7854 -169.5  17.478  101.4  0.0156   53.0  0.2575 -117.8
 0.200  0.7938 -173.0  13.249   96.9  0.0185   58.6  0.2286 -128.3
 0.250  0.7998 -175.6  10.653   94.1  0.0212   61.5  0.2116 -136.9
 0.300  0.8026 -177.1   8.920   91.9  0.0245   64.0  0.2045 -142.3
 0.350  0.8037 -178.5   7.809   90.4  0.0273   66.8  0.1994 -146.1
 0.400  0.8052 -179.9   6.706   88.3  0.0302   69.0  0.1952 -150.1
 0.450  0.8049  179.2   6.043   87.1  0.0334   69.8  0.1936 -152.3
 0.500  0.8047  178.3   5.383   85.7  0.0366   70.5  0.1923 -154.5
 0.600  0.8089  176.6   4.505   83.3  0.0432   72.9  0.1923 -158.0
 0.700  0.8120  174.9   3.871   81.1  0.0493   73.4  0.1952 -159.8
 0.800  0.8106  173.7   3.391   79.2  0.0562   73.7  0.1977 -161.9
 0.900  0.8124  172.3   3.026   77.2  0.0619   75.2  0.2002 -162.8
 1.000  0.8119  171.1   2.732   75.4  0.0689   75.5  0.2028 -163.4
 1.100  0.8149  169.7   2.491   73.6  0.0749   75.4  0.2086 -163.8
 1.200  0.8150  168.5   2.291   71.8  0.0815   75.6  0.2121 -164.8
 1.300  0.8170  167.4   2.122   70.1  0.0881   75.5  0.2155 -164.7
 1.400  0.8163  166.5   1.982   68.5  0.0944   75.5  0.2201 -164.8
 1.500  0.8181  165.5   1.856   66.9  0.1007   75.9  0.2259 -165.1
 1.600  0.8198  164.3   1.744   65.3  0.1069   75.6  0.2298 -165.6
 1.700  0.8177  163.3   1.645   63.8  0.1135   75.4  0.2346 -165.4
 1.800  0.8195  162.5   1.563   62.3  0.1200   75.2  0.2398 -165.3
 1.900  0.8181  161.7   1.487   61.0  0.1267   75.1  0.2446 -165.2
 2.000  0.8226  160.6   1.422   59.6  0.1329   74.9  0.2503 -165.3
 2.100  0.8201  159.7   1.363   58.4  0.1394   74.7  0.2544 -165.0
 2.200  0.8178  158.8   1.304   57.0  0.1460   74.6  0.2585 -164.8
 2.300  0.8194  157.9   1.258   55.8  0.1525   74.3  0.2634 -164.8
 2.400  0.8211  157.1   1.212   54.6  0.1591   74.1  0.2683 -164.8
 2.500  0.8197  156.3   1.173   53.4  0.1658   73.8  0.2725 -164.6
 2.600  0.8185  155.5   1.135   52.2  0.1726   73.5  0.2768 -164.4
 2.700  0.8185  154.5   1.102   51.1  0.1794   73.2  0.2818 -164.5
 2.800  0.8188  153.6   1.070   49.9  0.1863   72.9  0.2868 -164.5
 2.900  0.8195  152.7   1.043   48.9  0.1930   72.6  0.2911 -164.2
 3.000  0.8203  151.9   1.017   47.8  0.1998   72.3  0.2954 -164.0
 3.100  0.8196  151.0   0.995   46.9  0.2075   71.8  0.3000 -164.2
 3.200  0.8191  150.0   0.973   45.9  0.2151   71.3  0.3046 -164.3
 3.300  0.8188  149.1   0.951   44.8  0.2228   70.9  0.3092 -164.5
 3.400  0.8187  148.1   0.930   43.7  0.2305   70.5  0.3138 -164.6
 3.500  0.8189  147.2   0.909   42.6  0.2382   70.1  0.3184 -164.8
 3.600  0.8174  146.2   0.894   41.8  0.2455   69.4  0.3224 -165.3
 3.700  0.8161  145.2   0.880   41.0  0.2529   68.8  0.3264 -165.7
 3.800  0.8151  144.3   0.865   40.1  0.2603   68.2  0.3305 -166.2
 3.900  0.8143  143.3   0.851   39.2  0.2677   67.6  0.3345 -166.6
 4.000  0.8137  142.3   0.837   38.3  0.2752   67.1  0.3386 -167.0
 4.100  0.8133  141.3   0.824   37.4  0.2820   66.3  0.3430 -167.8
 4.200  0.8132  140.3   0.812   36.5  0.2889   65.6  0.3475 -168.5
 4.300  0.8133  139.4   0.799   35.6  0.2959   64.9  0.3521 -169.3
 4.400  0.8136  138.4   0.787   34.7  0.3029   64.2  0.3567 -170.0
 4.500  0.8142  137.4   0.775   33.7  0.3099   63.6  0.3614 -170.7
 4.600  0.8131  136.3   0.762   33.1  0.3162   62.8  0.3648 -171.8
 4.700  0.8122  135.2   0.748   32.4  0.3225   62.1  0.3683 -173.0
 4.800  0.8117  134.1   0.735   31.7  0.3288   61.4  0.3720 -174.1
 4.900  0.8114  133.0   0.722   31.0  0.3352   60.7  0.3758 -175.1
 5.000  0.8115  131.9   0.709   30.3  0.3417   60.0  0.3797 -176.2
 5.100  0.8097  130.8   0.701   29.8  0.3476   59.3  0.3835 -177.2
 5.200  0.8083  129.7   0.693   29.3  0.3535   58.6  0.3875 -178.2
 5.300  0.8071  128.5   0.685   28.7  0.3595   58.0  0.3916 -179.2
 5.400  0.8062  127.4   0.677   28.2  0.3655   57.3  0.3958  179.8
 5.500  0.8057  126.3   0.669   27.6  0.3716   56.7  0.4001  178.9
 5.600  0.8070  125.4   0.667   27.2  0.3769   55.9  0.4061  177.7
 5.700  0.8084  124.5   0.665   26.8  0.3822   55.2  0.4123  176.5
 5.800  0.8101  123.6   0.664   26.4  0.3876   54.5  0.4187  175.3
 5.900  0.8120  122.8   0.662   26.0  0.3931   53.8  0.4253  174.2
 6.000  0.8140  121.9   0.660   25.6  0.3986   53.1  0.4320  173.1
!
!  f       NFmin   Gammaopt  rn/50
! GHz       dB    MAG  ANG    -
!
! noise parameter not available yet for this operation point!
!
! (c) 2017  Infineon Technologies AG, Munich