! Infineon Technologies  Discrete & RF Semiconductors
! BFR193F
! VCE =  12. V,  IC =  32 mA
! Common Emitter S-Parameters:                            Jan 2017
# GHz  S  MA  R  50
!  f         S11            S21            S12            S22
! GHz     MAG   ANG      MAG   ANG      MAG   ANG      MAG   ANG
 0.010  0.4697  -14.6  57.664  172.9  0.0029   71.6  0.9436   -6.7
 0.020  0.4699  -30.9  56.362  166.3  0.0061   77.0  0.9280  -13.2
 0.030  0.4642  -44.1  53.813  161.2  0.0082   71.3  0.8865  -18.7
 0.040  0.4831  -56.9  51.735  155.6  0.0104   67.9  0.8538  -24.6
 0.050  0.5238  -68.3  50.186  149.6  0.0126   65.7  0.8310  -31.0
 0.060  0.5139  -76.5  47.411  146.5  0.0138   62.2  0.7846  -34.3
 0.070  0.5147  -84.8  44.795  143.0  0.0150   59.3  0.7410  -37.9
 0.080  0.5262  -92.9  42.367  139.0  0.0163   56.9  0.7008  -42.0
 0.090  0.5478 -100.6  40.162  134.7  0.0176   54.8  0.6646  -46.6
 0.100  0.5782 -107.5  38.217  129.8  0.0189   53.0  0.6331  -51.6
 0.110  0.5787 -111.8  36.317  128.0  0.0198   51.9  0.6023  -53.6
 0.120  0.5826 -116.1  34.459  125.9  0.0206   50.9  0.5724  -55.8
 0.130  0.5897 -120.4  32.650  123.7  0.0215   50.0  0.5433  -58.3
 0.140  0.5999 -124.5  30.897  121.1  0.0224   49.2  0.5154  -61.0
 0.150  0.6130 -128.4  29.212  118.3  0.0233   48.4  0.4888  -64.0
 0.200  0.6332 -140.7  23.276  110.9  0.0255   48.1  0.3954  -71.9
 0.250  0.6405 -149.2  19.141  105.9  0.0276   47.7  0.3268  -77.7
 0.300  0.6473 -155.0  16.270  102.3  0.0296   50.2  0.2829  -82.3
 0.350  0.6500 -158.9  14.326   99.9  0.0317   52.1  0.2519  -85.3
 0.400  0.6556 -162.7  12.414   96.8  0.0339   53.8  0.2218  -89.2
 0.450  0.6567 -165.2  11.222   95.2  0.0361   55.2  0.2041  -91.6
 0.500  0.6591 -167.6  10.041   93.3  0.0384   56.5  0.1869  -94.4
 0.600  0.6628 -171.5   8.430   90.2  0.0432   58.9  0.1636  -99.1
 0.700  0.6659 -174.6   7.252   87.7  0.0478   61.2  0.1500 -103.2
 0.800  0.6660 -176.9   6.355   85.5  0.0529   63.4  0.1398 -107.6
 0.900  0.6694 -179.1   5.674   83.5  0.0581   64.8  0.1330 -110.8
 1.000  0.6710  179.0   5.117   81.6  0.0631   66.1  0.1300 -113.6
 1.100  0.6756  177.3   4.662   79.8  0.0683   67.4  0.1292 -116.8
 1.200  0.6766  175.8   4.285   78.0  0.0737   68.3  0.1273 -119.9
 1.300  0.6791  174.2   3.966   76.5  0.0789   68.8  0.1271 -121.5
 1.400  0.6793  173.0   3.697   74.8  0.0841   69.6  0.1294 -123.1
 1.500  0.6821  171.7   3.454   73.3  0.0895   70.0  0.1312 -125.7
 1.600  0.6839  170.5   3.242   71.8  0.0950   70.2  0.1328 -127.6
 1.700  0.6825  169.2   3.053   70.3  0.1001   70.4  0.1358 -128.7
 1.800  0.6859  168.3   2.895   68.9  0.1056   70.6  0.1397 -129.8
 1.900  0.6861  167.3   2.747   67.6  0.1114   71.2  0.1430 -130.6
 2.000  0.6901  166.0   2.619   66.3  0.1162   71.4  0.1470 -131.9
 2.100  0.6890  165.1   2.503   65.1  0.1218   71.5  0.1506 -132.3
 2.200  0.6881  164.2   2.389   63.7  0.1275   71.5  0.1542 -132.7
 2.300  0.6896  163.3   2.298   62.6  0.1330   71.6  0.1582 -133.2
 2.400  0.6913  162.5   2.208   61.4  0.1386   71.6  0.1623 -133.7
 2.500  0.6913  161.7   2.130   60.2  0.1444   71.5  0.1665 -133.7
 2.600  0.6914  160.9   2.054   58.9  0.1502   71.5  0.1707 -133.7
 2.700  0.6916  159.9   1.988   57.8  0.1559   71.4  0.1749 -134.2
 2.800  0.6921  158.9   1.922   56.6  0.1616   71.3  0.1792 -134.6
 2.900  0.6929  158.1   1.870   55.5  0.1672   71.3  0.1839 -134.2
 3.000  0.6939  157.3   1.818   54.3  0.1728   71.3  0.1886 -133.9
 3.100  0.6939  156.4   1.772   53.3  0.1793   71.1  0.1928 -134.2
 3.200  0.6941  155.6   1.727   52.3  0.1858   70.9  0.1970 -134.5
 3.300  0.6944  154.7   1.683   51.2  0.1924   70.7  0.2012 -134.7
 3.400  0.6949  153.9   1.639   50.0  0.1989   70.6  0.2054 -135.0
 3.500  0.6955  153.0   1.596   48.8  0.2054   70.4  0.2096 -135.2
 3.600  0.6950  152.1   1.565   47.8  0.2118   70.0  0.2133 -135.6
 3.700  0.6946  151.2   1.534   46.8  0.2183   69.7  0.2171 -136.0
 3.800  0.6944  150.3   1.503   45.8  0.2247   69.4  0.2208 -136.4
 3.900  0.6944  149.4   1.473   44.7  0.2311   69.1  0.2245 -136.7
 4.000  0.6946  148.5   1.444   43.6  0.2376   68.8  0.2283 -137.1
 4.100  0.6958  147.6   1.418   42.6  0.2438   68.3  0.2325 -138.0
 4.200  0.6971  146.7   1.393   41.6  0.2500   67.8  0.2367 -138.9
 4.300  0.6987  145.8   1.368   40.5  0.2563   67.4  0.2410 -139.7
 4.400  0.7004  145.0   1.344   39.4  0.2625   66.9  0.2454 -140.5
 4.500  0.7022  144.1   1.320   38.2  0.2688   66.5  0.2498 -141.3
 4.600  0.7028  143.0   1.294   37.3  0.2750   66.0  0.2525 -142.7
 4.700  0.7037  142.0   1.269   36.4  0.2812   65.4  0.2554 -144.1
 4.800  0.7048  140.9   1.243   35.4  0.2875   64.9  0.2584 -145.4
 4.900  0.7062  139.9   1.218   34.4  0.2937   64.5  0.2616 -146.7
 5.000  0.7078  138.8   1.194   33.3  0.3000   64.0  0.2649 -148.0
 5.100  0.7080  137.7   1.177   32.5  0.3059   63.4  0.2680 -149.3
 5.200  0.7084  136.7   1.159   31.8  0.3119   62.9  0.2712 -150.5
 5.300  0.7090  135.6   1.142   31.0  0.3179   62.4  0.2746 -151.8
 5.400  0.7099  134.6   1.126   30.1  0.3239   61.9  0.2781 -152.9
 5.500  0.7110  133.5   1.109   29.3  0.3299   61.4  0.2817 -154.1
 5.600  0.7150  132.6   1.100   28.6  0.3353   60.8  0.2867 -155.6
 5.700  0.7192  131.7   1.092   27.8  0.3407   60.2  0.2919 -157.0
 5.800  0.7235  130.9   1.084   27.1  0.3462   59.6  0.2972 -158.3
 5.900  0.7280  130.0   1.076   26.3  0.3517   59.0  0.3027 -159.6
 6.000  0.7327  129.2   1.068   25.5  0.3572   58.5  0.3084 -160.9
!
!  f       NFmin   Gammaopt  rn/50
! GHz       dB    MAG  ANG    -
 0.450      1.21  0.40  177   0.06
 0.900      1.30  0.43  177   0.07
 1.900      1.86  0.58 -167   0.07
 2.400      2.15  0.61 -158   0.12
!
! (c) 2017  Infineon Technologies AG, Munich