! Infineon Technologies  Discrete & RF Semiconductors
! BFR193F
! VCE =  6.0 V,  IC =  85 mA
! Common Emitter S-Parameters:                            Jan 2017
# GHz  S  MA  R  50
!  f         S11            S21            S12            S22
! GHz     MAG   ANG      MAG   ANG      MAG   ANG      MAG   ANG
 0.010  0.1617  -68.3  80.778  169.1  0.0027   80.0  0.8879  -10.9
 0.020  0.2721  -94.6  76.917  158.4  0.0044   76.4  0.8548  -22.1
 0.030  0.3356 -110.3  69.807  152.0  0.0060   66.9  0.7741  -29.1
 0.040  0.4158 -120.5  63.748  144.3  0.0077   61.5  0.7074  -37.6
 0.050  0.5047 -127.2  59.066  135.2  0.0094   58.0  0.6591  -47.5
 0.060  0.5231 -132.6  54.400  132.6  0.0100   57.1  0.6066  -50.5
 0.070  0.5458 -137.6  49.872  129.4  0.0106   56.2  0.5562  -54.1
 0.080  0.5723 -142.2  45.522  125.7  0.0111   55.5  0.5084  -58.5
 0.090  0.6022 -146.4  41.407  121.2  0.0117   54.8  0.4640  -63.6
 0.100  0.6349 -150.1  37.604  115.7  0.0123   54.2  0.4242  -69.8
 0.110  0.6418 -152.2  35.359  114.4  0.0129   54.1  0.3999  -71.6
 0.120  0.6495 -154.3  33.136  112.9  0.0135   54.0  0.3760  -73.6
 0.130  0.6581 -156.3  30.938  111.2  0.0141   53.9  0.3527  -76.0
 0.140  0.6674 -158.2  28.773  109.2  0.0147   53.9  0.3301  -78.6
 0.150  0.6775 -160.1  26.647  106.9  0.0153   53.8  0.3082  -81.6
 0.200  0.6934 -165.6  20.440  101.5  0.0177   57.6  0.2453  -88.8
 0.250  0.7007 -169.6  16.505   98.0  0.0203   59.4  0.2020  -94.9
 0.300  0.7059 -172.0  13.870   95.5  0.0228   63.1  0.1779  -99.9
 0.350  0.7085 -173.9  12.164   93.8  0.0255   65.5  0.1615 -103.4
 0.400  0.7118 -175.8  10.472   91.6  0.0282   67.4  0.1458 -107.7
 0.450  0.7128 -177.1   9.445   90.4  0.0308   69.0  0.1375 -110.5
 0.500  0.7142 -178.4   8.424   88.9  0.0334   70.3  0.1296 -113.6
 0.600  0.7192  179.4   7.051   86.4  0.0394   71.9  0.1207 -119.1
 0.700  0.7223  177.5   6.057   84.3  0.0452   72.8  0.1176 -123.1
 0.800  0.7202  176.2   5.305   82.5  0.0511   73.7  0.1164 -127.3
 0.900  0.7249  174.5   4.734   80.7  0.0571   75.2  0.1158 -129.6
 1.000  0.7246  173.2   4.271   79.0  0.0627   75.3  0.1176 -131.6
 1.100  0.7277  171.9   3.889   77.2  0.0685   75.9  0.1218 -133.9
 1.200  0.7291  170.7   3.575   75.7  0.0745   76.0  0.1245 -136.2
 1.300  0.7311  169.5   3.310   74.1  0.0806   76.3  0.1272 -137.1
 1.400  0.7300  168.6   3.087   72.6  0.0861   76.2  0.1320 -138.0
 1.500  0.7330  167.5   2.886   71.1  0.0924   76.4  0.1373 -139.6
 1.600  0.7355  166.4   2.709   69.7  0.0984   76.4  0.1412 -140.7
 1.700  0.7343  165.3   2.553   68.2  0.1043   76.3  0.1463 -141.4
 1.800  0.7367  164.6   2.422   66.8  0.1099   76.1  0.1512 -141.9
 1.900  0.7361  163.7   2.301   65.5  0.1163   76.0  0.1565 -142.3
 2.000  0.7402  162.6   2.195   64.3  0.1218   76.1  0.1618 -143.1
 2.100  0.7382  161.8   2.099   63.1  0.1278   75.9  0.1663 -143.2
 2.200  0.7364  160.9   2.005   61.7  0.1339   75.7  0.1709 -143.2
 2.300  0.7389  160.1   1.930   60.6  0.1399   75.5  0.1761 -143.6
 2.400  0.7415  159.3   1.855   59.4  0.1460   75.3  0.1813 -143.9
 2.500  0.7399  158.5   1.792   58.2  0.1522   75.0  0.1861 -143.7
 2.600  0.7385  157.7   1.729   57.0  0.1584   74.8  0.1909 -143.6
 2.700  0.7394  156.8   1.675   55.9  0.1646   74.5  0.1958 -143.9
 2.800  0.7405  155.9   1.621   54.7  0.1709   74.2  0.2008 -144.2
 2.900  0.7404  155.1   1.578   53.6  0.1771   74.0  0.2056 -143.9
 3.000  0.7405  154.3   1.535   52.5  0.1833   73.9  0.2105 -143.7
 3.100  0.7402  153.4   1.498   51.5  0.1902   73.5  0.2151 -143.9
 3.200  0.7400  152.5   1.461   50.5  0.1972   73.1  0.2197 -144.1
 3.300  0.7400  151.7   1.425   49.4  0.2042   72.7  0.2242 -144.3
 3.400  0.7402  150.8   1.390   48.2  0.2111   72.4  0.2288 -144.5
 3.500  0.7405  149.9   1.355   47.0  0.2181   72.1  0.2334 -144.7
 3.600  0.7396  149.0   1.330   46.1  0.2249   71.6  0.2373 -145.1
 3.700  0.7390  148.1   1.305   45.1  0.2317   71.1  0.2413 -145.5
 3.800  0.7385  147.2   1.281   44.1  0.2386   70.6  0.2452 -145.9
 3.900  0.7381  146.3   1.257   43.1  0.2454   70.2  0.2492 -146.2
 4.000  0.7380  145.4   1.233   42.0  0.2523   69.8  0.2532 -146.6
 4.100  0.7386  144.5   1.212   41.0  0.2588   69.1  0.2576 -147.5
 4.200  0.7394  143.6   1.191   40.0  0.2654   68.5  0.2621 -148.3
 4.300  0.7404  142.6   1.170   39.0  0.2720   67.9  0.2666 -149.1
 4.400  0.7415  141.7   1.150   37.9  0.2786   67.3  0.2712 -149.9
 4.500  0.7429  140.8   1.130   36.8  0.2853   66.8  0.2758 -150.7
 4.600  0.7428  139.8   1.108   36.0  0.2915   66.1  0.2788 -152.0
 4.700  0.7430  138.7   1.087   35.1  0.2978   65.5  0.2819 -153.3
 4.800  0.7435  137.7   1.066   34.2  0.3041   64.9  0.2852 -154.6
 4.900  0.7442  136.6   1.045   33.3  0.3104   64.4  0.2886 -155.9
 5.000  0.7451  135.6   1.025   32.3  0.3168   63.8  0.2921 -157.1
 5.100  0.7446  134.5   1.011   31.6  0.3227   63.1  0.2957 -158.3
 5.200  0.7443  133.5   0.996   30.8  0.3287   62.5  0.2994 -159.5
 5.300  0.7442  132.4   0.982   30.1  0.3347   61.9  0.3033 -160.6
 5.400  0.7444  131.4   0.969   29.3  0.3408   61.3  0.3072 -161.7
 5.500  0.7449  130.3   0.955   28.5  0.3469   60.7  0.3113 -162.8
 5.600  0.7479  129.4   0.949   27.8  0.3523   60.0  0.3167 -164.1
 5.700  0.7510  128.6   0.943   27.2  0.3578   59.4  0.3223 -165.5
 5.800  0.7543  127.8   0.937   26.5  0.3634   58.7  0.3280 -166.7
 5.900  0.7578  126.9   0.932   25.8  0.3690   58.1  0.3339 -167.9
 6.000  0.7614  126.1   0.926   25.1  0.3746   57.5  0.3399 -169.1
!
!  f       NFmin   Gammaopt  rn/50
! GHz       dB    MAG  ANG    -
!
! noise parameter not available yet for this operation point!
!
! (c) 2017  Infineon Technologies AG, Munich