! Infineon Technologies  Discrete & RF Semiconductors
! BFR193F
! VCE =  5.0 V,  IC =  60 mA
! Common Emitter S-Parameters:                            Jan 2017
# GHz  S  MA  R  50
!  f         S11            S21            S12            S22
! GHz     MAG   ANG      MAG   ANG      MAG   ANG      MAG   ANG
 0.010  0.1835  -47.6  78.287  170.4  0.0027   88.4  0.9346  -10.3
 0.020  0.2584  -76.8  74.887  160.9  0.0049   75.4  0.9042  -20.5
 0.030  0.3075  -95.4  69.116  154.7  0.0065   69.1  0.8305  -27.7
 0.040  0.3792 -108.0  64.306  147.4  0.0082   65.4  0.7724  -36.2
 0.050  0.4631 -116.3  60.685  139.1  0.0099   62.9  0.7337  -45.8
 0.060  0.4799 -122.7  56.206  136.3  0.0107   60.8  0.6785  -49.3
 0.070  0.5023 -128.7  51.886  133.0  0.0116   58.9  0.6264  -53.5
 0.080  0.5296 -134.0  47.768  129.1  0.0125   57.4  0.5781  -58.4
 0.090  0.5611 -138.8  43.910  124.5  0.0133   56.0  0.5347  -64.1
 0.100  0.5961 -143.1  40.385  119.1  0.0142   54.8  0.4975  -70.7
 0.110  0.6039 -145.7  38.058  117.6  0.0148   54.7  0.4698  -73.0
 0.120  0.6130 -148.2  35.758  116.0  0.0153   54.6  0.4429  -75.5
 0.130  0.6231 -150.6  33.493  114.1  0.0159   54.5  0.4170  -78.3
 0.140  0.6343 -152.9  31.268  112.0  0.0164   54.4  0.3922  -81.6
 0.150  0.6466 -155.2  29.094  109.5  0.0170   54.3  0.3689  -85.2
 0.200  0.6644 -161.7  22.467  103.7  0.0198   56.1  0.2989  -94.8
 0.250  0.6752 -166.4  18.204   99.8  0.0221   58.3  0.2506 -102.9
 0.300  0.6831 -169.3  15.332   97.0  0.0250   61.4  0.2234 -109.1
 0.350  0.6850 -171.6  13.460   95.2  0.0277   63.0  0.2045 -113.7
 0.400  0.6880 -173.8  11.605   92.8  0.0304   64.4  0.1872 -119.3
 0.450  0.6893 -175.2  10.467   91.5  0.0330   66.2  0.1779 -123.1
 0.500  0.6911 -176.6   9.336   89.9  0.0357   67.7  0.1694 -127.2
 0.600  0.6954 -178.8   7.818   87.4  0.0418   69.4  0.1592 -133.2
 0.700  0.6996  178.8   6.715   85.2  0.0474   71.5  0.1554 -137.8
 0.800  0.6985  177.4   5.879   83.3  0.0535   72.3  0.1530 -142.2
 0.900  0.7035  175.6   5.246   81.5  0.0595   73.2  0.1523 -145.1
 1.000  0.7012  174.5   4.731   79.8  0.0654   73.7  0.1523 -147.0
 1.100  0.7067  173.0   4.308   78.1  0.0713   73.7  0.1556 -149.2
 1.200  0.7082  171.8   3.959   76.4  0.0777   73.8  0.1580 -151.4
 1.300  0.7115  170.5   3.661   74.9  0.0833   74.2  0.1592 -152.3
 1.400  0.7102  169.6   3.414   73.4  0.0893   74.3  0.1620 -152.9
 1.500  0.7120  168.4   3.189   72.0  0.0951   74.5  0.1665 -154.2
 1.600  0.7144  167.3   2.995   70.5  0.1012   74.5  0.1690 -155.3
 1.700  0.7138  166.2   2.822   69.0  0.1071   74.4  0.1727 -155.6
 1.800  0.7167  165.3   2.675   67.7  0.1132   74.2  0.1762 -156.2
 1.900  0.7159  164.6   2.539   66.5  0.1193   74.0  0.1798 -156.2
 2.000  0.7194  163.4   2.422   65.2  0.1251   74.1  0.1838 -156.7
 2.100  0.7181  162.6   2.315   64.0  0.1310   73.8  0.1869 -156.6
 2.200  0.7169  161.7   2.210   62.7  0.1369   73.5  0.1900 -156.5
 2.300  0.7196  160.9   2.127   61.6  0.1428   73.4  0.1935 -156.6
 2.400  0.7224  160.1   2.045   60.4  0.1488   73.3  0.1970 -156.7
 2.500  0.7211  159.3   1.974   59.3  0.1549   73.1  0.2002 -156.3
 2.600  0.7199  158.5   1.904   58.1  0.1611   73.0  0.2034 -156.0
 2.700  0.7205  157.6   1.844   57.0  0.1675   72.6  0.2069 -156.1
 2.800  0.7213  156.7   1.784   55.8  0.1739   72.3  0.2104 -156.2
 2.900  0.7213  155.8   1.736   54.7  0.1797   72.1  0.2137 -155.7
 3.000  0.7215  155.0   1.689   53.5  0.1856   72.0  0.2170 -155.2
 3.100  0.7215  154.2   1.648   52.5  0.1926   71.6  0.2203 -155.2
 3.200  0.7217  153.3   1.607   51.5  0.1995   71.2  0.2235 -155.1
 3.300  0.7221  152.5   1.567   50.5  0.2065   70.8  0.2268 -155.1
 3.400  0.7225  151.6   1.527   49.4  0.2135   70.5  0.2300 -155.0
 3.500  0.7232  150.8   1.488   48.2  0.2205   70.2  0.2333 -155.0
 3.600  0.7224  149.9   1.460   47.3  0.2270   69.7  0.2362 -155.2
 3.700  0.7217  149.0   1.432   46.3  0.2336   69.2  0.2392 -155.4
 3.800  0.7212  148.2   1.404   45.3  0.2402   68.7  0.2421 -155.6
 3.900  0.7209  147.3   1.377   44.2  0.2468   68.3  0.2451 -155.8
 4.000  0.7207  146.4   1.351   43.1  0.2534   67.9  0.2480 -156.0
 4.100  0.7214  145.5   1.328   42.1  0.2597   67.3  0.2518 -156.6
 4.200  0.7222  144.6   1.304   41.1  0.2660   66.7  0.2556 -157.3
 4.300  0.7232  143.7   1.282   40.0  0.2724   66.1  0.2594 -157.9
 4.400  0.7244  142.8   1.260   38.9  0.2788   65.5  0.2632 -158.4
 4.500  0.7258  141.9   1.238   37.7  0.2852   65.0  0.2671 -159.0
 4.600  0.7259  140.9   1.214   36.9  0.2912   64.4  0.2699 -160.1
 4.700  0.7263  139.9   1.191   36.0  0.2972   63.7  0.2728 -161.3
 4.800  0.7269  138.8   1.167   35.0  0.3033   63.1  0.2759 -162.4
 4.900  0.7277  137.8   1.145   34.1  0.3094   62.6  0.2790 -163.4
 5.000  0.7288  136.8   1.122   33.1  0.3155   62.0  0.2822 -164.5
 5.100  0.7287  135.7   1.106   32.3  0.3213   61.4  0.2854 -165.5
 5.200  0.7289  134.7   1.091   31.6  0.3272   60.8  0.2888 -166.5
 5.300  0.7293  133.6   1.075   30.8  0.3330   60.3  0.2922 -167.4
 5.400  0.7300  132.6   1.060   29.9  0.3390   59.7  0.2956 -168.4
 5.500  0.7309  131.5   1.045   29.1  0.3449   59.2  0.2992 -169.3
 5.600  0.7340  130.6   1.037   28.4  0.3500   58.5  0.3046 -170.5
 5.700  0.7372  129.8   1.030   27.7  0.3551   57.9  0.3102 -171.6
 5.800  0.7406  129.0   1.023   27.0  0.3602   57.2  0.3159 -172.7
 5.900  0.7442  128.1   1.016   26.2  0.3655   56.6  0.3217 -173.8
 6.000  0.7479  127.3   1.009   25.5  0.3707   56.0  0.3276 -174.8
!
!  f       NFmin   Gammaopt  rn/50
! GHz       dB    MAG  ANG    -
 0.450      1.64  0.49 -178   0.08
 0.900      1.73  0.50 -177   0.09
 1.900      2.33  0.61 -162   0.10
 2.400      2.66  0.62 -155   0.17
!
! (c) 2017  Infineon Technologies AG, Munich