! Infineon Technologies  Discrete & RF Semiconductors
! BFR193F
! VCE =  10. V,  IC =  16 mA
! Common Emitter S-Parameters:                            Jan 2017
# GHz  S  MA  R  50
!  f         S11            S21            S12            S22
! GHz     MAG   ANG      MAG   ANG      MAG   ANG      MAG   ANG
 0.010  0.6104   -9.6  39.721  175.0  0.0031   83.2  0.9781   -4.9
 0.020  0.6017  -20.7  39.192  169.8  0.0064   81.8  0.9657   -9.5
 0.030  0.5932  -29.9  38.115  165.6  0.0092   75.8  0.9411  -13.7
 0.040  0.6001  -39.1  37.257  161.1  0.0121   72.6  0.9219  -18.2
 0.050  0.6220  -47.9  36.633  156.5  0.0150   70.6  0.9085  -22.8
 0.060  0.6045  -54.9  35.160  153.4  0.0168   67.0  0.8721  -25.8
 0.070  0.5965  -62.2  33.799  150.0  0.0186   64.2  0.8383  -29.0
 0.080  0.5984  -69.6  32.565  146.4  0.0205   61.8  0.8074  -32.5
 0.090  0.6101  -76.8  31.472  142.5  0.0224   59.8  0.7797  -36.3
 0.100  0.6310  -83.7  30.536  138.3  0.0243   58.2  0.7556  -40.3
 0.110  0.6249  -88.5  29.291  136.3  0.0254   56.4  0.7256  -42.2
 0.120  0.6233  -93.4  28.086  134.1  0.0265   54.8  0.6964  -44.3
 0.130  0.6262  -98.2  26.926  131.7  0.0277   53.3  0.6683  -46.6
 0.140  0.6334 -103.0  25.818  129.0  0.0288   51.9  0.6414  -49.1
 0.150  0.6450 -107.6  24.768  126.2  0.0300   50.6  0.6157  -51.8
 0.200  0.6573 -123.1  20.405  117.6  0.0335   45.8  0.5135  -59.3
 0.250  0.6578 -134.2  17.099  111.6  0.0359   44.3  0.4324  -64.7
 0.300  0.6664 -142.0  14.704  107.2  0.0380   43.5  0.3766  -68.7
 0.350  0.6653 -147.4  13.029  104.3  0.0396   44.1  0.3367  -71.0
 0.400  0.6701 -152.8  11.396  100.6  0.0413   44.7  0.2975  -73.9
 0.450  0.6707 -156.2  10.320   98.6  0.0430   45.5  0.2733  -75.6
 0.500  0.6735 -159.5   9.259   96.2  0.0447   46.3  0.2494  -77.7
 0.600  0.6758 -164.6   7.794   92.6  0.0487   49.2  0.2172  -80.6
 0.700  0.6780 -168.7   6.723   89.6  0.0519   50.9  0.1964  -83.4
 0.800  0.6785 -171.7   5.900   87.1  0.0558   53.5  0.1800  -86.1
 0.900  0.6821 -174.6   5.276   84.8  0.0599   55.4  0.1692  -88.5
 1.000  0.6841 -176.7   4.759   82.6  0.0645   57.4  0.1620  -90.6
 1.100  0.6873 -179.1   4.340   80.6  0.0687   59.0  0.1577  -93.3
 1.200  0.6903  179.2   3.992   78.6  0.0723   60.3  0.1532  -95.8
 1.300  0.6924  177.4   3.694   76.9  0.0767   61.5  0.1517  -97.7
 1.400  0.6919  176.0   3.442   75.1  0.0815   62.8  0.1520  -99.6
 1.500  0.6943  174.5   3.216   73.5  0.0859   63.8  0.1521 -102.2
 1.600  0.6966  173.0   3.020   71.8  0.0907   64.3  0.1525 -104.4
 1.700  0.6966  171.8   2.845   70.2  0.0955   65.5  0.1553 -106.1
 1.800  0.6997  170.6   2.698   68.6  0.1003   66.1  0.1579 -108.0
 1.900  0.6988  169.5   2.559   67.3  0.1051   66.7  0.1619 -109.3
 2.000  0.7027  168.1   2.441   65.8  0.1104   67.6  0.1653 -111.1
 2.100  0.7021  167.2   2.332   64.5  0.1152   68.0  0.1694 -112.1
 2.200  0.7016  166.2   2.225   63.1  0.1201   68.4  0.1735 -113.1
 2.300  0.7038  165.2   2.139   61.9  0.1252   68.8  0.1779 -114.3
 2.400  0.7061  164.3   2.055   60.6  0.1304   69.2  0.1823 -115.4
 2.500  0.7052  163.4   1.982   59.3  0.1358   69.4  0.1876 -116.1
 2.600  0.7045  162.5   1.910   58.0  0.1413   69.6  0.1930 -116.8
 2.700  0.7061  161.5   1.849   56.8  0.1469   69.9  0.1978 -117.8
 2.800  0.7080  160.5   1.789   55.5  0.1525   70.1  0.2026 -118.7
 2.900  0.7090  159.6   1.739   54.4  0.1579   70.4  0.2082 -119.1
 3.000  0.7102  158.7   1.690   53.2  0.1633   70.6  0.2139 -119.4
 3.100  0.7106  157.8   1.647   52.2  0.1698   70.6  0.2190 -120.1
 3.200  0.7111  156.8   1.605   51.1  0.1762   70.6  0.2241 -120.9
 3.300  0.7118  155.9   1.564   50.0  0.1827   70.6  0.2293 -121.5
 3.400  0.7128  154.9   1.523   48.8  0.1891   70.6  0.2345 -122.2
 3.500  0.7139  154.0   1.483   47.5  0.1956   70.6  0.2397 -122.8
 3.600  0.7135  153.1   1.453   46.5  0.2021   70.4  0.2443 -123.6
 3.700  0.7133  152.2   1.424   45.5  0.2086   70.2  0.2489 -124.4
 3.800  0.7133  151.2   1.396   44.5  0.2151   70.0  0.2536 -125.1
 3.900  0.7135  150.3   1.368   43.4  0.2216   69.8  0.2583 -125.8
 4.000  0.7139  149.4   1.340   42.3  0.2281   69.6  0.2630 -126.5
 4.100  0.7151  148.4   1.316   41.3  0.2346   69.2  0.2678 -127.7
 4.200  0.7165  147.5   1.292   40.2  0.2412   68.8  0.2727 -128.9
 4.300  0.7180  146.5   1.268   39.1  0.2478   68.5  0.2777 -130.0
 4.400  0.7198  145.6   1.245   38.0  0.2543   68.1  0.2828 -131.1
 4.500  0.7218  144.6   1.223   36.8  0.2609   67.8  0.2880 -132.2
 4.600  0.7222  143.5   1.199   35.9  0.2676   67.3  0.2908 -133.8
 4.700  0.7228  142.4   1.175   35.0  0.2742   66.8  0.2938 -135.4
 4.800  0.7237  141.3   1.151   34.1  0.2809   66.3  0.2970 -136.9
 4.900  0.7249  140.2   1.128   33.1  0.2877   65.8  0.3004 -138.4
 5.000  0.7263  139.1   1.105   32.1  0.2944   65.4  0.3040 -139.9
 5.100  0.7264  138.0   1.088   31.4  0.3008   64.9  0.3072 -141.4
 5.200  0.7269  136.9   1.072   30.6  0.3072   64.4  0.3105 -142.9
 5.300  0.7276  135.7   1.055   29.8  0.3136   63.9  0.3141 -144.3
 5.400  0.7285  134.6   1.039   29.0  0.3200   63.4  0.3179 -145.7
 5.500  0.7298  133.5   1.023   28.2  0.3265   63.0  0.3218 -147.1
 5.600  0.7334  132.6   1.015   27.5  0.3324   62.3  0.3268 -148.7
 5.700  0.7372  131.7   1.008   26.8  0.3383   61.7  0.3321 -150.3
 5.800  0.7411  130.8   1.000   26.1  0.3442   61.1  0.3377 -151.9
 5.900  0.7453  129.9   0.993   25.3  0.3502   60.5  0.3435 -153.4
 6.000  0.7496  129.0   0.986   24.6  0.3562   59.9  0.3495 -154.8
!
!  f       NFmin   Gammaopt  rn/50
! GHz       dB    MAG  ANG    -
 0.450      0.97  0.28  157   0.06
 0.900      1.06  0.38  161   0.06
 1.900      1.70  0.58 -173   0.06
 2.400      2.00  0.61 -163   0.09
!
! (c) 2017  Infineon Technologies AG, Munich