! Infineon Technologies  Discrete & RF Semiconductors
! BFR193F
! VCE =  9.0 V,  IC =  35 mA
! Common Emitter S-Parameters:                            Jan 2017
# GHz  S  MA  R  50
!  f         S11            S21            S12            S22
! GHz     MAG   ANG      MAG   ANG      MAG   ANG      MAG   ANG
 0.010  0.4039  -17.7  62.114  172.6  0.0029   86.3  0.9612   -7.4
 0.020  0.4121  -36.8  60.581  165.4  0.0055   77.4  0.9411  -14.6
 0.030  0.4121  -51.9  57.449  160.0  0.0077   70.6  0.8928  -20.5
 0.040  0.4394  -66.0  54.886  154.0  0.0099   66.9  0.8549  -27.0
 0.050  0.4896  -77.8  52.977  147.5  0.0122   64.5  0.8290  -34.0
 0.060  0.4862  -86.1  49.821  144.4  0.0134   61.5  0.7789  -37.3
 0.070  0.4930  -94.4  46.831  140.9  0.0146   59.1  0.7318  -41.1
 0.080  0.5097 -102.3  44.040  136.9  0.0159   57.0  0.6883  -45.4
 0.090  0.5353 -109.5  41.489  132.4  0.0171   55.2  0.6493  -50.3
 0.100  0.5687 -116.0  39.223  127.4  0.0184   53.7  0.6154  -55.7
 0.110  0.5722 -120.0  37.202  125.6  0.0191   52.9  0.5841  -57.8
 0.120  0.5784 -124.0  35.220  123.7  0.0198   52.2  0.5536  -60.0
 0.130  0.5874 -127.9  33.283  121.5  0.0204   51.6  0.5241  -62.6
 0.140  0.5990 -131.6  31.401  119.1  0.0211   51.0  0.4958  -65.4
 0.150  0.6130 -135.2  29.584  116.3  0.0218   50.4  0.4688  -68.6
 0.200  0.6350 -146.2  23.364  109.2  0.0242   50.0  0.3782  -76.9
 0.250  0.6438 -153.6  19.141  104.4  0.0261   50.0  0.3118  -83.2
 0.300  0.6512 -158.6  16.230  101.0  0.0284   52.4  0.2707  -88.3
 0.350  0.6544 -162.1  14.285   98.8  0.0306   54.4  0.2416  -91.7
 0.400  0.6601 -165.6  12.367   95.9  0.0329   56.2  0.2136  -96.1
 0.450  0.6615 -167.9  11.169   94.4  0.0351   57.7  0.1974  -99.0
 0.500  0.6639 -170.1   9.980   92.5  0.0374   59.1  0.1817 -102.4
 0.600  0.6684 -173.3   8.374   89.6  0.0424   61.1  0.1616 -108.0
 0.700  0.6713 -176.3   7.201   87.1  0.0473   64.0  0.1501 -112.5
 0.800  0.6734 -178.4   6.311   85.1  0.0526   65.7  0.1411 -117.3
 0.900  0.6763  179.5   5.632   83.1  0.0580   67.2  0.1361 -120.8
 1.000  0.6762  177.8   5.077   81.3  0.0639   68.0  0.1342 -123.4
 1.100  0.6802  176.1   4.626   79.4  0.0693   69.1  0.1343 -126.4
 1.200  0.6822  174.8   4.251   77.8  0.0745   69.9  0.1332 -129.5
 1.300  0.6846  173.2   3.934   76.2  0.0802   70.3  0.1338 -131.0
 1.400  0.6848  172.3   3.668   74.6  0.0853   70.9  0.1361 -132.5
 1.500  0.6874  171.0   3.426   73.2  0.0908   71.1  0.1391 -134.9
 1.600  0.6895  169.7   3.216   71.6  0.0963   71.5  0.1405 -136.3
 1.700  0.6888  168.5   3.028   70.1  0.1018   71.6  0.1441 -137.3
 1.800  0.6918  167.5   2.871   68.8  0.1078   71.8  0.1477 -138.2
 1.900  0.6919  166.7   2.724   67.5  0.1133   72.0  0.1512 -138.8
 2.000  0.6961  165.4   2.598   66.2  0.1187   72.2  0.1551 -139.9
 2.100  0.6945  164.6   2.483   65.0  0.1242   72.1  0.1586 -140.1
 2.200  0.6931  163.7   2.369   63.6  0.1298   72.1  0.1621 -140.2
 2.300  0.6952  162.8   2.279   62.5  0.1356   72.1  0.1659 -140.6
 2.400  0.6974  161.9   2.190   61.3  0.1414   72.1  0.1698 -141.0
 2.500  0.6965  161.1   2.114   60.2  0.1471   71.9  0.1738 -140.9
 2.600  0.6957  160.3   2.038   59.0  0.1529   71.8  0.1779 -140.8
 2.700  0.6972  159.3   1.973   57.8  0.1588   71.7  0.1818 -141.1
 2.800  0.6988  158.4   1.908   56.5  0.1648   71.6  0.1857 -141.4
 2.900  0.6985  157.6   1.856   55.5  0.1705   71.5  0.1900 -140.9
 3.000  0.6984  156.8   1.804   54.4  0.1763   71.5  0.1944 -140.5
 3.100  0.6987  155.9   1.759   53.4  0.1830   71.2  0.1983 -140.7
 3.200  0.6992  155.1   1.715   52.4  0.1896   71.0  0.2022 -140.8
 3.300  0.6998  154.2   1.671   51.3  0.1963   70.7  0.2062 -141.0
 3.400  0.7006  153.4   1.628   50.1  0.2029   70.5  0.2101 -141.2
 3.500  0.7015  152.5   1.586   48.9  0.2096   70.3  0.2140 -141.3
 3.600  0.7008  151.6   1.555   47.9  0.2159   69.9  0.2175 -141.6
 3.700  0.7003  150.7   1.524   46.9  0.2223   69.5  0.2210 -141.9
 3.800  0.7000  149.9   1.494   45.9  0.2287   69.2  0.2245 -142.2
 3.900  0.6998  149.0   1.464   44.8  0.2350   68.8  0.2280 -142.5
 4.000  0.6998  148.1   1.435   43.7  0.2414   68.5  0.2315 -142.8
 4.100  0.7007  147.2   1.410   42.7  0.2477   67.9  0.2356 -143.6
 4.200  0.7017  146.3   1.385   41.7  0.2540   67.4  0.2397 -144.4
 4.300  0.7029  145.4   1.360   40.6  0.2603   66.9  0.2439 -145.2
 4.400  0.7043  144.5   1.336   39.5  0.2666   66.5  0.2481 -145.9
 4.500  0.7058  143.6   1.313   38.3  0.2730   66.0  0.2523 -146.6
 4.600  0.7065  142.5   1.287   37.4  0.2792   65.4  0.2550 -147.9
 4.700  0.7075  141.5   1.262   36.5  0.2854   64.9  0.2579 -149.2
 4.800  0.7087  140.4   1.237   35.6  0.2916   64.4  0.2609 -150.5
 4.900  0.7102  139.4   1.212   34.6  0.2978   63.9  0.2641 -151.7
 5.000  0.7119  138.3   1.188   33.6  0.3041   63.4  0.2673 -152.9
 5.100  0.7119  137.3   1.171   32.8  0.3099   62.8  0.2704 -154.1
 5.200  0.7122  136.2   1.154   32.1  0.3157   62.3  0.2737 -155.3
 5.300  0.7128  135.2   1.137   31.3  0.3215   61.8  0.2771 -156.4
 5.400  0.7135  134.1   1.120   30.4  0.3273   61.3  0.2805 -157.5
 5.500  0.7145  133.1   1.104   29.6  0.3332   60.8  0.2841 -158.6
 5.600  0.7183  132.2   1.095   28.9  0.3386   60.2  0.2892 -160.0
 5.700  0.7222  131.4   1.087   28.1  0.3441   59.5  0.2944 -161.3
 5.800  0.7263  130.5   1.079   27.4  0.3496   58.9  0.2998 -162.6
 5.900  0.7306  129.6   1.071   26.6  0.3551   58.4  0.3053 -163.8
 6.000  0.7350  128.8   1.063   25.8  0.3607   57.8  0.3110 -165.0
!
!  f       NFmin   Gammaopt  rn/50
! GHz       dB    MAG  ANG    -
 0.450      1.26  0.42  178   0.06
 0.900      1.35  0.44  178   0.07
 1.900      1.90  0.58 -166   0.08
 2.400      2.20  0.61 -157   0.12
!
! (c) 2017  Infineon Technologies AG, Munich