! Infineon Technologies  Discrete & RF Semiconductors
! BFR193F
! VCE =  2.0 V,  IC =  92 mA
! Common Emitter S-Parameters:                            Jan 2017
# GHz  S  MA  R  50
!  f         S11            S21            S12            S22
! GHz     MAG   ANG      MAG   ANG      MAG   ANG      MAG   ANG
 0.010  0.2913 -138.4  65.485  163.2  0.0036   75.8  0.6625  -21.3
 0.020  0.4600 -139.4  58.558  148.1  0.0060   63.3  0.6038  -40.7
 0.030  0.5378 -146.0  50.472  142.0  0.0072   57.7  0.5174  -50.3
 0.040  0.6209 -150.8  43.176  133.6  0.0085   53.8  0.4506  -63.1
 0.050  0.7073 -154.5  37.137  122.3  0.0098   50.9  0.4132  -79.3
 0.060  0.7216 -157.2  33.764  120.3  0.0104   50.8  0.3793  -83.8
 0.070  0.7375 -159.7  30.441  117.9  0.0110   50.7  0.3482  -89.2
 0.080  0.7547 -162.2  27.185  114.9  0.0117   50.6  0.3207  -95.6
 0.090  0.7732 -164.5  24.025  111.0  0.0123   50.6  0.2979 -103.0
 0.100  0.7930 -166.7  21.004  106.1  0.0129   50.5  0.2809 -111.5
 0.110  0.7979 -167.7  19.667  105.1  0.0133   51.3  0.2710 -114.4
 0.120  0.8030 -168.8  18.336  104.0  0.0137   52.1  0.2618 -117.6
 0.130  0.8084 -169.8  17.013  102.8  0.0141   52.8  0.2535 -121.0
 0.140  0.8141 -170.8  15.700  101.3  0.0145   53.5  0.2461 -124.6
 0.150  0.8200 -171.8  14.400   99.5  0.0149   54.1  0.2398 -128.4
 0.200  0.8245 -174.8  10.886   95.5  0.0177   59.1  0.2200 -138.0
 0.250  0.8305 -177.0   8.738   92.7  0.0208   62.3  0.2102 -145.5
 0.300  0.8331 -178.3   7.310   90.6  0.0240   64.7  0.2075 -150.0
 0.350  0.8325 -179.6   6.398   89.1  0.0271   66.7  0.2044 -153.1
 0.400  0.8323  179.1   5.491   87.1  0.0302   68.3  0.2018 -156.2
 0.450  0.8332  178.2   4.949   85.9  0.0334   69.8  0.2012 -157.9
 0.500  0.8343  177.3   4.410   84.5  0.0366   71.1  0.2007 -159.7
 0.600  0.8366  175.7   3.691   82.1  0.0432   73.8  0.2029 -162.2
 0.700  0.8374  174.1   3.172   79.8  0.0493   74.1  0.2053 -163.4
 0.800  0.8364  173.0   2.780   77.9  0.0559   74.9  0.2088 -164.9
 0.900  0.8383  171.5   2.481   75.8  0.0625   75.6  0.2123 -165.5
 1.000  0.8387  170.4   2.243   74.0  0.0693   75.2  0.2152 -165.7
 1.100  0.8407  169.2   2.047   72.0  0.0760   76.2  0.2213 -165.9
 1.200  0.8412  168.1   1.883   70.2  0.0822   75.9  0.2256 -166.6
 1.300  0.8428  166.8   1.745   68.4  0.0887   76.1  0.2293 -166.6
 1.400  0.8412  166.0   1.633   66.7  0.0956   76.2  0.2341 -166.5
 1.500  0.8428  164.9   1.529   65.2  0.1020   76.1  0.2403 -166.7
 1.600  0.8439  163.8   1.439   63.5  0.1086   75.9  0.2450 -167.0
 1.700  0.8428  162.8   1.358   61.9  0.1149   75.7  0.2498 -166.8
 1.800  0.8438  161.9   1.292   60.3  0.1217   75.5  0.2550 -166.7
 1.900  0.8428  161.0   1.231   59.0  0.1280   75.3  0.2604 -166.4
 2.000  0.8460  159.9   1.178   57.6  0.1347   75.4  0.2665 -166.5
 2.100  0.8438  159.1   1.130   56.4  0.1413   75.1  0.2712 -166.3
 2.200  0.8418  158.2   1.083   55.0  0.1479   74.8  0.2759 -166.2
 2.300  0.8430  157.3   1.045   53.9  0.1546   74.5  0.2811 -166.2
 2.400  0.8445  156.4   1.008   52.7  0.1614   74.3  0.2864 -166.2
 2.500  0.8430  155.6   0.977   51.6  0.1681   74.0  0.2911 -165.9
 2.600  0.8416  154.8   0.946   50.4  0.1748   73.7  0.2958 -165.7
 2.700  0.8420  153.8   0.919   49.3  0.1820   73.3  0.3012 -165.9
 2.800  0.8427  152.9   0.892   48.1  0.1892   73.0  0.3066 -166.0
 2.900  0.8427  151.9   0.871   47.1  0.1961   72.7  0.3113 -165.8
 3.000  0.8430  151.0   0.851   46.0  0.2031   72.4  0.3161 -165.6
 3.100  0.8423  150.1   0.833   45.1  0.2109   71.8  0.3212 -165.8
 3.200  0.8418  149.2   0.816   44.2  0.2187   71.3  0.3262 -166.0
 3.300  0.8415  148.2   0.799   43.3  0.2265   70.9  0.3313 -166.2
 3.400  0.8414  147.3   0.782   42.3  0.2344   70.4  0.3364 -166.4
 3.500  0.8416  146.4   0.765   41.3  0.2422   70.0  0.3415 -166.6
 3.600  0.8397  145.4   0.754   40.6  0.2498   69.3  0.3457 -167.1
 3.700  0.8381  144.3   0.742   39.8  0.2575   68.7  0.3499 -167.7
 3.800  0.8368  143.3   0.731   39.1  0.2652   68.1  0.3541 -168.2
 3.900  0.8357  142.2   0.720   38.3  0.2729   67.5  0.3583 -168.7
 4.000  0.8349  141.2   0.709   37.5  0.2806   67.0  0.3626 -169.2
 4.100  0.8341  140.2   0.699   36.7  0.2876   66.2  0.3672 -170.0
 4.200  0.8335  139.2   0.689   36.0  0.2946   65.4  0.3718 -170.9
 4.300  0.8332  138.2   0.680   35.2  0.3017   64.6  0.3765 -171.7
 4.400  0.8332  137.2   0.670   34.3  0.3088   63.9  0.3813 -172.4
 4.500  0.8334  136.2   0.661   33.5  0.3160   63.2  0.3862 -173.2
 4.600  0.8317  135.1   0.650   33.0  0.3223   62.4  0.3895 -174.4
 4.700  0.8304  134.0   0.640   32.5  0.3286   61.6  0.3930 -175.5
 4.800  0.8294  132.9   0.629   31.9  0.3350   60.8  0.3967 -176.7
 4.900  0.8286  131.8   0.618   31.4  0.3415   60.1  0.4005 -177.8
 5.000  0.8282  130.7   0.608   30.8  0.3480   59.4  0.4045 -178.9
 5.100  0.8259  129.6   0.602   30.4  0.3538   58.7  0.4082 -180.0
 5.200  0.8239  128.5   0.597   30.0  0.3598   57.9  0.4121  179.0
 5.300  0.8223  127.4   0.591   29.6  0.3657   57.2  0.4161  177.9
 5.400  0.8209  126.2   0.586   29.2  0.3717   56.6  0.4202  176.9
 5.500  0.8199  125.1   0.580   28.8  0.3778   55.9  0.4245  175.9
 5.600  0.8211  124.2   0.580   28.5  0.3830   55.1  0.4305  174.7
 5.700  0.8225  123.3   0.580   28.3  0.3882   54.4  0.4368  173.5
 5.800  0.8242  122.4   0.580   28.0  0.3935   53.6  0.4432  172.3
 5.900  0.8260  121.5   0.580   27.8  0.3989   52.9  0.4497  171.2
 6.000  0.8280  120.6   0.580   27.5  0.4043   52.2  0.4565  170.1
!
!  f       NFmin   Gammaopt  rn/50
! GHz       dB    MAG  ANG    -
!
! noise parameter not available yet for this operation point!
!
! (c) 2017  Infineon Technologies AG, Munich