! Infineon Technologies  Discrete & RF Semiconductors
! BFR193F
! VCE =  5.0 V,  IC =  8.0 mA
! Common Emitter S-Parameters:                            Jan 2017
# GHz  S  MA  R  50
!  f         S11            S21            S12            S22
! GHz     MAG   ANG      MAG   ANG      MAG   ANG      MAG   ANG
 0.010  0.7432   -6.7  24.392  176.7  0.0038   85.6  0.9893   -3.5
 0.020  0.7256  -14.6  24.051  172.6  0.0073   85.3  0.9829   -6.8
 0.030  0.7205  -21.2  23.731  169.1  0.0108   79.3  0.9688  -10.0
 0.040  0.7251  -27.8  23.500  165.6  0.0144   76.3  0.9578  -13.3
 0.050  0.7392  -34.3  23.360  162.0  0.0180   74.5  0.9501  -16.7
 0.060  0.7218  -40.0  22.726  159.1  0.0207   70.7  0.9248  -19.2
 0.070  0.7118  -45.9  22.152  156.1  0.0234   67.8  0.9015  -21.9
 0.080  0.7096  -52.0  21.643  153.0  0.0262   65.6  0.8801  -24.7
 0.090  0.7153  -58.0  21.203  149.6  0.0290   63.7  0.8610  -27.6
 0.100  0.7286  -63.8  20.837  146.2  0.0319   62.2  0.8443  -30.7
 0.110  0.7173  -68.3  20.190  144.1  0.0338   59.9  0.8196  -32.5
 0.120  0.7106  -73.0  19.572  141.8  0.0357   57.9  0.7957  -34.5
 0.130  0.7086  -77.7  18.986  139.4  0.0376   56.0  0.7728  -36.5
 0.140  0.7115  -82.4  18.435  136.9  0.0396   54.4  0.7510  -38.7
 0.150  0.7190  -87.0  17.923  134.2  0.0416   52.9  0.7303  -41.0
 0.200  0.7221 -103.9  15.406  125.0  0.0478   46.3  0.6338  -48.3
 0.250  0.7107 -117.1  13.243  118.1  0.0516   42.5  0.5491  -53.5
 0.300  0.7149 -126.6  11.617  112.9  0.0546   39.4  0.4871  -57.4
 0.350  0.7087 -133.4  10.369  109.4  0.0565   38.0  0.4410  -59.6
 0.400  0.7127 -140.3   9.171  104.9  0.0584   36.6  0.3957  -62.3
 0.450  0.7099 -144.8   8.338  102.4  0.0595   36.3  0.3662  -63.7
 0.500  0.7114 -149.3   7.525   99.4  0.0607   36.1  0.3370  -65.4
 0.600  0.7136 -156.0   6.377   95.0  0.0631   37.0  0.2968  -67.7
 0.700  0.7153 -161.2   5.521   91.4  0.0650   37.6  0.2709  -69.8
 0.800  0.7132 -165.1   4.854   88.3  0.0675   39.1  0.2502  -71.8
 0.900  0.7185 -168.9   4.348   85.5  0.0695   41.2  0.2362  -73.5
 1.000  0.7185 -171.6   3.926   83.0  0.0719   42.7  0.2277  -75.1
 1.100  0.7212 -174.3   3.584   80.5  0.0742   45.1  0.2211  -77.4
 1.200  0.7232 -176.6   3.299   78.3  0.0771   46.5  0.2149  -79.6
 1.300  0.7259 -178.7   3.056   76.2  0.0796   48.3  0.2122  -81.2
 1.400  0.7257  179.8   2.850   74.2  0.0825   50.1  0.2118  -83.2
 1.500  0.7279  178.0   2.664   72.3  0.0856   52.0  0.2108  -85.7
 1.600  0.7300  176.1   2.502   70.4  0.0888   53.3  0.2110  -87.8
 1.700  0.7282  174.6   2.357   68.5  0.0923   55.0  0.2137  -89.9
 1.800  0.7315  173.4   2.236   66.8  0.0962   56.6  0.2164  -92.0
 1.900  0.7328  172.2   2.121   65.2  0.0995   58.0  0.2199  -93.9
 2.000  0.7362  170.7   2.025   63.6  0.1037   59.3  0.2229  -95.8
 2.100  0.7351  169.6   1.934   62.1  0.1077   60.6  0.2278  -97.4
 2.200  0.7342  168.4   1.845   60.5  0.1118   61.8  0.2328  -99.0
 2.300  0.7370  167.3   1.773   59.2  0.1162   62.8  0.2379 -100.7
 2.400  0.7400  166.2   1.702   57.7  0.1206   63.8  0.2432 -102.3
 2.500  0.7396  165.3   1.642   56.4  0.1255   64.7  0.2495 -103.6
 2.600  0.7395  164.3   1.582   55.0  0.1305   65.5  0.2559 -104.9
 2.700  0.7413  163.2   1.531   53.7  0.1358   66.3  0.2615 -106.4
 2.800  0.7433  162.1   1.480   52.3  0.1411   67.1  0.2672 -107.8
 2.900  0.7452  161.1   1.439   51.1  0.1463   67.7  0.2740 -108.8
 3.000  0.7474  160.2   1.399   49.8  0.1515   68.3  0.2808 -109.7
 3.100  0.7479  159.2   1.363   48.8  0.1580   68.7  0.2869 -111.0
 3.200  0.7487  158.2   1.328   47.7  0.1644   69.1  0.2932 -112.2
 3.300  0.7497  157.1   1.293   46.5  0.1709   69.5  0.2995 -113.3
 3.400  0.7509  156.1   1.259   45.3  0.1774   69.9  0.3060 -114.4
 3.500  0.7524  155.1   1.225   44.0  0.1839   70.2  0.3126 -115.5
 3.600  0.7523  154.1   1.201   43.0  0.1908   70.2  0.3182 -116.7
 3.700  0.7524  153.0   1.177   42.0  0.1977   70.3  0.3240 -117.9
 3.800  0.7528  152.0   1.153   40.9  0.2045   70.3  0.3299 -119.0
 3.900  0.7534  150.9   1.130   39.8  0.2114   70.4  0.3359 -120.1
 4.000  0.7543  149.9   1.107   38.7  0.2183   70.4  0.3420 -121.2
 4.100  0.7556  148.8   1.087   37.7  0.2257   70.1  0.3475 -122.8
 4.200  0.7572  147.8   1.066   36.7  0.2331   69.8  0.3532 -124.3
 4.300  0.7591  146.7   1.047   35.7  0.2405   69.6  0.3592 -125.8
 4.400  0.7612  145.6   1.027   34.6  0.2480   69.3  0.3654 -127.2
 4.500  0.7636  144.6   1.008   33.5  0.2554   69.1  0.3718 -128.6
 4.600  0.7635  143.4   0.987   32.7  0.2629   68.6  0.3748 -130.4
 4.700  0.7637  142.2   0.967   31.9  0.2705   68.1  0.3782 -132.2
 4.800  0.7643  140.9   0.947   31.0  0.2780   67.7  0.3820 -134.0
 4.900  0.7652  139.7   0.927   30.1  0.2856   67.3  0.3861 -135.7
 5.000  0.7665  138.5   0.907   29.2  0.2932   66.9  0.3906 -137.4
 5.100  0.7661  137.4   0.893   28.6  0.3004   66.3  0.3939 -139.1
 5.200  0.7660  136.2   0.879   27.9  0.3076   65.7  0.3975 -140.8
 5.300  0.7662  135.1   0.866   27.2  0.3149   65.2  0.4014 -142.4
 5.400  0.7668  133.9   0.852   26.5  0.3222   64.7  0.4056 -144.0
 5.500  0.7676  132.8   0.839   25.8  0.3295   64.2  0.4102 -145.6
 5.600  0.7705  131.8   0.833   25.3  0.3362   63.5  0.4152 -147.4
 5.700  0.7736  130.9   0.826   24.7  0.3429   62.8  0.4206 -149.2
 5.800  0.7770  129.9   0.820   24.1  0.3497   62.1  0.4265 -150.9
 5.900  0.7805  128.9   0.814   23.6  0.3565   61.4  0.4327 -152.6
 6.000  0.7843  128.0   0.808   23.0  0.3634   60.8  0.4392 -154.2
!
!  f       NFmin   Gammaopt  rn/50
! GHz       dB    MAG  ANG    -
 0.450      0.84  0.25  124   0.08
 0.900      0.99  0.40  147   0.07
 1.900      1.74  0.61 -177   0.05
 2.400      2.11  0.64 -167   0.08
!
! (c) 2017  Infineon Technologies AG, Munich