! Infineon Technologies  Discrete & RF Semiconductors
! BFR193F
! VCE =  2.0 V,  IC =  20 mA
! Common Emitter S-Parameters:                            Jan 2017
# GHz  S  MA  R  50
!  f         S11            S21            S12            S22
! GHz     MAG   ANG      MAG   ANG      MAG   ANG      MAG   ANG
 0.010  0.4531  -17.0  47.575  173.6  0.0038   83.5  0.9719   -7.7
 0.020  0.4568  -34.4  46.563  166.5  0.0074   79.9  0.9526  -15.1
 0.030  0.4549  -48.7  44.423  161.1  0.0103   72.0  0.9067  -21.3
 0.040  0.4807  -62.4  42.710  155.3  0.0133   67.6  0.8725  -28.1
 0.050  0.5302  -74.0  41.478  149.0  0.0164   64.8  0.8516  -35.4
 0.060  0.5252  -82.3  39.125  145.8  0.0180   60.8  0.8014  -39.2
 0.070  0.5313  -90.6  36.905  142.3  0.0196   57.5  0.7551  -43.5
 0.080  0.5482  -98.6  34.845  138.3  0.0213   54.7  0.7135  -48.3
 0.090  0.5749 -105.9  32.973  133.9  0.0230   52.3  0.6775  -53.6
 0.100  0.6101 -112.5  31.324  128.9  0.0248   50.3  0.6481  -59.5
 0.110  0.6135 -116.7  29.744  127.1  0.0257   49.3  0.6163  -62.0
 0.120  0.6202 -120.9  28.198  125.0  0.0265   48.4  0.5857  -64.8
 0.130  0.6301 -125.0  26.691  122.8  0.0274   47.5  0.5568  -67.9
 0.140  0.6431 -128.9  25.232  120.2  0.0283   46.7  0.5296  -71.3
 0.150  0.6589 -132.6  23.827  117.4  0.0292   45.9  0.5045  -75.1
 0.200  0.6824 -144.0  18.920  109.9  0.0322   44.4  0.4148  -85.7
 0.250  0.6914 -152.2  15.533  104.9  0.0341   43.5  0.3503  -94.4
 0.300  0.7007 -157.2  13.180  101.3  0.0363   45.4  0.3104 -101.2
 0.350  0.7028 -161.0  11.607   99.0  0.0386   46.4  0.2826 -106.1
 0.400  0.7080 -164.7  10.059   95.9  0.0409   47.2  0.2574 -112.1
 0.450  0.7096 -167.0   9.087   94.2  0.0429   49.1  0.2425 -116.1
 0.500  0.7123 -169.3   8.125   92.2  0.0449   50.8  0.2290 -120.5
 0.600  0.7170 -172.9   6.818   89.1  0.0498   53.5  0.2121 -127.2
 0.700  0.7206 -176.0   5.869   86.5  0.0546   56.3  0.2035 -132.4
 0.800  0.7186 -178.0   5.137   84.3  0.0594   58.5  0.1983 -137.1
 0.900  0.7224  179.7   4.589   82.2  0.0652   60.0  0.1948 -140.5
 1.000  0.7242  178.0   4.140   80.2  0.0701   61.2  0.1943 -143.2
 1.100  0.7273  176.2   3.773   78.3  0.0753   62.6  0.1957 -145.5
 1.200  0.7274  174.5   3.466   76.4  0.0809   63.5  0.1965 -148.1
 1.300  0.7314  173.1   3.211   74.7  0.0864   64.4  0.1974 -149.3
 1.400  0.7312  172.0   2.995   73.1  0.0914   65.4  0.2002 -150.4
 1.500  0.7339  170.7   2.797   71.5  0.0974   66.2  0.2042 -151.8
 1.600  0.7341  169.3   2.628   69.9  0.1027   66.4  0.2065 -153.2
 1.700  0.7349  168.0   2.477   68.3  0.1084   67.0  0.2101 -153.8
 1.800  0.7372  167.2   2.349   66.8  0.1142   67.2  0.2136 -154.4
 1.900  0.7369  166.3   2.231   65.5  0.1202   67.6  0.2182 -154.8
 2.000  0.7398  164.9   2.129   64.1  0.1258   67.9  0.2218 -155.5
 2.100  0.7387  164.1   2.036   62.9  0.1315   68.1  0.2249 -155.7
 2.200  0.7378  163.2   1.944   61.5  0.1373   68.2  0.2281 -155.8
 2.300  0.7399  162.2   1.871   60.3  0.1431   68.4  0.2321 -156.1
 2.400  0.7422  161.3   1.799   59.1  0.1489   68.5  0.2361 -156.4
 2.500  0.7413  160.5   1.738   57.9  0.1549   68.4  0.2396 -156.3
 2.600  0.7406  159.6   1.678   56.6  0.1610   68.3  0.2432 -156.2
 2.700  0.7414  158.7   1.625   55.4  0.1674   68.4  0.2471 -156.4
 2.800  0.7424  157.8   1.573   54.2  0.1738   68.4  0.2510 -156.6
 2.900  0.7430  156.9   1.532   53.1  0.1795   68.3  0.2546 -156.3
 3.000  0.7437  156.0   1.492   51.9  0.1853   68.3  0.2583 -156.1
 3.100  0.7436  155.1   1.456   50.9  0.1923   68.1  0.2622 -156.3
 3.200  0.7437  154.2   1.421   49.8  0.1994   67.9  0.2660 -156.4
 3.300  0.7440  153.3   1.387   48.7  0.2064   67.7  0.2699 -156.6
 3.400  0.7445  152.4   1.352   47.5  0.2135   67.5  0.2737 -156.7
 3.500  0.7451  151.5   1.319   46.3  0.2205   67.3  0.2776 -156.9
 3.600  0.7443  150.6   1.295   45.4  0.2273   66.9  0.2810 -157.3
 3.700  0.7437  149.6   1.271   44.4  0.2341   66.5  0.2843 -157.6
 3.800  0.7433  148.7   1.247   43.4  0.2409   66.2  0.2877 -157.9
 3.900  0.7431  147.7   1.224   42.3  0.2477   65.8  0.2911 -158.3
 4.000  0.7431  146.8   1.201   41.2  0.2545   65.5  0.2945 -158.6
 4.100  0.7438  145.9   1.180   40.2  0.2610   64.9  0.2987 -159.4
 4.200  0.7447  144.9   1.160   39.2  0.2676   64.3  0.3030 -160.1
 4.300  0.7458  144.0   1.140   38.1  0.2742   63.7  0.3073 -160.8
 4.400  0.7471  143.0   1.121   37.0  0.2808   63.2  0.3116 -161.5
 4.500  0.7486  142.1   1.102   35.9  0.2874   62.7  0.3160 -162.2
 4.600  0.7487  141.0   1.081   35.1  0.2937   62.1  0.3190 -163.4
 4.700  0.7491  139.9   1.060   34.2  0.3000   61.6  0.3222 -164.5
 4.800  0.7498  138.9   1.040   33.3  0.3063   61.0  0.3255 -165.7
 4.900  0.7507  137.8   1.020   32.4  0.3126   60.5  0.3289 -166.8
 5.000  0.7519  136.7   1.000   31.4  0.3190   60.0  0.3324 -167.9
 5.100  0.7513  135.6   0.986   30.7  0.3248   59.4  0.3360 -168.9
 5.200  0.7509  134.5   0.972   29.9  0.3305   58.8  0.3397 -170.0
 5.300  0.7509  133.5   0.959   29.2  0.3364   58.3  0.3435 -171.0
 5.400  0.7510  132.4   0.945   28.4  0.3422   57.7  0.3475 -171.9
 5.500  0.7515  131.3   0.932   27.6  0.3481   57.2  0.3515 -172.9
 5.600  0.7544  130.4   0.926   26.9  0.3535   56.5  0.3575 -174.1
 5.700  0.7575  129.5   0.920   26.3  0.3589   55.9  0.3637 -175.2
 5.800  0.7607  128.6   0.914   25.6  0.3644   55.3  0.3700 -176.3
 5.900  0.7642  127.8   0.909   24.9  0.3699   54.7  0.3764 -177.3
 6.000  0.7678  126.9   0.903   24.2  0.3754   54.1  0.3829 -178.3
!
!  f       NFmin   Gammaopt  rn/50
! GHz       dB    MAG  ANG    -
 0.450      1.04  0.33  168   0.06
 0.900      1.12  0.39  169   0.07
 1.900      1.71  0.57 -171   0.06
 2.400      2.01  0.61 -161   0.10
!
! (c) 2017  Infineon Technologies AG, Munich