! Infineon Technologies  Discrete & RF Semiconductors
! BFR193F
! VCE =  6.0 V,  IC =  65 mA
! Common Emitter S-Parameters:                            Jan 2017
# GHz  S  MA  R  50
!  f         S11            S21            S12            S22
! GHz     MAG   ANG      MAG   ANG      MAG   ANG      MAG   ANG
 0.010  0.1947  -45.0  79.392  170.3  0.0024   88.1  0.9303  -10.0
 0.020  0.2661  -75.4  76.463  160.7  0.0047   78.8  0.8972  -20.2
 0.030  0.3124  -93.8  70.408  154.5  0.0065   70.5  0.8252  -27.3
 0.040  0.3817 -106.6  65.316  147.3  0.0084   65.9  0.7679  -35.5
 0.050  0.4638 -115.1  61.427  139.0  0.0103   63.0  0.7290  -44.9
 0.060  0.4795 -121.7  56.885  136.2  0.0111   60.6  0.6739  -48.3
 0.070  0.5010 -127.8  52.503  132.9  0.0118   58.6  0.6216  -52.3
 0.080  0.5278 -133.3  48.326  129.0  0.0126   56.8  0.5729  -57.1
 0.090  0.5590 -138.3  44.411  124.4  0.0134   55.2  0.5289  -62.6
 0.100  0.5939 -142.7  40.834  119.0  0.0142   53.8  0.4906  -69.1
 0.110  0.6016 -145.2  38.480  117.5  0.0147   53.6  0.4633  -71.2
 0.120  0.6104 -147.7  36.154  115.9  0.0152   53.4  0.4366  -73.6
 0.130  0.6204 -150.1  33.862  114.0  0.0157   53.2  0.4108  -76.3
 0.140  0.6314 -152.5  31.611  111.9  0.0162   53.1  0.3861  -79.3
 0.150  0.6434 -154.7  29.412  109.4  0.0167   52.9  0.3625  -82.7
 0.200  0.6614 -161.4  22.712  103.6  0.0192   56.6  0.2916  -91.6
 0.250  0.6722 -166.1  18.397   99.8  0.0215   59.1  0.2424  -99.2
 0.300  0.6773 -169.1  15.490   96.9  0.0243   61.6  0.2142 -105.0
 0.350  0.6797 -171.3  13.596   95.1  0.0270   63.6  0.1949 -109.4
 0.400  0.6832 -173.5  11.720   92.8  0.0298   65.3  0.1770 -114.7
 0.450  0.6852 -175.0  10.572   91.5  0.0327   66.9  0.1671 -118.1
 0.500  0.6876 -176.4   9.430   89.9  0.0356   68.3  0.1579 -121.9
 0.600  0.6919 -178.8   7.895   87.3  0.0408   69.8  0.1470 -128.0
 0.700  0.6955  179.0   6.784   85.2  0.0468   71.9  0.1421 -132.7
 0.800  0.6964  177.5   5.940   83.3  0.0524   72.4  0.1394 -137.1
 0.900  0.6992  175.7   5.299   81.4  0.0587   73.6  0.1380 -140.2
 1.000  0.6996  174.5   4.777   79.7  0.0645   74.0  0.1386 -142.0
 1.100  0.7019  173.0   4.352   78.0  0.0701   74.3  0.1415 -144.6
 1.200  0.7045  171.9   3.998   76.4  0.0764   74.3  0.1429 -146.7
 1.300  0.7064  170.6   3.699   74.9  0.0821   74.6  0.1450 -147.7
 1.400  0.7065  169.6   3.448   73.4  0.0880   74.7  0.1480 -148.5
 1.500  0.7102  168.5   3.222   72.0  0.0939   74.6  0.1521 -149.9
 1.600  0.7099  167.4   3.023   70.5  0.1000   74.8  0.1547 -151.0
 1.700  0.7112  166.3   2.849   69.0  0.1056   74.6  0.1586 -151.4
 1.800  0.7131  165.4   2.700   67.7  0.1119   74.6  0.1626 -151.8
 1.900  0.7131  164.6   2.563   66.5  0.1178   74.5  0.1665 -151.9
 2.000  0.7151  163.4   2.446   65.1  0.1237   74.5  0.1708 -152.5
 2.100  0.7147  162.6   2.339   64.0  0.1294   74.3  0.1741 -152.4
 2.200  0.7145  161.8   2.233   62.7  0.1352   74.1  0.1774 -152.3
 2.300  0.7158  161.0   2.147   61.6  0.1412   73.9  0.1811 -152.4
 2.400  0.7172  160.2   2.062   60.4  0.1473   73.7  0.1848 -152.5
 2.500  0.7166  159.4   1.991   59.2  0.1536   73.4  0.1881 -152.2
 2.600  0.7161  158.6   1.921   58.0  0.1599   73.2  0.1915 -151.9
 2.700  0.7169  157.7   1.860   56.9  0.1657   72.9  0.1955 -152.0
 2.800  0.7178  156.8   1.799   55.7  0.1716   72.7  0.1995 -152.1
 2.900  0.7182  155.9   1.751   54.6  0.1777   72.6  0.2030 -151.5
 3.000  0.7188  155.1   1.703   53.5  0.1838   72.5  0.2066 -150.9
 3.100  0.7188  154.3   1.661   52.5  0.1906   72.1  0.2103 -150.9
 3.200  0.7189  153.5   1.620   51.5  0.1975   71.7  0.2139 -150.9
 3.300  0.7191  152.6   1.579   50.4  0.2043   71.3  0.2176 -151.0
 3.400  0.7195  151.8   1.539   49.3  0.2111   71.0  0.2212 -151.0
 3.500  0.7201  151.0   1.500   48.1  0.2180   70.7  0.2249 -151.0
 3.600  0.7191  150.1   1.471   47.2  0.2245   70.2  0.2281 -151.2
 3.700  0.7184  149.2   1.443   46.2  0.2311   69.7  0.2312 -151.4
 3.800  0.7177  148.4   1.415   45.2  0.2376   69.2  0.2344 -151.6
 3.900  0.7173  147.5   1.388   44.1  0.2442   68.8  0.2375 -151.8
 4.000  0.7170  146.6   1.361   43.0  0.2508   68.4  0.2407 -152.0
 4.100  0.7176  145.7   1.337   42.0  0.2572   67.8  0.2446 -152.7
 4.200  0.7183  144.8   1.313   41.0  0.2636   67.2  0.2485 -153.3
 4.300  0.7193  143.8   1.290   39.9  0.2700   66.6  0.2524 -154.0
 4.400  0.7204  142.9   1.267   38.8  0.2765   66.1  0.2564 -154.6
 4.500  0.7217  142.0   1.245   37.6  0.2830   65.6  0.2604 -155.2
 4.600  0.7223  141.0   1.221   36.8  0.2890   65.0  0.2632 -156.4
 4.700  0.7232  140.0   1.197   35.9  0.2951   64.4  0.2661 -157.6
 4.800  0.7243  138.9   1.173   35.0  0.3012   63.8  0.2691 -158.7
 4.900  0.7256  137.9   1.150   34.0  0.3073   63.2  0.2723 -159.8
 5.000  0.7272  136.9   1.127   33.0  0.3135   62.7  0.2755 -160.9
 5.100  0.7269  135.8   1.111   32.2  0.3192   62.1  0.2788 -162.0
 5.200  0.7269  134.8   1.096   31.5  0.3250   61.5  0.2823 -163.1
 5.300  0.7271  133.7   1.080   30.7  0.3308   61.0  0.2858 -164.1
 5.400  0.7276  132.7   1.065   29.8  0.3366   60.4  0.2894 -165.1
 5.500  0.7283  131.6   1.050   29.0  0.3425   59.9  0.2931 -166.1
 5.600  0.7316  130.7   1.043   28.3  0.3478   59.2  0.2984 -167.3
 5.700  0.7351  129.9   1.036   27.6  0.3531   58.6  0.3039 -168.5
 5.800  0.7387  129.1   1.029   26.9  0.3584   57.9  0.3095 -169.6
 5.900  0.7425  128.2   1.022   26.1  0.3639   57.3  0.3152 -170.7
 6.000  0.7464  127.4   1.015   25.4  0.3693   56.7  0.3210 -171.8
!
!  f       NFmin   Gammaopt  rn/50
! GHz       dB    MAG  ANG    -
!
! noise parameter not available yet for this operation point!
!
! (c) 2017  Infineon Technologies AG, Munich