! Infineon Technologies  Discrete & RF Semiconductors
! BFR193F
! VCE =  8.0 V,  IC =  8.0 mA
! Common Emitter S-Parameters:                            Jan 2017
# GHz  S  MA  R  50
!  f         S11            S21            S12            S22
! GHz     MAG   ANG      MAG   ANG      MAG   ANG      MAG   ANG
 0.010  0.7553   -6.3  24.110  176.8  0.0038   85.7  0.9894   -3.3
 0.020  0.7370  -13.7  23.702  172.8  0.0074   85.6  0.9851   -6.3
 0.030  0.7334  -20.0  23.446  169.5  0.0104   79.6  0.9723   -9.2
 0.040  0.7388  -26.3  23.269  166.2  0.0134   76.4  0.9621  -12.2
 0.050  0.7528  -32.4  23.172  162.8  0.0165   74.3  0.9546  -15.3
 0.060  0.7353  -37.8  22.595  160.0  0.0191   70.7  0.9316  -17.7
 0.070  0.7246  -43.4  22.073  157.1  0.0218   68.0  0.9104  -20.2
 0.080  0.7209  -49.1  21.612  154.1  0.0246   65.9  0.8909  -22.8
 0.090  0.7245  -54.8  21.214  150.9  0.0273   64.3  0.8733  -25.5
 0.100  0.7351  -60.4  20.884  147.6  0.0301   62.9  0.8578  -28.3
 0.110  0.7242  -64.9  20.268  145.5  0.0319   60.5  0.8344  -30.0
 0.120  0.7178  -69.4  19.681  143.3  0.0338   58.5  0.8119  -31.8
 0.130  0.7160  -74.0  19.125  140.9  0.0358   56.6  0.7901  -33.7
 0.140  0.7188  -78.7  18.603  138.4  0.0377   54.9  0.7694  -35.8
 0.150  0.7263  -83.2  18.119  135.8  0.0397   53.4  0.7496  -37.9
 0.200  0.7222 -100.1  15.684  126.6  0.0457   47.8  0.6551  -44.8
 0.250  0.7108 -113.4  13.557  119.5  0.0498   43.2  0.5722  -49.7
 0.300  0.7101 -123.4  11.922  114.2  0.0528   40.5  0.5093  -53.2
 0.350  0.7039 -130.5  10.665  110.6  0.0546   38.9  0.4631  -55.1
 0.400  0.7085 -137.6   9.461  106.1  0.0565   37.4  0.4176  -57.5
 0.450  0.7045 -142.3   8.612  103.5  0.0578   37.1  0.3877  -58.7
 0.500  0.7053 -147.1   7.784  100.4  0.0592   36.8  0.3579  -60.0
 0.600  0.7051 -154.1   6.600   95.9  0.0617   36.7  0.3176  -61.8
 0.700  0.7073 -159.5   5.723   92.2  0.0632   38.3  0.2899  -63.3
 0.800  0.7058 -163.7   5.035   89.1  0.0654   39.7  0.2690  -64.7
 0.900  0.7087 -167.5   4.513   86.3  0.0674   41.3  0.2548  -66.1
 1.000  0.7100 -170.2   4.079   83.8  0.0700   42.8  0.2449  -67.5
 1.100  0.7139 -173.1   3.721   81.3  0.0720   44.8  0.2376  -69.5
 1.200  0.7151 -175.6   3.425   79.0  0.0741   46.6  0.2306  -71.3
 1.300  0.7179 -177.7   3.174   76.9  0.0776   48.7  0.2273  -72.8
 1.400  0.7174 -179.3   2.959   74.9  0.0801   50.6  0.2267  -74.8
 1.500  0.7194  178.9   2.765   73.0  0.0832   52.0  0.2244  -77.2
 1.600  0.7214  177.1   2.598   71.1  0.0862   54.0  0.2239  -79.0
 1.700  0.7222  175.5   2.448   69.2  0.0894   55.4  0.2258  -81.1
 1.800  0.7240  174.1   2.322   67.5  0.0931   56.9  0.2274  -83.2
 1.900  0.7251  172.9   2.202   65.9  0.0964   58.6  0.2302  -85.2
 2.000  0.7283  171.4   2.100   64.3  0.1002   60.0  0.2332  -87.2
 2.100  0.7280  170.3   2.006   62.8  0.1041   61.2  0.2371  -88.9
 2.200  0.7279  169.1   1.914   61.2  0.1081   62.4  0.2413  -90.6
 2.300  0.7302  168.0   1.839   59.9  0.1124   63.5  0.2460  -92.4
 2.400  0.7328  166.9   1.766   58.4  0.1167   64.5  0.2510  -94.1
 2.500  0.7327  165.9   1.703   57.1  0.1214   65.5  0.2566  -95.6
 2.600  0.7328  164.9   1.640   55.7  0.1262   66.4  0.2624  -97.1
 2.700  0.7346  163.8   1.587   54.4  0.1314   67.2  0.2676  -98.7
 2.800  0.7367  162.7   1.534   53.0  0.1367   68.0  0.2730 -100.2
 2.900  0.7373  161.7   1.491   51.8  0.1417   68.7  0.2796 -101.3
 3.000  0.7382  160.8   1.449   50.5  0.1468   69.3  0.2863 -102.3
 3.100  0.7392  159.8   1.411   49.4  0.1532   69.8  0.2921 -103.7
 3.200  0.7404  158.7   1.375   48.3  0.1596   70.2  0.2980 -105.0
 3.300  0.7418  157.7   1.338   47.2  0.1660   70.7  0.3040 -106.2
 3.400  0.7436  156.6   1.302   45.9  0.1725   71.0  0.3103 -107.4
 3.500  0.7455  155.6   1.267   44.6  0.1789   71.4  0.3166 -108.6
 3.600  0.7454  154.6   1.241   43.6  0.1857   71.5  0.3220 -109.9
 3.700  0.7456  153.5   1.216   42.6  0.1924   71.6  0.3276 -111.2
 3.800  0.7460  152.5   1.191   41.6  0.1992   71.7  0.3333 -112.4
 3.900  0.7466  151.4   1.167   40.5  0.2059   71.7  0.3392 -113.6
 4.000  0.7475  150.4   1.143   39.4  0.2127   71.8  0.3452 -114.7
 4.100  0.7489  149.3   1.121   38.4  0.2200   71.6  0.3505 -116.3
 4.200  0.7505  148.3   1.100   37.4  0.2272   71.3  0.3561 -117.9
 4.300  0.7524  147.2   1.079   36.3  0.2345   71.1  0.3619 -119.5
 4.400  0.7546  146.1   1.059   35.2  0.2418   70.9  0.3680 -121.0
 4.500  0.7570  145.1   1.039   34.1  0.2491   70.7  0.3743 -122.4
 4.600  0.7571  143.9   1.018   33.3  0.2568   70.2  0.3770 -124.3
 4.700  0.7576  142.7   0.997   32.5  0.2645   69.7  0.3801 -126.1
 4.800  0.7583  141.6   0.976   31.6  0.2723   69.3  0.3835 -128.0
 4.900  0.7594  140.4   0.955   30.7  0.2800   68.9  0.3874 -129.7
 5.000  0.7608  139.2   0.935   29.7  0.2878   68.5  0.3916 -131.5
 5.100  0.7603  138.0   0.921   29.1  0.2951   67.9  0.3945 -133.3
 5.200  0.7602  136.8   0.906   28.4  0.3025   67.3  0.3977 -135.0
 5.300  0.7603  135.7   0.892   27.7  0.3099   66.8  0.4013 -136.7
 5.400  0.7608  134.5   0.878   27.0  0.3173   66.3  0.4053 -138.4
 5.500  0.7616  133.3   0.864   26.3  0.3247   65.8  0.4096 -140.0
 5.600  0.7647  132.3   0.857   25.7  0.3315   65.1  0.4141 -141.9
 5.700  0.7681  131.3   0.851   25.1  0.3383   64.4  0.4191 -143.7
 5.800  0.7717  130.3   0.844   24.5  0.3452   63.7  0.4245 -145.5
 5.900  0.7756  129.4   0.837   23.9  0.3521   63.0  0.4303 -147.2
 6.000  0.7796  128.4   0.831   23.3  0.3591   62.4  0.4365 -148.9
!
!  f       NFmin   Gammaopt  rn/50
! GHz       dB    MAG  ANG    -
 0.450      0.84  0.25  124   0.08
 0.900      0.99  0.40  147   0.07
 1.900      1.74  0.61 -177   0.05
 2.400      2.11  0.64 -167   0.08
!
! (c) 2017  Infineon Technologies AG, Munich