! Infineon Technologies  Discrete & RF Semiconductors
! BFR193F
! VCE =  4.0 V,  IC =  75 mA
! Common Emitter S-Parameters:                            Jan 2017
# GHz  S  MA  R  50
!  f         S11            S21            S12            S22
! GHz     MAG   ANG      MAG   ANG      MAG   ANG      MAG   ANG
 0.010  0.1442  -86.3  81.258  169.1  0.0025   82.7  0.8994  -11.8
 0.020  0.2644 -105.1  77.120  158.2  0.0047   74.1  0.8629  -23.7
 0.030  0.3361 -118.3  69.957  151.8  0.0062   67.2  0.7791  -31.3
 0.040  0.4192 -126.5  63.856  144.1  0.0078   63.0  0.7120  -40.4
 0.050  0.5080 -132.0  59.147  134.9  0.0094   60.3  0.6666  -51.2
 0.060  0.5282 -136.9  54.453  132.3  0.0101   58.8  0.6128  -54.7
 0.070  0.5519 -141.4  49.896  129.1  0.0108   57.4  0.5617  -58.8
 0.080  0.5787 -145.5  45.518  125.4  0.0115   56.3  0.5140  -63.7
 0.090  0.6082 -149.2  41.374  120.9  0.0122   55.2  0.4710  -69.6
 0.100  0.6401 -152.6  37.543  115.4  0.0129   54.3  0.4338  -76.6
 0.110  0.6473 -154.5  35.302  114.1  0.0134   54.6  0.4095  -78.9
 0.120  0.6552 -156.4  33.083  112.6  0.0139   54.8  0.3860  -81.4
 0.130  0.6638 -158.2  30.890  110.9  0.0143   55.0  0.3633  -84.3
 0.140  0.6730 -160.0  28.728  108.9  0.0148   55.2  0.3416  -87.5
 0.150  0.6829 -161.7  26.606  106.6  0.0153   55.4  0.3212  -91.2
 0.200  0.6985 -166.8  20.393  101.3  0.0186   57.4  0.2613 -100.9
 0.250  0.7070 -170.5  16.468   97.9  0.0208   61.1  0.2221 -109.3
 0.300  0.7122 -172.8  13.833   95.3  0.0240   64.1  0.2006 -115.4
 0.350  0.7146 -174.6  12.131   93.6  0.0266   66.1  0.1861 -120.1
 0.400  0.7178 -176.4  10.443   91.4  0.0292   67.7  0.1731 -125.6
 0.450  0.7185 -177.6   9.414   90.2  0.0322   69.3  0.1660 -129.0
 0.500  0.7196 -178.8   8.391   88.6  0.0353   70.6  0.1595 -132.6
 0.600  0.7247  179.3   7.029   86.2  0.0413   71.8  0.1529 -138.3
 0.700  0.7282  177.3   6.035   84.0  0.0476   73.1  0.1511 -142.2
 0.800  0.7274  175.9   5.283   82.2  0.0531   74.1  0.1504 -146.1
 0.900  0.7304  174.3   4.713   80.4  0.0595   74.6  0.1511 -148.4
 1.000  0.7308  173.1   4.251   78.6  0.0659   75.5  0.1523 -149.9
 1.100  0.7342  171.8   3.872   77.0  0.0717   75.5  0.1564 -151.3
 1.200  0.7361  170.6   3.557   75.3  0.0777   75.5  0.1590 -153.3
 1.300  0.7378  169.4   3.291   73.7  0.0839   75.4  0.1610 -153.9
 1.400  0.7378  168.5   3.069   72.2  0.0896   75.7  0.1649 -154.4
 1.500  0.7394  167.4   2.867   70.8  0.0960   75.4  0.1700 -155.6
 1.600  0.7411  166.3   2.693   69.3  0.1015   75.6  0.1729 -156.4
 1.700  0.7399  165.2   2.537   67.8  0.1075   75.3  0.1768 -156.4
 1.800  0.7430  164.5   2.405   66.4  0.1140   75.1  0.1810 -156.6
 1.900  0.7422  163.6   2.284   65.2  0.1199   75.1  0.1852 -156.7
 2.000  0.7452  162.5   2.179   63.8  0.1258   75.2  0.1900 -157.0
 2.100  0.7438  161.7   2.085   62.6  0.1320   74.9  0.1934 -156.8
 2.200  0.7426  160.9   1.991   61.3  0.1382   74.6  0.1969 -156.7
 2.300  0.7444  160.0   1.916   60.2  0.1443   74.4  0.2010 -156.7
 2.400  0.7463  159.1   1.841   59.0  0.1504   74.2  0.2052 -156.7
 2.500  0.7453  158.3   1.779   57.9  0.1567   73.9  0.2088 -156.4
 2.600  0.7445  157.5   1.717   56.7  0.1630   73.7  0.2125 -156.2
 2.700  0.7452  156.6   1.663   55.5  0.1694   73.4  0.2165 -156.2
 2.800  0.7460  155.8   1.609   54.3  0.1759   73.1  0.2206 -156.2
 2.900  0.7465  155.0   1.567   53.2  0.1821   72.9  0.2243 -155.7
 3.000  0.7471  154.2   1.525   52.1  0.1884   72.7  0.2281 -155.3
 3.100  0.7469  153.3   1.488   51.1  0.1954   72.3  0.2320 -155.3
 3.200  0.7470  152.5   1.452   50.1  0.2025   71.9  0.2359 -155.3
 3.300  0.7471  151.6   1.417   49.0  0.2096   71.5  0.2398 -155.4
 3.400  0.7475  150.8   1.382   47.9  0.2166   71.1  0.2437 -155.4
 3.500  0.7480  149.9   1.347   46.7  0.2237   70.8  0.2476 -155.4
 3.600  0.7469  149.0   1.322   45.8  0.2305   70.2  0.2509 -155.7
 3.700  0.7460  148.1   1.297   44.8  0.2372   69.7  0.2542 -155.9
 3.800  0.7453  147.1   1.273   43.8  0.2440   69.2  0.2575 -156.2
 3.900  0.7448  146.2   1.249   42.7  0.2509   68.7  0.2609 -156.5
 4.000  0.7445  145.3   1.225   41.6  0.2577   68.3  0.2642 -156.7
 4.100  0.7450  144.4   1.204   40.6  0.2643   67.6  0.2682 -157.4
 4.200  0.7457  143.5   1.183   39.6  0.2708   67.0  0.2723 -158.1
 4.300  0.7466  142.5   1.163   38.6  0.2775   66.4  0.2764 -158.7
 4.400  0.7476  141.6   1.143   37.5  0.2841   65.8  0.2805 -159.4
 4.500  0.7489  140.7   1.124   36.4  0.2908   65.2  0.2847 -160.0
 4.600  0.7490  139.6   1.102   35.6  0.2970   64.5  0.2878 -161.2
 4.700  0.7493  138.6   1.081   34.7  0.3031   63.9  0.2909 -162.3
 4.800  0.7499  137.5   1.060   33.7  0.3094   63.3  0.2942 -163.4
 4.900  0.7508  136.5   1.039   32.8  0.3156   62.8  0.2976 -164.5
 5.000  0.7519  135.4   1.019   31.8  0.3219   62.2  0.3011 -165.6
 5.100  0.7514  134.4   1.005   31.1  0.3276   61.6  0.3047 -166.6
 5.200  0.7511  133.4   0.991   30.4  0.3333   60.9  0.3084 -167.6
 5.300  0.7510  132.3   0.978   29.6  0.3391   60.3  0.3122 -168.6
 5.400  0.7512  131.3   0.964   28.9  0.3449   59.8  0.3161 -169.6
 5.500  0.7516  130.3   0.951   28.1  0.3507   59.2  0.3201 -170.5
 5.600  0.7542  129.4   0.945   27.4  0.3559   58.5  0.3259 -171.7
 5.700  0.7569  128.5   0.939   26.8  0.3612   57.8  0.3318 -172.9
 5.800  0.7599  127.6   0.933   26.1  0.3666   57.1  0.3378 -174.0
 5.900  0.7630  126.8   0.927   25.4  0.3720   56.4  0.3439 -175.1
 6.000  0.7663  125.9   0.921   24.7  0.3774   55.8  0.3502 -176.1
!
!  f       NFmin   Gammaopt  rn/50
! GHz       dB    MAG  ANG    -
!
! noise parameter not available yet for this operation point!
!
! (c) 2017  Infineon Technologies AG, Munich