! Infineon Technologies  Discrete & RF Semiconductors
! BFR193F
! VCE =  3.0 V,  IC =  10 mA
! Common Emitter S-Parameters:                            Jan 2017
# GHz  S  MA  R  50
!  f         S11            S21            S12            S22
! GHz     MAG   ANG      MAG   ANG      MAG   ANG      MAG   ANG
 0.010  0.6783   -8.5  29.299  176.0  0.0039   83.3  0.9864   -4.5
 0.020  0.6642  -18.3  28.753  171.1  0.0077   82.1  0.9796   -8.9
 0.030  0.6569  -26.5  28.207  167.1  0.0112   77.5  0.9578  -12.9
 0.040  0.6633  -34.7  27.804  162.9  0.0148   75.2  0.9409  -17.1
 0.050  0.6828  -42.6  27.550  158.7  0.0184   73.7  0.9292  -21.4
 0.060  0.6644  -49.1  26.583  155.7  0.0209   69.1  0.8963  -24.4
 0.070  0.6551  -56.0  25.697  152.4  0.0236   65.5  0.8661  -27.6
 0.080  0.6552  -62.9  24.900  148.9  0.0263   62.7  0.8387  -31.0
 0.090  0.6648  -69.7  24.200  145.2  0.0291   60.4  0.8146  -34.7
 0.100  0.6834  -76.2  23.608  141.3  0.0319   58.5  0.7939  -38.5
 0.110  0.6751  -81.0  22.729  139.2  0.0334   56.3  0.7649  -40.6
 0.120  0.6717  -85.9  21.884  136.9  0.0350   54.3  0.7371  -42.8
 0.130  0.6732  -90.8  21.075  134.5  0.0367   52.5  0.7104  -45.2
 0.140  0.6796  -95.7  20.309  131.8  0.0383   50.8  0.6851  -47.8
 0.150  0.6908 -100.4  19.588  129.0  0.0400   49.3  0.6613  -50.6
 0.200  0.7012 -116.7  16.391  120.0  0.0451   43.8  0.5586  -59.0
 0.250  0.6987 -128.5  13.852  113.6  0.0483   40.3  0.4754  -65.2
 0.300  0.7046 -137.1  11.995  108.8  0.0506   39.0  0.4164  -69.9
 0.350  0.7032 -143.0  10.648  105.6  0.0526   38.3  0.3735  -72.8
 0.400  0.7092 -148.9   9.342  101.6  0.0546   37.6  0.3319  -76.5
 0.450  0.7089 -152.7   8.472   99.4  0.0558   38.1  0.3055  -78.7
 0.500  0.7118 -156.5   7.618   96.7  0.0571   38.5  0.2797  -81.3
 0.600  0.7135 -162.0   6.428   92.7  0.0599   39.8  0.2449  -85.3
 0.700  0.7166 -166.5   5.550   89.5  0.0624   41.9  0.2229  -88.9
 0.800  0.7153 -169.8   4.869   86.7  0.0655   43.6  0.2058  -92.3
 0.900  0.7212 -173.1   4.359   84.1  0.0683   45.9  0.1944  -95.1
 1.000  0.7219 -175.3   3.936   81.7  0.0713   47.7  0.1877  -97.4
 1.100  0.7249 -177.7   3.590   79.4  0.0754   49.8  0.1846 -100.4
 1.200  0.7263 -179.8   3.302   77.3  0.0784   51.4  0.1805 -103.1
 1.300  0.7295  178.5   3.058   75.4  0.0823   52.9  0.1791 -104.9
 1.400  0.7293  177.0   2.853   73.5  0.0862   54.5  0.1808 -106.9
 1.500  0.7314  175.4   2.663   71.6  0.0898   55.8  0.1822 -109.5
 1.600  0.7334  173.7   2.502   69.8  0.0941   57.1  0.1831 -111.5
 1.700  0.7325  172.2   2.359   68.0  0.0983   58.3  0.1878 -113.2
 1.800  0.7356  171.2   2.238   66.4  0.1029   59.7  0.1911 -114.8
 1.900  0.7357  170.1   2.123   64.9  0.1075   60.6  0.1959 -116.2
 2.000  0.7391  168.7   2.025   63.4  0.1116   61.7  0.2003 -117.8
 2.100  0.7386  167.7   1.936   62.0  0.1164   62.5  0.2052 -118.9
 2.200  0.7383  166.6   1.848   60.4  0.1213   63.2  0.2102 -119.9
 2.300  0.7404  165.5   1.778   59.2  0.1261   64.0  0.2158 -121.0
 2.400  0.7427  164.5   1.708   57.8  0.1310   64.7  0.2214 -122.0
 2.500  0.7425  163.6   1.648   56.5  0.1364   65.3  0.2275 -122.8
 2.600  0.7425  162.6   1.589   55.1  0.1419   65.9  0.2337 -123.5
 2.700  0.7433  161.6   1.538   53.8  0.1475   66.3  0.2394 -124.5
 2.800  0.7443  160.6   1.488   52.5  0.1531   66.7  0.2452 -125.4
 2.900  0.7456  159.6   1.448   51.3  0.1585   67.2  0.2517 -125.9
 3.000  0.7471  158.7   1.408   50.0  0.1640   67.6  0.2583 -126.3
 3.100  0.7476  157.7   1.373   49.0  0.1707   67.8  0.2643 -127.1
 3.200  0.7483  156.8   1.338   47.9  0.1774   68.0  0.2703 -127.9
 3.300  0.7492  155.8   1.304   46.7  0.1840   68.2  0.2763 -128.7
 3.400  0.7503  154.9   1.271   45.5  0.1907   68.3  0.2824 -129.4
 3.500  0.7516  153.9   1.238   44.2  0.1974   68.5  0.2886 -130.1
 3.600  0.7514  152.9   1.214   43.3  0.2043   68.4  0.2939 -131.0
 3.700  0.7514  151.9   1.190   42.3  0.2112   68.2  0.2992 -131.9
 3.800  0.7516  150.9   1.167   41.3  0.2181   68.1  0.3047 -132.8
 3.900  0.7520  149.9   1.144   40.2  0.2250   68.0  0.3101 -133.6
 4.000  0.7527  148.9   1.122   39.1  0.2319   67.9  0.3157 -134.4
 4.100  0.7538  147.9   1.102   38.1  0.2389   67.5  0.3211 -135.7
 4.200  0.7552  146.8   1.082   37.1  0.2459   67.1  0.3267 -136.9
 4.300  0.7568  145.8   1.063   36.0  0.2529   66.8  0.3325 -138.1
 4.400  0.7587  144.7   1.044   34.9  0.2599   66.4  0.3384 -139.3
 4.500  0.7608  143.7   1.025   33.8  0.2669   66.1  0.3444 -140.4
 4.600  0.7606  142.5   1.005   33.0  0.2740   65.6  0.3479 -142.1
 4.700  0.7607  141.4   0.984   32.1  0.2810   65.1  0.3516 -143.7
 4.800  0.7612  140.2   0.964   31.3  0.2881   64.7  0.3556 -145.3
 4.900  0.7619  139.1   0.945   30.4  0.2953   64.2  0.3599 -146.9
 5.000  0.7630  137.9   0.925   29.4  0.3024   63.8  0.3645 -148.4
 5.100  0.7627  136.8   0.912   28.7  0.3092   63.2  0.3682 -149.9
 5.200  0.7627  135.7   0.898   28.0  0.3160   62.6  0.3722 -151.3
 5.300  0.7630  134.5   0.885   27.3  0.3228   62.1  0.3764 -152.8
 5.400  0.7636  133.4   0.872   26.6  0.3297   61.6  0.3808 -154.1
 5.500  0.7645  132.3   0.859   25.8  0.3366   61.1  0.3855 -155.5
 5.600  0.7676  131.3   0.853   25.2  0.3427   60.4  0.3913 -157.1
 5.700  0.7710  130.4   0.847   24.7  0.3489   59.7  0.3974 -158.7
 5.800  0.7745  129.4   0.841   24.1  0.3552   59.1  0.4039 -160.2
 5.900  0.7783  128.4   0.835   23.5  0.3615   58.4  0.4105 -161.7
 6.000  0.7823  127.5   0.829   22.9  0.3678   57.8  0.4175 -163.1
!
!  f       NFmin   Gammaopt  rn/50
! GHz       dB    MAG  ANG    -
 0.450      0.87  0.25  139   0.07
 0.900      1.00  0.38  152   0.07
 1.900      1.70  0.59 -176   0.06
 2.400      2.05  0.63 -165   0.08
!
! (c) 2017  Infineon Technologies AG, Munich