! Infineon Technologies  Discrete & RF Semiconductors
! BFR193F
! VCE =  11. V,  IC =  32 mA
! Common Emitter S-Parameters:                            Jan 2017
# GHz  S  MA  R  50
!  f         S11            S21            S12            S22
! GHz     MAG   ANG      MAG   ANG      MAG   ANG      MAG   ANG
 0.010  0.4568  -15.2  58.361  172.9  0.0027   75.9  0.9540   -6.8
 0.020  0.4588  -31.9  57.027  166.2  0.0055   77.8  0.9387  -13.5
 0.030  0.4536  -45.5  54.387  161.0  0.0078   71.0  0.8955  -19.1
 0.040  0.4738  -58.7  52.233  155.4  0.0101   67.4  0.8615  -25.1
 0.050  0.5163  -70.2  50.627  149.3  0.0125   65.1  0.8379  -31.6
 0.060  0.5081  -78.4  47.787  146.2  0.0138   62.1  0.7902  -34.9
 0.070  0.5106  -86.7  45.107  142.7  0.0151   59.6  0.7455  -38.6
 0.080  0.5236  -94.8  42.618  138.7  0.0165   57.5  0.7043  -42.7
 0.090  0.5463 -102.3  40.355  134.3  0.0178   55.7  0.6672  -47.4
 0.100  0.5776 -109.1  38.359  129.4  0.0192   54.2  0.6349  -52.5
 0.110  0.5787 -113.4  36.445  127.6  0.0199   53.3  0.6037  -54.5
 0.120  0.5830 -117.6  34.571  125.6  0.0207   52.4  0.5733  -56.7
 0.130  0.5904 -121.8  32.745  123.3  0.0214   51.6  0.5439  -59.1
 0.140  0.6009 -125.8  30.976  120.8  0.0222   50.9  0.5155  -61.9
 0.150  0.6142 -129.7  29.273  118.0  0.0229   50.2  0.4885  -64.9
 0.200  0.6326 -141.7  23.260  110.6  0.0251   48.3  0.3953  -72.9
 0.250  0.6396 -150.2  19.116  105.6  0.0278   48.5  0.3265  -78.9
 0.300  0.6484 -155.6  16.249  102.0  0.0290   50.3  0.2826  -83.6
 0.350  0.6507 -159.5  14.315   99.7  0.0316   52.3  0.2519  -86.6
 0.400  0.6559 -163.3  12.411   96.7  0.0343   54.0  0.2221  -90.5
 0.450  0.6567 -165.7  11.211   95.1  0.0362   55.5  0.2045  -93.0
 0.500  0.6587 -168.1  10.021   93.1  0.0382   56.9  0.1874  -96.0
 0.600  0.6640 -171.8   8.413   90.1  0.0428   59.9  0.1647 -101.1
 0.700  0.6681 -175.0   7.239   87.6  0.0478   62.3  0.1517 -105.4
 0.800  0.6678 -177.2   6.342   85.5  0.0531   64.2  0.1411 -109.6
 0.900  0.6728 -179.5   5.662   83.4  0.0578   65.4  0.1347 -113.1
 1.000  0.6729  178.9   5.107   81.6  0.0636   66.9  0.1313 -115.7
 1.100  0.6761  177.1   4.655   79.7  0.0683   67.3  0.1310 -118.9
 1.200  0.6779  175.6   4.276   78.0  0.0736   68.3  0.1293 -122.1
 1.300  0.6800  174.1   3.956   76.4  0.0792   69.2  0.1293 -123.6
 1.400  0.6806  172.9   3.689   74.8  0.0845   69.8  0.1314 -125.3
 1.500  0.6829  171.5   3.445   73.3  0.0902   70.3  0.1337 -127.9
 1.600  0.6850  170.2   3.234   71.8  0.0950   70.6  0.1347 -129.5
 1.700  0.6854  169.1   3.047   70.3  0.1006   70.6  0.1383 -130.7
 1.800  0.6869  168.1   2.888   68.9  0.1061   71.0  0.1421 -131.8
 1.900  0.6867  167.2   2.741   67.6  0.1114   71.2  0.1455 -132.6
 2.000  0.6919  165.9   2.614   66.3  0.1170   71.6  0.1495 -133.8
 2.100  0.6904  165.0   2.498   65.1  0.1225   71.6  0.1529 -134.1
 2.200  0.6890  164.1   2.384   63.7  0.1279   71.6  0.1564 -134.4
 2.300  0.6907  163.2   2.293   62.6  0.1334   71.7  0.1603 -135.0
 2.400  0.6926  162.4   2.202   61.4  0.1389   71.7  0.1642 -135.5
 2.500  0.6920  161.6   2.125   60.2  0.1449   71.7  0.1686 -135.4
 2.600  0.6915  160.8   2.049   59.0  0.1508   71.7  0.1731 -135.4
 2.700  0.6927  159.8   1.983   57.8  0.1565   71.6  0.1772 -135.8
 2.800  0.6941  158.9   1.917   56.6  0.1623   71.5  0.1814 -136.2
 2.900  0.6943  158.0   1.865   55.5  0.1679   71.4  0.1859 -135.9
 3.000  0.6947  157.2   1.813   54.3  0.1735   71.4  0.1905 -135.6
 3.100  0.6951  156.3   1.768   53.3  0.1801   71.1  0.1947 -135.8
 3.200  0.6956  155.4   1.723   52.3  0.1867   70.9  0.1989 -136.1
 3.300  0.6964  154.6   1.679   51.2  0.1933   70.7  0.2030 -136.3
 3.400  0.6973  153.7   1.636   50.0  0.1999   70.5  0.2072 -136.5
 3.500  0.6983  152.8   1.593   48.8  0.2065   70.3  0.2114 -136.7
 3.600  0.6976  151.9   1.562   47.8  0.2129   70.0  0.2151 -137.1
 3.700  0.6970  151.0   1.531   46.8  0.2192   69.6  0.2187 -137.5
 3.800  0.6967  150.2   1.501   45.8  0.2256   69.3  0.2224 -137.8
 3.900  0.6965  149.3   1.471   44.7  0.2320   69.1  0.2261 -138.2
 4.000  0.6964  148.4   1.442   43.6  0.2384   68.8  0.2298 -138.5
 4.100  0.6975  147.5   1.416   42.6  0.2446   68.3  0.2339 -139.4
 4.200  0.6987  146.6   1.391   41.6  0.2509   67.8  0.2381 -140.2
 4.300  0.7001  145.7   1.366   40.5  0.2572   67.3  0.2423 -141.0
 4.400  0.7017  144.8   1.342   39.4  0.2635   66.8  0.2465 -141.8
 4.500  0.7035  143.9   1.318   38.2  0.2698   66.4  0.2508 -142.6
 4.600  0.7042  142.9   1.292   37.3  0.2760   65.8  0.2535 -144.0
 4.700  0.7052  141.8   1.266   36.4  0.2821   65.3  0.2564 -145.3
 4.800  0.7064  140.8   1.241   35.5  0.2883   64.8  0.2594 -146.7
 4.900  0.7078  139.7   1.216   34.5  0.2946   64.3  0.2625 -147.9
 5.000  0.7095  138.7   1.191   33.5  0.3008   63.8  0.2658 -149.2
 5.100  0.7096  137.6   1.174   32.7  0.3067   63.2  0.2689 -150.5
 5.200  0.7099  136.6   1.157   31.9  0.3127   62.7  0.2721 -151.7
 5.300  0.7105  135.5   1.140   31.1  0.3187   62.2  0.2755 -152.9
 5.400  0.7113  134.5   1.123   30.3  0.3247   61.7  0.2790 -154.1
 5.500  0.7124  133.4   1.107   29.4  0.3308   61.2  0.2826 -155.3
 5.600  0.7161  132.5   1.098   28.7  0.3362   60.6  0.2877 -156.7
 5.700  0.7200  131.7   1.090   27.9  0.3417   60.0  0.2929 -158.1
 5.800  0.7241  130.8   1.082   27.2  0.3472   59.4  0.2983 -159.4
 5.900  0.7283  129.9   1.074   26.4  0.3527   58.8  0.3038 -160.7
 6.000  0.7327  129.1   1.066   25.6  0.3583   58.3  0.3095 -161.9
!
!  f       NFmin   Gammaopt  rn/50
! GHz       dB    MAG  ANG    -
 0.450      1.21  0.40  177   0.06
 0.900      1.30  0.43  177   0.07
 1.900      1.86  0.58 -167   0.07
 2.400      2.15  0.61 -158   0.12
!
! (c) 2017  Infineon Technologies AG, Munich