! Infineon Technologies  Discrete & RF Semiconductors
! BFR193F
! VCE =  5.0 V,  IC =  50 mA
! Common Emitter S-Parameters:                            Jan 2017
# GHz  S  MA  R  50
!  f         S11            S21            S12            S22
! GHz     MAG   ANG      MAG   ANG      MAG   ANG      MAG   ANG
 0.010  0.2241  -36.4  73.985  171.1  0.0028   86.3  0.9457   -9.7
 0.020  0.2775  -65.0  71.362  162.1  0.0052   74.1  0.9204  -19.3
 0.030  0.3137  -84.1  66.285  156.0  0.0070   69.1  0.8521  -26.3
 0.040  0.3763  -98.0  62.068  149.1  0.0089   66.1  0.7984  -34.3
 0.050  0.4544 -107.6  58.894  141.2  0.0108   64.2  0.7625  -43.3
 0.060  0.4679 -114.8  54.728  138.3  0.0117   61.3  0.7074  -46.9
 0.070  0.4884 -121.5  50.727  134.9  0.0126   58.8  0.6555  -51.1
 0.080  0.5150 -127.6  46.931  131.0  0.0135   56.7  0.6077  -55.9
 0.090  0.5469 -133.1  43.394  126.4  0.0144   54.8  0.5649  -61.6
 0.100  0.5831 -137.9  40.186  121.0  0.0154   53.2  0.5286  -68.1
 0.110  0.5909 -140.8  37.927  119.5  0.0159   53.1  0.4997  -70.4
 0.120  0.6002 -143.6  35.698  117.7  0.0164   53.0  0.4717  -72.9
 0.130  0.6109 -146.3  33.507  115.8  0.0170   52.9  0.4447  -75.8
 0.140  0.6230 -149.0  31.360  113.6  0.0175   52.9  0.4190  -79.1
 0.150  0.6363 -151.5  29.267  111.0  0.0180   52.8  0.3948  -82.7
 0.200  0.6572 -158.6  22.713  104.8  0.0209   54.3  0.3197  -92.4
 0.250  0.6670 -164.0  18.447  100.8  0.0233   56.1  0.2675 -100.5
 0.300  0.6752 -167.3  15.546   97.9  0.0260   59.1  0.2379 -106.9
 0.350  0.6777 -169.8  13.652   96.0  0.0285   60.8  0.2171 -111.6
 0.400  0.6814 -172.2  11.778   93.5  0.0310   62.2  0.1980 -117.2
 0.450  0.6831 -173.8  10.627   92.2  0.0338   64.2  0.1874 -120.8
 0.500  0.6853 -175.3   9.483   90.5  0.0367   65.9  0.1777 -124.9
 0.600  0.6892 -178.0   7.946   87.8  0.0419   68.2  0.1666 -131.4
 0.700  0.6956  179.9   6.832   85.6  0.0475   70.1  0.1612 -136.1
 0.800  0.6938  178.4   5.977   83.8  0.0540   70.4  0.1583 -140.6
 0.900  0.6979  176.4   5.336   81.9  0.0596   71.6  0.1569 -143.6
 1.000  0.6986  175.0   4.810   80.2  0.0659   72.0  0.1566 -145.8
 1.100  0.7010  173.6   4.380   78.4  0.0712   73.1  0.1597 -148.1
 1.200  0.7042  172.3   4.025   76.8  0.0772   72.8  0.1609 -150.5
 1.300  0.7046  170.9   3.723   75.3  0.0838   73.1  0.1623 -151.5
 1.400  0.7059  170.1   3.471   73.7  0.0893   73.6  0.1650 -152.4
 1.500  0.7083  168.9   3.242   72.3  0.0952   73.5  0.1695 -153.8
 1.600  0.7092  167.7   3.045   70.9  0.1014   73.6  0.1716 -154.8
 1.700  0.7082  166.6   2.868   69.4  0.1069   73.7  0.1749 -155.3
 1.800  0.7118  165.8   2.720   68.0  0.1136   73.5  0.1784 -155.7
 1.900  0.7109  164.9   2.582   66.8  0.1188   73.4  0.1820 -156.0
 2.000  0.7155  163.7   2.462   65.5  0.1249   73.4  0.1858 -156.4
 2.100  0.7145  162.9   2.354   64.4  0.1306   73.2  0.1887 -156.5
 2.200  0.7136  162.1   2.248   63.1  0.1364   73.1  0.1917 -156.5
 2.300  0.7151  161.2   2.163   62.0  0.1425   72.9  0.1951 -156.6
 2.400  0.7168  160.4   2.078   60.8  0.1486   72.7  0.1986 -156.6
 2.500  0.7156  159.6   2.006   59.6  0.1546   72.4  0.2017 -156.3
 2.600  0.7145  158.8   1.935   58.4  0.1607   72.2  0.2048 -156.1
 2.700  0.7150  157.9   1.874   57.3  0.1669   72.0  0.2081 -156.2
 2.800  0.7157  157.1   1.813   56.1  0.1731   71.9  0.2115 -156.2
 2.900  0.7163  156.3   1.765   55.0  0.1792   71.7  0.2146 -155.7
 3.000  0.7170  155.5   1.717   53.9  0.1853   71.5  0.2178 -155.3
 3.100  0.7170  154.6   1.675   52.9  0.1922   71.1  0.2210 -155.3
 3.200  0.7171  153.7   1.633   51.9  0.1990   70.8  0.2243 -155.3
 3.300  0.7174  152.9   1.592   50.8  0.2059   70.5  0.2275 -155.2
 3.400  0.7179  152.0   1.552   49.7  0.2128   70.2  0.2308 -155.2
 3.500  0.7185  151.1   1.512   48.5  0.2197   69.9  0.2340 -155.2
 3.600  0.7176  150.2   1.483   47.6  0.2262   69.4  0.2368 -155.4
 3.700  0.7168  149.3   1.455   46.6  0.2327   68.9  0.2396 -155.6
 3.800  0.7162  148.5   1.427   45.6  0.2393   68.4  0.2424 -155.8
 3.900  0.7158  147.6   1.400   44.5  0.2458   68.0  0.2452 -156.0
 4.000  0.7155  146.7   1.373   43.4  0.2524   67.6  0.2480 -156.2
 4.100  0.7163  145.8   1.349   42.4  0.2587   67.0  0.2516 -156.8
 4.200  0.7172  144.9   1.326   41.4  0.2651   66.4  0.2553 -157.5
 4.300  0.7184  144.1   1.303   40.3  0.2715   65.8  0.2590 -158.1
 4.400  0.7196  143.2   1.281   39.2  0.2779   65.2  0.2627 -158.6
 4.500  0.7211  142.3   1.259   38.0  0.2843   64.7  0.2665 -159.2
 4.600  0.7214  141.3   1.234   37.2  0.2903   64.1  0.2693 -160.3
 4.700  0.7220  140.2   1.210   36.3  0.2963   63.5  0.2722 -161.4
 4.800  0.7228  139.2   1.186   35.4  0.3023   62.9  0.2752 -162.5
 4.900  0.7238  138.1   1.162   34.4  0.3084   62.3  0.2783 -163.6
 5.000  0.7251  137.1   1.139   33.4  0.3145   61.8  0.2815 -164.6
 5.100  0.7251  136.0   1.123   32.6  0.3202   61.2  0.2847 -165.6
 5.200  0.7254  135.0   1.107   31.9  0.3260   60.6  0.2880 -166.6
 5.300  0.7259  133.9   1.092   31.1  0.3317   60.1  0.2914 -167.5
 5.400  0.7266  132.9   1.076   30.2  0.3376   59.5  0.2949 -168.5
 5.500  0.7276  131.8   1.061   29.4  0.3434   59.0  0.2984 -169.4
 5.600  0.7306  130.9   1.053   28.7  0.3486   58.4  0.3038 -170.6
 5.700  0.7337  130.1   1.046   28.0  0.3538   57.7  0.3093 -171.7
 5.800  0.7370  129.3   1.039   27.2  0.3590   57.1  0.3150 -172.8
 5.900  0.7405  128.4   1.032   26.5  0.3643   56.6  0.3207 -173.9
 6.000  0.7441  127.6   1.025   25.7  0.3696   56.0  0.3266 -174.9
!
!  f       NFmin   Gammaopt  rn/50
! GHz       dB    MAG  ANG    -
 0.450      1.48  0.47 -179   0.07
 0.900      1.56  0.48 -178   0.08
 1.900      2.14  0.60 -163   0.09
 2.400      2.45  0.62 -155   0.15
!
! (c) 2017  Infineon Technologies AG, Munich