! Infineon Technologies  Discrete & RF Semiconductors
! BFR193F
! VCE =  3.0 V,  IC =  65 mA
! Common Emitter S-Parameters:                            Jan 2017
# GHz  S  MA  R  50
!  f         S11            S21            S12            S22
! GHz     MAG   ANG      MAG   ANG      MAG   ANG      MAG   ANG
 0.010  0.1435  -85.7  78.753  169.2  0.0027   83.4  0.9081  -12.2
 0.020  0.2637 -103.8  74.950  158.5  0.0048   72.9  0.8709  -24.2
 0.030  0.3351 -117.3  68.046  152.1  0.0066   66.3  0.7871  -32.0
 0.040  0.4183 -125.7  62.177  144.3  0.0084   62.5  0.7212  -41.5
 0.050  0.5075 -131.3  57.661  135.2  0.0102   60.1  0.6785  -52.5
 0.060  0.5277 -136.3  53.120  132.6  0.0109   57.9  0.6237  -56.2
 0.070  0.5516 -140.9  48.712  129.4  0.0116   55.9  0.5720  -60.6
 0.080  0.5787 -145.1  44.477  125.7  0.0123   54.1  0.5244  -65.9
 0.090  0.6088 -149.0  40.469  121.2  0.0130   52.6  0.4821  -72.2
 0.100  0.6412 -152.4  36.762  115.8  0.0137   51.2  0.4465  -79.5
 0.110  0.6491 -154.3  34.579  114.5  0.0142   52.0  0.4224  -82.0
 0.120  0.6578 -156.2  32.417  112.9  0.0147   52.7  0.3991  -84.8
 0.130  0.6671 -158.0  30.281  111.2  0.0152   53.3  0.3769  -87.9
 0.140  0.6771 -159.8  28.176  109.2  0.0157   53.9  0.3560  -91.4
 0.150  0.6877 -161.5  26.112  106.9  0.0162   54.5  0.3365  -95.3
 0.200  0.7037 -166.6  20.032  101.5  0.0188   57.8  0.2780 -105.9
 0.250  0.7119 -170.3  16.179   98.0  0.0214   60.6  0.2409 -114.9
 0.300  0.7180 -172.6  13.587   95.4  0.0243   63.4  0.2204 -121.5
 0.350  0.7196 -174.5  11.914   93.7  0.0272   64.8  0.2066 -126.4
 0.400  0.7219 -176.3  10.256   91.4  0.0302   66.0  0.1946 -132.0
 0.450  0.7238 -177.6   9.250   90.2  0.0331   68.1  0.1881 -135.5
 0.500  0.7261 -178.8   8.249   88.7  0.0360   69.9  0.1824 -139.2
 0.600  0.7289  179.3   6.908   86.2  0.0424   71.1  0.1773 -144.7
 0.700  0.7326  177.3   5.929   84.0  0.0486   72.3  0.1760 -148.4
 0.800  0.7314  175.9   5.190   82.3  0.0547   73.5  0.1758 -151.9
 0.900  0.7342  174.3   4.632   80.3  0.0609   73.9  0.1765 -154.2
 1.000  0.7355  173.2   4.179   78.6  0.0670   74.2  0.1777 -155.8
 1.100  0.7397  171.8   3.807   76.9  0.0737   74.7  0.1818 -157.2
 1.200  0.7400  170.6   3.496   75.3  0.0791   74.7  0.1844 -159.0
 1.300  0.7420  169.5   3.235   73.7  0.0857   74.6  0.1865 -159.6
 1.400  0.7417  168.4   3.017   72.2  0.0917   74.9  0.1897 -160.1
 1.500  0.7446  167.4   2.819   70.7  0.0981   74.9  0.1942 -161.0
 1.600  0.7462  166.1   2.647   69.2  0.1040   74.8  0.1973 -161.8
 1.700  0.7458  165.2   2.495   67.7  0.1104   74.7  0.2007 -162.1
 1.800  0.7483  164.4   2.365   66.3  0.1162   74.5  0.2048 -162.1
 1.900  0.7471  163.6   2.245   65.1  0.1224   74.2  0.2085 -162.1
 2.000  0.7499  162.5   2.144   63.8  0.1287   74.3  0.2130 -162.5
 2.100  0.7487  161.6   2.051   62.6  0.1348   74.1  0.2159 -162.4
 2.200  0.7477  160.7   1.959   61.3  0.1409   73.9  0.2188 -162.3
 2.300  0.7495  159.9   1.886   60.2  0.1471   73.6  0.2223 -162.4
 2.400  0.7514  159.1   1.814   59.0  0.1533   73.4  0.2259 -162.4
 2.500  0.7501  158.3   1.752   57.8  0.1597   73.1  0.2290 -162.1
 2.600  0.7490  157.5   1.691   56.6  0.1661   72.9  0.2322 -161.8
 2.700  0.7499  156.6   1.638   55.4  0.1725   72.6  0.2358 -161.9
 2.800  0.7509  155.7   1.586   54.2  0.1790   72.3  0.2395 -161.9
 2.900  0.7508  155.0   1.545   53.1  0.1853   72.1  0.2425 -161.4
 3.000  0.7508  154.2   1.504   52.0  0.1917   71.9  0.2456 -160.9
 3.100  0.7506  153.3   1.468   51.0  0.1988   71.5  0.2490 -160.9
 3.200  0.7505  152.4   1.433   50.0  0.2059   71.1  0.2524 -160.9
 3.300  0.7507  151.6   1.398   48.9  0.2130   70.7  0.2558 -161.0
 3.400  0.7510  150.7   1.364   47.8  0.2202   70.3  0.2592 -161.0
 3.500  0.7515  149.8   1.330   46.6  0.2273   70.0  0.2626 -161.0
 3.600  0.7505  148.9   1.305   45.7  0.2341   69.4  0.2657 -161.3
 3.700  0.7496  148.0   1.281   44.7  0.2409   68.9  0.2687 -161.5
 3.800  0.7489  147.0   1.257   43.7  0.2477   68.4  0.2718 -161.7
 3.900  0.7485  146.1   1.234   42.7  0.2545   67.9  0.2748 -162.0
 4.000  0.7482  145.2   1.211   41.6  0.2614   67.4  0.2779 -162.2
 4.100  0.7487  144.3   1.190   40.6  0.2679   66.7  0.2817 -162.8
 4.200  0.7493  143.4   1.170   39.6  0.2744   66.0  0.2855 -163.4
 4.300  0.7501  142.4   1.150   38.5  0.2809   65.4  0.2893 -164.0
 4.400  0.7512  141.5   1.131   37.4  0.2875   64.8  0.2932 -164.6
 4.500  0.7524  140.6   1.112   36.3  0.2941   64.2  0.2971 -165.2
 4.600  0.7522  139.6   1.091   35.5  0.3002   63.5  0.3000 -166.3
 4.700  0.7523  138.5   1.070   34.6  0.3063   62.9  0.3031 -167.4
 4.800  0.7526  137.5   1.049   33.7  0.3124   62.3  0.3062 -168.4
 4.900  0.7531  136.4   1.028   32.8  0.3186   61.7  0.3095 -169.5
 5.000  0.7539  135.4   1.008   31.8  0.3248   61.1  0.3128 -170.5
 5.100  0.7534  134.3   0.994   31.1  0.3305   60.5  0.3163 -171.5
 5.200  0.7532  133.3   0.981   30.3  0.3362   59.8  0.3198 -172.4
 5.300  0.7532  132.2   0.967   29.6  0.3420   59.2  0.3235 -173.3
 5.400  0.7535  131.2   0.954   28.8  0.3478   58.7  0.3272 -174.2
 5.500  0.7541  130.1   0.941   28.0  0.3537   58.1  0.3310 -175.1
 5.600  0.7572  129.2   0.935   27.4  0.3589   57.4  0.3368 -176.2
 5.700  0.7605  128.3   0.929   26.7  0.3642   56.7  0.3428 -177.2
 5.800  0.7640  127.4   0.924   26.0  0.3695   56.1  0.3489 -178.3
 5.900  0.7677  126.6   0.918   25.4  0.3749   55.4  0.3550 -179.3
 6.000  0.7715  125.7   0.913   24.7  0.3803   54.8  0.3613  179.8
!
!  f       NFmin   Gammaopt  rn/50
! GHz       dB    MAG  ANG    -
!
! noise parameter not available yet for this operation point!
!
! (c) 2017  Infineon Technologies AG, Munich