! Infineon Technologies  Discrete & RF Semiconductors
! BFR193F
! VCE =  10. V,  IC =  10 mA
! Common Emitter S-Parameters:                            Jan 2017
# GHz  S  MA  R  50
!  f         S11            S21            S12            S22
! GHz     MAG   ANG      MAG   ANG      MAG   ANG      MAG   ANG
 0.010  0.7196   -6.9  28.469  176.3  0.0034   84.6  0.9857   -3.7
 0.020  0.7046  -15.2  28.052  172.0  0.0070   82.2  0.9784   -7.0
 0.030  0.6990  -22.1  27.626  168.5  0.0100   78.3  0.9631  -10.3
 0.040  0.7037  -29.1  27.307  164.9  0.0131   76.3  0.9511  -13.7
 0.050  0.7185  -35.8  27.098  161.2  0.0161   75.0  0.9424  -17.1
 0.060  0.6998  -41.6  26.311  158.3  0.0184   70.7  0.9159  -19.7
 0.070  0.6888  -47.7  25.595  155.2  0.0208   67.3  0.8913  -22.4
 0.080  0.6857  -54.0  24.957  152.0  0.0232   64.7  0.8688  -25.2
 0.090  0.6907  -60.2  24.401  148.6  0.0257   62.6  0.8486  -28.3
 0.100  0.7037  -66.2  23.935  145.1  0.0282   60.8  0.8308  -31.4
 0.110  0.6933  -70.8  23.151  143.0  0.0298   58.8  0.8053  -33.2
 0.120  0.6874  -75.5  22.400  140.8  0.0314   57.1  0.7806  -35.1
 0.130  0.6862  -80.2  21.686  138.4  0.0330   55.5  0.7568  -37.1
 0.140  0.6898  -85.0  21.012  135.8  0.0346   54.0  0.7340  -39.2
 0.150  0.6979  -89.6  20.382  133.1  0.0363   52.7  0.7123  -41.5
 0.200  0.6986 -106.4  17.409  124.0  0.0412   46.7  0.6131  -48.6
 0.250  0.6894 -119.3  14.898  117.2  0.0447   43.0  0.5297  -53.5
 0.300  0.6911 -128.7  12.999  112.1  0.0470   41.3  0.4686  -57.0
 0.350  0.6863 -135.4  11.592  108.7  0.0489   40.4  0.4236  -58.9
 0.400  0.6910 -142.1  10.237  104.4  0.0509   39.5  0.3792  -61.3
 0.450  0.6887 -146.4   9.303  102.1  0.0521   39.6  0.3507  -62.5
 0.500  0.6903 -150.8   8.387   99.2  0.0533   39.6  0.3223  -63.9
 0.600  0.6927 -157.3   7.098   94.9  0.0562   40.7  0.2842  -65.8
 0.700  0.6944 -162.3   6.143   91.5  0.0580   42.2  0.2576  -67.5
 0.800  0.6926 -166.1   5.396   88.6  0.0612   43.8  0.2383  -69.1
 0.900  0.6980 -169.7   4.830   86.0  0.0637   46.1  0.2247  -70.4
 1.000  0.6981 -172.3   4.363   83.5  0.0672   47.9  0.2159  -72.0
 1.100  0.7013 -174.8   3.984   81.2  0.0697   49.7  0.2091  -74.0
 1.200  0.7040 -177.1   3.664   79.1  0.0729   51.1  0.2023  -76.0
 1.300  0.7052 -179.0   3.394   77.1  0.0760   53.4  0.1995  -77.4
 1.400  0.7059  179.3   3.165   75.2  0.0794   55.0  0.1988  -79.4
 1.500  0.7081  177.6   2.958   73.4  0.0831   56.6  0.1973  -81.8
 1.600  0.7101  175.8   2.776   71.5  0.0862   57.8  0.1964  -83.7
 1.700  0.7097  174.3   2.615   69.8  0.0905   59.3  0.1988  -85.7
 1.800  0.7134  173.1   2.480   68.1  0.0945   60.7  0.2003  -87.7
 1.900  0.7131  172.0   2.354   66.6  0.0987   61.7  0.2035  -89.7
 2.000  0.7162  170.4   2.244   65.0  0.1029   62.8  0.2059  -91.6
 2.100  0.7159  169.4   2.145   63.6  0.1072   63.8  0.2099  -93.2
 2.200  0.7158  168.3   2.047   62.1  0.1115   64.8  0.2141  -94.8
 2.300  0.7182  167.2   1.967   60.8  0.1162   65.7  0.2185  -96.4
 2.400  0.7208  166.1   1.889   59.4  0.1209   66.5  0.2231  -97.9
 2.500  0.7203  165.2   1.820   58.1  0.1258   67.1  0.2288  -99.2
 2.600  0.7199  164.3   1.753   56.7  0.1308   67.7  0.2346 -100.5
 2.700  0.7219  163.2   1.696   55.4  0.1359   68.2  0.2394 -102.0
 2.800  0.7242  162.1   1.639   54.1  0.1411   68.7  0.2443 -103.5
 2.900  0.7252  161.1   1.594   52.9  0.1462   69.3  0.2509 -104.4
 3.000  0.7264  160.2   1.549   51.7  0.1514   69.9  0.2575 -105.2
 3.100  0.7270  159.2   1.509   50.7  0.1578   70.2  0.2631 -106.4
 3.200  0.7277  158.2   1.470   49.6  0.1643   70.5  0.2688 -107.6
 3.300  0.7287  157.3   1.432   48.4  0.1707   70.7  0.2747 -108.7
 3.400  0.7299  156.3   1.394   47.2  0.1772   71.0  0.2806 -109.8
 3.500  0.7313  155.3   1.357   45.9  0.1836   71.2  0.2866 -110.8
 3.600  0.7310  154.3   1.330   44.9  0.1902   71.2  0.2917 -112.0
 3.700  0.7309  153.3   1.303   43.9  0.1968   71.2  0.2969 -113.1
 3.800  0.7310  152.2   1.276   42.8  0.2035   71.1  0.3023 -114.2
 3.900  0.7314  151.2   1.250   41.7  0.2101   71.1  0.3077 -115.3
 4.000  0.7320  150.2   1.225   40.5  0.2167   71.1  0.3133 -116.3
 4.100  0.7336  149.2   1.202   39.5  0.2237   70.8  0.3183 -117.8
 4.200  0.7354  148.2   1.180   38.5  0.2307   70.5  0.3236 -119.3
 4.300  0.7374  147.2   1.158   37.4  0.2377   70.3  0.3290 -120.7
 4.400  0.7396  146.2   1.137   36.3  0.2447   70.0  0.3347 -122.1
 4.500  0.7421  145.2   1.116   35.2  0.2517   69.8  0.3405 -123.4
 4.600  0.7425  144.0   1.093   34.4  0.2589   69.3  0.3432 -125.2
 4.700  0.7432  142.8   1.070   33.5  0.2661   68.9  0.3463 -127.0
 4.800  0.7442  141.6   1.048   32.6  0.2734   68.5  0.3497 -128.8
 4.900  0.7455  140.5   1.026   31.6  0.2806   68.1  0.3535 -130.5
 5.000  0.7471  139.3   1.004   30.6  0.2879   67.7  0.3575 -132.2
 5.100  0.7468  138.2   0.989   29.9  0.2949   67.1  0.3605 -133.9
 5.200  0.7468  137.0   0.974   29.2  0.3020   66.6  0.3638 -135.5
 5.300  0.7471  135.9   0.959   28.4  0.3091   66.1  0.3674 -137.2
 5.400  0.7476  134.7   0.944   27.7  0.3162   65.6  0.3713 -138.7
 5.500  0.7485  133.6   0.929   26.9  0.3233   65.1  0.3755 -140.3
 5.600  0.7518  132.6   0.922   26.3  0.3297   64.4  0.3801 -142.1
 5.700  0.7554  131.7   0.914   25.6  0.3361   63.7  0.3851 -143.9
 5.800  0.7591  130.8   0.907   25.0  0.3425   63.0  0.3905 -145.7
 5.900  0.7631  129.8   0.900   24.3  0.3491   62.4  0.3962 -147.4
 6.000  0.7672  128.9   0.893   23.6  0.3556   61.8  0.4023 -149.0
!
!  f       NFmin   Gammaopt  rn/50
! GHz       dB    MAG  ANG    -
 0.450      0.87  0.25  139   0.07
 0.900      1.00  0.38  152   0.07
 1.900      1.70  0.59 -176   0.06
 2.400      2.05  0.63 -165   0.08
!
! (c) 2017  Infineon Technologies AG, Munich