! Infineon Technologies  Discrete & RF Semiconductors
! BFR193F
! VCE =  3.0 V,  IC =  70 mA
! Common Emitter S-Parameters:                            Jan 2017
# GHz  S  MA  R  50
!  f         S11            S21            S12            S22
! GHz     MAG   ANG      MAG   ANG      MAG   ANG      MAG   ANG
 0.010  0.1471  -96.2  79.251  168.8  0.0027   76.1  0.8918  -12.7
 0.020  0.2789 -110.9  75.343  157.5  0.0051   80.3  0.8501  -25.1
 0.030  0.3532 -122.5  68.004  151.1  0.0065   69.1  0.7649  -33.0
 0.040  0.4368 -129.9  61.708  143.3  0.0080   61.9  0.6977  -42.7
 0.050  0.5254 -134.9  56.805  133.9  0.0096   57.1  0.6540  -54.0
 0.060  0.5454 -139.5  52.243  131.3  0.0104   56.5  0.6006  -57.7
 0.070  0.5687 -143.8  47.808  128.3  0.0111   55.9  0.5501  -62.1
 0.080  0.5948 -147.7  43.536  124.6  0.0119   55.4  0.5035  -67.3
 0.090  0.6235 -151.3  39.482  120.1  0.0126   55.0  0.4619  -73.5
 0.100  0.6544 -154.5  35.720  114.7  0.0134   54.6  0.4268  -80.9
 0.110  0.6621 -156.3  33.577  113.4  0.0139   54.5  0.4035  -83.3
 0.120  0.6705 -158.0  31.453  111.9  0.0143   54.4  0.3811  -86.1
 0.130  0.6795 -159.7  29.353  110.2  0.0148   54.3  0.3597  -89.2
 0.140  0.6891 -161.4  27.283  108.3  0.0152   54.3  0.3394  -92.6
 0.150  0.6992 -163.0  25.250  106.0  0.0157   54.2  0.3205  -96.5
 0.200  0.7131 -167.8  19.327  100.8  0.0186   58.6  0.2647 -106.9
 0.250  0.7221 -171.3  15.597   97.5  0.0212   61.5  0.2293 -116.0
 0.300  0.7268 -173.4  13.090   94.9  0.0241   64.4  0.2109 -122.4
 0.350  0.7288 -175.2  11.477   93.2  0.0271   65.8  0.1977 -127.2
 0.400  0.7315 -176.9   9.878   91.0  0.0301   66.9  0.1861 -132.6
 0.450  0.7331 -178.1   8.908   89.8  0.0331   68.6  0.1807 -136.1
 0.500  0.7350 -179.3   7.943   88.3  0.0361   70.1  0.1760 -139.7
 0.600  0.7365  178.8   6.646   85.8  0.0423   72.6  0.1710 -144.9
 0.700  0.7415  176.9   5.709   83.7  0.0485   72.9  0.1702 -148.4
 0.800  0.7402  175.7   4.997   81.9  0.0543   73.7  0.1705 -152.0
 0.900  0.7431  174.0   4.456   80.0  0.0609   74.5  0.1712 -154.0
 1.000  0.7433  172.8   4.019   78.3  0.0667   74.8  0.1730 -155.5
 1.100  0.7468  171.5   3.663   76.5  0.0727   74.9  0.1772 -156.8
 1.200  0.7488  170.3   3.364   74.9  0.0794   75.0  0.1798 -158.4
 1.300  0.7506  169.1   3.115   73.3  0.0856   75.3  0.1823 -158.9
 1.400  0.7507  168.2   2.903   71.7  0.0916   75.4  0.1860 -159.3
 1.500  0.7528  167.1   2.715   70.3  0.0977   75.3  0.1904 -160.1
 1.600  0.7534  166.0   2.547   68.8  0.1033   75.3  0.1937 -161.0
 1.700  0.7526  164.9   2.402   67.2  0.1100   75.1  0.1975 -161.1
 1.800  0.7548  164.2   2.279   65.9  0.1161   74.8  0.2017 -161.2
 1.900  0.7550  163.3   2.164   64.6  0.1222   74.7  0.2059 -161.1
 2.000  0.7583  162.2   2.065   63.3  0.1281   74.6  0.2101 -161.4
 2.100  0.7573  161.4   1.975   62.1  0.1344   74.4  0.2135 -161.3
 2.200  0.7564  160.6   1.887   60.7  0.1408   74.2  0.2169 -161.2
 2.300  0.7571  159.7   1.817   59.6  0.1470   74.0  0.2206 -161.2
 2.400  0.7579  158.8   1.748   58.4  0.1533   73.8  0.2244 -161.2
 2.500  0.7573  158.1   1.689   57.3  0.1596   73.5  0.2279 -160.9
 2.600  0.7568  157.3   1.630   56.1  0.1660   73.3  0.2315 -160.6
 2.700  0.7574  156.4   1.579   54.9  0.1723   73.0  0.2354 -160.7
 2.800  0.7582  155.5   1.529   53.7  0.1787   72.7  0.2393 -160.7
 2.900  0.7587  154.6   1.489   52.6  0.1850   72.5  0.2428 -160.2
 3.000  0.7594  153.8   1.450   51.5  0.1914   72.3  0.2463 -159.8
 3.100  0.7591  152.9   1.415   50.5  0.1986   71.8  0.2500 -159.8
 3.200  0.7589  152.1   1.381   49.5  0.2058   71.4  0.2536 -159.8
 3.300  0.7589  151.2   1.348   48.4  0.2131   71.0  0.2573 -159.8
 3.400  0.7591  150.4   1.315   47.3  0.2203   70.6  0.2609 -159.8
 3.500  0.7595  149.5   1.282   46.1  0.2276   70.2  0.2646 -159.8
 3.600  0.7584  148.6   1.259   45.2  0.2345   69.6  0.2678 -160.1
 3.700  0.7574  147.7   1.236   44.2  0.2413   69.1  0.2710 -160.4
 3.800  0.7567  146.7   1.213   43.2  0.2482   68.6  0.2742 -160.7
 3.900  0.7561  145.8   1.191   42.1  0.2552   68.1  0.2775 -161.0
 4.000  0.7558  144.9   1.169   41.0  0.2621   67.7  0.2807 -161.3
 4.100  0.7563  144.0   1.149   40.0  0.2687   67.0  0.2847 -162.0
 4.200  0.7569  143.1   1.130   39.1  0.2753   66.3  0.2887 -162.6
 4.300  0.7578  142.1   1.110   38.0  0.2819   65.7  0.2927 -163.2
 4.400  0.7588  141.2   1.091   37.0  0.2886   65.1  0.2968 -163.8
 4.500  0.7601  140.3   1.073   35.9  0.2953   64.5  0.3009 -164.4
 4.600  0.7597  139.2   1.053   35.1  0.3014   63.8  0.3040 -165.5
 4.700  0.7596  138.1   1.032   34.2  0.3075   63.1  0.3072 -166.6
 4.800  0.7597  137.1   1.012   33.4  0.3137   62.5  0.3105 -167.7
 4.900  0.7601  136.0   0.993   32.5  0.3199   61.9  0.3139 -168.8
 5.000  0.7608  134.9   0.973   31.5  0.3261   61.3  0.3174 -169.8
 5.100  0.7601  133.9   0.960   30.8  0.3319   60.7  0.3210 -170.8
 5.200  0.7597  132.8   0.947   30.0  0.3377   60.0  0.3247 -171.7
 5.300  0.7595  131.8   0.934   29.3  0.3435   59.4  0.3285 -172.7
 5.400  0.7596  130.7   0.921   28.5  0.3494   58.9  0.3323 -173.6
 5.500  0.7599  129.7   0.909   27.7  0.3553   58.3  0.3363 -174.5
 5.600  0.7627  128.8   0.903   27.1  0.3605   57.6  0.3422 -175.6
 5.700  0.7656  127.9   0.898   26.4  0.3658   56.9  0.3483 -176.7
 5.800  0.7688  127.0   0.892   25.8  0.3712   56.3  0.3545 -177.7
 5.900  0.7721  126.2   0.887   25.2  0.3766   55.6  0.3608 -178.7
 6.000  0.7756  125.3   0.882   24.5  0.3820   55.0  0.3672 -179.7
!
!  f       NFmin   Gammaopt  rn/50
! GHz       dB    MAG  ANG    -
!
! noise parameter not available yet for this operation point!
!
! (c) 2017  Infineon Technologies AG, Munich