! Infineon Technologies  Discrete & RF Semiconductors
! BFR193F
! VCE =  9.0 V,  IC =  50 mA
! Common Emitter S-Parameters:                            Jan 2017
# GHz  S  MA  R  50
!  f         S11            S21            S12            S22
! GHz     MAG   ANG      MAG   ANG      MAG   ANG      MAG   ANG
 0.010  0.3267  -23.8  71.409  171.5  0.0027   82.1  0.9458   -8.4
 0.020  0.3516  -47.1  68.720  163.4  0.0051   75.2  0.9222  -16.7
 0.030  0.3620  -64.9  64.510  157.6  0.0071   69.8  0.8634  -23.1
 0.040  0.4039  -80.3  61.060  151.0  0.0092   66.9  0.8170  -30.3
 0.050  0.4688  -92.2  58.506  143.7  0.0113   65.0  0.7849  -38.3
 0.060  0.4732 -100.2  54.611  140.7  0.0122   62.1  0.7319  -41.6
 0.070  0.4866 -108.0  50.889  137.2  0.0132   59.7  0.6817  -45.4
 0.080  0.5083 -115.2  47.380  133.3  0.0141   57.6  0.6351  -49.8
 0.090  0.5373 -121.7  44.135  128.7  0.0151   55.7  0.5927  -54.9
 0.100  0.5726 -127.5  41.217  123.4  0.0161   54.1  0.5557  -60.7
 0.110  0.5778 -131.0  38.959  121.8  0.0167   53.4  0.5258  -62.7
 0.120  0.5852 -134.4  36.736  120.0  0.0173   52.7  0.4967  -64.9
 0.130  0.5945 -137.7  34.554  117.9  0.0178   52.1  0.4684  -67.5
 0.140  0.6058 -140.9  32.422  115.6  0.0184   51.5  0.4411  -70.3
 0.150  0.6189 -144.0  30.350  113.0  0.0190   50.9  0.4151  -73.5
 0.200  0.6397 -153.1  23.715  106.5  0.0208   51.8  0.3316  -81.6
 0.250  0.6487 -159.2  19.307  102.2  0.0235   54.3  0.2735  -88.1
 0.300  0.6566 -163.4  16.298   99.1  0.0257   56.0  0.2384  -93.2
 0.350  0.6594 -166.3  14.325   97.1  0.0283   58.2  0.2135  -96.8
 0.400  0.6638 -169.1  12.376   94.4  0.0310   60.1  0.1897 -101.3
 0.450  0.6649 -171.1  11.171   93.0  0.0335   62.2  0.1759 -104.3
 0.500  0.6668 -173.0   9.974   91.3  0.0360   64.1  0.1626 -107.8
 0.600  0.6717 -175.8   8.355   88.5  0.0411   66.1  0.1462 -113.6
 0.700  0.6738 -178.4   7.184   86.2  0.0469   67.6  0.1379 -118.4
 0.800  0.6732  179.8   6.291   84.3  0.0522   68.8  0.1312 -123.2
 0.900  0.6783  177.9   5.613   82.4  0.0579   70.1  0.1276 -126.2
 1.000  0.6805  176.5   5.065   80.6  0.0632   71.0  0.1266 -128.9
 1.100  0.6830  174.8   4.612   78.9  0.0690   71.8  0.1283 -131.9
 1.200  0.6842  173.6   4.238   77.2  0.0748   72.0  0.1285 -134.6
 1.300  0.6874  172.0   3.920   75.7  0.0809   72.5  0.1295 -136.0
 1.400  0.6879  171.1   3.654   74.1  0.0861   72.9  0.1321 -137.1
 1.500  0.6886  170.0   3.414   72.7  0.0921   73.1  0.1351 -139.4
 1.600  0.6920  168.7   3.204   71.2  0.0971   73.3  0.1377 -140.8
 1.700  0.6921  167.4   3.017   69.7  0.1029   73.4  0.1413 -141.2
 1.800  0.6927  166.7   2.860   68.4  0.1091   73.3  0.1448 -141.9
 1.900  0.6946  165.8   2.716   67.2  0.1145   73.2  0.1486 -142.4
 2.000  0.6967  164.5   2.590   65.8  0.1201   73.4  0.1526 -143.2
 2.100  0.6961  163.7   2.476   64.6  0.1257   73.2  0.1562 -143.3
 2.200  0.6956  162.9   2.363   63.3  0.1314   73.1  0.1598 -143.4
 2.300  0.6973  162.0   2.273   62.2  0.1371   73.0  0.1636 -143.7
 2.400  0.6991  161.2   2.183   61.0  0.1429   73.0  0.1675 -143.9
 2.500  0.6981  160.4   2.107   59.8  0.1489   72.8  0.1713 -143.6
 2.600  0.6973  159.6   2.031   58.6  0.1549   72.7  0.1751 -143.4
 2.700  0.6981  158.7   1.966   57.5  0.1610   72.5  0.1790 -143.7
 2.800  0.6991  157.9   1.902   56.3  0.1671   72.3  0.1830 -143.9
 2.900  0.6995  157.0   1.850   55.2  0.1729   72.2  0.1870 -143.4
 3.000  0.7001  156.1   1.799   54.1  0.1788   72.2  0.1911 -142.9
 3.100  0.7004  155.3   1.754   53.1  0.1854   71.9  0.1949 -143.0
 3.200  0.7007  154.5   1.710   52.1  0.1921   71.5  0.1987 -143.0
 3.300  0.7013  153.6   1.666   51.0  0.1988   71.2  0.2026 -143.1
 3.400  0.7020  152.8   1.623   49.8  0.2054   71.0  0.2064 -143.1
 3.500  0.7028  152.0   1.581   48.6  0.2121   70.7  0.2102 -143.2
 3.600  0.7019  151.1   1.550   47.6  0.2185   70.3  0.2137 -143.5
 3.700  0.7011  150.2   1.520   46.6  0.2249   69.8  0.2171 -143.7
 3.800  0.7005  149.4   1.490   45.6  0.2314   69.4  0.2206 -143.9
 3.900  0.7001  148.5   1.461   44.5  0.2378   69.1  0.2241 -144.2
 4.000  0.6998  147.6   1.432   43.4  0.2443   68.7  0.2276 -144.4
 4.100  0.7009  146.7   1.406   42.4  0.2505   68.1  0.2316 -145.2
 4.200  0.7022  145.8   1.381   41.4  0.2568   67.6  0.2356 -145.9
 4.300  0.7037  144.9   1.357   40.3  0.2630   67.1  0.2397 -146.6
 4.400  0.7053  144.0   1.333   39.2  0.2693   66.6  0.2438 -147.3
 4.500  0.7071  143.1   1.309   38.1  0.2756   66.1  0.2479 -148.0
 4.600  0.7077  142.1   1.283   37.2  0.2817   65.5  0.2507 -149.3
 4.700  0.7086  141.1   1.258   36.3  0.2878   65.0  0.2535 -150.6
 4.800  0.7097  140.0   1.233   35.3  0.2939   64.4  0.2565 -151.8
 4.900  0.7110  139.0   1.208   34.3  0.3000   63.9  0.2597 -153.0
 5.000  0.7125  138.0   1.184   33.3  0.3062   63.4  0.2629 -154.2
 5.100  0.7128  137.0   1.167   32.5  0.3120   62.8  0.2662 -155.4
 5.200  0.7133  135.9   1.150   31.8  0.3178   62.2  0.2696 -156.5
 5.300  0.7140  134.9   1.134   31.0  0.3236   61.7  0.2730 -157.6
 5.400  0.7150  133.8   1.117   30.1  0.3295   61.1  0.2766 -158.7
 5.500  0.7162  132.8   1.101   29.3  0.3354   60.6  0.2803 -159.7
 5.600  0.7195  131.9   1.093   28.6  0.3407   60.0  0.2853 -161.1
 5.700  0.7229  131.0   1.084   27.8  0.3460   59.3  0.2904 -162.4
 5.800  0.7265  130.1   1.076   27.1  0.3514   58.7  0.2957 -163.6
 5.900  0.7303  129.3   1.069   26.3  0.3568   58.2  0.3011 -164.8
 6.000  0.7343  128.4   1.061   25.5  0.3622   57.6  0.3066 -166.0
!
!  f       NFmin   Gammaopt  rn/50
! GHz       dB    MAG  ANG    -
 0.450      1.48  0.47 -179   0.07
 0.900      1.56  0.48 -178   0.08
 1.900      2.14  0.60 -163   0.09
 2.400      2.45  0.62 -155   0.15
!
! (c) 2017  Infineon Technologies AG, Munich