! Infineon Technologies  Discrete & RF Semiconductors
! BFR193F
! VCE =  10. V,  IC =  32 mA
! Common Emitter S-Parameters:                            Jan 2017
# GHz  S  MA  R  50
!  f         S11            S21            S12            S22
! GHz     MAG   ANG      MAG   ANG      MAG   ANG      MAG   ANG
 0.010  0.4413  -15.7  58.964  172.9  0.0026   82.7  0.9608   -6.9
 0.020  0.4450  -32.9  57.268  166.1  0.0053   81.6  0.9438  -13.7
 0.030  0.4412  -46.8  54.647  160.8  0.0077   74.1  0.8989  -19.3
 0.040  0.4631  -60.2  52.533  155.1  0.0102   70.2  0.8636  -25.5
 0.050  0.5073  -71.8  50.990  148.9  0.0127   67.8  0.8391  -32.1
 0.060  0.5005  -80.1  48.091  145.8  0.0139   64.3  0.7910  -35.4
 0.070  0.5044  -88.4  45.353  142.3  0.0152   61.4  0.7458  -39.1
 0.080  0.5187  -96.5  42.806  138.3  0.0165   59.0  0.7042  -43.3
 0.090  0.5426 -104.0  40.486  133.9  0.0178   56.9  0.6668  -48.0
 0.100  0.5748 -110.7  38.435  129.0  0.0191   55.1  0.6344  -53.2
 0.110  0.5764 -115.0  36.508  127.2  0.0198   53.9  0.6029  -55.2
 0.120  0.5811 -119.2  34.621  125.2  0.0204   52.9  0.5723  -57.5
 0.130  0.5889 -123.3  32.782  122.9  0.0211   51.8  0.5426  -60.0
 0.140  0.5997 -127.3  31.000  120.4  0.0218   50.9  0.5141  -62.8
 0.150  0.6132 -131.1  29.284  117.6  0.0225   50.0  0.4870  -65.9
 0.200  0.6359 -143.0  23.236  110.2  0.0254   48.4  0.3936  -74.0
 0.250  0.6422 -151.0  19.085  105.4  0.0271   49.3  0.3256  -80.1
 0.300  0.6492 -156.4  16.207  101.8  0.0293   50.5  0.2819  -84.9
 0.350  0.6521 -160.1  14.266   99.5  0.0312   52.4  0.2515  -88.1
 0.400  0.6578 -163.8  12.355   96.5  0.0332   54.0  0.2222  -92.2
 0.450  0.6597 -166.3  11.167   94.9  0.0358   55.7  0.2043  -94.8
 0.500  0.6628 -168.7   9.990   92.9  0.0384   57.1  0.1869  -97.9
 0.600  0.6654 -172.3   8.377   89.9  0.0427   60.2  0.1648 -103.0
 0.700  0.6678 -175.2   7.213   87.5  0.0476   62.8  0.1524 -107.6
 0.800  0.6693 -177.6   6.316   85.4  0.0529   64.5  0.1422 -111.9
 0.900  0.6729 -179.7   5.642   83.3  0.0582   65.7  0.1360 -115.2
 1.000  0.6738  178.6   5.089   81.5  0.0632   66.9  0.1332 -118.1
 1.100  0.6764  176.9   4.637   79.7  0.0687   68.1  0.1327 -121.4
 1.200  0.6809  175.3   4.260   77.9  0.0744   68.3  0.1318 -124.5
 1.300  0.6826  173.8   3.941   76.4  0.0793   69.2  0.1312 -125.9
 1.400  0.6824  172.7   3.675   74.8  0.0846   70.1  0.1336 -127.7
 1.500  0.6853  171.5   3.433   73.3  0.0900   70.4  0.1361 -130.0
 1.600  0.6871  170.1   3.222   71.7  0.0957   70.6  0.1377 -131.8
 1.700  0.6870  168.8   3.035   70.3  0.1009   70.9  0.1413 -132.8
 1.800  0.6903  168.0   2.877   68.8  0.1064   71.0  0.1447 -133.7
 1.900  0.6894  167.1   2.730   67.6  0.1119   71.4  0.1485 -134.5
 2.000  0.6926  165.9   2.603   66.2  0.1174   71.6  0.1520 -135.6
 2.100  0.6920  165.0   2.488   65.0  0.1231   71.7  0.1556 -136.0
 2.200  0.6916  164.1   2.375   63.7  0.1288   71.7  0.1592 -136.3
 2.300  0.6935  163.2   2.284   62.5  0.1342   71.8  0.1632 -136.8
 2.400  0.6955  162.3   2.194   61.3  0.1396   71.8  0.1672 -137.2
 2.500  0.6946  161.5   2.117   60.1  0.1454   71.7  0.1715 -137.1
 2.600  0.6938  160.6   2.041   58.9  0.1512   71.7  0.1758 -137.1
 2.700  0.6947  159.7   1.975   57.8  0.1572   71.5  0.1798 -137.5
 2.800  0.6958  158.8   1.910   56.6  0.1633   71.4  0.1839 -137.9
 2.900  0.6965  157.9   1.859   55.5  0.1688   71.5  0.1882 -137.6
 3.000  0.6973  157.0   1.808   54.3  0.1744   71.5  0.1925 -137.3
 3.100  0.6975  156.1   1.763   53.3  0.1810   71.2  0.1966 -137.5
 3.200  0.6979  155.3   1.719   52.3  0.1876   71.0  0.2007 -137.7
 3.300  0.6985  154.4   1.675   51.2  0.1941   70.8  0.2047 -137.9
 3.400  0.6992  153.6   1.632   50.0  0.2007   70.6  0.2088 -138.0
 3.500  0.7001  152.7   1.589   48.8  0.2073   70.4  0.2129 -138.2
 3.600  0.6994  151.8   1.558   47.9  0.2137   70.0  0.2165 -138.6
 3.700  0.6989  150.9   1.527   46.9  0.2201   69.6  0.2202 -139.0
 3.800  0.6985  150.1   1.496   45.9  0.2265   69.3  0.2239 -139.3
 3.900  0.6983  149.2   1.466   44.8  0.2330   68.9  0.2275 -139.7
 4.000  0.6983  148.3   1.437   43.7  0.2394   68.6  0.2312 -140.0
 4.100  0.6994  147.4   1.411   42.7  0.2457   68.1  0.2354 -140.9
 4.200  0.7008  146.5   1.386   41.7  0.2520   67.6  0.2396 -141.7
 4.300  0.7022  145.6   1.362   40.6  0.2583   67.2  0.2439 -142.5
 4.400  0.7039  144.8   1.338   39.5  0.2646   66.7  0.2482 -143.3
 4.500  0.7057  143.9   1.314   38.3  0.2710   66.3  0.2526 -144.0
 4.600  0.7061  142.8   1.288   37.4  0.2771   65.7  0.2553 -145.4
 4.700  0.7068  141.7   1.263   36.5  0.2833   65.2  0.2581 -146.7
 4.800  0.7078  140.7   1.238   35.5  0.2895   64.7  0.2611 -148.0
 4.900  0.7090  139.6   1.213   34.5  0.2957   64.2  0.2642 -149.3
 5.000  0.7104  138.5   1.189   33.5  0.3019   63.7  0.2674 -150.5
 5.100  0.7105  137.4   1.172   32.7  0.3078   63.1  0.2706 -151.7
 5.200  0.7109  136.4   1.154   31.9  0.3138   62.6  0.2738 -152.9
 5.300  0.7115  135.3   1.137   31.1  0.3198   62.1  0.2773 -154.1
 5.400  0.7124  134.3   1.121   30.3  0.3258   61.6  0.2808 -155.3
 5.500  0.7135  133.2   1.104   29.4  0.3318   61.1  0.2844 -156.4
 5.600  0.7172  132.3   1.096   28.7  0.3372   60.4  0.2894 -157.8
 5.700  0.7212  131.5   1.088   28.0  0.3427   59.8  0.2946 -159.2
 5.800  0.7252  130.7   1.080   27.2  0.3482   59.2  0.2999 -160.6
 5.900  0.7294  129.8   1.072   26.5  0.3537   58.6  0.3054 -161.9
 6.000  0.7338  129.0   1.065   25.7  0.3593   58.0  0.3111 -163.1
!
!  f       NFmin   Gammaopt  rn/50
! GHz       dB    MAG  ANG    -
 0.450      1.21  0.40  177   0.06
 0.900      1.30  0.43  177   0.07
 1.900      1.86  0.58 -167   0.07
 2.400      2.15  0.61 -158   0.12
!
! (c) 2017  Infineon Technologies AG, Munich