! Infineon Technologies  Discrete & RF Semiconductors
! BFR193F
! VCE =  12. V,  IC =  30 mA
! Common Emitter S-Parameters:                            Jan 2017
# GHz  S  MA  R  50
!  f         S11            S21            S12            S22
! GHz     MAG   ANG      MAG   ANG      MAG   ANG      MAG   ANG
 0.010  0.4832  -14.0  56.037  173.1  0.0029   77.3  0.9466   -6.5
 0.020  0.4843  -29.5  54.352  166.7  0.0054   79.2  0.9354  -12.9
 0.030  0.4772  -42.3  52.125  161.6  0.0077   71.7  0.8943  -18.2
 0.040  0.4939  -54.9  50.341  156.1  0.0101   67.8  0.8616  -24.0
 0.050  0.5322  -66.1  49.051  150.3  0.0125   65.3  0.8384  -30.2
 0.060  0.5212  -74.2  46.405  147.2  0.0139   61.9  0.7928  -33.4
 0.070  0.5209  -82.5  43.914  143.7  0.0153   59.1  0.7500  -37.1
 0.080  0.5314  -90.6  41.607  139.7  0.0167   56.8  0.7106  -41.1
 0.090  0.5520  -98.2  39.515  135.4  0.0182   54.8  0.6752  -45.6
 0.100  0.5816 -105.2  37.676  130.6  0.0197   53.2  0.6444  -50.6
 0.110  0.5816 -109.7  35.829  128.7  0.0205   52.4  0.6133  -52.6
 0.120  0.5851 -114.1  34.024  126.7  0.0212   51.7  0.5830  -54.8
 0.130  0.5921 -118.5  32.269  124.4  0.0220   51.1  0.5537  -57.3
 0.140  0.6024 -122.7  30.570  121.8  0.0227   50.5  0.5256  -60.0
 0.150  0.6159 -126.8  28.939  119.0  0.0235   49.9  0.4987  -63.0
 0.200  0.6335 -139.3  23.110  111.4  0.0265   47.6  0.4054  -70.9
 0.250  0.6407 -148.1  19.034  106.3  0.0283   48.3  0.3349  -76.7
 0.300  0.6485 -153.8  16.192  102.6  0.0302   49.4  0.2900  -81.2
 0.350  0.6507 -157.9  14.266  100.3  0.0325   50.7  0.2584  -84.1
 0.400  0.6562 -161.9  12.372   97.2  0.0348   51.8  0.2276  -87.8
 0.450  0.6570 -164.5  11.186   95.5  0.0366   53.6  0.2089  -90.2
 0.500  0.6591 -167.1  10.011   93.5  0.0385   55.2  0.1906  -93.0
 0.600  0.6624 -171.0   8.402   90.4  0.0430   58.1  0.1674  -97.6
 0.700  0.6649 -174.2   7.231   87.8  0.0478   61.1  0.1530 -101.6
 0.800  0.6662 -176.4   6.337   85.7  0.0532   62.7  0.1422 -105.9
 0.900  0.6707 -178.9   5.660   83.6  0.0583   64.3  0.1354 -109.1
 1.000  0.6712  179.4   5.106   81.7  0.0630   65.5  0.1316 -111.7
 1.100  0.6752  177.6   4.652   79.9  0.0686   66.7  0.1304 -114.8
 1.200  0.6770  176.0   4.275   78.2  0.0733   67.3  0.1280 -118.1
 1.300  0.6786  174.5   3.955   76.5  0.0789   67.9  0.1281 -119.7
 1.400  0.6799  173.3   3.685   74.9  0.0840   69.1  0.1299 -121.4
 1.500  0.6809  172.0   3.445   73.4  0.0892   69.6  0.1320 -124.1
 1.600  0.6840  170.6   3.233   71.8  0.0948   70.0  0.1332 -126.0
 1.700  0.6833  169.4   3.046   70.3  0.1000   70.4  0.1367 -127.1
 1.800  0.6864  168.5   2.887   68.9  0.1054   70.5  0.1402 -128.4
 1.900  0.6865  167.6   2.740   67.6  0.1111   70.8  0.1438 -129.2
 2.000  0.6899  166.2   2.612   66.3  0.1161   71.0  0.1479 -130.5
 2.100  0.6893  165.3   2.497   65.1  0.1215   71.2  0.1515 -130.9
 2.200  0.6889  164.4   2.383   63.7  0.1269   71.3  0.1551 -131.2
 2.300  0.6903  163.5   2.291   62.6  0.1323   71.4  0.1590 -131.8
 2.400  0.6919  162.6   2.200   61.4  0.1378   71.4  0.1630 -132.3
 2.500  0.6915  161.8   2.123   60.2  0.1436   71.4  0.1674 -132.5
 2.600  0.6913  161.0   2.048   58.9  0.1494   71.4  0.1718 -132.6
 2.700  0.6920  160.0   1.982   57.7  0.1553   71.3  0.1759 -133.1
 2.800  0.6928  159.1   1.916   56.5  0.1612   71.2  0.1801 -133.5
 2.900  0.6934  158.2   1.864   55.4  0.1667   71.3  0.1849 -133.2
 3.000  0.6942  157.4   1.813   54.3  0.1723   71.4  0.1897 -133.0
 3.100  0.6944  156.5   1.768   53.3  0.1788   71.2  0.1940 -133.3
 3.200  0.6948  155.7   1.723   52.2  0.1853   71.0  0.1982 -133.6
 3.300  0.6953  154.8   1.678   51.1  0.1919   70.8  0.2025 -133.8
 3.400  0.6960  154.0   1.635   49.9  0.1984   70.6  0.2068 -134.1
 3.500  0.6968  153.1   1.592   48.7  0.2049   70.4  0.2111 -134.3
 3.600  0.6962  152.2   1.561   47.8  0.2112   70.0  0.2148 -134.7
 3.700  0.6958  151.3   1.530   46.8  0.2175   69.7  0.2185 -135.2
 3.800  0.6956  150.4   1.500   45.8  0.2238   69.4  0.2223 -135.6
 3.900  0.6956  149.5   1.470   44.7  0.2301   69.1  0.2260 -136.0
 4.000  0.6957  148.6   1.441   43.6  0.2364   68.8  0.2298 -136.4
 4.100  0.6970  147.7   1.415   42.6  0.2427   68.3  0.2341 -137.3
 4.200  0.6985  146.8   1.390   41.5  0.2490   67.8  0.2384 -138.2
 4.300  0.7002  145.9   1.365   40.4  0.2554   67.4  0.2427 -139.0
 4.400  0.7020  145.0   1.341   39.3  0.2617   66.9  0.2471 -139.8
 4.500  0.7040  144.1   1.317   38.1  0.2681   66.5  0.2516 -140.6
 4.600  0.7045  143.0   1.291   37.2  0.2743   66.0  0.2542 -142.0
 4.700  0.7053  142.0   1.265   36.3  0.2805   65.4  0.2570 -143.5
 4.800  0.7063  140.9   1.240   35.4  0.2867   64.9  0.2599 -144.8
 4.900  0.7075  139.9   1.215   34.4  0.2929   64.5  0.2630 -146.2
 5.000  0.7090  138.8   1.190   33.4  0.2992   64.0  0.2662 -147.5
 5.100  0.7091  137.7   1.173   32.6  0.3053   63.5  0.2694 -148.8
 5.200  0.7095  136.7   1.155   31.8  0.3113   62.9  0.2728 -150.0
 5.300  0.7101  135.6   1.138   31.0  0.3174   62.4  0.2763 -151.3
 5.400  0.7110  134.6   1.122   30.2  0.3236   62.0  0.2799 -152.4
 5.500  0.7121  133.5   1.105   29.3  0.3297   61.5  0.2836 -153.6
 5.600  0.7159  132.6   1.097   28.6  0.3351   60.9  0.2885 -155.1
 5.700  0.7198  131.7   1.088   27.8  0.3405   60.2  0.2936 -156.5
 5.800  0.7239  130.8   1.080   27.1  0.3459   59.6  0.2989 -157.8
 5.900  0.7282  130.0   1.073   26.3  0.3514   59.1  0.3043 -159.1
 6.000  0.7326  129.1   1.065   25.5  0.3569   58.5  0.3099 -160.4
!
!  f       NFmin   Gammaopt  rn/50
! GHz       dB    MAG  ANG    -
 0.450      1.18  0.39  176   0.06
 0.900      1.27  0.42  176   0.07
 1.900      1.84  0.57 -168   0.07
 2.400      2.13  0.61 -159   0.11
!
! (c) 2017  Infineon Technologies AG, Munich