! Infineon Technologies  Discrete & RF Semiconductors
! BFR193F
! VCE =  4.0 V,  IC =  35 mA
! Common Emitter S-Parameters:                            Jan 2017
# GHz  S  MA  R  50
!  f         S11            S21            S12            S22
! GHz     MAG   ANG      MAG   ANG      MAG   ANG      MAG   ANG
 0.010  0.3012  -25.8  64.170  172.1  0.0028   83.8  0.9594   -8.9
 0.020  0.3314  -49.5  62.056  164.0  0.0053   83.6  0.9344  -17.4
 0.030  0.3481  -67.5  58.390  158.2  0.0076   73.0  0.8766  -24.1
 0.040  0.3946  -82.6  55.403  151.7  0.0100   67.5  0.8324  -31.6
 0.050  0.4621  -93.9  53.208  144.5  0.0125   64.1  0.8039  -39.8
 0.060  0.4697 -102.0  49.731  141.5  0.0136   60.9  0.7496  -43.5
 0.070  0.4863 -109.7  46.414  138.0  0.0147   58.1  0.6988  -47.7
 0.080  0.5110 -116.7  43.292  134.0  0.0158   55.7  0.6524  -52.6
 0.090  0.5426 -123.0  40.412  129.4  0.0170   53.7  0.6114  -58.1
 0.100  0.5801 -128.6  37.828  124.2  0.0182   51.9  0.5769  -64.4
 0.110  0.5870 -132.0  35.787  122.5  0.0187   51.5  0.5468  -66.8
 0.120  0.5960 -135.4  33.779  120.7  0.0192   51.2  0.5177  -69.4
 0.130  0.6069 -138.6  31.811  118.6  0.0198   50.9  0.4899  -72.3
 0.140  0.6197 -141.7  29.890  116.3  0.0203   50.6  0.4635  -75.6
 0.150  0.6343 -144.7  28.026  113.6  0.0208   50.3  0.4388  -79.3
 0.200  0.6595 -153.6  21.926  106.9  0.0238   49.1  0.3557  -89.3
 0.250  0.6688 -159.8  17.889  102.5  0.0262   52.6  0.2986  -97.6
 0.300  0.6791 -163.7  15.114   99.3  0.0283   53.6  0.2649 -104.1
 0.350  0.6817 -166.7  13.284   97.2  0.0307   55.9  0.2412 -108.8
 0.400  0.6861 -169.6  11.476   94.5  0.0332   57.9  0.2195 -114.5
 0.450  0.6871 -171.4  10.358   93.1  0.0357   59.6  0.2069 -118.3
 0.500  0.6887 -173.2   9.248   91.3  0.0383   61.0  0.1953 -122.5
 0.600  0.6939 -176.2   7.752   88.5  0.0437   63.6  0.1816 -129.1
 0.700  0.6986 -178.7   6.664   86.1  0.0493   65.2  0.1750 -134.0
 0.800  0.6975  179.6   5.839   84.2  0.0557   67.0  0.1706 -138.6
 0.900  0.7014  177.6   5.210   82.2  0.0606   68.1  0.1684 -141.9
 1.000  0.7010  176.1   4.695   80.5  0.0665   69.2  0.1681 -144.4
 1.100  0.7056  174.5   4.282   78.6  0.0722   70.0  0.1705 -146.8
 1.200  0.7074  173.0   3.933   77.0  0.0781   70.5  0.1713 -149.3
 1.300  0.7091  171.8   3.637   75.4  0.0839   70.6  0.1721 -150.4
 1.400  0.7096  170.8   3.392   73.9  0.0897   71.3  0.1755 -151.4
 1.500  0.7118  169.6   3.170   72.4  0.0959   71.6  0.1789 -153.0
 1.600  0.7126  168.3   2.974   70.9  0.1014   71.5  0.1813 -154.2
 1.700  0.7119  167.3   2.803   69.4  0.1075   72.1  0.1846 -154.6
 1.800  0.7150  166.3   2.656   68.0  0.1134   71.8  0.1884 -155.2
 1.900  0.7142  165.4   2.523   66.8  0.1185   71.8  0.1916 -155.5
 2.000  0.7188  164.2   2.406   65.4  0.1249   71.9  0.1954 -156.1
 2.100  0.7178  163.3   2.302   64.2  0.1307   71.8  0.1984 -156.2
 2.200  0.7169  162.4   2.199   62.9  0.1365   71.7  0.2014 -156.2
 2.300  0.7181  161.5   2.115   61.8  0.1424   71.6  0.2049 -156.4
 2.400  0.7195  160.7   2.032   60.7  0.1484   71.6  0.2084 -156.5
 2.500  0.7188  160.0   1.962   59.5  0.1544   71.4  0.2114 -156.3
 2.600  0.7183  159.2   1.893   58.3  0.1605   71.2  0.2144 -156.1
 2.700  0.7189  158.2   1.834   57.1  0.1669   71.0  0.2178 -156.3
 2.800  0.7197  157.3   1.775   55.9  0.1734   70.9  0.2213 -156.4
 2.900  0.7203  156.4   1.727   54.8  0.1793   70.8  0.2244 -155.9
 3.000  0.7211  155.6   1.680   53.7  0.1852   70.7  0.2276 -155.5
 3.100  0.7211  154.8   1.639   52.7  0.1921   70.3  0.2309 -155.5
 3.200  0.7212  153.9   1.599   51.7  0.1989   70.0  0.2343 -155.6
 3.300  0.7215  153.1   1.559   50.6  0.2058   69.7  0.2376 -155.6
 3.400  0.7220  152.2   1.520   49.4  0.2127   69.4  0.2410 -155.7
 3.500  0.7226  151.4   1.481   48.2  0.2196   69.1  0.2443 -155.7
 3.600  0.7217  150.5   1.453   47.3  0.2261   68.6  0.2472 -156.0
 3.700  0.7209  149.6   1.425   46.3  0.2327   68.2  0.2500 -156.2
 3.800  0.7204  148.7   1.398   45.3  0.2392   67.8  0.2529 -156.4
 3.900  0.7200  147.8   1.371   44.3  0.2458   67.4  0.2558 -156.7
 4.000  0.7198  146.9   1.345   43.2  0.2524   67.0  0.2587 -156.9
 4.100  0.7203  146.0   1.322   42.2  0.2588   66.4  0.2624 -157.6
 4.200  0.7210  145.1   1.299   41.2  0.2652   65.8  0.2662 -158.2
 4.300  0.7219  144.2   1.276   40.1  0.2716   65.2  0.2700 -158.8
 4.400  0.7230  143.3   1.254   39.0  0.2780   64.6  0.2738 -159.4
 4.500  0.7242  142.4   1.233   37.8  0.2845   64.1  0.2777 -160.0
 4.600  0.7246  141.3   1.209   37.0  0.2905   63.5  0.2805 -161.1
 4.700  0.7252  140.3   1.185   36.1  0.2965   62.9  0.2833 -162.3
 4.800  0.7260  139.2   1.162   35.2  0.3026   62.4  0.2863 -163.4
 4.900  0.7271  138.2   1.139   34.2  0.3087   61.8  0.2894 -164.4
 5.000  0.7285  137.1   1.116   33.2  0.3148   61.3  0.2926 -165.5
 5.100  0.7285  136.0   1.100   32.4  0.3206   60.7  0.2959 -166.5
 5.200  0.7287  135.0   1.085   31.7  0.3264   60.2  0.2993 -167.5
 5.300  0.7291  133.9   1.070   30.9  0.3322   59.6  0.3027 -168.4
 5.400  0.7298  132.9   1.055   30.0  0.3381   59.1  0.3063 -169.4
 5.500  0.7308  131.8   1.040   29.2  0.3440   58.6  0.3099 -170.3
 5.600  0.7341  130.9   1.033   28.5  0.3492   57.9  0.3155 -171.5
 5.700  0.7375  130.1   1.026   27.7  0.3545   57.3  0.3212 -172.6
 5.800  0.7411  129.2   1.020   27.0  0.3598   56.7  0.3270 -173.7
 5.900  0.7449  128.3   1.013   26.3  0.3652   56.1  0.3329 -174.8
 6.000  0.7488  127.5   1.007   25.5  0.3706   55.5  0.3390 -175.8
!
!  f       NFmin   Gammaopt  rn/50
! GHz       dB    MAG  ANG    -
 0.450      1.26  0.42  178   0.06
 0.900      1.35  0.44  178   0.07
 1.900      1.90  0.58 -166   0.08
 2.400      2.20  0.61 -157   0.12
!
! (c) 2017  Infineon Technologies AG, Munich