! Infineon Technologies  Discrete & RF Semiconductors
! BFR193F
! VCE =  6.0 V,  IC =  8.0 mA
! Common Emitter S-Parameters:                            Jan 2017
# GHz  S  MA  R  50
!  f         S11            S21            S12            S22
! GHz     MAG   ANG      MAG   ANG      MAG   ANG      MAG   ANG
 0.010  0.7478   -6.5  24.298  176.8  0.0038   89.7  0.9899   -3.4
 0.020  0.7300  -14.3  23.903  172.7  0.0069   87.2  0.9818   -6.6
 0.030  0.7254  -20.8  23.617  169.3  0.0106   79.8  0.9688   -9.7
 0.040  0.7300  -27.2  23.415  165.9  0.0144   76.3  0.9587  -12.9
 0.050  0.7437  -33.5  23.299  162.4  0.0182   74.2  0.9516  -16.1
 0.060  0.7264  -39.1  22.693  159.6  0.0208   70.6  0.9275  -18.6
 0.070  0.7162  -44.9  22.145  156.6  0.0234   67.8  0.9052  -21.2
 0.080  0.7137  -50.8  21.661  153.4  0.0261   65.6  0.8850  -24.0
 0.090  0.7188  -56.7  21.244  150.2  0.0289   63.8  0.8668  -26.8
 0.100  0.7313  -62.5  20.899  146.8  0.0316   62.3  0.8509  -29.8
 0.110  0.7201  -67.0  20.256  144.7  0.0333   60.3  0.8265  -31.6
 0.120  0.7134  -71.6  19.642  142.5  0.0351   58.4  0.8030  -33.5
 0.130  0.7114  -76.3  19.060  140.1  0.0369   56.8  0.7804  -35.5
 0.140  0.7141  -80.9  18.512  137.6  0.0387   55.3  0.7587  -37.6
 0.150  0.7215  -85.5  18.003  134.9  0.0405   53.9  0.7382  -39.8
 0.200  0.7213 -102.5  15.534  125.6  0.0467   47.1  0.6421  -46.9
 0.250  0.7097 -115.6  13.379  118.7  0.0510   42.4  0.5578  -52.0
 0.300  0.7118 -125.5  11.747  113.4  0.0536   39.5  0.4964  -55.7
 0.350  0.7064 -132.3  10.493  109.8  0.0555   38.3  0.4499  -57.8
 0.400  0.7111 -139.2   9.290  105.3  0.0574   37.2  0.4042  -60.4
 0.450  0.7074 -143.8   8.453  102.8  0.0587   36.8  0.3744  -61.7
 0.500  0.7082 -148.4   7.635   99.8  0.0600   36.4  0.3448  -63.2
 0.600  0.7106 -155.3   6.469   95.3  0.0621   37.1  0.3050  -65.2
 0.700  0.7115 -160.7   5.604   91.7  0.0644   38.0  0.2778  -67.1
 0.800  0.7114 -164.8   4.929   88.6  0.0663   39.7  0.2570  -68.8
 0.900  0.7134 -168.4   4.414   85.8  0.0685   41.2  0.2427  -70.4
 1.000  0.7150 -171.1   3.989   83.3  0.0714   43.1  0.2338  -72.0
 1.100  0.7176 -173.8   3.641   80.8  0.0728   45.2  0.2273  -74.0
 1.200  0.7204 -176.1   3.354   78.6  0.0761   46.5  0.2205  -76.1
 1.300  0.7223 -178.1   3.105   76.5  0.0788   48.8  0.2174  -77.6
 1.400  0.7231 -179.9   2.895   74.5  0.0815   50.3  0.2172  -79.7
 1.500  0.7259  178.3   2.706   72.5  0.0847   52.2  0.2158  -82.0
 1.600  0.7261  176.6   2.541   70.6  0.0875   53.5  0.2156  -84.2
 1.700  0.7253  175.0   2.394   68.8  0.0909   55.4  0.2182  -86.3
 1.800  0.7290  173.8   2.271   67.0  0.0942   56.9  0.2197  -88.4
 1.900  0.7293  172.5   2.155   65.5  0.0980   58.3  0.2237  -90.2
 2.000  0.7330  171.0   2.054   63.9  0.1020   59.6  0.2266  -92.2
 2.100  0.7330  169.8   1.963   62.4  0.1060   60.8  0.2310  -93.9
 2.200  0.7333  168.6   1.873   60.8  0.1101   62.0  0.2355  -95.5
 2.300  0.7352  167.6   1.800   59.5  0.1146   63.1  0.2405  -97.3
 2.400  0.7374  166.6   1.729   58.0  0.1192   64.2  0.2458  -99.0
 2.500  0.7375  165.6   1.667   56.7  0.1240   65.1  0.2519 -100.4
 2.600  0.7378  164.6   1.606   55.3  0.1289   65.9  0.2581 -101.7
 2.700  0.7388  163.5   1.554   54.0  0.1340   66.7  0.2634 -103.2
 2.800  0.7400  162.4   1.502   52.6  0.1391   67.4  0.2688 -104.7
 2.900  0.7416  161.4   1.460   51.4  0.1445   68.1  0.2757 -105.7
 3.000  0.7435  160.5   1.419   50.1  0.1499   68.8  0.2826 -106.6
 3.100  0.7442  159.5   1.383   49.0  0.1563   69.2  0.2886 -107.9
 3.200  0.7452  158.5   1.347   47.9  0.1626   69.6  0.2948 -109.2
 3.300  0.7464  157.4   1.312   46.7  0.1690   70.0  0.3010 -110.4
 3.400  0.7478  156.4   1.277   45.5  0.1754   70.4  0.3075 -111.6
 3.500  0.7495  155.4   1.243   44.2  0.1818   70.7  0.3140 -112.7
 3.600  0.7494  154.3   1.218   43.2  0.1886   70.8  0.3195 -114.0
 3.700  0.7496  153.3   1.193   42.2  0.1955   70.8  0.3251 -115.2
 3.800  0.7501  152.2   1.169   41.2  0.2023   70.9  0.3308 -116.4
 3.900  0.7508  151.2   1.145   40.1  0.2092   70.9  0.3367 -117.5
 4.000  0.7518  150.1   1.122   39.0  0.2160   71.0  0.3427 -118.6
 4.100  0.7532  149.0   1.101   38.0  0.2233   70.7  0.3481 -120.2
 4.200  0.7548  148.0   1.081   37.0  0.2307   70.5  0.3538 -121.7
 4.300  0.7567  146.9   1.060   35.9  0.2380   70.2  0.3597 -123.2
 4.400  0.7588  145.8   1.040   34.8  0.2454   70.0  0.3658 -124.7
 4.500  0.7612  144.8   1.021   33.7  0.2527   69.8  0.3722 -126.1
 4.600  0.7610  143.6   1.000   32.9  0.2603   69.3  0.3751 -128.0
 4.700  0.7611  142.4   0.979   32.1  0.2680   68.8  0.3784 -129.8
 4.800  0.7615  141.3   0.959   31.2  0.2756   68.3  0.3821 -131.6
 4.900  0.7622  140.1   0.938   30.3  0.2833   67.9  0.3861 -133.4
 5.000  0.7633  138.9   0.918   29.4  0.2910   67.5  0.3905 -135.1
 5.100  0.7632  137.7   0.904   28.7  0.2983   66.9  0.3937 -136.8
 5.200  0.7634  136.5   0.890   28.1  0.3056   66.3  0.3972 -138.5
 5.300  0.7639  135.4   0.876   27.4  0.3130   65.8  0.4011 -140.2
 5.400  0.7648  134.2   0.863   26.6  0.3204   65.3  0.4053 -141.8
 5.500  0.7660  133.0   0.849   25.9  0.3278   64.8  0.4098 -143.4
 5.600  0.7689  132.0   0.843   25.4  0.3344   64.1  0.4146 -145.2
 5.700  0.7721  131.0   0.836   24.8  0.3411   63.4  0.4198 -147.0
 5.800  0.7755  130.0   0.830   24.2  0.3479   62.7  0.4254 -148.8
 5.900  0.7791  129.1   0.824   23.7  0.3547   62.1  0.4314 -150.5
 6.000  0.7829  128.1   0.818   23.1  0.3615   61.5  0.4378 -152.1
!
!  f       NFmin   Gammaopt  rn/50
! GHz       dB    MAG  ANG    -
 0.450      0.84  0.25  124   0.08
 0.900      0.99  0.40  147   0.07
 1.900      1.74  0.61 -177   0.05
 2.400      2.11  0.64 -167   0.08
!
! (c) 2017  Infineon Technologies AG, Munich