! Infineon Technologies  Discrete & RF Semiconductors
! BFR193F
! VCE =  3.0 V,  IC =  80 mA
! Common Emitter S-Parameters:                            Jan 2017
# GHz  S  MA  R  50
!  f         S11            S21            S12            S22
! GHz     MAG   ANG      MAG   ANG      MAG   ANG      MAG   ANG
 0.010  0.1710 -113.8  78.425  167.7  0.0027   80.5  0.8491  -13.8
 0.020  0.3104 -120.0  73.217  155.6  0.0048   71.3  0.8010  -27.3
 0.030  0.3894 -130.1  65.445  149.1  0.0063   62.6  0.7124  -35.3
 0.040  0.4763 -136.6  58.726  141.0  0.0079   57.3  0.6413  -45.3
 0.050  0.5674 -141.1  53.458  131.1  0.0095   53.8  0.5940  -57.3
 0.060  0.5868 -145.1  49.002  128.7  0.0101   53.5  0.5439  -60.9
 0.070  0.6089 -148.8  44.652  125.7  0.0107   53.2  0.4962  -65.1
 0.080  0.6333 -152.3  40.443  122.2  0.0114   53.0  0.4519  -70.2
 0.090  0.6599 -155.5  36.424  117.9  0.0120   52.8  0.4120  -76.4
 0.100  0.6884 -158.4  32.663  112.5  0.0126   52.6  0.3778  -83.8
 0.110  0.6952 -160.0  30.661  111.3  0.0131   53.4  0.3572  -86.2
 0.120  0.7025 -161.5  28.675  109.9  0.0137   54.2  0.3373  -89.0
 0.130  0.7103 -163.0  26.708  108.3  0.0142   54.9  0.3183  -92.0
 0.140  0.7186 -164.5  24.765  106.5  0.0148   55.5  0.3003  -95.4
 0.150  0.7273 -165.9  22.852  104.3  0.0153   56.1  0.2835  -99.3
 0.200  0.7385 -169.9  17.416   99.4  0.0180   58.3  0.2351 -109.3
 0.250  0.7458 -173.1  14.034   96.2  0.0204   62.5  0.2046 -118.1
 0.300  0.7507 -174.9  11.782   93.9  0.0237   65.8  0.1891 -124.4
 0.350  0.7523 -176.6  10.320   92.3  0.0264   67.3  0.1784 -128.9
 0.400  0.7546 -178.3   8.869   90.1  0.0292   68.5  0.1689 -133.9
 0.450  0.7557 -179.4   7.995   88.9  0.0323   70.0  0.1645 -137.0
 0.500  0.7570  179.6   7.125   87.4  0.0354   71.3  0.1607 -140.3
 0.600  0.7599  177.9   5.962   85.0  0.0414   72.9  0.1575 -145.2
 0.700  0.7637  176.1   5.120   82.9  0.0475   74.4  0.1573 -148.3
 0.800  0.7618  174.7   4.482   81.0  0.0536   74.6  0.1588 -151.2
 0.900  0.7661  173.2   3.998   79.1  0.0602   75.6  0.1600 -153.1
 1.000  0.7655  172.1   3.606   77.4  0.0661   75.6  0.1629 -154.1
 1.100  0.7673  170.9   3.286   75.6  0.0725   76.0  0.1672 -155.2
 1.200  0.7703  169.7   3.022   73.9  0.0781   75.7  0.1707 -156.6
 1.300  0.7725  168.5   2.797   72.4  0.0847   76.0  0.1734 -157.0
 1.400  0.7720  167.7   2.610   70.8  0.0910   76.0  0.1776 -157.0
 1.500  0.7734  166.6   2.440   69.3  0.0969   76.1  0.1833 -157.8
 1.600  0.7744  165.5   2.290   67.7  0.1032   76.0  0.1868 -158.4
 1.700  0.7730  164.4   2.159   66.2  0.1092   75.7  0.1917 -158.5
 1.800  0.7762  163.6   2.049   64.8  0.1155   75.7  0.1963 -158.4
 1.900  0.7748  162.8   1.947   63.5  0.1216   75.5  0.2012 -158.3
 2.000  0.7793  161.7   1.858   62.2  0.1281   75.3  0.2063 -158.7
 2.100  0.7772  160.9   1.778   61.0  0.1343   75.2  0.2105 -158.4
 2.200  0.7753  160.0   1.699   59.6  0.1405   75.1  0.2147 -158.2
 2.300  0.7769  159.1   1.637   58.5  0.1468   74.8  0.2193 -158.3
 2.400  0.7786  158.3   1.575   57.3  0.1531   74.6  0.2239 -158.3
 2.500  0.7776  157.5   1.522   56.1  0.1595   74.3  0.2281 -158.0
 2.600  0.7768  156.7   1.470   54.9  0.1659   74.1  0.2324 -157.7
 2.700  0.7774  155.7   1.425   53.7  0.1725   73.7  0.2371 -157.8
 2.800  0.7782  154.8   1.380   52.5  0.1792   73.4  0.2418 -157.8
 2.900  0.7783  154.0   1.345   51.4  0.1856   73.2  0.2459 -157.4
 3.000  0.7785  153.2   1.310   50.3  0.1920   73.0  0.2501 -157.1
 3.100  0.7783  152.3   1.279   49.3  0.1993   72.5  0.2545 -157.2
 3.200  0.7783  151.4   1.249   48.3  0.2067   72.1  0.2589 -157.3
 3.300  0.7785  150.5   1.219   47.2  0.2140   71.7  0.2633 -157.4
 3.400  0.7789  149.6   1.190   46.1  0.2214   71.3  0.2677 -157.5
 3.500  0.7795  148.7   1.161   44.9  0.2288   71.0  0.2721 -157.6
 3.600  0.7782  147.8   1.140   44.0  0.2358   70.4  0.2759 -158.0
 3.700  0.7772  146.8   1.120   43.0  0.2428   69.8  0.2797 -158.3
 3.800  0.7763  145.9   1.099   42.1  0.2499   69.3  0.2835 -158.6
 3.900  0.7756  144.9   1.080   41.1  0.2569   68.8  0.2873 -159.0
 4.000  0.7752  144.0   1.060   40.0  0.2640   68.3  0.2911 -159.3
 4.100  0.7754  143.1   1.042   39.1  0.2707   67.6  0.2956 -160.1
 4.200  0.7758  142.1   1.025   38.1  0.2774   66.9  0.3001 -160.8
 4.300  0.7764  141.2   1.007   37.1  0.2842   66.3  0.3046 -161.5
 4.400  0.7772  140.2   0.991   36.1  0.2910   65.7  0.3092 -162.2
 4.500  0.7782  139.3   0.974   35.0  0.2978   65.1  0.3139 -162.9
 4.600  0.7776  138.2   0.956   34.2  0.3041   64.4  0.3172 -164.1
 4.700  0.7772  137.1   0.938   33.4  0.3104   63.7  0.3207 -165.3
 4.800  0.7771  136.1   0.920   32.6  0.3168   63.0  0.3243 -166.4
 4.900  0.7773  135.0   0.902   31.7  0.3232   62.3  0.3280 -167.5
 5.000  0.7778  133.9   0.885   30.8  0.3297   61.7  0.3318 -168.6
 5.100  0.7768  132.8   0.873   30.1  0.3356   61.0  0.3356 -169.7
 5.200  0.7760  131.8   0.862   29.5  0.3415   60.4  0.3395 -170.7
 5.300  0.7755  130.7   0.850   28.8  0.3475   59.8  0.3435 -171.7
 5.400  0.7753  129.7   0.839   28.0  0.3535   59.2  0.3477 -172.7
 5.500  0.7753  128.6   0.828   27.3  0.3596   58.6  0.3519 -173.7
 5.600  0.7777  127.7   0.823   26.8  0.3649   57.9  0.3580 -174.9
 5.700  0.7802  126.8   0.819   26.2  0.3703   57.1  0.3643 -176.0
 5.800  0.7830  125.9   0.815   25.6  0.3757   56.4  0.3706 -177.1
 5.900  0.7859  125.1   0.810   25.1  0.3812   55.8  0.3772 -178.2
 6.000  0.7890  124.2   0.806   24.5  0.3867   55.1  0.3838 -179.2
!
!  f       NFmin   Gammaopt  rn/50
! GHz       dB    MAG  ANG    -
!
! noise parameter not available yet for this operation point!
!
! (c) 2017  Infineon Technologies AG, Munich