! Infineon Technologies  Discrete & RF Semiconductors
! BFR193F
! VCE =  4.0 V,  IC =  8.0 mA
! Common Emitter S-Parameters:                            Jan 2017
# GHz  S  MA  R  50
!  f         S11            S21            S12            S22
! GHz     MAG   ANG      MAG   ANG      MAG   ANG      MAG   ANG
 0.010  0.7369   -6.9  24.464  176.7  0.0039   85.9  0.9892   -3.7
 0.020  0.7185  -15.1  24.074  172.4  0.0075   88.7  0.9838   -7.2
 0.030  0.7139  -21.9  23.754  168.9  0.0112   81.3  0.9685  -10.5
 0.040  0.7195  -28.8  23.526  165.3  0.0150   77.7  0.9564  -13.9
 0.050  0.7351  -35.4  23.393  161.6  0.0189   75.5  0.9478  -17.3
 0.060  0.7173  -41.2  22.741  158.7  0.0215   71.3  0.9214  -19.9
 0.070  0.7071  -47.2  22.151  155.7  0.0243   68.1  0.8971  -22.7
 0.080  0.7049  -53.4  21.626  152.4  0.0271   65.5  0.8750  -25.6
 0.090  0.7108  -59.5  21.173  149.1  0.0299   63.4  0.8553  -28.7
 0.100  0.7246  -65.4  20.795  145.6  0.0328   61.7  0.8381  -31.9
 0.110  0.7140  -70.0  20.127  143.5  0.0347   59.3  0.8127  -33.8
 0.120  0.7081  -74.7  19.489  141.2  0.0366   57.2  0.7882  -35.8
 0.130  0.7070  -79.4  18.884  138.8  0.0386   55.3  0.7647  -37.9
 0.140  0.7108  -84.2  18.314  136.2  0.0406   53.6  0.7424  -40.1
 0.150  0.7193  -88.8  17.783  133.5  0.0427   52.0  0.7212  -42.5
 0.200  0.7206 -105.7  15.233  124.3  0.0487   45.1  0.6227  -50.2
 0.250  0.7136 -118.6  13.068  117.4  0.0529   41.3  0.5383  -55.6
 0.300  0.7158 -128.1  11.436  112.2  0.0555   38.9  0.4763  -59.7
 0.350  0.7110 -134.9  10.199  108.7  0.0574   37.6  0.4303  -62.1
 0.400  0.7162 -141.7   9.010  104.3  0.0594   36.3  0.3853  -65.0
 0.450  0.7130 -146.0   8.189  101.9  0.0606   36.1  0.3561  -66.6
 0.500  0.7139 -150.4   7.386   98.9  0.0618   35.9  0.3273  -68.5
 0.600  0.7169 -156.9   6.252   94.5  0.0639   36.2  0.2885  -71.1
 0.700  0.7187 -162.2   5.415   90.9  0.0663   37.6  0.2618  -73.4
 0.800  0.7167 -165.8   4.755   87.9  0.0684   39.2  0.2424  -75.7
 0.900  0.7208 -169.4   4.259   85.1  0.0706   40.8  0.2284  -77.6
 1.000  0.7232 -172.2   3.850   82.6  0.0728   42.5  0.2199  -79.5
 1.100  0.7253 -174.7   3.514   80.2  0.0751   44.8  0.2142  -81.9
 1.200  0.7272 -177.1   3.233   77.9  0.0780   46.3  0.2080  -84.3
 1.300  0.7286 -179.2   2.994   75.8  0.0812   48.2  0.2065  -85.9
 1.400  0.7294  179.4   2.793   73.8  0.0839   49.9  0.2063  -88.0
 1.500  0.7324  177.6   2.610   71.9  0.0872   51.6  0.2063  -90.7
 1.600  0.7342  175.8   2.451   70.0  0.0903   53.1  0.2064  -92.7
 1.700  0.7341  174.3   2.309   68.1  0.0937   54.8  0.2097  -94.7
 1.800  0.7355  173.0   2.191   66.4  0.0977   56.3  0.2124  -96.6
 1.900  0.7361  171.8   2.079   64.9  0.1015   57.5  0.2165  -98.5
 2.000  0.7393  170.4   1.983   63.2  0.1053   59.1  0.2202 -100.5
 2.100  0.7391  169.3   1.895   61.8  0.1096   60.2  0.2251 -102.0
 2.200  0.7392  168.1   1.809   60.2  0.1140   61.2  0.2301 -103.5
 2.300  0.7410  167.0   1.739   58.9  0.1183   62.2  0.2355 -105.1
 2.400  0.7431  166.0   1.670   57.4  0.1226   63.2  0.2411 -106.6
 2.500  0.7433  165.0   1.610   56.1  0.1276   64.1  0.2474 -107.8
 2.600  0.7437  164.0   1.551   54.6  0.1327   65.0  0.2539 -109.0
 2.700  0.7453  162.9   1.501   53.3  0.1378   65.7  0.2596 -110.4
 2.800  0.7472  161.9   1.452   51.9  0.1430   66.4  0.2655 -111.8
 2.900  0.7484  160.9   1.412   50.7  0.1483   67.1  0.2726 -112.7
 3.000  0.7498  159.9   1.372   49.4  0.1536   67.7  0.2797 -113.5
 3.100  0.7506  158.9   1.337   48.4  0.1602   68.1  0.2859 -114.7
 3.200  0.7517  157.8   1.303   47.3  0.1668   68.5  0.2923 -115.8
 3.300  0.7530  156.8   1.270   46.1  0.1734   68.9  0.2987 -116.9
 3.400  0.7545  155.8   1.237   44.9  0.1801   69.2  0.3052 -118.0
 3.500  0.7563  154.8   1.204   43.6  0.1867   69.5  0.3119 -119.0
 3.600  0.7561  153.8   1.180   42.6  0.1936   69.6  0.3175 -120.2
 3.700  0.7561  152.8   1.156   41.6  0.2005   69.6  0.3233 -121.3
 3.800  0.7563  151.7   1.133   40.6  0.2074   69.7  0.3292 -122.4
 3.900  0.7568  150.7   1.110   39.5  0.2143   69.7  0.3352 -123.5
 4.000  0.7575  149.7   1.088   38.4  0.2212   69.8  0.3413 -124.5
 4.100  0.7587  148.6   1.068   37.4  0.2286   69.5  0.3469 -126.0
 4.200  0.7602  147.5   1.048   36.4  0.2359   69.1  0.3527 -127.5
 4.300  0.7619  146.4   1.029   35.4  0.2433   68.8  0.3588 -129.0
 4.400  0.7639  145.4   1.010   34.3  0.2507   68.6  0.3650 -130.4
 4.500  0.7662  144.3   0.991   33.2  0.2581   68.3  0.3715 -131.7
 4.600  0.7662  143.1   0.971   32.4  0.2656   67.8  0.3747 -133.5
 4.700  0.7666  141.9   0.951   31.6  0.2731   67.3  0.3783 -135.3
 4.800  0.7673  140.8   0.932   30.7  0.2806   66.9  0.3823 -137.0
 4.900  0.7683  139.6   0.912   29.8  0.2881   66.5  0.3866 -138.7
 5.000  0.7696  138.4   0.893   28.9  0.2957   66.1  0.3912 -140.4
 5.100  0.7691  137.2   0.880   28.3  0.3028   65.5  0.3946 -142.1
 5.200  0.7690  136.1   0.866   27.6  0.3100   64.9  0.3983 -143.7
 5.300  0.7692  134.9   0.853   27.0  0.3172   64.3  0.4024 -145.4
 5.400  0.7697  133.8   0.840   26.3  0.3244   63.8  0.4067 -146.9
 5.500  0.7705  132.6   0.827   25.6  0.3317   63.3  0.4114 -148.5
 5.600  0.7734  131.6   0.821   25.1  0.3384   62.6  0.4167 -150.3
 5.700  0.7765  130.6   0.815   24.5  0.3452   61.9  0.4224 -152.0
 5.800  0.7798  129.6   0.809   23.9  0.3520   61.2  0.4285 -153.6
 5.900  0.7834  128.7   0.803   23.4  0.3588   60.6  0.4349 -155.2
 6.000  0.7872  127.7   0.797   22.8  0.3657   60.0  0.4417 -156.8
!
!  f       NFmin   Gammaopt  rn/50
! GHz       dB    MAG  ANG    -
 0.450      0.84  0.25  124   0.08
 0.900      0.99  0.40  147   0.07
 1.900      1.74  0.61 -177   0.05
 2.400      2.11  0.64 -167   0.08
!
! (c) 2017  Infineon Technologies AG, Munich