! Infineon Technologies  Discrete & RF Semiconductors
! BFR193F
! VCE =  6.0 V,  IC =  92 mA
! Common Emitter S-Parameters:                            Jan 2017
# GHz  S  MA  R  50
!  f         S11            S21            S12            S22
! GHz     MAG   ANG      MAG   ANG      MAG   ANG      MAG   ANG
 0.010  0.1614  -78.0  78.927  168.6  0.0028   84.3  0.8620  -11.2
 0.020  0.2830 -100.4  74.466  157.4  0.0047   75.4  0.8254  -22.7
 0.030  0.3520 -115.2  67.215  150.9  0.0062   66.6  0.7434  -29.6
 0.040  0.4364 -124.8  61.014  143.0  0.0077   61.2  0.6747  -38.0
 0.050  0.5290 -131.1  56.212  133.6  0.0093   57.7  0.6237  -48.1
 0.060  0.5472 -136.2  51.680  131.0  0.0099   56.3  0.5732  -50.9
 0.070  0.5695 -140.9  47.270  128.0  0.0104   55.0  0.5244  -54.3
 0.080  0.5952 -145.2  43.021  124.3  0.0110   53.9  0.4778  -58.3
 0.090  0.6241 -149.1  38.984  119.9  0.0116   52.9  0.4339  -63.1
 0.100  0.6556 -152.7  35.233  114.5  0.0122   52.0  0.3939  -69.0
 0.110  0.6621 -154.6  33.105  113.2  0.0127   52.3  0.3713  -70.6
 0.120  0.6693 -156.5  30.995  111.8  0.0132   52.6  0.3489  -72.4
 0.130  0.6772 -158.4  28.907  110.1  0.0138   52.9  0.3270  -74.5
 0.140  0.6858 -160.1  26.848  108.2  0.0143   53.2  0.3056  -76.9
 0.150  0.6951 -161.9  24.823  106.0  0.0148   53.4  0.2848  -79.6
 0.200  0.7109 -167.1  18.994  100.8  0.0169   57.3  0.2261  -85.8
 0.250  0.7192 -170.8  15.329   97.5  0.0195   62.1  0.1868  -91.0
 0.300  0.7234 -173.1  12.858   95.1  0.0224   64.9  0.1641  -95.1
 0.350  0.7249 -174.9  11.277   93.5  0.0250   66.7  0.1491  -98.0
 0.400  0.7272 -176.7   9.708   91.3  0.0277   68.2  0.1346 -101.5
 0.450  0.7285 -177.9   8.757   90.1  0.0304   69.7  0.1271 -103.9
 0.500  0.7302 -179.1   7.810   88.6  0.0332   70.9  0.1199 -106.7
 0.600  0.7325  178.8   6.540   86.3  0.0388   72.3  0.1123 -111.2
 0.700  0.7359  177.0   5.624   84.2  0.0445   73.8  0.1100 -115.1
 0.800  0.7355  175.6   4.929   82.5  0.0504   74.8  0.1090 -119.1
 0.900  0.7390  173.9   4.401   80.6  0.0566   75.8  0.1100 -121.8
 1.000  0.7385  172.8   3.972   78.9  0.0618   76.2  0.1127 -123.8
 1.100  0.7401  171.4   3.622   77.2  0.0678   76.0  0.1172 -126.6
 1.200  0.7436  170.1   3.332   75.6  0.0738   76.6  0.1197 -129.0
 1.300  0.7452  169.0   3.084   74.1  0.0795   76.8  0.1236 -130.1
 1.400  0.7446  168.1   2.880   72.6  0.0858   77.1  0.1292 -131.1
 1.500  0.7446  167.1   2.694   71.1  0.0918   77.1  0.1349 -133.3
 1.600  0.7481  165.9   2.531   69.6  0.0974   77.0  0.1395 -134.7
 1.700  0.7464  164.8   2.387   68.1  0.1032   77.0  0.1451 -135.2
 1.800  0.7481  164.1   2.265   66.7  0.1098   76.8  0.1505 -136.2
 1.900  0.7485  163.2   2.153   65.5  0.1152   76.7  0.1567 -136.9
 2.000  0.7509  162.1   2.055   64.1  0.1216   76.8  0.1627 -137.9
 2.100  0.7496  161.3   1.967   62.9  0.1273   76.6  0.1678 -138.2
 2.200  0.7484  160.5   1.880   61.6  0.1331   76.4  0.1729 -138.4
 2.300  0.7495  159.6   1.810   60.4  0.1392   76.1  0.1786 -139.0
 2.400  0.7508  158.8   1.741   59.2  0.1453   75.9  0.1843 -139.5
 2.500  0.7507  158.0   1.682   58.1  0.1516   75.7  0.1895 -139.6
 2.600  0.7508  157.2   1.623   56.9  0.1580   75.5  0.1947 -139.6
 2.700  0.7506  156.3   1.573   55.7  0.1644   75.2  0.2003 -140.1
 2.800  0.7506  155.4   1.524   54.5  0.1708   75.0  0.2059 -140.6
 2.900  0.7513  154.5   1.485   53.4  0.1770   74.8  0.2112 -140.4
 3.000  0.7521  153.7   1.446   52.3  0.1833   74.6  0.2165 -140.3
 3.100  0.7518  152.8   1.411   51.3  0.1903   74.2  0.2215 -140.7
 3.200  0.7517  152.0   1.377   50.3  0.1974   73.8  0.2265 -141.0
 3.300  0.7517  151.1   1.344   49.2  0.2045   73.4  0.2315 -141.4
 3.400  0.7519  150.3   1.311   48.1  0.2115   73.1  0.2365 -141.7
 3.500  0.7523  149.4   1.278   46.9  0.2186   72.8  0.2415 -142.0
 3.600  0.7512  148.5   1.254   46.0  0.2255   72.3  0.2456 -142.6
 3.700  0.7502  147.6   1.231   45.0  0.2324   71.8  0.2498 -143.1
 3.800  0.7494  146.6   1.208   44.0  0.2393   71.3  0.2539 -143.6
 3.900  0.7489  145.7   1.186   43.0  0.2462   70.8  0.2581 -144.1
 4.000  0.7485  144.8   1.164   41.9  0.2532   70.4  0.2623 -144.6
 4.100  0.7488  143.9   1.144   40.9  0.2598   69.7  0.2669 -145.5
 4.200  0.7494  143.0   1.125   39.9  0.2664   69.1  0.2715 -146.5
 4.300  0.7501  142.0   1.106   38.8  0.2731   68.4  0.2763 -147.3
 4.400  0.7510  141.1   1.088   37.7  0.2798   67.9  0.2811 -148.2
 4.500  0.7521  140.2   1.070   36.6  0.2865   67.3  0.2859 -149.0
 4.600  0.7519  139.1   1.050   35.8  0.2930   66.6  0.2891 -150.4
 4.700  0.7520  138.1   1.029   35.0  0.2995   66.0  0.2924 -151.8
 4.800  0.7523  137.0   1.009   34.1  0.3060   65.4  0.2960 -153.2
 4.900  0.7529  136.0   0.990   33.2  0.3126   64.8  0.2997 -154.5
 5.000  0.7537  134.9   0.970   32.3  0.3192   64.2  0.3035 -155.8
 5.100  0.7530  133.8   0.957   31.6  0.3252   63.5  0.3070 -157.1
 5.200  0.7526  132.8   0.944   30.9  0.3313   62.9  0.3107 -158.3
 5.300  0.7524  131.7   0.931   30.2  0.3374   62.3  0.3146 -159.5
 5.400  0.7525  130.7   0.918   29.5  0.3436   61.7  0.3185 -160.7
 5.500  0.7528  129.6   0.906   28.7  0.3498   61.1  0.3226 -161.8
 5.600  0.7555  128.7   0.900   28.1  0.3553   60.4  0.3280 -163.2
 5.700  0.7583  127.8   0.895   27.4  0.3608   59.7  0.3337 -164.5
 5.800  0.7614  126.9   0.889   26.7  0.3664   59.0  0.3395 -165.8
 5.900  0.7646  126.1   0.884   26.1  0.3720   58.3  0.3455 -167.1
 6.000  0.7680  125.2   0.879   25.4  0.3777   57.7  0.3516 -168.3
!
!  f       NFmin   Gammaopt  rn/50
! GHz       dB    MAG  ANG    -
!
! noise parameter not available yet for this operation point!
!
! (c) 2017  Infineon Technologies AG, Munich