! Infineon Technologies  Discrete & RF Semiconductors
! BFR193F
! VCE =  11. V,  IC =  10 mA
! Common Emitter S-Parameters:                            Jan 2017
# GHz  S  MA  R  50
!  f         S11            S21            S12            S22
! GHz     MAG   ANG      MAG   ANG      MAG   ANG      MAG   ANG
 0.010  0.7277   -6.8  28.386  176.3  0.0035   85.3  0.9829   -3.6
 0.020  0.7122  -15.1  28.091  172.1  0.0064   86.1  0.9768   -6.9
 0.030  0.7061  -21.9  27.626  168.6  0.0095   79.8  0.9616  -10.1
 0.040  0.7101  -28.8  27.266  165.1  0.0126   76.6  0.9497  -13.5
 0.050  0.7242  -35.5  27.014  161.4  0.0157   74.7  0.9410  -16.9
 0.060  0.7059  -41.3  26.242  158.5  0.0180   70.5  0.9149  -19.4
 0.070  0.6951  -47.3  25.541  155.4  0.0204   67.2  0.8907  -22.1
 0.080  0.6922  -53.5  24.916  152.2  0.0229   64.7  0.8685  -24.9
 0.090  0.6973  -59.6  24.375  148.8  0.0254   62.6  0.8486  -27.9
 0.100  0.7103  -65.6  23.923  145.3  0.0279   60.9  0.8310  -31.0
 0.110  0.6994  -70.2  23.144  143.2  0.0295   58.7  0.8057  -32.8
 0.120  0.6931  -74.8  22.398  141.0  0.0311   56.7  0.7812  -34.7
 0.130  0.6914  -79.5  21.689  138.6  0.0327   55.0  0.7577  -36.7
 0.140  0.6944  -84.3  21.020  136.0  0.0344   53.4  0.7351  -38.8
 0.150  0.7021  -88.9  20.396  133.3  0.0361   51.9  0.7136  -41.1
 0.200  0.6985 -105.7  17.429  124.2  0.0411   47.3  0.6157  -48.1
 0.250  0.6908 -118.6  14.928  117.4  0.0447   43.2  0.5325  -52.9
 0.300  0.6941 -128.1  13.042  112.3  0.0473   40.9  0.4710  -56.4
 0.350  0.6884 -134.7  11.634  108.9  0.0491   40.1  0.4261  -58.3
 0.400  0.6920 -141.4  10.278  104.6  0.0510   39.3  0.3818  -60.7
 0.450  0.6890 -145.8   9.341  102.3  0.0522   39.4  0.3532  -61.8
 0.500  0.6901 -150.3   8.424   99.4  0.0535   39.5  0.3248  -63.1
 0.600  0.6932 -156.8   7.123   95.1  0.0561   40.3  0.2864  -64.9
 0.700  0.6945 -162.1   6.167   91.6  0.0581   42.2  0.2601  -66.6
 0.800  0.6938 -165.8   5.422   88.7  0.0610   43.9  0.2402  -68.1
 0.900  0.6960 -169.4   4.851   86.1  0.0637   45.5  0.2266  -69.5
 1.000  0.6967 -172.0   4.383   83.6  0.0667   47.5  0.2177  -70.9
 1.100  0.7005 -174.6   3.999   81.3  0.0699   49.3  0.2108  -72.8
 1.200  0.7027 -176.9   3.681   79.2  0.0728   51.3  0.2041  -74.8
 1.300  0.7047 -179.0   3.408   77.2  0.0760   53.2  0.2010  -76.3
 1.400  0.7054  179.4   3.178   75.3  0.0796   55.0  0.2002  -78.3
 1.500  0.7071  177.8   2.970   73.5  0.0833   56.3  0.1985  -80.6
 1.600  0.7096  176.0   2.789   71.6  0.0867   57.9  0.1981  -82.4
 1.700  0.7094  174.4   2.627   69.8  0.0901   59.3  0.2000  -84.5
 1.800  0.7112  173.3   2.492   68.2  0.0945   60.3  0.2016  -86.5
 1.900  0.7112  172.1   2.363   66.7  0.0984   61.7  0.2046  -88.4
 2.000  0.7144  170.6   2.254   65.1  0.1027   62.8  0.2070  -90.4
 2.100  0.7140  169.5   2.154   63.7  0.1069   63.8  0.2110  -92.0
 2.200  0.7138  168.3   2.055   62.2  0.1112   64.7  0.2151  -93.5
 2.300  0.7165  167.3   1.975   60.9  0.1158   65.5  0.2194  -95.2
 2.400  0.7195  166.3   1.896   59.5  0.1205   66.3  0.2238  -96.9
 2.500  0.7194  165.3   1.829   58.2  0.1254   67.1  0.2295  -98.2
 2.600  0.7195  164.3   1.763   56.8  0.1303   67.9  0.2353  -99.5
 2.700  0.7205  163.3   1.705   55.5  0.1354   68.4  0.2400 -100.9
 2.800  0.7218  162.3   1.647   54.2  0.1405   68.8  0.2448 -102.3
 2.900  0.7228  161.2   1.602   53.0  0.1456   69.3  0.2515 -103.3
 3.000  0.7240  160.2   1.557   51.7  0.1507   69.8  0.2583 -104.2
 3.100  0.7249  159.2   1.517   50.7  0.1571   70.1  0.2638 -105.4
 3.200  0.7261  158.3   1.478   49.6  0.1635   70.5  0.2693 -106.6
 3.300  0.7274  157.3   1.439   48.4  0.1699   70.8  0.2750 -107.8
 3.400  0.7290  156.4   1.401   47.2  0.1763   71.0  0.2808 -108.9
 3.500  0.7307  155.4   1.363   45.9  0.1827   71.3  0.2867 -109.9
 3.600  0.7305  154.4   1.335   44.9  0.1893   71.3  0.2918 -111.1
 3.700  0.7306  153.4   1.308   43.9  0.1959   71.3  0.2970 -112.2
 3.800  0.7309  152.3   1.281   42.9  0.2024   71.3  0.3023 -113.3
 3.900  0.7314  151.3   1.255   41.7  0.2090   71.3  0.3077 -114.4
 4.000  0.7322  150.3   1.229   40.6  0.2156   71.3  0.3132 -115.4
 4.100  0.7334  149.3   1.206   39.6  0.2226   71.0  0.3183 -116.9
 4.200  0.7348  148.3   1.184   38.6  0.2296   70.7  0.3236 -118.4
 4.300  0.7364  147.3   1.162   37.5  0.2366   70.5  0.3291 -119.8
 4.400  0.7383  146.3   1.141   36.4  0.2436   70.2  0.3348 -121.2
 4.500  0.7404  145.3   1.120   35.3  0.2506   70.0  0.3407 -122.5
 4.600  0.7408  144.1   1.097   34.4  0.2578   69.5  0.3434 -124.3
 4.700  0.7414  143.0   1.074   33.5  0.2651   69.0  0.3464 -126.2
 4.800  0.7424  141.8   1.051   32.6  0.2723   68.6  0.3498 -127.9
 4.900  0.7436  140.7   1.029   31.6  0.2796   68.2  0.3535 -129.7
 5.000  0.7452  139.5   1.007   30.6  0.2869   67.8  0.3575 -131.4
 5.100  0.7453  138.3   0.992   29.9  0.2939   67.3  0.3604 -133.1
 5.200  0.7458  137.1   0.976   29.2  0.3010   66.7  0.3637 -134.7
 5.300  0.7466  136.0   0.961   28.5  0.3081   66.2  0.3672 -136.4
 5.400  0.7477  134.8   0.946   27.8  0.3152   65.8  0.3711 -137.9
 5.500  0.7491  133.6   0.931   27.0  0.3223   65.3  0.3752 -139.5
 5.600  0.7523  132.7   0.924   26.4  0.3288   64.6  0.3797 -141.3
 5.700  0.7557  131.7   0.916   25.7  0.3353   63.9  0.3846 -143.1
 5.800  0.7593  130.8   0.909   25.1  0.3419   63.3  0.3899 -144.9
 5.900  0.7631  129.9   0.902   24.4  0.3485   62.7  0.3955 -146.6
 6.000  0.7671  129.0   0.895   23.7  0.3552   62.1  0.4015 -148.2
!
!  f       NFmin   Gammaopt  rn/50
! GHz       dB    MAG  ANG    -
 0.450      0.87  0.25  139   0.07
 0.900      1.00  0.38  152   0.07
 1.900      1.70  0.59 -176   0.06
 2.400      2.05  0.63 -165   0.08
!
! (c) 2017  Infineon Technologies AG, Munich