! Infineon Technologies  Discrete & RF Semiconductors
! BFR193F
! VCE =  3.0 V,  IC =  32 mA
! Common Emitter S-Parameters:                            Jan 2017
# GHz  S  MA  R  50
!  f         S11            S21            S12            S22
! GHz     MAG   ANG      MAG   ANG      MAG   ANG      MAG   ANG
 0.010  0.3073  -25.9  61.553  172.2  0.0033   81.8  0.9604   -9.1
 0.020  0.3347  -50.1  59.754  164.1  0.0062   77.9  0.9370  -17.7
 0.030  0.3535  -67.9  56.184  158.3  0.0084   70.5  0.8780  -24.5
 0.040  0.4018  -82.7  53.273  151.7  0.0107   66.2  0.8331  -32.2
 0.050  0.4705  -93.8  51.133  144.5  0.0131   63.5  0.8047  -40.6
 0.060  0.4780 -101.9  47.790  141.5  0.0142   60.4  0.7505  -44.4
 0.070  0.4946 -109.5  44.599  138.0  0.0154   57.7  0.7001  -48.7
 0.080  0.5194 -116.6  41.597  134.0  0.0166   55.5  0.6543  -53.7
 0.090  0.5513 -122.9  38.827  129.4  0.0178   53.5  0.6142  -59.4
 0.100  0.5892 -128.5  36.341  124.2  0.0190   51.8  0.5809  -65.8
 0.110  0.5963 -131.9  34.380  122.5  0.0197   51.0  0.5506  -68.3
 0.120  0.6055 -135.2  32.451  120.7  0.0204   50.3  0.5214  -71.0
 0.130  0.6167 -138.5  30.561  118.6  0.0210   49.7  0.4936  -74.1
 0.140  0.6297 -141.5  28.718  116.2  0.0217   49.1  0.4673  -77.5
 0.150  0.6445 -144.5  26.930  113.5  0.0224   48.5  0.4429  -81.3
 0.200  0.6662 -153.6  21.057  106.8  0.0251   49.1  0.3620  -91.9
 0.250  0.6782 -159.9  17.173  102.4  0.0275   51.2  0.3056 -100.6
 0.300  0.6883 -163.7  14.500   99.2  0.0293   53.1  0.2731 -107.4
 0.350  0.6908 -166.6  12.751   97.1  0.0318   55.0  0.2500 -112.3
 0.400  0.6950 -169.5  11.023   94.4  0.0344   56.7  0.2292 -118.2
 0.450  0.6965 -171.5   9.949   92.9  0.0369   58.6  0.2172 -122.1
 0.500  0.6989 -173.4   8.883   91.1  0.0394   60.2  0.2063 -126.4
 0.600  0.7032 -176.2   7.445   88.3  0.0449   62.0  0.1943 -133.0
 0.700  0.7063 -178.8   6.402   86.0  0.0501   64.6  0.1883 -138.0
 0.800  0.7070  179.4   5.605   84.0  0.0559   65.6  0.1846 -142.3
 0.900  0.7117  177.5   5.001   82.0  0.0619   67.1  0.1829 -145.6
 1.000  0.7112  176.0   4.514   80.2  0.0674   68.5  0.1821 -147.9
 1.100  0.7146  174.4   4.111   78.3  0.0736   69.1  0.1851 -150.1
 1.200  0.7144  173.0   3.775   76.7  0.0794   69.6  0.1864 -152.5
 1.300  0.7192  171.7   3.494   75.1  0.0854   70.0  0.1878 -153.6
 1.400  0.7191  170.6   3.260   73.5  0.0911   70.8  0.1900 -154.6
 1.500  0.7209  169.4   3.046   72.1  0.0972   70.7  0.1944 -156.0
 1.600  0.7221  168.2   2.859   70.5  0.1031   70.9  0.1968 -157.1
 1.700  0.7224  167.1   2.694   69.0  0.1089   71.0  0.1999 -157.6
 1.800  0.7241  166.2   2.554   67.6  0.1149   71.1  0.2040 -158.1
 1.900  0.7242  165.3   2.424   66.4  0.1209   71.1  0.2069 -158.4
 2.000  0.7275  164.1   2.314   65.1  0.1265   71.3  0.2107 -159.0
 2.100  0.7266  163.2   2.213   63.9  0.1324   71.2  0.2135 -159.0
 2.200  0.7258  162.3   2.114   62.5  0.1384   71.2  0.2162 -159.0
 2.300  0.7273  161.5   2.034   61.4  0.1443   71.1  0.2196 -159.2
 2.400  0.7290  160.7   1.955   60.2  0.1502   71.0  0.2231 -159.4
 2.500  0.7282  159.9   1.888   59.0  0.1564   70.8  0.2260 -159.2
 2.600  0.7275  159.0   1.822   57.8  0.1626   70.7  0.2289 -159.0
 2.700  0.7281  158.0   1.765   56.7  0.1689   70.5  0.2324 -159.2
 2.800  0.7289  157.1   1.708   55.5  0.1753   70.4  0.2359 -159.3
 2.900  0.7293  156.3   1.662   54.4  0.1812   70.2  0.2389 -158.9
 3.000  0.7298  155.5   1.617   53.2  0.1872   70.1  0.2419 -158.5
 3.100  0.7295  154.6   1.578   52.2  0.1942   69.8  0.2451 -158.6
 3.200  0.7294  153.8   1.540   51.2  0.2012   69.4  0.2483 -158.6
 3.300  0.7295  152.9   1.502   50.1  0.2082   69.1  0.2516 -158.7
 3.400  0.7297  152.1   1.465   49.0  0.2152   68.9  0.2548 -158.7
 3.500  0.7301  151.2   1.428   47.8  0.2222   68.6  0.2580 -158.8
 3.600  0.7295  150.3   1.401   46.9  0.2288   68.1  0.2608 -159.1
 3.700  0.7291  149.4   1.375   45.9  0.2355   67.6  0.2637 -159.3
 3.800  0.7289  148.4   1.349   44.9  0.2421   67.1  0.2665 -159.6
 3.900  0.7288  147.5   1.323   43.8  0.2488   66.7  0.2693 -159.9
 4.000  0.7290  146.6   1.298   42.7  0.2555   66.3  0.2722 -160.1
 4.100  0.7294  145.7   1.276   41.7  0.2619   65.7  0.2759 -160.8
 4.200  0.7301  144.8   1.255   40.7  0.2683   65.1  0.2796 -161.4
 4.300  0.7309  143.9   1.234   39.6  0.2747   64.5  0.2833 -162.0
 4.400  0.7318  143.0   1.213   38.5  0.2811   64.0  0.2871 -162.6
 4.500  0.7330  142.1   1.193   37.4  0.2876   63.5  0.2909 -163.2
 4.600  0.7335  141.0   1.170   36.5  0.2937   62.9  0.2937 -164.3
 4.700  0.7342  140.0   1.147   35.6  0.2997   62.3  0.2966 -165.4
 4.800  0.7351  138.9   1.124   34.7  0.3059   61.7  0.2995 -166.4
 4.900  0.7363  137.9   1.102   33.7  0.3120   61.1  0.3026 -167.5
 5.000  0.7378  136.8   1.080   32.7  0.3182   60.6  0.3058 -168.5
 5.100  0.7372  135.7   1.065   31.9  0.3239   60.0  0.3091 -169.5
 5.200  0.7369  134.7   1.050   31.2  0.3296   59.5  0.3125 -170.4
 5.300  0.7369  133.6   1.036   30.4  0.3354   58.9  0.3160 -171.4
 5.400  0.7371  132.6   1.021   29.5  0.3412   58.4  0.3196 -172.3
 5.500  0.7375  131.5   1.007   28.7  0.3470   57.9  0.3232 -173.2
 5.600  0.7407  130.6   1.000   28.0  0.3522   57.2  0.3290 -174.3
 5.700  0.7441  129.8   0.993   27.4  0.3574   56.6  0.3348 -175.3
 5.800  0.7476  128.9   0.987   26.7  0.3626   55.9  0.3408 -176.4
 5.900  0.7513  128.0   0.980   26.0  0.3680   55.3  0.3469 -177.4
 6.000  0.7552  127.2   0.974   25.3  0.3733   54.7  0.3531 -178.3
!
!  f       NFmin   Gammaopt  rn/50
! GHz       dB    MAG  ANG    -
 0.450      1.21  0.40  177   0.06
 0.900      1.30  0.43  177   0.07
 1.900      1.86  0.58 -167   0.07
 2.400      2.15  0.61 -158   0.12
!
! (c) 2017  Infineon Technologies AG, Munich