! Infineon Technologies  Discrete & RF Semiconductors
! BFR193F
! VCE =  8.0 V,  IC =  5.0 mA
! Common Emitter S-Parameters:                            Jan 2017
# GHz  S  MA  R  50
!  f         S11            S21            S12            S22
! GHz     MAG   ANG      MAG   ANG      MAG   ANG      MAG   ANG
 0.010  0.8403   -4.5  16.162  177.7  0.0035   85.4  0.9922   -2.3
 0.020  0.8201  -10.6  15.984  174.4  0.0071   85.1  0.9886   -4.5
 0.030  0.8197  -15.3  15.888  171.8  0.0108   81.4  0.9820   -6.6
 0.040  0.8247  -19.9  15.826  169.2  0.0146   79.6  0.9767   -8.8
 0.050  0.8351  -24.5  15.797  166.5  0.0183   78.5  0.9729  -11.0
 0.060  0.8210  -28.9  15.538  164.1  0.0212   75.1  0.9585  -12.9
 0.070  0.8119  -33.4  15.308  161.5  0.0242   72.5  0.9452  -14.8
 0.080  0.8078  -38.0  15.108  159.0  0.0271   70.5  0.9330  -16.8
 0.090  0.8090  -42.5  14.940  156.3  0.0302   68.9  0.9220  -18.8
 0.100  0.8153  -47.1  14.805  153.6  0.0332   67.6  0.9121  -20.9
 0.110  0.8036  -51.0  14.486  151.6  0.0355   65.1  0.8948  -22.3
 0.120  0.7957  -55.0  14.185  149.5  0.0379   63.0  0.8781  -23.8
 0.130  0.7918  -59.1  13.905  147.3  0.0404   61.1  0.8620  -25.4
 0.140  0.7920  -63.2  13.645  145.1  0.0429   59.4  0.8466  -27.0
 0.150  0.7962  -67.3  13.407  142.7  0.0454   57.9  0.8319  -28.7
 0.200  0.7874  -83.5  12.083  133.6  0.0544   50.8  0.7548  -34.8
 0.250  0.7661  -97.1  10.741  126.2  0.0604   45.6  0.6816  -39.2
 0.300  0.7595 -108.0   9.645  120.3  0.0648   41.9  0.6219  -42.5
 0.350  0.7457 -116.1   8.724  116.1  0.0676   39.0  0.5748  -44.4
 0.400  0.7473 -124.4   7.860  111.0  0.0705   36.3  0.5284  -46.6
 0.450  0.7385 -130.0   7.200  108.0  0.0719   34.8  0.4967  -47.7
 0.500  0.7367 -135.6   6.564  104.5  0.0734   33.3  0.4652  -48.9
 0.600  0.7356 -144.2   5.615   99.1  0.0752   31.1  0.4212  -50.5
 0.700  0.7342 -151.0   4.896   94.9  0.0764   30.9  0.3907  -51.9
 0.800  0.7315 -156.1   4.325   91.1  0.0779   31.0  0.3670  -53.2
 0.900  0.7332 -160.7   3.885   87.9  0.0783   31.9  0.3515  -54.3
 1.000  0.7332 -164.1   3.518   84.9  0.0786   32.6  0.3400  -55.7
 1.100  0.7362 -167.5   3.217   82.1  0.0794   34.1  0.3323  -57.4
 1.200  0.7386 -170.5   2.965   79.5  0.0799   35.2  0.3237  -59.1
 1.300  0.7405 -173.0   2.749   77.1  0.0809   37.1  0.3199  -60.6
 1.400  0.7408 -174.8   2.565   74.8  0.0818   38.8  0.3185  -62.5
 1.500  0.7430 -177.0   2.399   72.7  0.0829   40.8  0.3157  -64.8
 1.600  0.7425 -179.1   2.252   70.5  0.0844   42.6  0.3146  -66.7
 1.700  0.7439  179.2   2.122   68.5  0.0852   45.0  0.3154  -68.8
 1.800  0.7464  177.6   2.015   66.6  0.0876   47.1  0.3162  -70.9
 1.900  0.7477  176.1   1.911   64.9  0.0893   49.0  0.3181  -73.1
 2.000  0.7509  174.4   1.821   63.0  0.0918   51.6  0.3198  -75.1
 2.100  0.7502  173.2   1.740   61.4  0.0944   53.7  0.3237  -77.1
 2.200  0.7498  171.9   1.660   59.7  0.0971   55.7  0.3279  -79.0
 2.300  0.7526  170.6   1.594   58.3  0.1003   57.6  0.3320  -81.0
 2.400  0.7558  169.4   1.530   56.7  0.1035   59.3  0.3365  -83.0
 2.500  0.7559  168.2   1.474   55.3  0.1074   61.1  0.3418  -84.8
 2.600  0.7563  167.1   1.419   53.7  0.1114   62.8  0.3474  -86.6
 2.700  0.7579  165.9   1.372   52.4  0.1160   64.4  0.3522  -88.4
 2.800  0.7598  164.7   1.325   51.0  0.1207   65.8  0.3573  -90.2
 2.900  0.7614  163.6   1.288   49.7  0.1253   67.2  0.3642  -91.7
 3.000  0.7632  162.6   1.252   48.4  0.1300   68.5  0.3713  -93.1
 3.100  0.7642  161.5   1.219   47.3  0.1364   69.5  0.3770  -94.8
 3.200  0.7656  160.3   1.186   46.2  0.1429   70.5  0.3829  -96.4
 3.300  0.7672  159.2   1.154   45.1  0.1493   71.4  0.3892  -97.9
 3.400  0.7691  158.1   1.122   43.8  0.1559   72.2  0.3957  -99.4
 3.500  0.7713  157.0   1.091   42.5  0.1624   72.9  0.4025 -100.9
 3.600  0.7715  155.9   1.068   41.6  0.1696   73.3  0.4080 -102.5
 3.700  0.7720  154.7   1.046   40.6  0.1769   73.7  0.4137 -104.0
 3.800  0.7728  153.6   1.023   39.6  0.1841   74.1  0.4198 -105.5
 3.900  0.7740  152.4   1.002   38.5  0.1913   74.4  0.4261 -107.0
 4.000  0.7754  151.3   0.980   37.4  0.1986   74.7  0.4327 -108.4
 4.100  0.7766  150.1   0.961   36.5  0.2068   74.5  0.4378 -110.3
 4.200  0.7781  149.0   0.942   35.6  0.2150   74.4  0.4433 -112.1
 4.300  0.7799  147.8   0.924   34.6  0.2232   74.2  0.4492 -113.8
 4.400  0.7820  146.6   0.906   33.6  0.2314   74.1  0.4556 -115.5
 4.500  0.7845  145.5   0.888   32.5  0.2396   74.0  0.4623 -117.2
 4.600  0.7841  144.2   0.869   31.8  0.2482   73.5  0.4644 -119.3
 4.700  0.7840  143.0   0.850   31.1  0.2569   73.0  0.4672 -121.3
 4.800  0.7844  141.7   0.832   30.3  0.2656   72.6  0.4705 -123.3
 4.900  0.7851  140.5   0.813   29.5  0.2743   72.2  0.4744 -125.3
 5.000  0.7862  139.2   0.795   28.7  0.2830   71.8  0.4788 -127.2
 5.100  0.7852  138.0   0.783   28.2  0.2912   71.1  0.4809 -129.1
 5.200  0.7846  136.7   0.771   27.7  0.2995   70.4  0.4835 -131.0
 5.300  0.7844  135.5   0.759   27.1  0.3078   69.8  0.4866 -132.9
 5.400  0.7845  134.2   0.747   26.6  0.3162   69.2  0.4902 -134.7
 5.500  0.7850  133.0   0.735   26.0  0.3246   68.6  0.4943 -136.5
 5.600  0.7874  131.9   0.730   25.6  0.3320   67.8  0.4979 -138.5
 5.700  0.7900  130.9   0.724   25.2  0.3395   67.0  0.5020 -140.4
 5.800  0.7929  129.9   0.719   24.8  0.3470   66.2  0.5068 -142.4
 5.900  0.7960  128.8   0.714   24.4  0.3546   65.5  0.5121 -144.3
 6.000  0.7994  127.8   0.709   24.0  0.3623   64.8  0.5179 -146.1
!
!  f       NFmin   Gammaopt  rn/50
! GHz       dB    MAG  ANG    -
 0.450      0.81  0.31  100   0.10
 0.900      1.01  0.45  136   0.09
 1.900      1.90  0.63 -179   0.06
 2.400      2.34  0.67 -168   0.11
!
! (c) 2017  Infineon Technologies AG, Munich