! Infineon Technologies  Discrete & RF Semiconductors
! BFR193F
! VCE =  3.0 V,  IC =  75 mA
! Common Emitter S-Parameters:                            Jan 2017
# GHz  S  MA  R  50
!  f         S11            S21            S12            S22
! GHz     MAG   ANG      MAG   ANG      MAG   ANG      MAG   ANG
 0.010  0.1576 -106.0  79.096  168.2  0.0029   81.6  0.8730  -13.2
 0.020  0.2914 -115.4  74.397  156.6  0.0046   69.8  0.8288  -26.1
 0.030  0.3687 -126.4  66.879  150.1  0.0062   62.9  0.7414  -34.1
 0.040  0.4548 -133.4  60.419  142.1  0.0079   58.9  0.6719  -43.9
 0.050  0.5454 -138.1  55.391  132.5  0.0096   56.3  0.6263  -55.6
 0.060  0.5657 -142.4  50.864  130.0  0.0104   55.4  0.5740  -59.2
 0.070  0.5889 -146.4  46.453  127.0  0.0111   54.6  0.5245  -63.6
 0.080  0.6147 -150.0  42.195  123.4  0.0119   53.9  0.4785  -68.7
 0.090  0.6428 -153.3  38.141  119.0  0.0126   53.2  0.4373  -75.0
 0.100  0.6729 -156.4  34.364  113.6  0.0134   52.7  0.4023  -82.4
 0.110  0.6797 -158.1  32.277  112.3  0.0139   53.1  0.3805  -84.8
 0.120  0.6870 -159.7  30.207  110.9  0.0143   53.5  0.3594  -87.5
 0.130  0.6949 -161.2  28.158  109.3  0.0148   53.8  0.3392  -90.6
 0.140  0.7033 -162.8  26.136  107.4  0.0152   54.2  0.3201  -94.0
 0.150  0.7122 -164.3  24.147  105.2  0.0157   54.5  0.3023  -97.8
 0.200  0.7252 -169.0  18.436  100.1  0.0181   58.8  0.2506 -108.1
 0.250  0.7338 -172.3  14.873   96.8  0.0214   62.1  0.2170 -117.1
 0.300  0.7383 -174.4  12.480   94.4  0.0238   64.5  0.1999 -123.4
 0.350  0.7400 -176.0  10.940   92.7  0.0265   66.2  0.1884 -128.1
 0.400  0.7422 -177.6   9.412   90.5  0.0293   67.5  0.1784 -133.3
 0.450  0.7436 -178.7   8.486   89.3  0.0325   69.4  0.1731 -136.5
 0.500  0.7452 -179.7   7.564   87.9  0.0357   71.0  0.1683 -139.9
 0.600  0.7479  178.3   6.326   85.4  0.0415   72.0  0.1642 -145.1
 0.700  0.7512  176.4   5.435   83.3  0.0476   73.1  0.1637 -148.4
 0.800  0.7507  175.2   4.759   81.5  0.0537   74.2  0.1647 -151.7
 0.900  0.7536  173.7   4.245   79.6  0.0599   75.0  0.1656 -153.6
 1.000  0.7539  172.4   3.831   77.8  0.0669   75.2  0.1674 -154.8
 1.100  0.7566  171.2   3.486   76.1  0.0728   75.5  0.1722 -155.9
 1.200  0.7581  170.0   3.206   74.4  0.0789   75.3  0.1745 -157.5
 1.300  0.7621  168.8   2.967   72.8  0.0846   75.5  0.1774 -157.9
 1.400  0.7603  167.9   2.767   71.3  0.0912   75.7  0.1815 -158.2
 1.500  0.7617  166.8   2.588   69.8  0.0972   75.7  0.1870 -159.0
 1.600  0.7634  165.7   2.428   68.3  0.1033   75.6  0.1899 -159.7
 1.700  0.7626  164.7   2.290   66.8  0.1099   75.5  0.1941 -159.7
 1.800  0.7645  163.8   2.172   65.4  0.1159   75.2  0.1988 -159.8
 1.900  0.7644  163.1   2.063   64.1  0.1221   75.2  0.2033 -159.8
 2.000  0.7678  162.0   1.969   62.8  0.1283   75.2  0.2079 -160.1
 2.100  0.7666  161.2   1.884   61.6  0.1344   74.9  0.2116 -159.9
 2.200  0.7655  160.3   1.800   60.2  0.1405   74.6  0.2153 -159.7
 2.300  0.7671  159.4   1.733   59.1  0.1466   74.4  0.2196 -159.8
 2.400  0.7688  158.6   1.667   57.9  0.1528   74.3  0.2239 -159.8
 2.500  0.7677  157.8   1.611   56.7  0.1593   73.9  0.2275 -159.4
 2.600  0.7667  157.0   1.555   55.5  0.1658   73.6  0.2312 -159.1
 2.700  0.7672  156.0   1.507   54.3  0.1724   73.3  0.2354 -159.2
 2.800  0.7679  155.1   1.460   53.1  0.1790   73.0  0.2396 -159.3
 2.900  0.7679  154.3   1.422   52.0  0.1853   72.8  0.2437 -158.8
 3.000  0.7680  153.5   1.384   50.9  0.1917   72.6  0.2479 -158.4
 3.100  0.7678  152.6   1.351   49.9  0.1989   72.1  0.2519 -158.5
 3.200  0.7678  151.8   1.319   48.9  0.2061   71.7  0.2558 -158.6
 3.300  0.7680  150.9   1.287   47.8  0.2134   71.3  0.2598 -158.6
 3.400  0.7684  150.1   1.256   46.7  0.2206   70.9  0.2637 -158.7
 3.500  0.7689  149.2   1.225   45.5  0.2279   70.6  0.2677 -158.8
 3.600  0.7677  148.3   1.203   44.6  0.2349   70.0  0.2712 -159.1
 3.700  0.7667  147.3   1.181   43.6  0.2419   69.5  0.2747 -159.4
 3.800  0.7659  146.4   1.159   42.7  0.2490   69.0  0.2782 -159.7
 3.900  0.7653  145.4   1.138   41.7  0.2560   68.5  0.2817 -159.9
 4.000  0.7649  144.5   1.117   40.6  0.2631   68.0  0.2852 -160.2
 4.100  0.7652  143.6   1.098   39.6  0.2697   67.3  0.2894 -160.9
 4.200  0.7658  142.6   1.080   38.6  0.2764   66.6  0.2937 -161.6
 4.300  0.7665  141.7   1.062   37.6  0.2830   66.0  0.2980 -162.3
 4.400  0.7674  140.7   1.044   36.5  0.2898   65.4  0.3023 -163.0
 4.500  0.7686  139.8   1.027   35.4  0.2965   64.8  0.3067 -163.6
 4.600  0.7683  138.7   1.008   34.6  0.3027   64.1  0.3099 -164.7
 4.700  0.7682  137.7   0.988   33.8  0.3089   63.4  0.3132 -165.9
 4.800  0.7684  136.6   0.969   32.9  0.3152   62.7  0.3167 -167.0
 4.900  0.7688  135.6   0.951   32.0  0.3215   62.1  0.3202 -168.0
 5.000  0.7695  134.5   0.932   31.1  0.3278   61.5  0.3239 -169.1
 5.100  0.7688  133.4   0.920   30.4  0.3337   60.9  0.3276 -170.1
 5.200  0.7683  132.4   0.908   29.7  0.3396   60.2  0.3313 -171.1
 5.300  0.7681  131.3   0.896   29.0  0.3455   59.6  0.3352 -172.1
 5.400  0.7681  130.3   0.884   28.3  0.3515   59.1  0.3391 -173.1
 5.500  0.7684  129.2   0.872   27.5  0.3575   58.5  0.3432 -174.0
 5.600  0.7712  128.3   0.867   26.9  0.3627   57.8  0.3493 -175.2
 5.700  0.7741  127.4   0.861   26.3  0.3680   57.0  0.3555 -176.3
 5.800  0.7772  126.5   0.856   25.7  0.3733   56.3  0.3618 -177.4
 5.900  0.7805  125.7   0.851   25.1  0.3787   55.7  0.3683 -178.4
 6.000  0.7840  124.8   0.846   24.5  0.3841   55.0  0.3749 -179.4
!
!  f       NFmin   Gammaopt  rn/50
! GHz       dB    MAG  ANG    -
!
! noise parameter not available yet for this operation point!
!
! (c) 2017  Infineon Technologies AG, Munich