! Infineon Technologies  Discrete & RF Semiconductors
! BFR193F
! VCE =  7.0 V,  IC =  35 mA
! Common Emitter S-Parameters:                            Jan 2017
# GHz  S  MA  R  50
!  f         S11            S21            S12            S22
! GHz     MAG   ANG      MAG   ANG      MAG   ANG      MAG   ANG
 0.010  0.3659  -20.0  63.111  172.5  0.0029   88.2  0.9621   -7.9
 0.020  0.3783  -40.6  61.416  165.0  0.0054   78.2  0.9445  -15.5
 0.030  0.3840  -56.8  58.112  159.4  0.0075   71.2  0.8919  -21.6
 0.040  0.4181  -71.3  55.415  153.3  0.0097   67.3  0.8505  -28.4
 0.050  0.4745  -83.1  53.417  146.6  0.0119   64.8  0.8221  -35.7
 0.060  0.4753  -91.5  50.135  143.5  0.0130   61.6  0.7706  -39.2
 0.070  0.4861  -99.7  47.019  140.0  0.0142   59.0  0.7223  -43.1
 0.080  0.5063 -107.3  44.103  136.0  0.0154   56.7  0.6779  -47.6
 0.090  0.5347 -114.3  41.429  131.5  0.0166   54.8  0.6382  -52.6
 0.100  0.5703 -120.5  39.048  126.4  0.0178   53.1  0.6041  -58.3
 0.110  0.5749 -124.3  37.003  124.7  0.0185   52.4  0.5730  -60.4
 0.120  0.5820 -128.0  34.995  122.7  0.0192   51.7  0.5427  -62.8
 0.130  0.5916 -131.7  33.032  120.6  0.0198   51.1  0.5135  -65.4
 0.140  0.6033 -135.2  31.122  118.1  0.0205   50.5  0.4855  -68.4
 0.150  0.6173 -138.5  29.275  115.4  0.0212   50.0  0.4590  -71.7
 0.200  0.6393 -148.8  23.052  108.4  0.0239   49.9  0.3700  -80.5
 0.250  0.6505 -155.9  18.855  103.8  0.0257   50.6  0.3069  -87.4
 0.300  0.6595 -160.4  15.967  100.5  0.0282   52.2  0.2672  -92.9
 0.350  0.6625 -163.8  14.045   98.3  0.0305   54.7  0.2397  -96.8
 0.400  0.6677 -167.1  12.151   95.4  0.0328   56.8  0.2136 -101.7
 0.450  0.6690 -169.2  10.971   93.9  0.0353   58.5  0.1981 -104.9
 0.500  0.6712 -171.3   9.800   92.1  0.0379   60.0  0.1833 -108.6
 0.600  0.6755 -174.5   8.221   89.2  0.0427   62.8  0.1650 -114.8
 0.700  0.6787 -177.1   7.068   86.8  0.0481   65.1  0.1548 -119.6
 0.800  0.6797 -179.1   6.190   84.8  0.0534   66.5  0.1475 -124.4
 0.900  0.6835  178.9   5.526   82.9  0.0586   67.8  0.1435 -128.0
 1.000  0.6840  177.3   4.985   81.0  0.0644   68.4  0.1419 -130.7
 1.100  0.6871  175.6   4.539   79.2  0.0702   69.7  0.1431 -133.6
 1.200  0.6896  174.2   4.172   77.6  0.0753   70.0  0.1432 -136.5
 1.300  0.6924  172.7   3.859   76.0  0.0807   70.7  0.1435 -138.0
 1.400  0.6917  171.7   3.597   74.4  0.0869   70.9  0.1455 -139.3
 1.500  0.6936  170.4   3.361   72.9  0.0923   71.4  0.1491 -141.3
 1.600  0.6954  169.2   3.156   71.5  0.0979   71.8  0.1511 -142.7
 1.700  0.6960  168.0   2.971   70.0  0.1037   71.8  0.1544 -143.3
 1.800  0.6993  167.1   2.817   68.6  0.1093   71.8  0.1582 -144.2
 1.900  0.6979  166.2   2.674   67.4  0.1148   72.0  0.1617 -144.7
 2.000  0.7013  165.1   2.550   66.0  0.1206   72.2  0.1655 -145.5
 2.100  0.6999  164.2   2.437   64.8  0.1263   72.3  0.1689 -145.6
 2.200  0.6987  163.3   2.326   63.5  0.1320   72.3  0.1724 -145.6
 2.300  0.7013  162.4   2.237   62.4  0.1375   72.1  0.1760 -146.0
 2.400  0.7040  161.5   2.149   61.2  0.1431   71.9  0.1797 -146.4
 2.500  0.7028  160.7   2.075   60.0  0.1491   71.8  0.1835 -146.1
 2.600  0.7017  159.9   2.001   58.8  0.1552   71.7  0.1874 -145.9
 2.700  0.7028  159.0   1.937   57.7  0.1613   71.6  0.1913 -146.2
 2.800  0.7041  158.1   1.874   56.5  0.1675   71.5  0.1952 -146.4
 2.900  0.7042  157.2   1.824   55.4  0.1732   71.4  0.1989 -145.9
 3.000  0.7044  156.4   1.774   54.2  0.1790   71.3  0.2026 -145.5
 3.100  0.7045  155.6   1.730   53.2  0.1857   71.0  0.2063 -145.6
 3.200  0.7048  154.7   1.687   52.2  0.1924   70.7  0.2101 -145.7
 3.300  0.7052  153.9   1.644   51.1  0.1991   70.5  0.2138 -145.8
 3.400  0.7058  153.0   1.602   50.0  0.2058   70.2  0.2176 -145.9
 3.500  0.7065  152.2   1.561   48.8  0.2125   70.0  0.2213 -146.0
 3.600  0.7059  151.3   1.530   47.9  0.2190   69.6  0.2246 -146.3
 3.700  0.7054  150.4   1.500   46.9  0.2254   69.2  0.2279 -146.5
 3.800  0.7051  149.5   1.471   45.9  0.2319   68.8  0.2312 -146.8
 3.900  0.7050  148.6   1.442   44.8  0.2384   68.4  0.2345 -147.1
 4.000  0.7050  147.7   1.413   43.7  0.2449   68.1  0.2378 -147.3
 4.100  0.7060  146.8   1.388   42.7  0.2512   67.5  0.2417 -148.0
 4.200  0.7071  145.9   1.364   41.6  0.2574   67.0  0.2457 -148.8
 4.300  0.7084  145.0   1.340   40.5  0.2637   66.5  0.2497 -149.5
 4.400  0.7099  144.1   1.317   39.4  0.2701   66.0  0.2537 -150.1
 4.500  0.7116  143.2   1.294   38.2  0.2764   65.5  0.2578 -150.8
 4.600  0.7122  142.2   1.269   37.4  0.2825   64.9  0.2607 -152.1
 4.700  0.7131  141.1   1.244   36.5  0.2885   64.4  0.2637 -153.3
 4.800  0.7142  140.1   1.219   35.6  0.2946   63.9  0.2668 -154.5
 4.900  0.7155  139.0   1.195   34.6  0.3008   63.4  0.2700 -155.7
 5.000  0.7171  138.0   1.171   33.6  0.3069   62.9  0.2734 -156.9
 5.100  0.7171  137.0   1.154   32.8  0.3128   62.3  0.2765 -158.1
 5.200  0.7174  135.9   1.138   32.1  0.3187   61.7  0.2797 -159.2
 5.300  0.7180  134.9   1.121   31.3  0.3246   61.2  0.2831 -160.3
 5.400  0.7187  133.8   1.105   30.4  0.3306   60.6  0.2865 -161.4
 5.500  0.7197  132.8   1.089   29.6  0.3366   60.1  0.2900 -162.4
 5.600  0.7231  131.9   1.081   28.9  0.3419   59.5  0.2953 -163.7
 5.700  0.7266  131.0   1.072   28.1  0.3472   58.8  0.3008 -165.0
 5.800  0.7303  130.1   1.064   27.4  0.3526   58.2  0.3064 -166.2
 5.900  0.7342  129.3   1.057   26.6  0.3580   57.7  0.3121 -167.4
 6.000  0.7383  128.4   1.049   25.8  0.3635   57.1  0.3180 -168.5
!
!  f       NFmin   Gammaopt  rn/50
! GHz       dB    MAG  ANG    -
 0.450      1.26  0.42  178   0.06
 0.900      1.35  0.44  178   0.07
 1.900      1.90  0.58 -166   0.08
 2.400      2.20  0.61 -157   0.12
!
! (c) 2017  Infineon Technologies AG, Munich