! Infineon Technologies  Discrete & RF Semiconductors
! BFR193F
! VCE =  9.0 V,  IC =  40 mA
! Common Emitter S-Parameters:                            Jan 2017
# GHz  S  MA  R  50
!  f         S11            S21            S12            S22
! GHz     MAG   ANG      MAG   ANG      MAG   ANG      MAG   ANG
 0.010  0.3721  -19.8  65.839  172.2  0.0027   84.2  0.9557   -7.8
 0.020  0.3852  -40.3  64.016  164.6  0.0055   73.3  0.9396  -15.6
 0.030  0.3894  -56.6  60.454  159.0  0.0074   68.8  0.8859  -21.6
 0.040  0.4231  -71.4  57.528  152.9  0.0093   66.1  0.8432  -28.4
 0.050  0.4802  -83.4  55.338  146.1  0.0112   64.3  0.8132  -35.7
 0.060  0.4795  -91.6  51.881  143.0  0.0123   61.2  0.7618  -39.0
 0.070  0.4886  -99.7  48.594  139.5  0.0134   58.7  0.7133  -42.9
 0.080  0.5070 -107.4  45.513  135.6  0.0145   56.5  0.6684  -47.2
 0.090  0.5337 -114.4  42.682  131.0  0.0156   54.6  0.6279  -52.1
 0.100  0.5675 -120.6  40.154  125.9  0.0168   53.0  0.5927  -57.7
 0.110  0.5717 -124.5  38.034  124.2  0.0175   52.3  0.5618  -59.8
 0.120  0.5785 -128.3  35.952  122.2  0.0182   51.6  0.5317  -62.0
 0.130  0.5878 -131.9  33.915  120.1  0.0190   51.0  0.5026  -64.6
 0.140  0.5994 -135.5  31.934  117.7  0.0197   50.4  0.4746  -67.5
 0.150  0.6132 -138.9  30.017  114.9  0.0204   49.9  0.4479  -70.7
 0.200  0.6354 -149.0  23.599  108.1  0.0226   52.1  0.3601  -79.0
 0.250  0.6448 -156.1  19.286  103.5  0.0253   51.6  0.2966  -85.5
 0.300  0.6533 -160.5  16.329  100.2  0.0275   54.0  0.2579  -90.6
 0.350  0.6558 -163.8  14.362   98.1  0.0297   55.7  0.2309  -94.2
 0.400  0.6604 -167.0  12.420   95.3  0.0320   57.2  0.2051  -98.7
 0.450  0.6616 -169.1  11.214   93.8  0.0345   58.9  0.1893 -101.6
 0.500  0.6636 -171.2  10.017   92.0  0.0370   60.4  0.1741 -105.1
 0.600  0.6674 -174.5   8.398   89.2  0.0425   63.3  0.1565 -110.9
 0.700  0.6723 -177.2   7.219   86.8  0.0474   65.4  0.1460 -115.6
 0.800  0.6721 -179.1   6.326   84.8  0.0524   67.3  0.1381 -120.4
 0.900  0.6758  178.8   5.646   82.8  0.0581   68.7  0.1337 -123.9
 1.000  0.6766  177.3   5.092   81.1  0.0637   69.2  0.1323 -126.7
 1.100  0.6798  175.8   4.639   79.2  0.0690   70.2  0.1327 -129.4
 1.200  0.6814  174.2   4.263   77.6  0.0748   70.8  0.1320 -132.5
 1.300  0.6845  172.8   3.945   76.1  0.0802   71.3  0.1331 -133.9
 1.400  0.6856  171.7   3.676   74.5  0.0860   71.9  0.1356 -135.4
 1.500  0.6875  170.5   3.432   73.0  0.0914   72.0  0.1387 -137.5
 1.600  0.6893  169.3   3.223   71.5  0.0969   72.1  0.1402 -139.2
 1.700  0.6889  168.1   3.035   70.1  0.1027   72.1  0.1442 -139.7
 1.800  0.6905  167.2   2.877   68.7  0.1081   72.4  0.1478 -140.6
 1.900  0.6915  166.3   2.732   67.5  0.1142   72.3  0.1516 -141.1
 2.000  0.6948  165.1   2.604   66.1  0.1196   72.6  0.1550 -142.0
 2.100  0.6934  164.2   2.489   64.9  0.1252   72.5  0.1585 -142.2
 2.200  0.6922  163.3   2.376   63.6  0.1308   72.5  0.1620 -142.3
 2.300  0.6947  162.4   2.285   62.5  0.1365   72.4  0.1659 -142.7
 2.400  0.6973  161.6   2.195   61.3  0.1422   72.3  0.1698 -143.0
 2.500  0.6964  160.8   2.118   60.1  0.1481   72.2  0.1735 -142.7
 2.600  0.6957  160.0   2.042   58.9  0.1541   72.2  0.1772 -142.5
 2.700  0.6964  159.1   1.977   57.8  0.1600   72.0  0.1811 -142.8
 2.800  0.6972  158.2   1.913   56.6  0.1659   71.8  0.1851 -143.0
 2.900  0.6980  157.4   1.861   55.5  0.1717   71.7  0.1891 -142.6
 3.000  0.6990  156.6   1.810   54.4  0.1775   71.7  0.1931 -142.2
 3.100  0.6989  155.7   1.765   53.4  0.1842   71.4  0.1970 -142.3
 3.200  0.6990  154.8   1.720   52.4  0.1908   71.1  0.2008 -142.4
 3.300  0.6992  154.0   1.676   51.3  0.1975   70.9  0.2047 -142.5
 3.400  0.6996  153.1   1.633   50.1  0.2041   70.6  0.2085 -142.6
 3.500  0.7002  152.2   1.590   48.9  0.2108   70.4  0.2124 -142.7
 3.600  0.6996  151.3   1.559   47.9  0.2172   70.0  0.2158 -143.0
 3.700  0.6992  150.4   1.528   46.9  0.2236   69.6  0.2191 -143.2
 3.800  0.6989  149.6   1.498   45.9  0.2300   69.2  0.2225 -143.5
 3.900  0.6988  148.7   1.468   44.8  0.2364   68.8  0.2259 -143.8
 4.000  0.6989  147.8   1.439   43.7  0.2428   68.5  0.2293 -144.0
 4.100  0.6999  146.9   1.414   42.7  0.2491   67.9  0.2333 -144.8
 4.200  0.7011  146.0   1.389   41.7  0.2554   67.4  0.2373 -145.6
 4.300  0.7024  145.1   1.364   40.6  0.2617   66.9  0.2414 -146.3
 4.400  0.7039  144.3   1.340   39.5  0.2680   66.4  0.2455 -147.0
 4.500  0.7056  143.4   1.317   38.4  0.2744   65.9  0.2497 -147.7
 4.600  0.7062  142.3   1.291   37.5  0.2805   65.3  0.2524 -149.0
 4.700  0.7071  141.3   1.266   36.6  0.2865   64.8  0.2553 -150.3
 4.800  0.7082  140.2   1.240   35.6  0.2926   64.3  0.2583 -151.6
 4.900  0.7096  139.2   1.215   34.6  0.2988   63.8  0.2615 -152.8
 5.000  0.7112  138.1   1.191   33.6  0.3049   63.3  0.2647 -154.0
 5.100  0.7112  137.1   1.174   32.8  0.3107   62.7  0.2679 -155.2
 5.200  0.7114  136.1   1.157   32.1  0.3165   62.2  0.2711 -156.3
 5.300  0.7118  135.0   1.140   31.3  0.3224   61.6  0.2745 -157.4
 5.400  0.7124  134.0   1.123   30.4  0.3283   61.1  0.2779 -158.5
 5.500  0.7133  133.0   1.107   29.6  0.3342   60.6  0.2815 -159.5
 5.600  0.7170  132.1   1.099   28.9  0.3396   60.0  0.2866 -160.8
 5.700  0.7208  131.3   1.091   28.1  0.3450   59.3  0.2918 -162.1
 5.800  0.7248  130.4   1.083   27.4  0.3504   58.7  0.2972 -163.4
 5.900  0.7290  129.5   1.075   26.6  0.3559   58.2  0.3027 -164.5
 6.000  0.7333  128.7   1.068   25.8  0.3614   57.6  0.3083 -165.7
!
!  f       NFmin   Gammaopt  rn/50
! GHz       dB    MAG  ANG    -
 0.450      1.34  0.43  179   0.06
 0.900      1.42  0.44  180   0.07
 1.900      1.98  0.59 -165   0.08
 2.400      2.27  0.61 -157   0.13
!
! (c) 2017  Infineon Technologies AG, Munich