! Infineon Technologies  Discrete & RF Semiconductors
! BFR193F
! VCE =  4.0 V,  IC =  55 mA
! Common Emitter S-Parameters:                            Jan 2017
# GHz  S  MA  R  50
!  f         S11            S21            S12            S22
! GHz     MAG   ANG      MAG   ANG      MAG   ANG      MAG   ANG
 0.010  0.1768  -50.1  76.474  170.5  0.0023   88.6  0.9371  -10.5
 0.020  0.2542  -78.7  73.251  160.9  0.0050   80.9  0.9038  -21.0
 0.030  0.3059  -97.2  67.581  154.7  0.0065   71.1  0.8306  -28.4
 0.040  0.3794 -109.5  62.849  147.4  0.0081   65.0  0.7736  -37.0
 0.050  0.4645 -117.5  59.281  139.1  0.0098   61.0  0.7366  -46.7
 0.060  0.4825 -123.9  54.922  136.3  0.0108   59.1  0.6810  -50.4
 0.070  0.5059 -129.7  50.719  133.0  0.0119   57.5  0.6287  -54.7
 0.080  0.5342 -135.0  46.713  129.1  0.0130   56.1  0.5805  -59.7
 0.090  0.5665 -139.7  42.962  124.5  0.0140   55.0  0.5377  -65.7
 0.100  0.6022 -143.9  39.536  119.1  0.0151   54.0  0.5015  -72.5
 0.110  0.6102 -146.4  37.254  117.6  0.0155   53.6  0.4740  -74.9
 0.120  0.6193 -148.8  34.999  116.0  0.0160   53.3  0.4474  -77.5
 0.130  0.6295 -151.1  32.778  114.1  0.0164   52.9  0.4219  -80.5
 0.140  0.6406 -153.4  30.596  112.0  0.0169   52.6  0.3977  -83.8
 0.150  0.6528 -155.6  28.464  109.5  0.0173   52.3  0.3750  -87.6
 0.200  0.6707 -162.1  21.989  103.6  0.0199   55.2  0.3061  -97.8
 0.250  0.6798 -166.7  17.824   99.8  0.0223   57.9  0.2596 -106.5
 0.300  0.6873 -169.6  14.998   97.0  0.0249   60.9  0.2332 -113.1
 0.350  0.6907 -171.7  13.163   95.1  0.0277   62.8  0.2152 -118.0
 0.400  0.6951 -173.8  11.347   92.7  0.0306   64.4  0.1990 -123.7
 0.450  0.6965 -175.3  10.237   91.5  0.0335   66.0  0.1904 -127.4
 0.500  0.6983 -176.7   9.134   89.9  0.0365   67.3  0.1826 -131.4
 0.600  0.7013 -179.1   7.646   87.3  0.0421   69.3  0.1734 -137.7
 0.700  0.7036  178.8   6.569   85.1  0.0483   70.3  0.1697 -142.0
 0.800  0.7043  177.3   5.752   83.3  0.0539   71.6  0.1682 -146.3
 0.900  0.7097  175.6   5.132   81.4  0.0602   72.7  0.1679 -149.1
 1.000  0.7093  174.3   4.629   79.7  0.0667   73.1  0.1681 -151.1
 1.100  0.7133  172.9   4.216   77.9  0.0725   73.5  0.1716 -152.9
 1.200  0.7151  171.4   3.872   76.3  0.0782   73.6  0.1734 -155.0
 1.300  0.7153  170.4   3.584   74.8  0.0844   73.7  0.1750 -156.0
 1.400  0.7170  169.4   3.340   73.3  0.0906   74.0  0.1777 -156.7
 1.500  0.7186  168.2   3.122   71.9  0.0968   74.2  0.1821 -157.9
 1.600  0.7214  167.3   2.930   70.4  0.1029   73.9  0.1847 -158.9
 1.700  0.7197  166.2   2.760   69.0  0.1082   74.2  0.1879 -159.2
 1.800  0.7238  165.3   2.616   67.6  0.1149   73.7  0.1915 -159.4
 1.900  0.7234  164.5   2.486   66.4  0.1206   73.7  0.1948 -159.7
 2.000  0.7254  163.2   2.371   65.1  0.1265   73.8  0.1992 -160.1
 2.100  0.7244  162.4   2.267   63.9  0.1326   73.5  0.2018 -160.0
 2.200  0.7235  161.6   2.165   62.6  0.1387   73.2  0.2044 -160.0
 2.300  0.7250  160.7   2.084   61.5  0.1447   73.0  0.2078 -160.1
 2.400  0.7267  159.9   2.003   60.3  0.1508   72.9  0.2112 -160.1
 2.500  0.7254  159.1   1.934   59.2  0.1570   72.6  0.2140 -159.8
 2.600  0.7243  158.3   1.866   58.0  0.1633   72.4  0.2168 -159.6
 2.700  0.7251  157.4   1.807   56.9  0.1696   72.2  0.2202 -159.7
 2.800  0.7261  156.5   1.748   55.7  0.1759   72.0  0.2236 -159.7
 2.900  0.7265  155.7   1.702   54.6  0.1821   71.8  0.2267 -159.2
 3.000  0.7271  155.0   1.656   53.4  0.1883   71.6  0.2298 -158.8
 3.100  0.7270  154.1   1.616   52.4  0.1952   71.2  0.2329 -158.8
 3.200  0.7270  153.2   1.576   51.4  0.2021   70.8  0.2360 -158.8
 3.300  0.7272  152.4   1.537   50.3  0.2090   70.4  0.2390 -158.7
 3.400  0.7276  151.5   1.498   49.2  0.2160   70.0  0.2421 -158.7
 3.500  0.7281  150.6   1.460   48.0  0.2229   69.7  0.2452 -158.7
 3.600  0.7272  149.7   1.433   47.1  0.2296   69.2  0.2479 -158.9
 3.700  0.7265  148.9   1.405   46.1  0.2362   68.7  0.2506 -159.1
 3.800  0.7259  148.0   1.379   45.1  0.2430   68.2  0.2534 -159.3
 3.900  0.7255  147.2   1.353   44.0  0.2497   67.7  0.2561 -159.5
 4.000  0.7253  146.3   1.327   42.9  0.2564   67.3  0.2588 -159.7
 4.100  0.7259  145.4   1.304   41.9  0.2627   66.6  0.2624 -160.3
 4.200  0.7266  144.5   1.282   40.9  0.2690   66.0  0.2660 -160.9
 4.300  0.7276  143.5   1.260   39.8  0.2753   65.4  0.2696 -161.5
 4.400  0.7287  142.6   1.239   38.7  0.2817   64.8  0.2733 -162.1
 4.500  0.7300  141.7   1.218   37.6  0.2881   64.3  0.2770 -162.6
 4.600  0.7304  140.7   1.195   36.8  0.2942   63.7  0.2797 -163.7
 4.700  0.7310  139.7   1.172   35.9  0.3003   63.1  0.2825 -164.7
 4.800  0.7319  138.6   1.149   34.9  0.3064   62.5  0.2854 -165.8
 4.900  0.7330  137.6   1.126   34.0  0.3126   61.9  0.2884 -166.8
 5.000  0.7343  136.6   1.104   33.0  0.3188   61.4  0.2915 -167.8
 5.100  0.7340  135.6   1.089   32.3  0.3244   60.8  0.2948 -168.8
 5.200  0.7340  134.5   1.073   31.5  0.3300   60.2  0.2983 -169.7
 5.300  0.7342  133.5   1.058   30.7  0.3357   59.7  0.3018 -170.6
 5.400  0.7347  132.4   1.044   29.9  0.3414   59.1  0.3053 -171.5
 5.500  0.7354  131.4   1.029   29.1  0.3471   58.6  0.3090 -172.4
 5.600  0.7386  130.5   1.022   28.4  0.3523   57.9  0.3145 -173.5
 5.700  0.7420  129.7   1.014   27.7  0.3576   57.2  0.3202 -174.6
 5.800  0.7455  128.8   1.007   26.9  0.3629   56.6  0.3260 -175.6
 5.900  0.7492  127.9   1.001   26.2  0.3682   55.9  0.3318 -176.6
 6.000  0.7531  127.1   0.994   25.4  0.3736   55.3  0.3378 -177.6
!
!  f       NFmin   Gammaopt  rn/50
! GHz       dB    MAG  ANG    -
 0.450      1.56  0.48 -179   0.07
 0.900      1.64  0.49 -177   0.08
 1.900      2.22  0.60 -163   0.10
 2.400      2.54  0.62 -155   0.16
!
! (c) 2017  Infineon Technologies AG, Munich