! Infineon Technologies  Discrete & RF Semiconductors
! BFR193F
! VCE =  4.0 V,  IC =  45 mA
! Common Emitter S-Parameters:                            Jan 2017
# GHz  S  MA  R  50
!  f         S11            S21            S12            S22
! GHz     MAG   ANG      MAG   ANG      MAG   ANG      MAG   ANG
 0.010  0.2253  -36.0  71.390  171.2  0.0025   79.3  0.9486   -9.8
 0.020  0.2777  -64.8  69.078  162.3  0.0053   73.8  0.9249  -19.4
 0.030  0.3145  -83.9  64.202  156.3  0.0073   68.6  0.8563  -26.5
 0.040  0.3777  -97.8  60.150  149.3  0.0093   65.6  0.8028  -34.6
 0.050  0.4563 -107.3  57.100  141.5  0.0113   63.7  0.7676  -43.7
 0.060  0.4705 -114.5  53.100  138.6  0.0122   61.0  0.7123  -47.4
 0.070  0.4917 -121.2  49.259  135.2  0.0132   58.7  0.6604  -51.7
 0.080  0.5190 -127.2  45.619  131.3  0.0142   56.7  0.6129  -56.7
 0.090  0.5514 -132.6  42.232  126.7  0.0152   55.0  0.5708  -62.5
 0.100  0.5882 -137.4  39.162  121.3  0.0162   53.5  0.5354  -69.1
 0.110  0.5962 -140.3  36.962  119.7  0.0167   53.3  0.5065  -71.5
 0.120  0.6057 -143.2  34.793  118.0  0.0172   53.1  0.4787  -74.2
 0.130  0.6166 -145.9  32.660  116.0  0.0177   52.9  0.4520  -77.2
 0.140  0.6289 -148.6  30.571  113.8  0.0182   52.7  0.4267  -80.5
 0.150  0.6425 -151.1  28.537  111.2  0.0187   52.5  0.4030  -84.3
 0.200  0.6633 -158.7  22.141  105.0  0.0212   52.1  0.3278  -94.5
 0.250  0.6747 -163.9  17.992  101.0  0.0243   55.2  0.2767 -103.0
 0.300  0.6827 -167.2  15.166   98.0  0.0266   57.9  0.2476 -109.6
 0.350  0.6848 -169.7  13.319   96.1  0.0293   59.9  0.2271 -114.5
 0.400  0.6881 -172.1  11.493   93.5  0.0320   61.6  0.2087 -120.4
 0.450  0.6897 -173.7  10.369   92.2  0.0348   63.2  0.1986 -124.2
 0.500  0.6919 -175.3   9.253   90.5  0.0377   64.6  0.1894 -128.4
 0.600  0.6977 -178.0   7.754   87.8  0.0426   67.0  0.1783 -134.7
 0.700  0.7001  179.8   6.663   85.6  0.0486   68.8  0.1738 -139.4
 0.800  0.7000  178.1   5.835   83.7  0.0542   69.5  0.1715 -143.8
 0.900  0.7042  176.4   5.205   81.8  0.0603   70.9  0.1699 -146.8
 1.000  0.7053  175.1   4.695   80.1  0.0660   71.7  0.1704 -149.0
 1.100  0.7089  173.7   4.277   78.3  0.0727   72.3  0.1727 -151.1
 1.200  0.7097  172.3   3.929   76.7  0.0782   72.3  0.1746 -153.4
 1.300  0.7119  171.0   3.636   75.1  0.0845   72.7  0.1757 -154.3
 1.400  0.7111  169.9   3.391   73.6  0.0905   73.0  0.1788 -155.2
 1.500  0.7145  168.9   3.167   72.2  0.0965   73.0  0.1828 -156.6
 1.600  0.7165  167.7   2.972   70.7  0.1025   73.0  0.1855 -157.7
 1.700  0.7151  166.5   2.799   69.3  0.1080   73.2  0.1884 -158.0
 1.800  0.7172  165.8   2.654   67.9  0.1142   72.8  0.1919 -158.4
 1.900  0.7186  164.9   2.521   66.7  0.1203   73.0  0.1956 -158.7
 2.000  0.7215  163.8   2.405   65.3  0.1260   72.9  0.1994 -159.2
 2.100  0.7203  162.9   2.299   64.2  0.1321   72.7  0.2018 -159.1
 2.200  0.7193  162.0   2.195   62.9  0.1382   72.6  0.2043 -159.1
 2.300  0.7206  161.1   2.113   61.8  0.1441   72.5  0.2077 -159.3
 2.400  0.7220  160.3   2.032   60.6  0.1501   72.4  0.2112 -159.4
 2.500  0.7211  159.5   1.961   59.4  0.1563   72.1  0.2141 -159.1
 2.600  0.7204  158.7   1.890   58.2  0.1625   71.9  0.2170 -158.9
 2.700  0.7214  157.8   1.831   57.1  0.1687   71.6  0.2203 -159.0
 2.800  0.7225  156.9   1.773   55.9  0.1750   71.4  0.2237 -159.0
 2.900  0.7224  156.0   1.726   54.8  0.1811   71.2  0.2266 -158.6
 3.000  0.7225  155.2   1.679   53.7  0.1873   71.1  0.2295 -158.2
 3.100  0.7223  154.4   1.638   52.7  0.1942   70.7  0.2326 -158.2
 3.200  0.7223  153.5   1.598   51.7  0.2011   70.3  0.2357 -158.2
 3.300  0.7224  152.7   1.559   50.6  0.2080   69.9  0.2389 -158.1
 3.400  0.7227  151.8   1.519   49.5  0.2150   69.6  0.2420 -158.1
 3.500  0.7231  151.0   1.481   48.3  0.2219   69.3  0.2451 -158.1
 3.600  0.7223  150.1   1.453   47.4  0.2285   68.8  0.2478 -158.3
 3.700  0.7216  149.2   1.426   46.4  0.2351   68.3  0.2504 -158.6
 3.800  0.7212  148.3   1.399   45.4  0.2417   67.9  0.2531 -158.8
 3.900  0.7209  147.4   1.372   44.3  0.2484   67.5  0.2558 -159.0
 4.000  0.7208  146.5   1.346   43.2  0.2550   67.1  0.2585 -159.2
 4.100  0.7215  145.6   1.323   42.2  0.2613   66.4  0.2621 -159.8
 4.200  0.7224  144.7   1.300   41.2  0.2676   65.8  0.2657 -160.4
 4.300  0.7235  143.8   1.277   40.1  0.2739   65.2  0.2693 -161.0
 4.400  0.7248  142.9   1.255   39.0  0.2803   64.6  0.2729 -161.6
 4.500  0.7262  142.0   1.234   37.9  0.2867   64.1  0.2766 -162.1
 4.600  0.7264  141.0   1.210   37.0  0.2927   63.5  0.2793 -163.2
 4.700  0.7269  139.9   1.187   36.1  0.2986   62.9  0.2822 -164.3
 4.800  0.7276  138.9   1.163   35.2  0.3047   62.3  0.2851 -165.3
 4.900  0.7285  137.8   1.141   34.2  0.3107   61.7  0.2882 -166.4
 5.000  0.7297  136.8   1.118   33.2  0.3168   61.2  0.2913 -167.4
 5.100  0.7294  135.8   1.102   32.5  0.3225   60.6  0.2945 -168.4
 5.200  0.7292  134.8   1.087   31.7  0.3282   60.1  0.2979 -169.3
 5.300  0.7294  133.7   1.071   30.9  0.3340   59.5  0.3013 -170.3
 5.400  0.7297  132.7   1.056   30.1  0.3398   59.0  0.3047 -171.2
 5.500  0.7303  131.7   1.041   29.3  0.3456   58.5  0.3083 -172.1
 5.600  0.7338  130.8   1.034   28.6  0.3508   57.8  0.3138 -173.2
 5.700  0.7375  129.9   1.027   27.8  0.3561   57.2  0.3194 -174.3
 5.800  0.7414  129.0   1.021   27.1  0.3615   56.5  0.3251 -175.3
 5.900  0.7455  128.1   1.014   26.4  0.3669   55.9  0.3309 -176.3
 6.000  0.7497  127.2   1.008   25.6  0.3723   55.3  0.3368 -177.3
!
!  f       NFmin   Gammaopt  rn/50
! GHz       dB    MAG  ANG    -
 0.450      1.41  0.45  180   0.07
 0.900      1.49  0.46 -179   0.07
 1.900      2.06  0.59 -164   0.09
 2.400      2.37  0.61 -156   0.14
!
! (c) 2017  Infineon Technologies AG, Munich