! Infineon Technologies  Discrete & RF Semiconductors
! BFR193F
! VCE =  3.0 V,  IC =  45 mA
! Common Emitter S-Parameters:                            Jan 2017
# GHz  S  MA  R  50
!  f         S11            S21            S12            S22
! GHz     MAG   ANG      MAG   ANG      MAG   ANG      MAG   ANG
 0.010  0.2013  -42.7  71.284  170.9  0.0028   86.9  0.9452  -10.5
 0.020  0.2677  -72.7  68.589  161.6  0.0052   78.0  0.9138  -20.6
 0.030  0.3134  -91.3  63.542  155.5  0.0073   70.2  0.8430  -28.0
 0.040  0.3826 -104.2  59.346  148.3  0.0094   66.0  0.7887  -36.7
 0.050  0.4650 -112.8  56.191  140.3  0.0116   63.3  0.7547  -46.3
 0.060  0.4816 -119.6  52.141  137.4  0.0125   60.8  0.6988  -50.1
 0.070  0.5045 -125.9  48.243  134.1  0.0134   58.6  0.6466  -54.6
 0.080  0.5329 -131.5  44.537  130.2  0.0143   56.7  0.5989  -59.7
 0.090  0.5659 -136.5  41.076  125.6  0.0152   55.0  0.5569  -65.8
 0.100  0.6028 -141.0  37.925  120.2  0.0161   53.5  0.5221  -72.7
 0.110  0.6110 -143.6  35.765  118.7  0.0167   52.9  0.4940  -75.2
 0.120  0.6205 -146.2  33.634  117.0  0.0173   52.4  0.4670  -78.1
 0.130  0.6312 -148.7  31.537  115.0  0.0180   52.0  0.4413  -81.3
 0.140  0.6430 -151.1  29.480  112.8  0.0186   51.5  0.4172  -84.8
 0.150  0.6559 -153.4  27.474  110.3  0.0192   51.1  0.3948  -88.8
 0.200  0.6760 -160.5  21.271  104.2  0.0216   53.1  0.3246  -99.7
 0.250  0.6867 -165.5  17.258  100.3  0.0238   55.2  0.2779 -108.6
 0.300  0.6944 -168.5  14.536   97.4  0.0270   58.0  0.2516 -115.5
 0.350  0.6973 -170.8  12.763   95.5  0.0295   60.6  0.2333 -120.6
 0.400  0.7013 -173.1  11.008   93.0  0.0321   62.7  0.2172 -126.6
 0.450  0.7028 -174.6   9.930   91.7  0.0349   64.4  0.2086 -130.4
 0.500  0.7047 -176.1   8.859   90.0  0.0378   65.8  0.2010 -134.5
 0.600  0.7102 -178.6   7.422   87.4  0.0438   67.4  0.1921 -140.7
 0.700  0.7121  179.1   6.376   85.2  0.0494   68.9  0.1891 -144.9
 0.800  0.7121  177.7   5.581   83.3  0.0552   70.0  0.1867 -149.0
 0.900  0.7148  175.9   4.982   81.4  0.0614   71.1  0.1864 -151.8
 1.000  0.7164  174.5   4.495   79.7  0.0674   71.6  0.1870 -153.8
 1.100  0.7193  173.1   4.093   77.9  0.0739   72.4  0.1906 -155.6
 1.200  0.7210  171.7   3.761   76.3  0.0797   72.5  0.1923 -157.6
 1.300  0.7248  170.5   3.481   74.8  0.0858   72.3  0.1938 -158.6
 1.400  0.7238  169.5   3.246   73.2  0.0920   72.9  0.1968 -159.3
 1.500  0.7257  168.5   3.032   71.8  0.0980   72.8  0.2012 -160.5
 1.600  0.7282  167.2   2.846   70.3  0.1040   73.1  0.2031 -161.6
 1.700  0.7270  166.2   2.683   68.8  0.1103   72.8  0.2065 -161.8
 1.800  0.7290  165.3   2.543   67.4  0.1163   72.7  0.2095 -162.3
 1.900  0.7292  164.4   2.414   66.2  0.1224   72.9  0.2131 -162.4
 2.000  0.7322  163.3   2.304   64.9  0.1287   72.8  0.2169 -163.0
 2.100  0.7305  162.5   2.204   63.7  0.1345   72.6  0.2194 -162.9
 2.200  0.7290  161.6   2.105   62.4  0.1404   72.4  0.2220 -162.8
 2.300  0.7305  160.7   2.026   61.3  0.1465   72.2  0.2253 -163.0
 2.400  0.7322  159.9   1.947   60.1  0.1527   72.0  0.2286 -163.1
 2.500  0.7317  159.2   1.881   59.0  0.1590   71.7  0.2312 -162.8
 2.600  0.7314  158.4   1.815   57.8  0.1654   71.5  0.2339 -162.6
 2.700  0.7324  157.4   1.758   56.7  0.1717   71.3  0.2370 -162.8
 2.800  0.7336  156.5   1.702   55.5  0.1780   71.1  0.2402 -162.9
 2.900  0.7331  155.7   1.657   54.4  0.1841   70.9  0.2429 -162.4
 3.000  0.7327  154.9   1.613   53.2  0.1902   70.7  0.2457 -161.9
 3.100  0.7327  154.0   1.574   52.2  0.1972   70.3  0.2486 -161.9
 3.200  0.7330  153.2   1.536   51.2  0.2043   69.9  0.2516 -161.9
 3.300  0.7333  152.3   1.498   50.1  0.2114   69.6  0.2545 -162.0
 3.400  0.7339  151.5   1.461   49.0  0.2184   69.3  0.2575 -162.0
 3.500  0.7346  150.6   1.424   47.8  0.2255   69.0  0.2604 -162.0
 3.600  0.7335  149.7   1.398   46.9  0.2322   68.5  0.2630 -162.2
 3.700  0.7326  148.8   1.372   45.9  0.2389   68.0  0.2655 -162.5
 3.800  0.7318  147.9   1.346   44.9  0.2456   67.5  0.2681 -162.7
 3.900  0.7313  147.0   1.321   43.8  0.2523   67.0  0.2706 -162.9
 4.000  0.7309  146.1   1.296   42.7  0.2591   66.6  0.2732 -163.1
 4.100  0.7316  145.2   1.274   41.7  0.2654   65.9  0.2767 -163.7
 4.200  0.7324  144.3   1.252   40.7  0.2718   65.3  0.2802 -164.3
 4.300  0.7335  143.3   1.231   39.6  0.2781   64.7  0.2837 -164.9
 4.400  0.7347  142.4   1.210   38.5  0.2846   64.1  0.2872 -165.4
 4.500  0.7361  141.5   1.189   37.4  0.2910   63.5  0.2908 -166.0
 4.600  0.7362  140.5   1.166   36.6  0.2970   62.9  0.2935 -167.1
 4.700  0.7365  139.4   1.144   35.7  0.3030   62.2  0.2963 -168.1
 4.800  0.7370  138.4   1.122   34.7  0.3090   61.6  0.2992 -169.1
 4.900  0.7378  137.3   1.100   33.8  0.3151   61.1  0.3021 -170.1
 5.000  0.7388  136.3   1.078   32.8  0.3212   60.5  0.3052 -171.1
 5.100  0.7384  135.3   1.063   32.1  0.3267   59.9  0.3085 -172.0
 5.200  0.7382  134.2   1.049   31.3  0.3323   59.3  0.3119 -173.0
 5.300  0.7382  133.2   1.034   30.5  0.3380   58.7  0.3154 -173.9
 5.400  0.7386  132.1   1.020   29.7  0.3436   58.1  0.3190 -174.7
 5.500  0.7391  131.1   1.006   28.9  0.3493   57.6  0.3226 -175.6
 5.600  0.7423  130.2   1.000   28.2  0.3545   56.9  0.3282 -176.7
 5.700  0.7456  129.4   0.993   27.5  0.3597   56.3  0.3339 -177.7
 5.800  0.7492  128.5   0.987   26.8  0.3650   55.6  0.3397 -178.7
 5.900  0.7528  127.6   0.981   26.1  0.3703   55.0  0.3456 -179.7
 6.000  0.7567  126.8   0.975   25.4  0.3757   54.4  0.3516  179.4
!
!  f       NFmin   Gammaopt  rn/50
! GHz       dB    MAG  ANG    -
 0.450      1.41  0.45  180   0.07
 0.900      1.49  0.46 -179   0.07
 1.900      2.06  0.59 -164   0.09
 2.400      2.37  0.61 -156   0.14
!
! (c) 2017  Infineon Technologies AG, Munich