! Infineon Technologies  Discrete & RF Semiconductors
! BFR193F
! VCE =  8.0 V,  IC =  45 mA
! Common Emitter S-Parameters:                            Jan 2017
# GHz  S  MA  R  50
!  f         S11            S21            S12            S22
! GHz     MAG   ANG      MAG   ANG      MAG   ANG      MAG   ANG
 0.010  0.3237  -23.6  69.671  171.7  0.0026   84.8  0.9526   -8.4
 0.020  0.3490  -46.8  67.236  163.7  0.0047   84.3  0.9291  -16.6
 0.030  0.3601  -64.3  63.221  157.9  0.0069   73.6  0.8714  -23.0
 0.040  0.4013  -79.4  59.930  151.4  0.0092   68.1  0.8261  -30.2
 0.050  0.4646  -91.1  57.490  144.3  0.0115   64.8  0.7951  -38.1
 0.060  0.4693  -99.2  53.734  141.3  0.0124   62.2  0.7422  -41.5
 0.070  0.4832 -107.1  50.149  137.8  0.0134   59.9  0.6922  -45.4
 0.080  0.5055 -114.3  46.773  133.9  0.0144   57.9  0.6460  -49.9
 0.090  0.5353 -120.9  43.655  129.3  0.0154   56.2  0.6044  -55.0
 0.100  0.5712 -126.7  40.854  124.1  0.0164   54.7  0.5683  -60.9
 0.110  0.5764 -130.2  38.627  122.4  0.0170   53.8  0.5379  -63.0
 0.120  0.5837 -133.6  36.436  120.6  0.0176   52.9  0.5082  -65.3
 0.130  0.5930 -136.9  34.288  118.5  0.0182   52.1  0.4795  -67.9
 0.140  0.6042 -140.1  32.192  116.1  0.0189   51.3  0.4519  -70.8
 0.150  0.6172 -143.2  30.160  113.4  0.0195   50.6  0.4256  -74.1
 0.200  0.6396 -152.4  23.592  106.9  0.0214   52.6  0.3417  -82.6
 0.250  0.6482 -159.0  19.219  102.5  0.0241   54.2  0.2823  -89.5
 0.300  0.6576 -163.2  16.254   99.3  0.0265   55.9  0.2464  -94.8
 0.350  0.6604 -166.1  14.285   97.3  0.0289   58.0  0.2212  -98.7
 0.400  0.6648 -169.0  12.340   94.6  0.0313   59.7  0.1972 -103.6
 0.450  0.6660 -170.9  11.139   93.2  0.0338   61.5  0.1832 -106.7
 0.500  0.6678 -172.7   9.947   91.4  0.0364   63.0  0.1699 -110.3
 0.600  0.6716 -175.7   8.334   88.7  0.0420   65.1  0.1539 -116.5
 0.700  0.6749 -178.3   7.166   86.4  0.0472   67.4  0.1451 -121.4
 0.800  0.6758  179.9   6.277   84.5  0.0527   68.5  0.1388 -126.1
 0.900  0.6789  177.9   5.602   82.5  0.0581   69.7  0.1356 -129.7
 1.000  0.6812  176.4   5.053   80.7  0.0639   70.3  0.1343 -132.2
 1.100  0.6843  174.9   4.602   79.0  0.0692   71.3  0.1356 -135.0
 1.200  0.6860  173.6   4.228   77.4  0.0752   71.5  0.1362 -137.8
 1.300  0.6885  172.1   3.910   75.8  0.0810   72.2  0.1371 -139.0
 1.400  0.6883  171.2   3.644   74.3  0.0868   72.7  0.1398 -140.2
 1.500  0.6918  170.0   3.406   72.9  0.0922   72.8  0.1429 -142.2
 1.600  0.6933  168.6   3.197   71.4  0.0981   72.8  0.1451 -143.5
 1.700  0.6923  167.5   3.014   69.9  0.1039   73.0  0.1488 -144.3
 1.800  0.6961  166.7   2.854   68.5  0.1095   72.7  0.1525 -144.9
 1.900  0.6949  165.9   2.710   67.3  0.1149   73.1  0.1562 -145.3
 2.000  0.6986  164.6   2.583   66.0  0.1207   73.1  0.1599 -146.2
 2.100  0.6977  163.8   2.469   64.8  0.1264   72.9  0.1632 -146.2
 2.200  0.6969  162.9   2.357   63.5  0.1322   72.7  0.1665 -146.2
 2.300  0.6988  162.0   2.268   62.4  0.1378   72.8  0.1702 -146.5
 2.400  0.7008  161.2   2.179   61.2  0.1435   72.8  0.1739 -146.8
 2.500  0.6997  160.5   2.103   60.0  0.1497   72.6  0.1775 -146.5
 2.600  0.6988  159.7   2.027   58.8  0.1559   72.4  0.1812 -146.2
 2.700  0.7001  158.8   1.962   57.7  0.1620   72.2  0.1851 -146.4
 2.800  0.7016  157.9   1.898   56.5  0.1681   72.0  0.1891 -146.6
 2.900  0.7017  157.0   1.847   55.4  0.1738   71.9  0.1929 -146.1
 3.000  0.7019  156.2   1.796   54.3  0.1796   71.9  0.1967 -145.6
 3.100  0.7020  155.3   1.751   53.3  0.1862   71.6  0.2004 -145.6
 3.200  0.7022  154.5   1.707   52.3  0.1929   71.2  0.2041 -145.7
 3.300  0.7026  153.6   1.664   51.2  0.1996   70.9  0.2077 -145.7
 3.400  0.7031  152.8   1.621   50.0  0.2062   70.7  0.2114 -145.8
 3.500  0.7038  151.9   1.579   48.8  0.2129   70.4  0.2151 -145.8
 3.600  0.7031  151.0   1.548   47.9  0.2194   70.0  0.2183 -146.1
 3.700  0.7027  150.1   1.518   46.9  0.2258   69.5  0.2215 -146.3
 3.800  0.7023  149.3   1.489   45.9  0.2323   69.1  0.2247 -146.5
 3.900  0.7022  148.4   1.460   44.8  0.2388   68.8  0.2280 -146.8
 4.000  0.7022  147.5   1.431   43.7  0.2453   68.4  0.2312 -147.0
 4.100  0.7032  146.6   1.406   42.7  0.2515   67.8  0.2351 -147.7
 4.200  0.7043  145.7   1.381   41.7  0.2577   67.2  0.2391 -148.4
 4.300  0.7057  144.8   1.356   40.6  0.2640   66.7  0.2430 -149.1
 4.400  0.7071  144.0   1.332   39.5  0.2703   66.2  0.2471 -149.8
 4.500  0.7088  143.1   1.309   38.3  0.2766   65.7  0.2511 -150.4
 4.600  0.7091  142.1   1.283   37.4  0.2827   65.1  0.2538 -151.7
 4.700  0.7096  141.0   1.258   36.5  0.2888   64.6  0.2567 -152.9
 4.800  0.7104  140.0   1.233   35.6  0.2949   64.0  0.2596 -154.1
 4.900  0.7114  138.9   1.208   34.6  0.3010   63.5  0.2627 -155.3
 5.000  0.7126  137.9   1.184   33.6  0.3072   63.0  0.2659 -156.5
 5.100  0.7128  136.9   1.167   32.8  0.3130   62.4  0.2691 -157.6
 5.200  0.7132  135.8   1.150   32.1  0.3188   61.9  0.2725 -158.7
 5.300  0.7139  134.8   1.134   31.3  0.3247   61.3  0.2759 -159.8
 5.400  0.7148  133.7   1.117   30.4  0.3306   60.8  0.2795 -160.9
 5.500  0.7159  132.7   1.101   29.6  0.3365   60.3  0.2831 -161.9
 5.600  0.7192  131.8   1.093   28.9  0.3417   59.6  0.2882 -163.2
 5.700  0.7228  131.0   1.085   28.1  0.3470   59.0  0.2935 -164.4
 5.800  0.7264  130.2   1.077   27.4  0.3523   58.4  0.2989 -165.6
 5.900  0.7302  129.3   1.069   26.6  0.3576   57.8  0.3044 -166.8
 6.000  0.7342  128.5   1.062   25.8  0.3630   57.2  0.3101 -167.9
!
!  f       NFmin   Gammaopt  rn/50
! GHz       dB    MAG  ANG    -
 0.450      1.41  0.45  180   0.07
 0.900      1.49  0.46 -179   0.07
 1.900      2.06  0.59 -164   0.09
 2.400      2.37  0.61 -156   0.14
!
! (c) 2017  Infineon Technologies AG, Munich