! Infineon Technologies  Discrete & RF Semiconductors
! BFR193F
! VCE =  12. V,  IC =  35 mA
! Common Emitter S-Parameters:                            Jan 2017
# GHz  S  MA  R  50
!  f         S11            S21            S12            S22
! GHz     MAG   ANG      MAG   ANG      MAG   ANG      MAG   ANG
 0.010  0.4512  -15.6  59.923  172.7  0.0030   77.2  0.9404   -6.9
 0.020  0.4540  -32.6  58.203  165.9  0.0055   73.7  0.9227  -13.7
 0.030  0.4493  -46.5  55.503  160.6  0.0078   68.7  0.8793  -19.3
 0.040  0.4705  -59.8  53.317  154.9  0.0101   66.0  0.8451  -25.4
 0.050  0.5146  -71.5  51.711  148.7  0.0125   64.3  0.8213  -32.0
 0.060  0.5065  -79.7  48.750  145.6  0.0137   61.2  0.7737  -35.3
 0.070  0.5090  -88.0  45.950  142.1  0.0149   58.6  0.7289  -39.0
 0.080  0.5219  -96.1  43.345  138.1  0.0161   56.4  0.6876  -43.1
 0.090  0.5446 -103.6  40.969  133.7  0.0173   54.4  0.6503  -47.8
 0.100  0.5758 -110.4  38.866  128.8  0.0186   52.8  0.6179  -53.0
 0.110  0.5771 -114.6  36.909  127.0  0.0194   51.8  0.5874  -55.0
 0.120  0.5816 -118.8  34.993  125.0  0.0202   50.8  0.5577  -57.2
 0.130  0.5891 -123.0  33.126  122.7  0.0210   50.0  0.5288  -59.6
 0.140  0.5996 -127.0  31.315  120.2  0.0218   49.2  0.5010  -62.3
 0.150  0.6129 -130.8  29.572  117.4  0.0226   48.4  0.4745  -65.3
 0.200  0.6325 -142.7  23.452  110.1  0.0247   47.0  0.3824  -73.3
 0.250  0.6394 -150.8  19.252  105.2  0.0268   49.4  0.3160  -79.1
 0.300  0.6463 -156.3  16.347  101.7  0.0290   52.2  0.2734  -83.7
 0.350  0.6488 -160.0  14.384   99.4  0.0312   53.5  0.2437  -86.7
 0.400  0.6540 -163.7  12.452   96.4  0.0335   54.6  0.2148  -90.6
 0.450  0.6554 -166.1  11.257   94.8  0.0355   56.2  0.1978  -93.1
 0.500  0.6580 -168.5  10.072   92.9  0.0376   57.6  0.1812  -96.0
 0.600  0.6634 -172.2   8.453   89.9  0.0427   60.8  0.1590 -100.9
 0.700  0.6659 -175.2   7.271   87.5  0.0476   62.8  0.1463 -105.3
 0.800  0.6651 -177.4   6.372   85.3  0.0525   64.3  0.1364 -109.7
 0.900  0.6701 -179.6   5.687   83.3  0.0574   65.7  0.1303 -113.0
 1.000  0.6704  178.8   5.129   81.5  0.0630   67.2  0.1274 -115.3
 1.100  0.6748  176.9   4.675   79.6  0.0687   68.3  0.1266 -118.8
 1.200  0.6776  175.3   4.297   77.9  0.0737   68.6  0.1253 -122.0
 1.300  0.6797  173.9   3.974   76.3  0.0796   69.7  0.1257 -123.5
 1.400  0.6791  172.7   3.705   74.7  0.0842   70.1  0.1279 -125.1
 1.500  0.6806  171.5   3.462   73.2  0.0898   70.5  0.1301 -127.7
 1.600  0.6838  170.1   3.250   71.7  0.0955   70.9  0.1314 -129.4
 1.700  0.6822  168.9   3.062   70.2  0.1005   71.0  0.1348 -130.4
 1.800  0.6869  168.1   2.901   68.8  0.1063   71.3  0.1383 -131.4
 1.900  0.6855  167.1   2.754   67.5  0.1114   71.3  0.1418 -132.2
 2.000  0.6892  165.8   2.626   66.2  0.1175   71.7  0.1459 -133.4
 2.100  0.6882  164.9   2.510   65.0  0.1227   71.8  0.1494 -133.8
 2.200  0.6874  164.0   2.395   63.6  0.1279   71.8  0.1530 -134.1
 2.300  0.6891  163.2   2.304   62.5  0.1335   71.9  0.1571 -134.6
 2.400  0.6910  162.4   2.213   61.3  0.1392   72.0  0.1613 -135.0
 2.500  0.6903  161.5   2.135   60.1  0.1450   71.8  0.1655 -134.9
 2.600  0.6898  160.6   2.058   58.9  0.1508   71.7  0.1698 -134.9
 2.700  0.6906  159.7   1.992   57.7  0.1565   71.6  0.1738 -135.4
 2.800  0.6916  158.8   1.927   56.5  0.1623   71.5  0.1779 -135.8
 2.900  0.6920  158.0   1.875   55.4  0.1681   71.6  0.1824 -135.4
 3.000  0.6926  157.2   1.823   54.3  0.1740   71.6  0.1870 -135.0
 3.100  0.6928  156.3   1.777   53.3  0.1805   71.3  0.1911 -135.2
 3.200  0.6933  155.5   1.732   52.2  0.1870   71.1  0.1953 -135.5
 3.300  0.6938  154.6   1.688   51.1  0.1936   70.8  0.1994 -135.7
 3.400  0.6945  153.8   1.644   49.9  0.2001   70.6  0.2036 -135.9
 3.500  0.6954  152.9   1.601   48.7  0.2066   70.4  0.2077 -136.1
 3.600  0.6949  152.0   1.569   47.7  0.2130   70.0  0.2114 -136.5
 3.700  0.6945  151.1   1.538   46.7  0.2193   69.7  0.2151 -136.8
 3.800  0.6943  150.2   1.508   45.7  0.2257   69.4  0.2188 -137.2
 3.900  0.6943  149.3   1.478   44.6  0.2321   69.1  0.2226 -137.5
 4.000  0.6945  148.4   1.448   43.5  0.2385   68.8  0.2263 -137.8
 4.100  0.6954  147.5   1.422   42.5  0.2447   68.2  0.2305 -138.7
 4.200  0.6965  146.6   1.397   41.5  0.2510   67.7  0.2347 -139.5
 4.300  0.6977  145.7   1.372   40.4  0.2572   67.2  0.2390 -140.3
 4.400  0.6991  144.8   1.347   39.3  0.2635   66.8  0.2433 -141.1
 4.500  0.7007  143.9   1.323   38.1  0.2698   66.3  0.2477 -141.8
 4.600  0.7017  142.9   1.297   37.2  0.2759   65.8  0.2503 -143.2
 4.700  0.7029  141.8   1.272   36.3  0.2819   65.3  0.2531 -144.6
 4.800  0.7043  140.8   1.247   35.3  0.2880   64.8  0.2561 -146.0
 4.900  0.7060  139.7   1.222   34.3  0.2942   64.3  0.2592 -147.3
 5.000  0.7079  138.7   1.198   33.3  0.3003   63.9  0.2624 -148.6
 5.100  0.7080  137.6   1.180   32.5  0.3063   63.3  0.2656 -149.8
 5.200  0.7084  136.6   1.162   31.7  0.3123   62.8  0.2689 -151.0
 5.300  0.7090  135.5   1.145   30.9  0.3183   62.3  0.2723 -152.2
 5.400  0.7099  134.5   1.128   30.1  0.3244   61.8  0.2758 -153.4
 5.500  0.7110  133.4   1.111   29.2  0.3305   61.3  0.2794 -154.5
 5.600  0.7144  132.5   1.102   28.5  0.3359   60.7  0.2844 -155.9
 5.700  0.7179  131.7   1.094   27.7  0.3413   60.0  0.2895 -157.3
 5.800  0.7216  130.8   1.086   27.0  0.3467   59.4  0.2948 -158.7
 5.900  0.7255  129.9   1.078   26.2  0.3522   58.9  0.3002 -160.0
 6.000  0.7295  129.1   1.070   25.4  0.3577   58.3  0.3058 -161.2
!
!  f       NFmin   Gammaopt  rn/50
! GHz       dB    MAG  ANG    -
 0.450      1.26  0.42  178   0.06
 0.900      1.35  0.44  178   0.07
 1.900      1.90  0.58 -166   0.08
 2.400      2.20  0.61 -157   0.12
!
! (c) 2017  Infineon Technologies AG, Munich