! Infineon Technologies  Discrete & RF Semiconductors
! BFR193F
! VCE =  1.0 V,  IC =  60 mA
! Common Emitter S-Parameters:                            Jan 2017
# GHz  S  MA  R  50
!  f         S11            S21            S12            S22
! GHz     MAG   ANG      MAG   ANG      MAG   ANG      MAG   ANG
 0.010  0.2608 -115.7  62.308  162.5  0.0049   73.4  0.6917  -25.2
 0.020  0.4538 -126.9  54.883  147.2  0.0083   62.7  0.6341  -47.3
 0.030  0.5307 -137.2  47.166  141.1  0.0100   55.5  0.5437  -58.6
 0.040  0.6203 -144.7  40.177  132.8  0.0118   50.5  0.4820  -73.6
 0.050  0.7178 -150.3  34.364  121.4  0.0136   46.8  0.4609  -91.4
 0.060  0.7307 -153.5  31.224  119.5  0.0141   46.2  0.4298  -96.8
 0.070  0.7458 -156.5  28.129  117.1  0.0146   45.6  0.4029 -102.9
 0.080  0.7629 -159.5  25.093  114.1  0.0152   45.0  0.3814 -109.8
 0.090  0.7819 -162.2  22.142  110.4  0.0157   44.5  0.3660 -117.5
 0.100  0.8027 -164.9  19.315  105.5  0.0162   44.0  0.3576 -125.6
 0.110  0.8074 -166.0  18.080  104.6  0.0167   44.6  0.3499 -128.6
 0.120  0.8124 -167.2  16.850  103.5  0.0173   45.1  0.3431 -131.7
 0.130  0.8177 -168.3  15.628  102.3  0.0178   45.7  0.3375 -134.9
 0.140  0.8233 -169.4  14.413  100.8  0.0184   46.1  0.3329 -138.2
 0.150  0.8292 -170.5  13.210   99.1  0.0189   46.6  0.3294 -141.6
 0.200  0.8329 -173.9   9.982   95.0  0.0219   51.2  0.3165 -150.0
 0.250  0.8385 -176.3   8.005   92.4  0.0241   56.5  0.3109 -156.2
 0.300  0.8404 -177.8   6.697   90.3  0.0274   59.1  0.3088 -159.9
 0.350  0.8406 -179.2   5.860   88.8  0.0307   61.9  0.3071 -162.5
 0.400  0.8413  179.5   5.029   86.8  0.0340   64.2  0.3061 -165.2
 0.450  0.8422  178.6   4.534   85.7  0.0374   65.6  0.3058 -166.7
 0.500  0.8434  177.7   4.042   84.3  0.0409   66.8  0.3057 -168.3
 0.600  0.8450  175.9   3.383   81.8  0.0475   69.0  0.3073 -170.5
 0.700  0.8464  174.3   2.910   79.5  0.0548   69.7  0.3100 -171.8
 0.800  0.8439  173.2   2.549   77.6  0.0614   71.3  0.3128 -173.3
 0.900  0.8474  171.5   2.279   75.6  0.0682   71.8  0.3155 -174.0
 1.000  0.8469  170.4   2.061   73.7  0.0752   72.4  0.3179 -174.7
 1.100  0.8478  169.3   1.880   71.8  0.0825   72.3  0.3227 -175.3
 1.200  0.8476  168.0   1.733   69.9  0.0890   72.5  0.3261 -175.9
 1.300  0.8489  166.8   1.608   68.2  0.0959   72.8  0.3286 -176.2
 1.400  0.8494  165.8   1.505   66.5  0.1026   72.8  0.3320 -176.5
 1.500  0.8509  164.9   1.411   64.9  0.1093   72.7  0.3366 -176.8
 1.600  0.8510  163.6   1.329   63.3  0.1164   72.7  0.3398 -177.3
 1.700  0.8484  162.6   1.256   61.7  0.1229   72.3  0.3426 -177.5
 1.800  0.8496  161.8   1.198   60.2  0.1300   72.4  0.3466 -177.5
 1.900  0.8487  160.9   1.141   58.9  0.1370   72.2  0.3500 -177.5
 2.000  0.8510  159.7   1.093   57.6  0.1439   72.1  0.3545 -177.7
 2.100  0.8493  158.9   1.051   56.4  0.1505   71.8  0.3570 -177.7
 2.200  0.8477  158.0   1.009   55.0  0.1571   71.5  0.3596 -177.7
 2.300  0.8488  157.1   0.975   53.9  0.1641   71.2  0.3632 -177.8
 2.400  0.8500  156.3   0.942   52.7  0.1711   70.9  0.3668 -177.9
 2.500  0.8484  155.5   0.914   51.6  0.1782   70.6  0.3693 -177.8
 2.600  0.8470  154.6   0.887   50.4  0.1853   70.3  0.3718 -177.8
 2.700  0.8469  153.6   0.864   49.4  0.1925   69.9  0.3755 -177.9
 2.800  0.8471  152.7   0.841   48.3  0.1998   69.6  0.3792 -178.0
 2.900  0.8469  151.8   0.823   47.3  0.2068   69.3  0.3823 -177.9
 3.000  0.8469  150.8   0.805   46.2  0.2138   69.0  0.3854 -177.9
 3.100  0.8458  149.9   0.790   45.3  0.2217   68.5  0.3888 -178.1
 3.200  0.8450  149.0   0.775   44.5  0.2296   67.9  0.3922 -178.4
 3.300  0.8444  148.0   0.761   43.5  0.2375   67.5  0.3956 -178.6
 3.400  0.8440  147.1   0.746   42.6  0.2454   67.0  0.3991 -178.8
 3.500  0.8438  146.2   0.732   41.6  0.2534   66.6  0.4025 -179.0
 3.600  0.8419  145.2   0.722   40.9  0.2609   65.9  0.4053 -179.5
 3.700  0.8402  144.2   0.712   40.1  0.2685   65.2  0.4082  180.0
 3.800  0.8389  143.1   0.703   39.3  0.2761   64.5  0.4111  179.5
 3.900  0.8377  142.1   0.693   38.5  0.2837   63.9  0.4140  179.0
 4.000  0.8369  141.1   0.684   37.7  0.2914   63.3  0.4170  178.5
 4.100  0.8361  140.1   0.676   37.0  0.2982   62.4  0.4203  177.7
 4.200  0.8355  139.1   0.667   36.2  0.3050   61.6  0.4237  177.0
 4.300  0.8352  138.1   0.659   35.5  0.3119   60.9  0.4272  176.2
 4.400  0.8352  137.1   0.651   34.7  0.3189   60.1  0.4308  175.5
 4.500  0.8354  136.1   0.643   33.9  0.3259   59.4  0.4344  174.8
 4.600  0.8332  135.0   0.634   33.4  0.3317   58.6  0.4367  173.7
 4.700  0.8313  133.9   0.624   32.8  0.3376   57.8  0.4392  172.7
 4.800  0.8298  132.8   0.615   32.2  0.3436   57.1  0.4418  171.6
 4.900  0.8285  131.6   0.606   31.6  0.3495   56.4  0.4445  170.6
 5.000  0.8276  130.5   0.597   31.0  0.3556   55.7  0.4474  169.6
 5.100  0.8255  129.4   0.592   30.6  0.3609   55.0  0.4502  168.7
 5.200  0.8238  128.4   0.587   30.2  0.3662   54.3  0.4532  167.7
 5.300  0.8223  127.3   0.583   29.8  0.3716   53.6  0.4562  166.8
 5.400  0.8211  126.2   0.578   29.3  0.3770   52.9  0.4594  165.9
 5.500  0.8202  125.1   0.573   28.9  0.3825   52.3  0.4627  165.0
 5.600  0.8209  124.2   0.574   28.6  0.3875   51.6  0.4681  164.0
 5.700  0.8218  123.3   0.575   28.3  0.3925   50.8  0.4737  163.0
 5.800  0.8230  122.3   0.575   28.0  0.3976   50.1  0.4794  162.0
 5.900  0.8243  121.4   0.576   27.7  0.4028   49.5  0.4853  161.0
 6.000  0.8259  120.5   0.577   27.4  0.4080   48.8  0.4913  160.1
!
!  f       NFmin   Gammaopt  rn/50
! GHz       dB    MAG  ANG    -
 0.450      1.64  0.49 -178   0.08
 0.900      1.73  0.50 -177   0.09
 1.900      2.33  0.61 -162   0.10
 2.400      2.66  0.62 -155   0.17
!
! (c) 2017  Infineon Technologies AG, Munich