! Infineon Technologies  Discrete & RF Semiconductors
! BFR193F
! VCE =  2.0 V,  IC =  8.0 mA
! Common Emitter S-Parameters:                            Jan 2017
# GHz  S  MA  R  50
!  f         S11            S21            S12            S22
! GHz     MAG   ANG      MAG   ANG      MAG   ANG      MAG   ANG
 0.010  0.7264   -7.7  24.604  176.4  0.0044   87.8  0.9883   -4.3
 0.020  0.7143  -16.6  24.421  171.8  0.0093   82.8  0.9797   -8.3
 0.030  0.7066  -24.0  23.967  168.1  0.0132   77.0  0.9618  -12.1
 0.040  0.7110  -31.5  23.620  164.2  0.0171   73.9  0.9482  -16.0
 0.050  0.7272  -38.8  23.384  160.2  0.0211   71.9  0.9391  -20.0
 0.060  0.7078  -45.0  22.641  157.2  0.0242   68.1  0.9091  -22.9
 0.070  0.6970  -51.4  21.964  154.0  0.0274   65.2  0.8818  -26.1
 0.080  0.6951  -57.9  21.359  150.6  0.0306   62.9  0.8572  -29.4
 0.090  0.7023  -64.4  20.834  147.0  0.0339   61.0  0.8356  -32.9
 0.100  0.7183  -70.7  20.393  143.3  0.0372   59.5  0.8174  -36.6
 0.110  0.7087  -75.4  19.687  141.2  0.0390   57.2  0.7895  -38.7
 0.120  0.7042  -80.3  19.010  138.9  0.0409   55.2  0.7628  -40.9
 0.130  0.7047  -85.2  18.365  136.4  0.0428   53.3  0.7373  -43.3
 0.140  0.7102  -90.0  17.757  133.8  0.0447   51.6  0.7131  -45.9
 0.150  0.7207  -94.7  17.188  131.0  0.0467   50.0  0.6905  -48.6
 0.200  0.7260 -111.4  14.546  121.9  0.0526   44.0  0.5899  -57.2
 0.250  0.7199 -123.7  12.371  115.1  0.0566   39.2  0.5054  -63.7
 0.300  0.7257 -132.8  10.770  110.1  0.0594   37.3  0.4445  -68.7
 0.350  0.7213 -139.1   9.578  106.8  0.0612   35.9  0.3999  -71.9
 0.400  0.7257 -145.4   8.428  102.5  0.0630   34.6  0.3569  -75.8
 0.450  0.7236 -149.5   7.652  100.2  0.0643   34.5  0.3291  -78.0
 0.500  0.7253 -153.7   6.891   97.3  0.0657   34.4  0.3018  -80.7
 0.600  0.7294 -159.8   5.818   93.0  0.0679   35.2  0.2655  -84.9
 0.700  0.7326 -164.7   5.033   89.6  0.0702   36.2  0.2414  -88.6
 0.800  0.7305 -168.2   4.420   86.6  0.0727   38.2  0.2239  -92.1
 0.900  0.7339 -171.5   3.954   83.9  0.0752   39.8  0.2123  -94.9
 1.000  0.7344 -174.0   3.573   81.4  0.0775   41.7  0.2055  -97.5
 1.100  0.7368 -176.4   3.260   79.0  0.0804   43.4  0.2019 -100.4
 1.200  0.7394 -178.6   3.002   76.7  0.0831   45.1  0.1980 -103.1
 1.300  0.7419  179.5   2.779   74.7  0.0864   46.8  0.1971 -105.0
 1.400  0.7427  178.1   2.591   72.7  0.0891   48.8  0.1989 -107.1
 1.500  0.7446  176.2   2.424   70.7  0.0926   50.4  0.2003 -109.6
 1.600  0.7451  174.6   2.276   68.8  0.0963   52.0  0.2023 -111.6
 1.700  0.7447  173.1   2.145   67.0  0.0999   53.3  0.2065 -113.3
 1.800  0.7482  171.9   2.036   65.2  0.1037   54.8  0.2107 -115.0
 1.900  0.7489  170.7   1.932   63.7  0.1077   56.2  0.2159 -116.5
 2.000  0.7518  169.2   1.844   62.1  0.1117   57.5  0.2205 -118.2
 2.100  0.7512  168.2   1.763   60.6  0.1161   58.5  0.2261 -119.3
 2.200  0.7509  167.1   1.683   59.0  0.1206   59.5  0.2317 -120.3
 2.300  0.7533  166.0   1.619   57.7  0.1253   60.4  0.2379 -121.5
 2.400  0.7560  165.0   1.556   56.3  0.1300   61.3  0.2443 -122.7
 2.500  0.7555  164.1   1.501   55.0  0.1351   62.3  0.2509 -123.6
 2.600  0.7553  163.1   1.447   53.5  0.1402   63.2  0.2575 -124.4
 2.700  0.7570  162.0   1.401   52.2  0.1457   63.8  0.2638 -125.4
 2.800  0.7590  161.0   1.356   50.9  0.1512   64.4  0.2702 -126.4
 2.900  0.7603  160.0   1.320   49.7  0.1567   65.0  0.2769 -127.0
 3.000  0.7619  159.0   1.284   48.4  0.1623   65.6  0.2837 -127.5
 3.100  0.7624  158.0   1.252   47.4  0.1690   65.9  0.2902 -128.4
 3.200  0.7630  157.0   1.221   46.3  0.1756   66.3  0.2967 -129.3
 3.300  0.7640  156.0   1.190   45.1  0.1823   66.6  0.3033 -130.2
 3.400  0.7651  155.0   1.159   43.9  0.1890   66.8  0.3100 -131.0
 3.500  0.7665  154.0   1.129   42.6  0.1957   67.1  0.3167 -131.8
 3.600  0.7663  153.0   1.107   41.7  0.2027   67.1  0.3225 -132.8
 3.700  0.7664  152.0   1.086   40.7  0.2097   67.1  0.3283 -133.8
 3.800  0.7667  150.9   1.064   39.7  0.2167   67.0  0.3343 -134.7
 3.900  0.7672  149.9   1.044   38.7  0.2237   67.0  0.3403 -135.6
 4.000  0.7680  148.9   1.023   37.6  0.2307   67.0  0.3464 -136.5
 4.100  0.7689  147.8   1.005   36.6  0.2381   66.6  0.3523 -137.9
 4.200  0.7701  146.8   0.986   35.6  0.2455   66.3  0.3583 -139.2
 4.300  0.7715  145.7   0.969   34.6  0.2529   66.0  0.3646 -140.5
 4.400  0.7732  144.7   0.951   33.5  0.2603   65.7  0.3710 -141.8
 4.500  0.7752  143.6   0.934   32.4  0.2677   65.4  0.3776 -143.0
 4.600  0.7752  142.4   0.915   31.6  0.2750   64.9  0.3812 -144.7
 4.700  0.7755  141.2   0.897   30.9  0.2822   64.4  0.3852 -146.3
 4.800  0.7762  140.1   0.879   30.0  0.2895   64.0  0.3895 -148.0
 4.900  0.7772  138.9   0.861   29.2  0.2969   63.5  0.3941 -149.6
 5.000  0.7785  137.7   0.843   28.3  0.3042   63.1  0.3990 -151.1
 5.100  0.7777  136.5   0.831   27.7  0.3112   62.5  0.4028 -152.6
 5.200  0.7771  135.4   0.819   27.1  0.3182   61.9  0.4068 -154.1
 5.300  0.7769  134.2   0.807   26.4  0.3253   61.3  0.4112 -155.6
 5.400  0.7771  133.1   0.796   25.8  0.3324   60.8  0.4158 -157.0
 5.500  0.7775  131.9   0.784   25.1  0.3395   60.3  0.4206 -158.4
 5.600  0.7803  130.9   0.779   24.6  0.3458   59.6  0.4267 -160.0
 5.700  0.7834  129.9   0.774   24.1  0.3521   58.9  0.4330 -161.6
 5.800  0.7867  128.9   0.769   23.6  0.3585   58.2  0.4397 -163.1
 5.900  0.7902  127.9   0.764   23.1  0.3649   57.6  0.4467 -164.6
 6.000  0.7940  126.9   0.759   22.6  0.3714   57.0  0.4540 -166.0
!
!  f       NFmin   Gammaopt  rn/50
! GHz       dB    MAG  ANG    -
 0.450      0.84  0.25  124   0.08
 0.900      0.99  0.40  147   0.07
 1.900      1.74  0.61 -177   0.05
 2.400      2.11  0.64 -167   0.08
!
! (c) 2017  Infineon Technologies AG, Munich