! Infineon Technologies  Discrete & RF Semiconductors
! BFR193F
! VCE =  3.0 V,  IC =  85 mA
! Common Emitter S-Parameters:                            Jan 2017
# GHz  S  MA  R  50
!  f         S11            S21            S12            S22
! GHz     MAG   ANG      MAG   ANG      MAG   ANG      MAG   ANG
 0.010  0.1880 -120.5  76.965  167.0  0.0030   74.0  0.8201  -14.5
 0.020  0.3333 -125.0  71.553  154.4  0.0053   73.4  0.7721  -28.6
 0.030  0.4135 -133.9  63.555  148.0  0.0068   65.3  0.6820  -36.6
 0.040  0.5003 -139.8  56.584  139.8  0.0084   60.2  0.6091  -46.8
 0.050  0.5909 -143.9  51.061  129.6  0.0100   56.7  0.5599  -59.2
 0.060  0.6096 -147.6  46.722  127.2  0.0105   55.5  0.5119  -62.7
 0.070  0.6307 -151.1  42.478  124.4  0.0109   54.4  0.4662  -66.9
 0.080  0.6539 -154.3  38.363  120.9  0.0114   53.5  0.4236  -72.0
 0.090  0.6791 -157.3  34.421  116.6  0.0118   52.5  0.3851  -78.2
 0.100  0.7060 -160.1  30.719  111.3  0.0123   51.7  0.3519  -85.6
 0.110  0.7125 -161.5  28.824  110.1  0.0129   52.4  0.3329  -88.0
 0.120  0.7194 -162.9  26.943  108.8  0.0135   53.1  0.3146  -90.7
 0.130  0.7267 -164.3  25.078  107.3  0.0140   53.7  0.2970  -93.7
 0.140  0.7345 -165.7  23.233  105.6  0.0146   54.3  0.2803  -97.1
 0.150  0.7426 -167.0  21.414  103.5  0.0152   54.8  0.2648 -100.9
 0.200  0.7536 -171.0  16.283   98.7  0.0176   58.7  0.2200 -110.8
 0.250  0.7611 -173.8  13.110   95.6  0.0202   62.0  0.1927 -119.5
 0.300  0.7660 -175.7  11.004   93.3  0.0233   65.5  0.1788 -125.5
 0.350  0.7671 -177.2   9.635   91.7  0.0262   67.6  0.1693 -129.9
 0.400  0.7688 -178.7   8.275   89.6  0.0291   69.3  0.1610 -134.8
 0.450  0.7699 -179.7   7.459   88.4  0.0318   70.7  0.1571 -137.7
 0.500  0.7712  179.3   6.647   87.0  0.0346   71.9  0.1537 -140.8
 0.600  0.7734  177.5   5.564   84.6  0.0413   72.5  0.1516 -145.5
 0.700  0.7752  175.7   4.781   82.4  0.0475   74.3  0.1522 -148.2
 0.800  0.7752  174.5   4.184   80.6  0.0535   75.1  0.1537 -151.0
 0.900  0.7784  172.9   3.735   78.7  0.0601   75.6  0.1559 -152.7
 1.000  0.7787  171.8   3.370   76.9  0.0660   76.0  0.1583 -153.4
 1.100  0.7803  170.6   3.070   75.2  0.0720   76.2  0.1634 -154.3
 1.200  0.7808  169.3   2.820   73.4  0.0785   76.0  0.1673 -155.6
 1.300  0.7834  168.2   2.612   71.8  0.0844   76.3  0.1705 -155.9
 1.400  0.7822  167.2   2.438   70.2  0.0904   76.4  0.1749 -155.9
 1.500  0.7854  166.2   2.278   68.7  0.0966   76.7  0.1809 -156.5
 1.600  0.7854  165.1   2.140   67.2  0.1033   76.3  0.1855 -157.2
 1.700  0.7845  164.0   2.019   65.7  0.1093   76.1  0.1900 -157.1
 1.800  0.7865  163.3   1.916   64.2  0.1152   76.1  0.1954 -157.1
 1.900  0.7859  162.5   1.820   62.9  0.1217   75.6  0.2004 -157.1
 2.000  0.7889  161.3   1.739   61.6  0.1278   75.9  0.2062 -157.2
 2.100  0.7878  160.5   1.665   60.4  0.1341   75.6  0.2107 -157.0
 2.200  0.7868  159.6   1.592   59.0  0.1405   75.3  0.2152 -156.8
 2.300  0.7885  158.7   1.534   57.8  0.1467   75.1  0.2203 -156.9
 2.400  0.7904  157.9   1.476   56.6  0.1530   75.0  0.2255 -157.0
 2.500  0.7890  157.2   1.426   55.4  0.1596   74.7  0.2301 -156.7
 2.600  0.7878  156.4   1.377   54.2  0.1662   74.4  0.2348 -156.4
 2.700  0.7888  155.4   1.335   53.0  0.1728   74.1  0.2399 -156.6
 2.800  0.7901  154.5   1.294   51.8  0.1794   73.8  0.2451 -156.7
 2.900  0.7895  153.7   1.261   50.8  0.1857   73.5  0.2497 -156.3
 3.000  0.7891  152.8   1.229   49.7  0.1921   73.3  0.2544 -156.0
 3.100  0.7888  151.9   1.200   48.7  0.1996   72.9  0.2592 -156.2
 3.200  0.7886  151.0   1.172   47.7  0.2071   72.5  0.2639 -156.3
 3.300  0.7887  150.1   1.144   46.6  0.2146   72.1  0.2687 -156.4
 3.400  0.7890  149.2   1.117   45.5  0.2222   71.7  0.2734 -156.6
 3.500  0.7894  148.3   1.090   44.3  0.2297   71.4  0.2782 -156.7
 3.600  0.7883  147.4   1.071   43.4  0.2367   70.8  0.2822 -157.1
 3.700  0.7874  146.4   1.052   42.5  0.2438   70.2  0.2862 -157.5
 3.800  0.7867  145.5   1.033   41.5  0.2509   69.6  0.2902 -157.9
 3.900  0.7862  144.5   1.014   40.5  0.2580   69.1  0.2942 -158.3
 4.000  0.7859  143.6   0.996   39.5  0.2651   68.6  0.2982 -158.7
 4.100  0.7857  142.6   0.980   38.6  0.2720   67.9  0.3029 -159.5
 4.200  0.7857  141.6   0.964   37.6  0.2789   67.1  0.3077 -160.3
 4.300  0.7860  140.7   0.948   36.7  0.2858   66.5  0.3125 -161.1
 4.400  0.7865  139.7   0.933   35.6  0.2928   65.8  0.3174 -161.8
 4.500  0.7872  138.7   0.918   34.6  0.2998   65.2  0.3223 -162.5
 4.600  0.7864  137.6   0.901   33.9  0.3061   64.5  0.3256 -163.7
 4.700  0.7860  136.6   0.883   33.1  0.3124   63.8  0.3291 -164.9
 4.800  0.7857  135.5   0.866   32.3  0.3187   63.1  0.3327 -166.1
 4.900  0.7858  134.5   0.850   31.5  0.3251   62.5  0.3365 -167.3
 5.000  0.7861  133.4   0.833   30.6  0.3315   61.9  0.3404 -168.4
 5.100  0.7851  132.3   0.823   30.0  0.3374   61.2  0.3444 -169.5
 5.200  0.7844  131.2   0.812   29.4  0.3434   60.5  0.3485 -170.6
 5.300  0.7840  130.2   0.802   28.7  0.3495   59.9  0.3527 -171.6
 5.400  0.7839  129.1   0.792   28.1  0.3556   59.2  0.3570 -172.6
 5.500  0.7840  128.0   0.782   27.4  0.3617   58.6  0.3614 -173.6
 5.600  0.7859  127.1   0.778   26.9  0.3671   57.8  0.3676 -174.8
 5.700  0.7881  126.3   0.774   26.3  0.3726   57.1  0.3739 -176.0
 5.800  0.7904  125.4   0.770   25.8  0.3782   56.4  0.3805 -177.1
 5.900  0.7928  124.5   0.767   25.3  0.3838   55.7  0.3871 -178.2
 6.000  0.7955  123.7   0.763   24.7  0.3895   55.0  0.3939 -179.3
!
!  f       NFmin   Gammaopt  rn/50
! GHz       dB    MAG  ANG    -
!
! noise parameter not available yet for this operation point!
!
! (c) 2017  Infineon Technologies AG, Munich