! Infineon Technologies  Discrete & RF Semiconductors
! BFR193F
! VCE =  5.0 V,  IC =  20 mA
! Common Emitter S-Parameters:                            Jan 2017
# GHz  S  MA  R  50
!  f         S11            S21            S12            S22
! GHz     MAG   ANG      MAG   ANG      MAG   ANG      MAG   ANG
 0.010  0.4977  -13.6  47.152  174.2  0.0033   87.7  0.9771   -6.4
 0.020  0.4946  -28.3  46.037  167.9  0.0067   80.8  0.9611  -12.5
 0.030  0.4894  -40.5  44.370  163.0  0.0091   73.4  0.9242  -17.8
 0.040  0.5063  -52.5  43.057  157.7  0.0116   69.2  0.8957  -23.4
 0.050  0.5433  -63.2  42.132  152.1  0.0142   66.5  0.8764  -29.4
 0.060  0.5330  -71.2  40.001  148.9  0.0159   63.4  0.8313  -32.8
 0.070  0.5335  -79.4  38.006  145.4  0.0176   60.9  0.7895  -36.5
 0.080  0.5447  -87.4  36.171  141.5  0.0193   58.8  0.7514  -40.7
 0.090  0.5660  -94.9  34.521  137.2  0.0210   57.1  0.7176  -45.2
 0.100  0.5962 -101.8  33.084  132.5  0.0228   55.6  0.6888  -50.2
 0.110  0.5959 -106.4  31.531  130.6  0.0237   53.8  0.6569  -52.4
 0.120  0.5993 -110.9  30.016  128.5  0.0246   52.1  0.6260  -54.7
 0.130  0.6064 -115.3  28.547  126.1  0.0256   50.5  0.5963  -57.3
 0.140  0.6171 -119.6  27.130  123.6  0.0265   49.1  0.5680  -60.2
 0.150  0.6311 -123.8  25.774  120.7  0.0275   47.7  0.5413  -63.4
 0.200  0.6522 -137.0  20.725  112.8  0.0295   45.5  0.4421  -72.1
 0.250  0.6633 -146.0  17.133  107.5  0.0325   45.3  0.3689  -78.9
 0.300  0.6714 -152.3  14.609  103.5  0.0349   46.1  0.3208  -84.2
 0.350  0.6735 -156.6  12.889  101.0  0.0369   47.0  0.2868  -87.7
 0.400  0.6794 -160.8  11.201   97.7  0.0390   47.8  0.2541  -92.1
 0.450  0.6809 -163.5  10.129   96.0  0.0409   49.4  0.2342  -95.0
 0.500  0.6840 -166.2   9.069   93.8  0.0429   50.9  0.2150  -98.5
 0.600  0.6884 -170.1   7.615   90.6  0.0468   54.3  0.1904 -103.9
 0.700  0.6910 -173.6   6.556   87.9  0.0517   56.6  0.1756 -108.7
 0.800  0.6908 -176.0   5.748   85.6  0.0564   58.6  0.1648 -113.2
 0.900  0.6960 -178.5   5.133   83.4  0.0604   60.2  0.1578 -116.7
 1.000  0.6950  179.6   4.631   81.4  0.0656   62.0  0.1541 -119.4
 1.100  0.6996  177.8   4.219   79.4  0.0706   63.3  0.1534 -122.6
 1.200  0.7026  176.2   3.880   77.7  0.0756   64.5  0.1518 -125.5
 1.300  0.7050  174.7   3.590   75.9  0.0808   65.3  0.1519 -127.2
 1.400  0.7050  173.5   3.348   74.3  0.0856   66.0  0.1539 -128.9
 1.500  0.7070  172.1   3.127   72.7  0.0913   66.6  0.1563 -131.2
 1.600  0.7087  170.7   2.937   71.1  0.0964   67.2  0.1582 -132.8
 1.700  0.7081  169.4   2.766   69.5  0.1014   67.8  0.1621 -133.8
 1.800  0.7112  168.5   2.622   68.0  0.1074   68.2  0.1655 -135.0
 1.900  0.7107  167.5   2.489   66.8  0.1126   68.5  0.1696 -135.7
 2.000  0.7143  166.3   2.373   65.3  0.1180   69.1  0.1732 -136.8
 2.100  0.7137  165.4   2.269   64.1  0.1233   69.3  0.1772 -137.2
 2.200  0.7132  164.4   2.167   62.7  0.1287   69.4  0.1812 -137.6
 2.300  0.7147  163.4   2.084   61.5  0.1343   69.6  0.1854 -138.1
 2.400  0.7164  162.5   2.002   60.3  0.1399   69.7  0.1897 -138.6
 2.500  0.7156  161.7   1.932   59.1  0.1455   69.8  0.1943 -138.7
 2.600  0.7150  160.8   1.863   57.8  0.1511   69.8  0.1990 -138.7
 2.700  0.7163  159.9   1.804   56.6  0.1571   69.9  0.2034 -139.2
 2.800  0.7178  159.0   1.745   55.4  0.1632   70.0  0.2079 -139.7
 2.900  0.7186  158.1   1.699   54.3  0.1689   70.1  0.2125 -139.5
 3.000  0.7195  157.2   1.653   53.1  0.1746   70.1  0.2172 -139.3
 3.100  0.7198  156.3   1.612   52.1  0.1813   69.9  0.2217 -139.6
 3.200  0.7202  155.4   1.571   51.0  0.1880   69.8  0.2262 -139.9
 3.300  0.7208  154.5   1.531   49.9  0.1946   69.7  0.2307 -140.2
 3.400  0.7216  153.6   1.492   48.7  0.2013   69.5  0.2352 -140.5
 3.500  0.7226  152.7   1.453   47.5  0.2080   69.4  0.2397 -140.8
 3.600  0.7219  151.8   1.425   46.5  0.2146   69.1  0.2436 -141.3
 3.700  0.7214  150.9   1.397   45.5  0.2213   68.7  0.2476 -141.7
 3.800  0.7211  149.9   1.370   44.5  0.2279   68.4  0.2516 -142.2
 3.900  0.7210  149.0   1.343   43.4  0.2345   68.2  0.2556 -142.6
 4.000  0.7211  148.1   1.317   42.3  0.2412   67.9  0.2596 -143.0
 4.100  0.7222  147.2   1.294   41.3  0.2477   67.4  0.2641 -143.9
 4.200  0.7236  146.2   1.271   40.3  0.2541   66.9  0.2686 -144.8
 4.300  0.7251  145.3   1.248   39.2  0.2606   66.4  0.2732 -145.7
 4.400  0.7268  144.3   1.226   38.1  0.2672   65.9  0.2779 -146.5
 4.500  0.7287  143.4   1.205   36.9  0.2737   65.5  0.2826 -147.3
 4.600  0.7290  142.3   1.181   36.1  0.2801   65.0  0.2856 -148.7
 4.700  0.7296  141.2   1.158   35.2  0.2866   64.4  0.2888 -150.1
 4.800  0.7304  140.2   1.135   34.3  0.2930   63.9  0.2921 -151.4
 4.900  0.7315  139.1   1.112   33.3  0.2995   63.5  0.2956 -152.7
 5.000  0.7329  138.0   1.090   32.3  0.3060   63.0  0.2992 -154.0
 5.100  0.7329  136.9   1.074   31.5  0.3121   62.4  0.3028 -155.2
 5.200  0.7332  135.8   1.059   30.8  0.3182   61.9  0.3065 -156.4
 5.300  0.7337  134.8   1.044   30.0  0.3243   61.3  0.3103 -157.6
 5.400  0.7345  133.7   1.029   29.1  0.3304   60.8  0.3143 -158.8
 5.500  0.7356  132.6   1.014   28.3  0.3366   60.3  0.3184 -159.9
 5.600  0.7389  131.7   1.006   27.6  0.3422   59.6  0.3239 -161.3
 5.700  0.7423  130.8   0.999   26.9  0.3478   59.0  0.3295 -162.7
 5.800  0.7459  129.9   0.992   26.2  0.3535   58.4  0.3354 -164.0
 5.900  0.7497  129.1   0.985   25.4  0.3592   57.8  0.3414 -165.3
 6.000  0.7537  128.2   0.978   24.7  0.3650   57.2  0.3476 -166.5
!
!  f       NFmin   Gammaopt  rn/50
! GHz       dB    MAG  ANG    -
 0.450      1.04  0.33  168   0.06
 0.900      1.12  0.39  169   0.07
 1.900      1.71  0.57 -171   0.06
 2.400      2.01  0.61 -161   0.10
!
! (c) 2017  Infineon Technologies AG, Munich