! Infineon Technologies  Discrete & RF Semiconductors
! BFR193F
! VCE =  7.0 V,  IC =  25 mA
! Common Emitter S-Parameters:                            Jan 2017
# GHz  S  MA  R  50
!  f         S11            S21            S12            S22
! GHz     MAG   ANG      MAG   ANG      MAG   ANG      MAG   ANG
 0.010  0.4589  -14.9  53.151  173.6  0.0031   83.3  0.9719   -6.7
 0.020  0.4612  -31.1  52.123  167.0  0.0060   83.3  0.9542  -13.1
 0.030  0.4572  -44.3  49.893  161.9  0.0082   74.6  0.9139  -18.6
 0.040  0.4772  -57.1  48.091  156.4  0.0106   69.6  0.8827  -24.6
 0.050  0.5184  -68.3  46.767  150.5  0.0130   66.5  0.8618  -30.9
 0.060  0.5102  -76.5  44.243  147.3  0.0145   63.3  0.8146  -34.2
 0.070  0.5127  -84.8  41.869  143.8  0.0160   60.6  0.7704  -37.9
 0.080  0.5257  -92.9  39.672  139.9  0.0175   58.5  0.7299  -42.1
 0.090  0.5485 -100.4  37.683  135.5  0.0191   56.6  0.6936  -46.7
 0.100  0.5799 -107.2  35.937  130.7  0.0207   55.1  0.6623  -51.8
 0.110  0.5817 -111.6  34.192  128.8  0.0215   53.8  0.6305  -53.9
 0.120  0.5868 -115.9  32.488  126.8  0.0224   52.6  0.5997  -56.2
 0.130  0.5953 -120.1  30.830  124.5  0.0233   51.4  0.5700  -58.8
 0.140  0.6068 -124.2  29.228  121.9  0.0241   50.4  0.5416  -61.6
 0.150  0.6213 -128.1  27.689  119.1  0.0250   49.4  0.5146  -64.8
 0.200  0.6427 -140.5  22.103  111.5  0.0274   48.1  0.4191  -73.3
 0.250  0.6511 -149.0  18.208  106.4  0.0295   47.7  0.3472  -79.9
 0.300  0.6614 -154.7  15.495  102.6  0.0313   48.9  0.3010  -84.9
 0.350  0.6635 -158.6  13.657  100.2  0.0334   50.2  0.2690  -88.3
 0.400  0.6686 -162.5  11.849   97.1  0.0355   51.4  0.2382  -92.6
 0.450  0.6701 -165.1  10.708   95.4  0.0377   53.3  0.2194  -95.4
 0.500  0.6730 -167.6   9.579   93.4  0.0399   54.9  0.2013  -98.8
 0.600  0.6760 -171.4   8.044   90.3  0.0448   57.2  0.1783 -104.1
 0.700  0.6801 -174.6   6.922   87.7  0.0492   60.0  0.1645 -108.6
 0.800  0.6795 -176.9   6.066   85.5  0.0541   61.7  0.1536 -113.1
 0.900  0.6840 -179.1   5.416   83.4  0.0591   63.8  0.1473 -116.5
 1.000  0.6851  179.0   4.885   81.5  0.0642   64.6  0.1441 -119.3
 1.100  0.6885  177.4   4.453   79.6  0.0696   65.9  0.1434 -122.7
 1.200  0.6920  175.6   4.091   77.9  0.0748   66.6  0.1422 -125.6
 1.300  0.6915  174.3   3.786   76.2  0.0796   67.5  0.1419 -127.0
 1.400  0.6932  173.0   3.529   74.6  0.0853   68.2  0.1437 -128.8
 1.500  0.6951  171.7   3.297   73.1  0.0907   68.7  0.1468 -131.1
 1.600  0.6982  170.3   3.093   71.5  0.0955   69.2  0.1482 -132.9
 1.700  0.6971  169.1   2.916   70.0  0.1010   69.8  0.1520 -133.9
 1.800  0.7008  168.2   2.764   68.5  0.1070   70.1  0.1552 -135.0
 1.900  0.7002  167.2   2.624   67.3  0.1127   70.1  0.1591 -135.6
 2.000  0.7035  165.9   2.503   65.9  0.1177   70.4  0.1629 -136.7
 2.100  0.7024  165.1   2.392   64.7  0.1232   70.6  0.1666 -137.1
 2.200  0.7014  164.2   2.282   63.3  0.1287   70.7  0.1703 -137.5
 2.300  0.7031  163.3   2.195   62.2  0.1344   70.8  0.1743 -138.0
 2.400  0.7050  162.4   2.109   61.0  0.1402   70.9  0.1783 -138.5
 2.500  0.7051  161.5   2.036   59.8  0.1459   70.9  0.1826 -138.4
 2.600  0.7053  160.7   1.964   58.5  0.1516   70.9  0.1870 -138.4
 2.700  0.7061  159.8   1.900   57.3  0.1575   70.8  0.1913 -138.8
 2.800  0.7070  158.9   1.837   56.1  0.1634   70.8  0.1957 -139.2
 2.900  0.7071  158.0   1.787   55.0  0.1689   70.9  0.2001 -138.9
 3.000  0.7074  157.2   1.738   53.8  0.1744   70.9  0.2046 -138.7
 3.100  0.7076  156.3   1.695   52.8  0.1811   70.7  0.2088 -139.0
 3.200  0.7079  155.4   1.653   51.8  0.1879   70.5  0.2130 -139.2
 3.300  0.7084  154.5   1.611   50.7  0.1946   70.3  0.2172 -139.4
 3.400  0.7091  153.6   1.570   49.6  0.2014   70.2  0.2214 -139.7
 3.500  0.7099  152.7   1.529   48.4  0.2081   70.0  0.2256 -139.9
 3.600  0.7093  151.8   1.499   47.4  0.2146   69.6  0.2294 -140.3
 3.700  0.7089  150.9   1.470   46.4  0.2211   69.3  0.2332 -140.7
 3.800  0.7087  150.0   1.441   45.4  0.2276   68.9  0.2370 -141.1
 3.900  0.7087  149.1   1.412   44.3  0.2341   68.6  0.2408 -141.5
 4.000  0.7088  148.2   1.384   43.2  0.2406   68.3  0.2446 -141.9
 4.100  0.7100  147.3   1.359   42.2  0.2469   67.8  0.2489 -142.8
 4.200  0.7114  146.3   1.335   41.2  0.2532   67.3  0.2532 -143.6
 4.300  0.7129  145.4   1.312   40.1  0.2596   66.8  0.2576 -144.4
 4.400  0.7147  144.5   1.289   39.0  0.2659   66.3  0.2620 -145.2
 4.500  0.7166  143.6   1.266   37.8  0.2723   65.9  0.2665 -145.9
 4.600  0.7170  142.5   1.241   36.9  0.2785   65.3  0.2693 -147.3
 4.700  0.7177  141.5   1.217   36.0  0.2848   64.8  0.2723 -148.7
 4.800  0.7186  140.4   1.192   35.1  0.2911   64.3  0.2755 -150.0
 4.900  0.7197  139.4   1.169   34.1  0.2974   63.8  0.2788 -151.3
 5.000  0.7211  138.3   1.145   33.1  0.3037   63.3  0.2822 -152.6
 5.100  0.7210  137.2   1.129   32.3  0.3098   62.8  0.2854 -153.8
 5.200  0.7211  136.1   1.112   31.6  0.3158   62.2  0.2888 -155.0
 5.300  0.7215  135.1   1.096   30.8  0.3219   61.7  0.2923 -156.2
 5.400  0.7221  134.0   1.081   29.9  0.3281   61.3  0.2960 -157.4
 5.500  0.7230  132.9   1.065   29.1  0.3342   60.8  0.2997 -158.5
 5.600  0.7266  132.0   1.057   28.4  0.3397   60.1  0.3050 -159.9
 5.700  0.7303  131.2   1.049   27.7  0.3452   59.5  0.3105 -161.2
 5.800  0.7343  130.3   1.041   26.9  0.3508   58.9  0.3161 -162.5
 5.900  0.7384  129.4   1.033   26.2  0.3564   58.3  0.3219 -163.8
 6.000  0.7426  128.6   1.026   25.4  0.3621   57.7  0.3278 -165.0
!
!  f       NFmin   Gammaopt  rn/50
! GHz       dB    MAG  ANG    -
 0.450      1.11  0.36  173   0.06
 0.900      1.19  0.41  174   0.06
 1.900      1.77  0.57 -169   0.07
 2.400      2.06  0.61 -160   0.11
!
! (c) 2017  Infineon Technologies AG, Munich