! Infineon Technologies  Discrete & RF Semiconductors
! BFR193F
! VCE =  2.0 V,  IC =  25 mA
! Common Emitter S-Parameters:                            Jan 2017
# GHz  S  MA  R  50
!  f         S11            S21            S12            S22
! GHz     MAG   ANG      MAG   ANG      MAG   ANG      MAG   ANG
 0.010  0.3736  -21.7  54.203  172.8  0.0036   83.9  0.9650   -8.8
 0.020  0.3893  -43.0  52.987  164.9  0.0064   76.8  0.9426  -17.2
 0.030  0.3981  -59.5  50.025  159.2  0.0092   69.2  0.8881  -24.0
 0.040  0.4372  -74.2  47.613  152.9  0.0121   65.2  0.8475  -31.5
 0.050  0.4995  -85.8  45.837  146.0  0.0150   62.7  0.8228  -39.6
 0.060  0.5015  -94.1  42.966  142.9  0.0164   59.2  0.7692  -43.5
 0.070  0.5140 -102.3  40.236  139.4  0.0179   56.3  0.7196  -48.0
 0.080  0.5362 -109.8  37.678  135.4  0.0194   53.8  0.6751  -53.1
 0.090  0.5670 -116.7  35.329  130.9  0.0209   51.7  0.6367  -58.9
 0.100  0.6050 -122.8  33.235  125.7  0.0225   49.9  0.6055  -65.3
 0.110  0.6108 -126.5  31.480  124.0  0.0231   49.2  0.5748  -67.9
 0.120  0.6191 -130.2  29.757  122.0  0.0238   48.5  0.5455  -70.7
 0.130  0.6298 -133.7  28.072  119.9  0.0244   47.9  0.5176  -73.9
 0.140  0.6429 -137.1  26.432  117.5  0.0251   47.3  0.4915  -77.4
 0.150  0.6581 -140.4  24.846  114.7  0.0257   46.7  0.4674  -81.3
 0.200  0.6821 -150.3  19.499  107.7  0.0287   45.5  0.3852  -92.4
 0.250  0.6929 -157.2  15.944  103.2  0.0307   46.9  0.3273 -101.6
 0.300  0.7011 -161.6  13.484   99.8  0.0332   48.8  0.2936 -108.6
 0.350  0.7039 -164.8  11.859   97.6  0.0355   50.9  0.2701 -113.8
 0.400  0.7089 -168.0  10.257   94.7  0.0378   52.7  0.2492 -119.9
 0.450  0.7110 -170.0   9.260   93.2  0.0403   54.2  0.2368 -123.8
 0.500  0.7139 -172.0   8.272   91.3  0.0428   55.5  0.2257 -128.2
 0.600  0.7166 -175.3   6.931   88.4  0.0474   58.2  0.2133 -134.8
 0.700  0.7211 -178.0   5.964   85.9  0.0529   60.8  0.2072 -139.7
 0.800  0.7194 -179.8   5.222   83.8  0.0587   62.1  0.2039 -144.2
 0.900  0.7253  178.2   4.664   81.8  0.0634   63.8  0.2019 -147.2
 1.000  0.7242  176.7   4.208   79.9  0.0698   65.2  0.2017 -149.6
 1.100  0.7279  174.9   3.832   78.1  0.0753   65.7  0.2044 -151.8
 1.200  0.7296  173.5   3.522   76.3  0.0811   66.3  0.2059 -153.9
 1.300  0.7324  172.1   3.260   74.7  0.0869   67.6  0.2071 -155.1
 1.400  0.7308  171.0   3.042   73.0  0.0925   67.9  0.2101 -156.0
 1.500  0.7345  169.7   2.840   71.5  0.0981   68.6  0.2136 -157.5
 1.600  0.7360  168.5   2.667   70.0  0.1044   68.7  0.2162 -158.7
 1.700  0.7344  167.2   2.515   68.4  0.1106   68.8  0.2195 -159.1
 1.800  0.7376  166.4   2.384   67.0  0.1165   69.0  0.2233 -159.7
 1.900  0.7376  165.4   2.264   65.7  0.1221   69.3  0.2264 -160.0
 2.000  0.7409  164.3   2.162   64.3  0.1282   69.5  0.2309 -160.6
 2.100  0.7389  163.4   2.068   63.1  0.1341   69.4  0.2333 -160.7
 2.200  0.7372  162.4   1.975   61.8  0.1401   69.4  0.2357 -160.8
 2.300  0.7390  161.5   1.901   60.6  0.1460   69.5  0.2393 -161.0
 2.400  0.7409  160.7   1.828   59.4  0.1520   69.5  0.2430 -161.2
 2.500  0.7404  159.9   1.767   58.2  0.1582   69.4  0.2461 -161.0
 2.600  0.7400  159.0   1.706   57.0  0.1644   69.3  0.2492 -160.9
 2.700  0.7408  158.1   1.652   55.8  0.1706   69.1  0.2527 -161.1
 2.800  0.7418  157.2   1.599   54.6  0.1768   69.0  0.2562 -161.2
 2.900  0.7417  156.4   1.558   53.5  0.1830   68.9  0.2591 -160.9
 3.000  0.7417  155.5   1.517   52.4  0.1892   68.9  0.2621 -160.6
 3.100  0.7417  154.6   1.481   51.4  0.1962   68.6  0.2655 -160.7
 3.200  0.7418  153.7   1.445   50.3  0.2033   68.3  0.2689 -160.8
 3.300  0.7421  152.8   1.410   49.2  0.2103   68.0  0.2724 -160.9
 3.400  0.7426  151.9   1.376   48.0  0.2174   67.7  0.2758 -161.0
 3.500  0.7433  151.0   1.342   46.8  0.2244   67.5  0.2792 -161.1
 3.600  0.7424  150.1   1.317   45.9  0.2312   67.0  0.2821 -161.4
 3.700  0.7418  149.2   1.292   44.9  0.2380   66.5  0.2849 -161.8
 3.800  0.7413  148.2   1.268   43.9  0.2448   66.1  0.2878 -162.1
 3.900  0.7410  147.3   1.244   42.8  0.2516   65.7  0.2907 -162.4
 4.000  0.7409  146.4   1.221   41.7  0.2584   65.3  0.2936 -162.7
 4.100  0.7415  145.5   1.201   40.7  0.2648   64.7  0.2974 -163.4
 4.200  0.7422  144.6   1.181   39.7  0.2713   64.1  0.3013 -164.0
 4.300  0.7431  143.6   1.161   38.6  0.2778   63.5  0.3051 -164.6
 4.400  0.7443  142.7   1.142   37.5  0.2843   63.0  0.3091 -165.2
 4.500  0.7456  141.8   1.123   36.4  0.2909   62.5  0.3130 -165.8
 4.600  0.7454  140.7   1.101   35.6  0.2969   61.9  0.3159 -166.9
 4.700  0.7456  139.7   1.080   34.7  0.3030   61.3  0.3189 -168.0
 4.800  0.7459  138.6   1.059   33.8  0.3091   60.7  0.3221 -169.1
 4.900  0.7465  137.6   1.038   32.9  0.3152   60.1  0.3253 -170.2
 5.000  0.7474  136.5   1.018   31.9  0.3214   59.6  0.3287 -171.2
 5.100  0.7470  135.4   1.004   31.2  0.3271   59.0  0.3321 -172.2
 5.200  0.7469  134.3   0.990   30.4  0.3329   58.5  0.3356 -173.1
 5.300  0.7471  133.3   0.977   29.7  0.3387   57.9  0.3392 -174.0
 5.400  0.7475  132.2   0.963   28.9  0.3445   57.4  0.3428 -174.9
 5.500  0.7482  131.1   0.950   28.1  0.3504   56.9  0.3466 -175.8
 5.600  0.7512  130.2   0.944   27.4  0.3556   56.2  0.3525 -176.9
 5.700  0.7545  129.3   0.938   26.7  0.3609   55.5  0.3585 -178.0
 5.800  0.7579  128.4   0.932   26.0  0.3663   54.9  0.3646 -179.0
 5.900  0.7614  127.6   0.927   25.3  0.3717   54.2  0.3708  180.0
 6.000  0.7652  126.7   0.921   24.6  0.3771   53.6  0.3772  179.0
!
!  f       NFmin   Gammaopt  rn/50
! GHz       dB    MAG  ANG    -
 0.450      1.11  0.36  173   0.06
 0.900      1.19  0.41  174   0.06
 1.900      1.77  0.57 -169   0.07
 2.400      2.06  0.61 -160   0.11
!
! (c) 2017  Infineon Technologies AG, Munich