! Infineon Technologies  Discrete & RF Semiconductors
! BFR193F
! VCE =  6.0 V,  IC =  45 mA
! Common Emitter S-Parameters:                            Jan 2017
# GHz  S  MA  R  50
!  f         S11            S21            S12            S22
! GHz     MAG   ANG      MAG   ANG      MAG   ANG      MAG   ANG
 0.010  0.2751  -28.2  70.780  171.6  0.0026   83.3  0.9524   -8.9
 0.020  0.3129  -53.6  68.190  163.2  0.0051   78.4  0.9317  -17.8
 0.030  0.3333  -72.3  63.847  157.3  0.0072   69.9  0.8686  -24.4
 0.040  0.3836  -87.5  60.283  150.5  0.0093   65.3  0.8187  -32.0
 0.050  0.4541  -98.6  57.644  143.1  0.0115   62.4  0.7847  -40.3
 0.060  0.4638 -106.4  53.756  140.1  0.0124   60.0  0.7305  -43.8
 0.070  0.4817 -113.7  50.034  136.7  0.0134   58.0  0.6794  -47.9
 0.080  0.5068 -120.4  46.519  132.8  0.0143   56.3  0.6323  -52.6
 0.090  0.5381 -126.4  43.261  128.2  0.0153   54.7  0.5902  -58.0
 0.100  0.5747 -131.7  40.322  122.9  0.0163   53.4  0.5541  -64.2
 0.110  0.5816 -135.0  38.103  121.3  0.0168   53.2  0.5242  -66.4
 0.120  0.5904 -138.1  35.918  119.5  0.0173   52.9  0.4953  -68.9
 0.130  0.6009 -141.2  33.774  117.4  0.0177   52.7  0.4673  -71.7
 0.140  0.6131 -144.2  31.677  115.1  0.0182   52.5  0.4406  -74.8
 0.150  0.6268 -147.0  29.640  112.5  0.0187   52.3  0.4154  -78.3
 0.200  0.6487 -155.2  23.108  106.1  0.0215   52.4  0.3347  -87.5
 0.250  0.6572 -161.2  18.802  101.9  0.0239   54.4  0.2786  -95.2
 0.300  0.6663 -165.0  15.881   98.8  0.0264   56.6  0.2454 -101.1
 0.350  0.6695 -167.8  13.954   96.8  0.0289   59.1  0.2219 -105.5
 0.400  0.6742 -170.5  12.049   94.2  0.0315   61.2  0.2001 -110.9
 0.450  0.6756 -172.2  10.872   92.8  0.0341   62.6  0.1876 -114.5
 0.500  0.6776 -173.9   9.704   91.0  0.0367   63.8  0.1760 -118.6
 0.600  0.6799 -176.8   8.131   88.4  0.0423   66.1  0.1624 -124.9
 0.700  0.6854 -179.2   6.983   86.1  0.0477   68.1  0.1554 -129.7
 0.800  0.6862  179.2   6.121   84.2  0.0537   69.6  0.1508 -134.5
 0.900  0.6883  177.3   5.461   82.3  0.0591   70.6  0.1480 -137.7
 1.000  0.6903  175.7   4.923   80.5  0.0647   71.0  0.1480 -140.2
 1.100  0.6929  174.3   4.486   78.8  0.0708   71.7  0.1499 -142.7
 1.200  0.6951  173.0   4.120   77.1  0.0766   72.1  0.1508 -145.4
 1.300  0.6969  171.6   3.812   75.6  0.0825   72.4  0.1521 -146.5
 1.400  0.6978  170.7   3.555   74.1  0.0878   72.8  0.1552 -147.5
 1.500  0.6996  169.4   3.322   72.6  0.0937   72.9  0.1587 -149.1
 1.600  0.7023  168.3   3.118   71.1  0.0998   73.1  0.1609 -150.4
 1.700  0.7014  167.1   2.935   69.7  0.1054   73.2  0.1645 -150.9
 1.800  0.7044  166.2   2.783   68.3  0.1115   73.0  0.1680 -151.5
 1.900  0.7037  165.4   2.643   67.1  0.1172   73.0  0.1717 -151.7
 2.000  0.7080  164.2   2.521   65.8  0.1233   73.2  0.1754 -152.4
 2.100  0.7067  163.4   2.409   64.6  0.1288   72.9  0.1784 -152.4
 2.200  0.7055  162.5   2.299   63.3  0.1344   72.7  0.1815 -152.4
 2.300  0.7075  161.6   2.212   62.2  0.1403   72.7  0.1850 -152.6
 2.400  0.7097  160.8   2.126   61.0  0.1463   72.7  0.1885 -152.7
 2.500  0.7078  160.0   2.053   59.9  0.1523   72.4  0.1917 -152.4
 2.600  0.7061  159.2   1.980   58.7  0.1583   72.2  0.1949 -152.1
 2.700  0.7077  158.3   1.917   57.6  0.1646   72.0  0.1986 -152.3
 2.800  0.7094  157.5   1.854   56.4  0.1710   71.9  0.2023 -152.5
 2.900  0.7094  156.6   1.804   55.3  0.1767   71.7  0.2056 -152.0
 3.000  0.7096  155.8   1.755   54.2  0.1825   71.6  0.2089 -151.5
 3.100  0.7098  155.0   1.712   53.2  0.1893   71.2  0.2123 -151.5
 3.200  0.7101  154.1   1.669   52.2  0.1961   70.9  0.2158 -151.5
 3.300  0.7106  153.3   1.627   51.1  0.2029   70.6  0.2192 -151.5
 3.400  0.7113  152.4   1.586   49.9  0.2097   70.3  0.2227 -151.5
 3.500  0.7121  151.6   1.545   48.7  0.2165   70.0  0.2261 -151.5
 3.600  0.7112  150.7   1.515   47.8  0.2230   69.5  0.2291 -151.7
 3.700  0.7105  149.8   1.486   46.8  0.2295   69.0  0.2320 -152.0
 3.800  0.7100  148.9   1.457   45.8  0.2361   68.6  0.2350 -152.2
 3.900  0.7097  148.0   1.429   44.7  0.2426   68.2  0.2379 -152.4
 4.000  0.7095  147.1   1.401   43.6  0.2492   67.8  0.2409 -152.6
 4.100  0.7103  146.2   1.377   42.6  0.2555   67.2  0.2446 -153.3
 4.200  0.7114  145.3   1.352   41.6  0.2619   66.6  0.2483 -153.9
 4.300  0.7125  144.5   1.329   40.5  0.2683   66.1  0.2521 -154.5
 4.400  0.7139  143.6   1.306   39.4  0.2747   65.6  0.2559 -155.1
 4.500  0.7154  142.7   1.283   38.3  0.2811   65.1  0.2597 -155.7
 4.600  0.7158  141.7   1.258   37.4  0.2870   64.5  0.2625 -156.9
 4.700  0.7164  140.6   1.233   36.5  0.2929   63.9  0.2654 -158.1
 4.800  0.7173  139.6   1.209   35.6  0.2989   63.4  0.2684 -159.2
 4.900  0.7184  138.5   1.185   34.6  0.3049   62.8  0.2715 -160.3
 5.000  0.7197  137.5   1.161   33.6  0.3109   62.3  0.2747 -161.4
 5.100  0.7198  136.5   1.145   32.8  0.3167   61.7  0.2779 -162.4
 5.200  0.7201  135.5   1.128   32.1  0.3224   61.1  0.2812 -163.5
 5.300  0.7206  134.4   1.112   31.3  0.3283   60.6  0.2846 -164.5
 5.400  0.7213  133.4   1.097   30.4  0.3341   60.0  0.2881 -165.4
 5.500  0.7223  132.4   1.081   29.6  0.3400   59.5  0.2917 -166.4
 5.600  0.7260  131.5   1.073   28.9  0.3452   58.9  0.2970 -167.6
 5.700  0.7299  130.6   1.066   28.2  0.3504   58.2  0.3024 -168.8
 5.800  0.7340  129.7   1.058   27.4  0.3557   57.6  0.3080 -169.9
 5.900  0.7382  128.9   1.051   26.7  0.3610   57.1  0.3136 -171.0
 6.000  0.7426  128.0   1.044   25.9  0.3663   56.5  0.3194 -172.1
!
!  f       NFmin   Gammaopt  rn/50
! GHz       dB    MAG  ANG    -
 0.450      1.41  0.45  180   0.07
 0.900      1.49  0.46 -179   0.07
 1.900      2.06  0.59 -164   0.09
 2.400      2.37  0.61 -156   0.14
!
! (c) 2017  Infineon Technologies AG, Munich