! Infineon Technologies  Discrete & RF Semiconductors
! BFR193F
! VCE =  1.0 V,  IC =  72 mA
! Common Emitter S-Parameters:                            Jan 2017
# GHz  S  MA  R  50
!  f         S11            S21            S12            S22
! GHz     MAG   ANG      MAG   ANG      MAG   ANG      MAG   ANG
 0.010  0.3339 -131.9  56.918  159.3  0.0049   69.2  0.5698  -32.8
 0.020  0.5361 -138.7  48.370  142.3  0.0088   55.2  0.5200  -60.5
 0.030  0.6083 -146.5  40.844  136.7  0.0102   50.1  0.4481  -73.7
 0.040  0.6895 -152.6  33.885  128.6  0.0116   46.2  0.4074  -90.6
 0.050  0.7767 -157.4  27.921  116.8  0.0131   43.2  0.4075 -109.2
 0.060  0.7866 -159.8  25.296  115.1  0.0135   43.5  0.3890 -114.7
 0.070  0.7980 -162.2  22.699  113.0  0.0139   43.7  0.3744 -120.7
 0.080  0.8106 -164.5  20.139  110.4  0.0144   44.0  0.3642 -127.1
 0.090  0.8246 -166.7  17.632  107.1  0.0148   44.2  0.3588 -133.8
 0.100  0.8397 -168.9  15.207  102.6  0.0152   44.4  0.3584 -140.6
 0.110  0.8436 -169.8  14.227  101.8  0.0158   45.6  0.3552 -143.0
 0.120  0.8476 -170.7  13.250  100.8  0.0164   46.6  0.3526 -145.5
 0.130  0.8519 -171.6  12.277   99.7  0.0170   47.6  0.3507 -148.0
 0.140  0.8564 -172.5  11.310   98.4  0.0176   48.5  0.3495 -150.5
 0.150  0.8611 -173.4  10.349   96.9  0.0182   49.4  0.3489 -153.0
 0.200  0.8641 -176.1   7.785   93.2  0.0212   54.0  0.3428 -159.1
 0.250  0.8684 -177.9   6.237   90.7  0.0242   58.3  0.3410 -163.8
 0.300  0.8689 -179.4   5.217   88.7  0.0277   61.2  0.3409 -166.3
 0.350  0.8682  179.5   4.564   87.2  0.0309   64.0  0.3405 -168.2
 0.400  0.8679  178.3   3.916   85.2  0.0341   66.2  0.3404 -170.2
 0.450  0.8690  177.5   3.531   84.0  0.0379   67.6  0.3404 -171.3
 0.500  0.8702  176.7   3.147   82.6  0.0417   68.7  0.3405 -172.4
 0.600  0.8705  175.2   2.636   80.1  0.0489   70.4  0.3433 -174.0
 0.700  0.8716  173.4   2.270   77.7  0.0557   71.3  0.3462 -174.9
 0.800  0.8706  172.4   1.991   75.7  0.0629   72.2  0.3497 -176.1
 0.900  0.8731  170.8   1.781   73.5  0.0703   73.1  0.3526 -176.6
 1.000  0.8729  169.7   1.614   71.5  0.0770   72.9  0.3545 -177.1
 1.100  0.8743  168.6   1.474   69.5  0.0841   73.3  0.3598 -177.5
 1.200  0.8739  167.4   1.359   67.6  0.0913   72.9  0.3637 -178.2
 1.300  0.8745  166.2   1.264   65.7  0.0986   73.3  0.3658 -178.4
 1.400  0.8726  165.3   1.185   64.0  0.1056   73.3  0.3695 -178.6
 1.500  0.8752  164.2   1.113   62.4  0.1124   73.1  0.3749 -178.9
 1.600  0.8751  163.0   1.049   60.8  0.1195   73.0  0.3778 -179.4
 1.700  0.8720  162.0   0.995   59.0  0.1266   72.8  0.3811 -179.5
 1.800  0.8737  161.2   0.947   57.5  0.1334   72.5  0.3849 -179.6
 1.900  0.8712  160.3   0.906   56.2  0.1403   72.2  0.3881 -179.6
 2.000  0.8752  159.2   0.870   54.9  0.1474   72.1  0.3928 -179.8
 2.100  0.8729  158.3   0.837   53.7  0.1544   71.7  0.3954 -179.9
 2.200  0.8709  157.3   0.804   52.4  0.1615   71.4  0.3981 -179.9
 2.300  0.8718  156.4   0.779   51.3  0.1687   71.1  0.4019  179.9
 2.400  0.8729  155.5   0.755   50.2  0.1759   70.9  0.4058  179.8
 2.500  0.8710  154.8   0.734   49.2  0.1832   70.5  0.4087  179.8
 2.600  0.8692  154.0   0.713   48.2  0.1906   70.2  0.4115  179.8
 2.700  0.8692  153.0   0.695   47.2  0.1981   69.8  0.4154  179.6
 2.800  0.8695  152.0   0.678   46.2  0.2056   69.5  0.4193  179.5
 2.900  0.8688  151.1   0.665   45.3  0.2128   69.0  0.4224  179.4
 3.000  0.8683  150.1   0.653   44.4  0.2200   68.6  0.4255  179.4
 3.100  0.8674  149.1   0.642   43.7  0.2282   68.0  0.4290  179.1
 3.200  0.8667  148.2   0.631   42.9  0.2363   67.5  0.4325  178.7
 3.300  0.8662  147.2   0.620   42.1  0.2445   66.9  0.4361  178.4
 3.400  0.8661  146.3   0.610   41.3  0.2528   66.5  0.4396  178.1
 3.500  0.8661  145.3   0.599   40.5  0.2610   66.0  0.4432  177.8
 3.600  0.8638  144.3   0.592   39.9  0.2686   65.2  0.4461  177.2
 3.700  0.8618  143.2   0.586   39.4  0.2763   64.5  0.4491  176.6
 3.800  0.8601  142.2   0.580   38.8  0.2840   63.8  0.4522  176.0
 3.900  0.8587  141.1   0.573   38.2  0.2918   63.1  0.4553  175.4
 4.000  0.8576  140.1   0.567   37.6  0.2996   62.5  0.4584  174.8
 4.100  0.8562  139.1   0.562   37.0  0.3065   61.6  0.4615  174.0
 4.200  0.8550  138.0   0.556   36.4  0.3135   60.7  0.4647  173.1
 4.300  0.8542  137.0   0.551   35.8  0.3205   59.9  0.4680  172.3
 4.400  0.8536  135.9   0.546   35.1  0.3276   59.1  0.4713  171.5
 4.500  0.8533  134.9   0.541   34.5  0.3348   58.3  0.4748  170.7
 4.600  0.8506  133.8   0.534   34.1  0.3404   57.5  0.4766  169.6
 4.700  0.8482  132.7   0.528   33.8  0.3461   56.7  0.4786  168.5
 4.800  0.8462  131.6   0.521   33.4  0.3519   55.9  0.4808  167.4
 4.900  0.8444  130.5   0.515   33.0  0.3577   55.1  0.4831  166.3
 5.000  0.8430  129.4   0.508   32.6  0.3636   54.4  0.4856  165.2
 5.100  0.8404  128.3   0.506   32.3  0.3688   53.7  0.4880  164.3
 5.200  0.8382  127.2   0.504   32.1  0.3741   52.9  0.4905  163.3
 5.300  0.8363  126.1   0.502   31.8  0.3795   52.2  0.4931  162.4
 5.400  0.8347  124.9   0.500   31.6  0.3848   51.6  0.4959  161.5
 5.500  0.8334  123.8   0.498   31.3  0.3903   50.9  0.4988  160.6
 5.600  0.8340  122.9   0.501   31.1  0.3950   50.1  0.5037  159.6
 5.700  0.8347  122.0   0.503   30.9  0.3997   49.4  0.5088  158.6
 5.800  0.8357  121.2   0.506   30.7  0.4045   48.7  0.5141  157.7
 5.900  0.8368  120.3   0.508   30.5  0.4093   48.0  0.5195  156.7
 6.000  0.8382  119.4   0.511   30.3  0.4142   47.3  0.5250  155.8
!
!  f       NFmin   Gammaopt  rn/50
! GHz       dB    MAG  ANG    -
!
! noise parameter not available yet for this operation point!
!
! (c) 2017  Infineon Technologies AG, Munich