! Infineon Technologies  Discrete & RF Semiconductors
! BFR193F
! VCE =  4.0 V,  IC =  25 mA
! Common Emitter S-Parameters:                            Jan 2017
# GHz  S  MA  R  50
!  f         S11            S21            S12            S22
! GHz     MAG   ANG      MAG   ANG      MAG   ANG      MAG   ANG
 0.010  0.4106  -17.8  53.999  173.3  0.0031   85.1  0.9709   -7.5
 0.020  0.4186  -35.8  52.612  166.2  0.0055   83.3  0.9508  -14.7
 0.030  0.4189  -50.8  50.173  160.8  0.0083   72.7  0.9043  -20.7
 0.040  0.4466  -64.7  48.221  154.9  0.0112   67.5  0.8688  -27.3
 0.050  0.4972  -76.5  46.818  148.6  0.0141   64.4  0.8458  -34.4
 0.060  0.4946  -84.9  44.110  145.5  0.0155   61.3  0.7956  -38.0
 0.070  0.5027  -93.2  41.551  141.9  0.0169   58.6  0.7488  -42.0
 0.080  0.5209 -101.1  39.170  138.0  0.0183   56.4  0.7063  -46.6
 0.090  0.5482 -108.3  37.001  133.5  0.0198   54.5  0.6688  -51.7
 0.100  0.5833 -114.8  35.085  128.5  0.0213   52.9  0.6371  -57.3
 0.110  0.5875 -118.9  33.313  126.7  0.0221   51.8  0.6053  -59.6
 0.120  0.5946 -122.9  31.579  124.7  0.0228   50.7  0.5746  -62.1
 0.130  0.6046 -126.8  29.888  122.4  0.0236   49.7  0.5452  -64.9
 0.140  0.6173 -130.6  28.249  119.9  0.0244   48.8  0.5172  -68.0
 0.150  0.6325 -134.2  26.670  117.1  0.0252   47.9  0.4909  -71.5
 0.200  0.6569 -145.3  21.134  109.8  0.0273   48.0  0.4001  -81.0
 0.250  0.6660 -153.1  17.349  104.9  0.0296   47.5  0.3337  -88.7
 0.300  0.6757 -158.1  14.727  101.4  0.0319   49.4  0.2921  -94.7
 0.350  0.6782 -161.7  12.964   99.1  0.0343   51.2  0.2630  -99.0
 0.400  0.6834 -165.3  11.230   96.0  0.0368   52.7  0.2357 -104.4
 0.450  0.6855 -167.6  10.146   94.4  0.0387   53.9  0.2198 -107.9
 0.500  0.6886 -169.8   9.071   92.5  0.0406   54.9  0.2048 -112.0
 0.600  0.6932 -173.2   7.606   89.5  0.0455   58.1  0.1863 -118.4
 0.700  0.6975 -176.3   6.546   86.9  0.0510   60.3  0.1753 -123.5
 0.800  0.6972 -178.3   5.731   84.8  0.0561   62.8  0.1685 -128.4
 0.900  0.7003  179.5   5.120   82.7  0.0611   63.9  0.1642 -132.0
 1.000  0.7008  177.8   4.615   80.9  0.0663   65.4  0.1622 -134.6
 1.100  0.7042  176.0   4.209   79.0  0.0722   66.3  0.1635 -137.5
 1.200  0.7065  174.5   3.867   77.2  0.0774   67.0  0.1636 -140.2
 1.300  0.7086  173.1   3.577   75.6  0.0828   67.6  0.1649 -141.6
 1.400  0.7095  172.0   3.335   74.0  0.0889   68.5  0.1669 -142.9
 1.500  0.7118  170.8   3.117   72.5  0.0940   68.9  0.1706 -144.7
 1.600  0.7135  169.5   2.927   70.9  0.0994   69.4  0.1728 -146.2
 1.700  0.7134  168.2   2.756   69.4  0.1052   69.3  0.1756 -146.8
 1.800  0.7158  167.3   2.614   68.0  0.1110   69.9  0.1798 -147.5
 1.900  0.7162  166.5   2.481   66.7  0.1162   69.8  0.1836 -148.1
 2.000  0.7187  165.2   2.366   65.3  0.1220   70.1  0.1874 -148.8
 2.100  0.7174  164.3   2.263   64.1  0.1275   70.2  0.1907 -149.0
 2.200  0.7162  163.3   2.161   62.7  0.1331   70.3  0.1941 -149.1
 2.300  0.7180  162.4   2.080   61.6  0.1390   70.4  0.1979 -149.4
 2.400  0.7200  161.6   1.999   60.4  0.1450   70.4  0.2018 -149.7
 2.500  0.7199  160.8   1.930   59.2  0.1510   70.4  0.2055 -149.6
 2.600  0.7199  160.0   1.861   58.0  0.1571   70.4  0.2093 -149.5
 2.700  0.7201  159.0   1.802   56.8  0.1632   70.3  0.2132 -149.8
 2.800  0.7205  158.1   1.744   55.6  0.1693   70.2  0.2171 -150.0
 2.900  0.7214  157.2   1.697   54.5  0.1751   70.2  0.2208 -149.6
 3.000  0.7224  156.4   1.651   53.3  0.1809   70.2  0.2246 -149.3
 3.100  0.7224  155.5   1.611   52.3  0.1877   69.9  0.2285 -149.4
 3.200  0.7227  154.6   1.571   51.3  0.1944   69.7  0.2323 -149.6
 3.300  0.7231  153.7   1.532   50.2  0.2012   69.4  0.2362 -149.7
 3.400  0.7236  152.8   1.493   49.0  0.2080   69.2  0.2400 -149.9
 3.500  0.7244  151.9   1.455   47.8  0.2148   69.0  0.2439 -150.0
 3.600  0.7236  151.0   1.427   46.9  0.2214   68.6  0.2473 -150.3
 3.700  0.7231  150.1   1.400   45.9  0.2281   68.2  0.2508 -150.6
 3.800  0.7227  149.2   1.373   44.9  0.2348   67.8  0.2543 -150.9
 3.900  0.7224  148.3   1.346   43.8  0.2414   67.4  0.2577 -151.2
 4.000  0.7224  147.4   1.320   42.7  0.2481   67.1  0.2612 -151.5
 4.100  0.7233  146.5   1.297   41.7  0.2545   66.5  0.2653 -152.3
 4.200  0.7244  145.6   1.274   40.6  0.2609   66.0  0.2694 -153.0
 4.300  0.7257  144.6   1.252   39.5  0.2674   65.5  0.2735 -153.8
 4.400  0.7271  143.7   1.230   38.4  0.2738   65.1  0.2778 -154.5
 4.500  0.7288  142.8   1.209   37.2  0.2803   64.6  0.2820 -155.2
 4.600  0.7290  141.7   1.186   36.4  0.2865   64.0  0.2850 -156.5
 4.700  0.7294  140.7   1.163   35.5  0.2927   63.4  0.2881 -157.7
 4.800  0.7302  139.6   1.140   34.6  0.2989   62.8  0.2913 -158.9
 4.900  0.7311  138.6   1.117   33.6  0.3052   62.3  0.2947 -160.1
 5.000  0.7323  137.5   1.095   32.6  0.3115   61.8  0.2982 -161.2
 5.100  0.7323  136.4   1.080   31.9  0.3174   61.2  0.3016 -162.3
 5.200  0.7325  135.4   1.064   31.1  0.3233   60.7  0.3050 -163.4
 5.300  0.7330  134.3   1.049   30.3  0.3292   60.1  0.3086 -164.4
 5.400  0.7337  133.3   1.035   29.5  0.3351   59.6  0.3122 -165.4
 5.500  0.7347  132.2   1.020   28.7  0.3411   59.1  0.3160 -166.4
 5.600  0.7379  131.3   1.013   28.0  0.3464   58.4  0.3217 -167.7
 5.700  0.7413  130.4   1.006   27.3  0.3518   57.8  0.3275 -168.9
 5.800  0.7449  129.5   0.999   26.6  0.3572   57.2  0.3335 -170.1
 5.900  0.7486  128.7   0.992   25.8  0.3626   56.6  0.3396 -171.2
 6.000  0.7525  127.8   0.985   25.1  0.3681   56.0  0.3458 -172.3
!
!  f       NFmin   Gammaopt  rn/50
! GHz       dB    MAG  ANG    -
 0.450      1.11  0.36  173   0.06
 0.900      1.19  0.41  174   0.06
 1.900      1.77  0.57 -169   0.07
 2.400      2.06  0.61 -160   0.11
!
! (c) 2017  Infineon Technologies AG, Munich