! Infineon Technologies  Discrete & RF Semiconductors
! BFR193F
! VCE =  6.0 V,  IC =  40 mA
! Common Emitter S-Parameters:                            Jan 2017
# GHz  S  MA  R  50
!  f         S11            S21            S12            S22
! GHz     MAG   ANG      MAG   ANG      MAG   ANG      MAG   ANG
 0.010  0.3073  -24.8  67.453  172.0  0.0027   85.7  0.9569   -8.6
 0.020  0.3343  -48.4  65.176  163.9  0.0054   82.5  0.9328  -16.9
 0.030  0.3487  -66.2  61.324  158.1  0.0073   72.2  0.8752  -23.4
 0.040  0.3928  -81.4  58.177  151.6  0.0094   66.3  0.8304  -30.8
 0.050  0.4580  -92.8  55.854  144.5  0.0115   62.5  0.8006  -38.8
 0.060  0.4647 -100.9  52.198  141.5  0.0126   60.3  0.7470  -42.3
 0.070  0.4802 -108.6  48.710  138.0  0.0136   58.4  0.6966  -46.3
 0.080  0.5039 -115.7  45.426  134.0  0.0147   56.9  0.6502  -51.0
 0.090  0.5345 -122.1  42.396  129.4  0.0158   55.5  0.6087  -56.3
 0.100  0.5710 -127.7  39.677  124.2  0.0169   54.3  0.5731  -62.3
 0.110  0.5777 -131.2  37.536  122.5  0.0175   53.5  0.5428  -64.5
 0.120  0.5865 -134.6  35.431  120.7  0.0182   52.8  0.5134  -67.0
 0.130  0.5973 -137.8  33.367  118.6  0.0188   52.1  0.4850  -69.7
 0.140  0.6100 -141.0  31.352  116.3  0.0195   51.4  0.4579  -72.8
 0.150  0.6244 -144.0  29.398  113.6  0.0201   50.8  0.4323  -76.3
 0.200  0.6464 -153.1  22.994  106.9  0.0225   51.3  0.3486  -85.5
 0.250  0.6561 -159.3  18.756  102.6  0.0250   52.7  0.2894  -93.0
 0.300  0.6650 -163.3  15.851   99.4  0.0272   55.0  0.2541  -98.9
 0.350  0.6671 -166.3  13.927   97.3  0.0296   57.7  0.2295 -103.2
 0.400  0.6711 -169.3  12.026   94.6  0.0320   60.0  0.2065 -108.5
 0.450  0.6737 -171.2  10.860   93.2  0.0345   61.5  0.1931 -112.0
 0.500  0.6770 -173.1   9.702   91.4  0.0370   62.8  0.1805 -116.0
 0.600  0.6804 -176.0   8.130   88.7  0.0425   64.7  0.1654 -122.4
 0.700  0.6826 -178.5   6.989   86.4  0.0478   66.9  0.1576 -127.3
 0.800  0.6845  179.7   6.119   84.4  0.0535   68.3  0.1523 -132.2
 0.900  0.6878  177.8   5.465   82.5  0.0594   69.4  0.1491 -135.6
 1.000  0.6900  176.3   4.928   80.7  0.0649   70.3  0.1480 -138.1
 1.100  0.6923  174.7   4.489   78.9  0.0706   70.7  0.1500 -140.7
 1.200  0.6941  173.4   4.124   77.3  0.0760   71.4  0.1510 -143.4
 1.300  0.6966  172.0   3.815   75.7  0.0824   71.7  0.1512 -144.6
 1.400  0.6969  170.9   3.558   74.2  0.0882   72.1  0.1543 -145.7
 1.500  0.6993  169.8   3.323   72.7  0.0940   72.2  0.1582 -147.5
 1.600  0.7011  168.7   3.119   71.3  0.0995   72.5  0.1604 -148.8
 1.700  0.7017  167.4   2.939   69.8  0.1050   72.4  0.1636 -149.3
 1.800  0.7023  166.6   2.785   68.4  0.1111   72.5  0.1672 -150.0
 1.900  0.7031  165.7   2.644   67.2  0.1168   72.5  0.1707 -150.4
 2.000  0.7066  164.5   2.521   65.8  0.1226   72.9  0.1746 -151.0
 2.100  0.7052  163.6   2.411   64.7  0.1283   72.7  0.1777 -151.1
 2.200  0.7040  162.7   2.302   63.4  0.1340   72.5  0.1809 -151.1
 2.300  0.7062  161.8   2.215   62.3  0.1398   72.4  0.1844 -151.3
 2.400  0.7086  161.0   2.128   61.1  0.1457   72.4  0.1880 -151.4
 2.500  0.7073  160.3   2.053   59.9  0.1517   72.2  0.1914 -151.2
 2.600  0.7062  159.5   1.979   58.7  0.1578   72.0  0.1949 -151.0
 2.700  0.7074  158.5   1.916   57.6  0.1639   71.8  0.1985 -151.2
 2.800  0.7087  157.6   1.854   56.4  0.1701   71.6  0.2021 -151.3
 2.900  0.7095  156.8   1.805   55.3  0.1759   71.5  0.2056 -150.8
 3.000  0.7104  156.0   1.756   54.2  0.1818   71.5  0.2092 -150.4
 3.100  0.7101  155.1   1.713   53.2  0.1886   71.1  0.2127 -150.4
 3.200  0.7100  154.3   1.670   52.2  0.1954   70.8  0.2161 -150.4
 3.300  0.7100  153.4   1.628   51.1  0.2022   70.5  0.2196 -150.5
 3.400  0.7102  152.6   1.586   50.0  0.2091   70.2  0.2230 -150.5
 3.500  0.7105  151.7   1.545   48.8  0.2159   69.9  0.2265 -150.5
 3.600  0.7098  150.8   1.515   47.8  0.2224   69.4  0.2296 -150.7
 3.700  0.7094  149.9   1.486   46.8  0.2288   69.0  0.2326 -151.0
 3.800  0.7090  149.1   1.457   45.8  0.2353   68.6  0.2357 -151.2
 3.900  0.7089  148.2   1.429   44.7  0.2418   68.2  0.2387 -151.4
 4.000  0.7089  147.3   1.401   43.6  0.2483   67.8  0.2418 -151.6
 4.100  0.7096  146.4   1.377   42.6  0.2546   67.2  0.2456 -152.3
 4.200  0.7105  145.5   1.352   41.6  0.2610   66.6  0.2494 -153.0
 4.300  0.7115  144.6   1.329   40.5  0.2674   66.0  0.2532 -153.6
 4.400  0.7127  143.7   1.306   39.4  0.2738   65.5  0.2571 -154.3
 4.500  0.7141  142.8   1.283   38.3  0.2802   65.0  0.2610 -154.9
 4.600  0.7147  141.8   1.258   37.4  0.2862   64.4  0.2637 -156.1
 4.700  0.7156  140.7   1.233   36.5  0.2922   63.9  0.2666 -157.3
 4.800  0.7166  139.7   1.209   35.5  0.2982   63.3  0.2696 -158.5
 4.900  0.7179  138.6   1.185   34.5  0.3043   62.8  0.2726 -159.6
 5.000  0.7195  137.6   1.161   33.5  0.3104   62.3  0.2758 -160.7
 5.100  0.7193  136.6   1.144   32.8  0.3161   61.7  0.2790 -161.8
 5.200  0.7193  135.5   1.128   32.0  0.3218   61.2  0.2823 -162.8
 5.300  0.7196  134.5   1.112   31.2  0.3275   60.6  0.2857 -163.8
 5.400  0.7201  133.4   1.096   30.4  0.3333   60.1  0.2892 -164.8
 5.500  0.7209  132.4   1.080   29.6  0.3391   59.6  0.2928 -165.8
 5.600  0.7245  131.5   1.072   28.9  0.3445   58.9  0.2981 -167.0
 5.700  0.7283  130.7   1.065   28.1  0.3499   58.3  0.3036 -168.2
 5.800  0.7322  129.9   1.057   27.4  0.3553   57.7  0.3091 -169.3
 5.900  0.7363  129.0   1.050   26.6  0.3608   57.1  0.3148 -170.4
 6.000  0.7405  128.2   1.043   25.8  0.3663   56.5  0.3206 -171.5
!
!  f       NFmin   Gammaopt  rn/50
! GHz       dB    MAG  ANG    -
 0.450      1.34  0.43  179   0.06
 0.900      1.42  0.44  180   0.07
 1.900      1.98  0.59 -165   0.08
 2.400      2.27  0.61 -157   0.13
!
! (c) 2017  Infineon Technologies AG, Munich