! Infineon Technologies  Discrete & RF Semiconductors
! BFR193F
! VCE =  9.0 V,  IC =  45 mA
! Common Emitter S-Parameters:                            Jan 2017
# GHz  S  MA  R  50
!  f         S11            S21            S12            S22
! GHz     MAG   ANG      MAG   ANG      MAG   ANG      MAG   ANG
 0.010  0.3461  -21.8  68.945  171.8  0.0027   85.1  0.9514   -8.1
 0.020  0.3643  -44.0  66.801  163.9  0.0054   73.8  0.9303  -16.2
 0.030  0.3721  -61.0  62.842  158.2  0.0073   68.7  0.8740  -22.5
 0.040  0.4100  -76.0  59.582  151.8  0.0092   65.8  0.8296  -29.5
 0.050  0.4706  -87.9  57.141  144.8  0.0111   63.8  0.7989  -37.2
 0.060  0.4729  -96.1  53.449  141.8  0.0122   60.8  0.7462  -40.5
 0.070  0.4847 -104.1  49.927  138.3  0.0132   58.2  0.6965  -44.4
 0.080  0.5055 -111.6  46.615  134.3  0.0143   56.0  0.6503  -48.8
 0.090  0.5340 -118.4  43.560  129.8  0.0155   54.2  0.6085  -53.8
 0.100  0.5693 -124.4  40.819  124.6  0.0166   52.6  0.5721  -59.5
 0.110  0.5741 -128.1  38.619  122.9  0.0172   52.2  0.5419  -61.5
 0.120  0.5811 -131.6  36.456  121.0  0.0178   51.8  0.5124  -63.8
 0.130  0.5904 -135.1  34.337  118.9  0.0185   51.5  0.4839  -66.3
 0.140  0.6017 -138.5  32.271  116.5  0.0191   51.2  0.4564  -69.2
 0.150  0.6151 -141.7  30.270  113.8  0.0197   50.9  0.4302  -72.4
 0.200  0.6377 -151.1  23.724  107.2  0.0221   52.4  0.3455  -80.6
 0.250  0.6460 -157.8  19.339  102.8  0.0246   52.6  0.2843  -87.1
 0.300  0.6544 -162.1  16.352   99.6  0.0270   56.1  0.2474  -92.2
 0.350  0.6567 -165.2  14.369   97.5  0.0292   57.7  0.2215  -95.8
 0.400  0.6610 -168.3  12.410   94.8  0.0314   59.1  0.1968 -100.4
 0.450  0.6625 -170.3  11.207   93.4  0.0340   60.3  0.1822 -103.4
 0.500  0.6648 -172.3  10.013   91.6  0.0367   61.3  0.1681 -106.9
 0.600  0.6700 -175.3   8.391   88.9  0.0420   65.2  0.1511 -112.8
 0.700  0.6723 -177.8   7.218   86.5  0.0467   67.1  0.1419 -117.6
 0.800  0.6728 -179.7   6.320   84.6  0.0527   68.6  0.1351 -122.4
 0.900  0.6770  178.4   5.640   82.6  0.0580   69.8  0.1308 -125.9
 1.000  0.6781  176.8   5.086   80.8  0.0637   70.2  0.1300 -128.3
 1.100  0.6811  175.3   4.634   79.0  0.0691   71.0  0.1305 -131.3
 1.200  0.6836  173.7   4.258   77.4  0.0748   71.5  0.1307 -134.3
 1.300  0.6856  172.4   3.938   75.9  0.0803   71.8  0.1317 -135.6
 1.400  0.6858  171.4   3.671   74.3  0.0862   72.3  0.1343 -136.9
 1.500  0.6879  170.2   3.429   72.9  0.0918   72.5  0.1376 -139.0
 1.600  0.6897  168.9   3.219   71.4  0.0973   72.5  0.1394 -140.6
 1.700  0.6908  167.8   3.034   69.9  0.1028   72.6  0.1433 -141.1
 1.800  0.6932  166.9   2.875   68.5  0.1087   72.7  0.1466 -141.9
 1.900  0.6915  166.1   2.728   67.3  0.1142   72.7  0.1505 -142.3
 2.000  0.6957  164.9   2.602   66.0  0.1200   73.0  0.1544 -143.1
 2.100  0.6949  164.0   2.488   64.8  0.1255   72.9  0.1577 -143.2
 2.200  0.6942  163.1   2.375   63.5  0.1311   72.8  0.1610 -143.3
 2.300  0.6961  162.2   2.284   62.4  0.1368   72.7  0.1648 -143.6
 2.400  0.6982  161.4   2.194   61.2  0.1425   72.7  0.1687 -143.9
 2.500  0.6972  160.6   2.117   60.0  0.1486   72.5  0.1725 -143.7
 2.600  0.6964  159.8   2.041   58.8  0.1548   72.4  0.1764 -143.5
 2.700  0.6978  158.9   1.975   57.7  0.1607   72.2  0.1802 -143.8
 2.800  0.6993  158.0   1.910   56.5  0.1667   72.0  0.1840 -144.0
 2.900  0.6992  157.2   1.858   55.4  0.1724   71.9  0.1883 -143.5
 3.000  0.6992  156.4   1.807   54.2  0.1781   71.9  0.1927 -143.0
 3.100  0.6993  155.5   1.762   53.2  0.1847   71.6  0.1964 -143.1
 3.200  0.6996  154.7   1.718   52.2  0.1913   71.3  0.2002 -143.2
 3.300  0.7001  153.8   1.674   51.1  0.1979   71.0  0.2039 -143.2
 3.400  0.7007  153.0   1.631   50.0  0.2046   70.7  0.2077 -143.3
 3.500  0.7015  152.1   1.589   48.8  0.2112   70.5  0.2114 -143.4
 3.600  0.7009  151.2   1.558   47.9  0.2177   70.1  0.2147 -143.7
 3.700  0.7004  150.3   1.528   46.9  0.2241   69.6  0.2180 -143.9
 3.800  0.7001  149.5   1.498   45.9  0.2306   69.2  0.2213 -144.1
 3.900  0.7000  148.6   1.468   44.8  0.2371   68.9  0.2247 -144.4
 4.000  0.7000  147.7   1.439   43.7  0.2436   68.5  0.2280 -144.6
 4.100  0.7009  146.8   1.413   42.7  0.2499   67.9  0.2320 -145.3
 4.200  0.7020  145.9   1.388   41.7  0.2563   67.4  0.2360 -146.1
 4.300  0.7032  145.1   1.364   40.6  0.2627   66.9  0.2401 -146.8
 4.400  0.7046  144.2   1.340   39.5  0.2691   66.5  0.2442 -147.4
 4.500  0.7062  143.3   1.316   38.3  0.2755   66.0  0.2483 -148.1
 4.600  0.7069  142.3   1.290   37.4  0.2815   65.4  0.2510 -149.4
 4.700  0.7077  141.2   1.265   36.5  0.2876   64.9  0.2538 -150.7
 4.800  0.7089  140.2   1.239   35.5  0.2937   64.3  0.2568 -151.9
 4.900  0.7102  139.1   1.214   34.5  0.2999   63.8  0.2598 -153.1
 5.000  0.7118  138.1   1.190   33.5  0.3060   63.3  0.2630 -154.3
 5.100  0.7117  137.1   1.173   32.7  0.3118   62.7  0.2662 -155.5
 5.200  0.7118  136.0   1.156   31.9  0.3176   62.2  0.2696 -156.6
 5.300  0.7122  135.0   1.139   31.1  0.3234   61.7  0.2730 -157.7
 5.400  0.7128  133.9   1.122   30.3  0.3292   61.2  0.2766 -158.8
 5.500  0.7136  132.9   1.106   29.4  0.3351   60.7  0.2802 -159.9
 5.600  0.7173  132.0   1.098   28.7  0.3403   60.0  0.2853 -161.2
 5.700  0.7212  131.2   1.090   28.0  0.3455   59.4  0.2905 -162.5
 5.800  0.7253  130.3   1.082   27.2  0.3508   58.8  0.2959 -163.8
 5.900  0.7295  129.4   1.074   26.5  0.3561   58.2  0.3015 -164.9
 6.000  0.7339  128.6   1.067   25.7  0.3615   57.6  0.3071 -166.1
!
!  f       NFmin   Gammaopt  rn/50
! GHz       dB    MAG  ANG    -
 0.450      1.41  0.45  180   0.07
 0.900      1.49  0.46 -179   0.07
 1.900      2.06  0.59 -164   0.09
 2.400      2.37  0.61 -156   0.14
!
! (c) 2017  Infineon Technologies AG, Munich