! Infineon Technologies  Discrete & RF Semiconductors
! BFR193F
! VCE =  2.0 V,  IC =  70 mA
! Common Emitter S-Parameters:                            Jan 2017
# GHz  S  MA  R  50
!  f         S11            S21            S12            S22
! GHz     MAG   ANG      MAG   ANG      MAG   ANG      MAG   ANG
 0.010  0.1865 -115.2  74.292  166.9  0.0031   78.8  0.8308  -15.6
 0.020  0.3368 -122.7  69.218  154.2  0.0060   65.6  0.7783  -30.4
 0.030  0.4176 -132.2  61.366  147.8  0.0074   60.0  0.6864  -39.0
 0.040  0.5061 -138.5  54.500  139.6  0.0089   56.2  0.6146  -50.0
 0.050  0.5989 -142.9  49.033  129.4  0.0104   53.5  0.5703  -63.2
 0.060  0.6173 -146.7  44.872  127.0  0.0111   52.5  0.5220  -67.2
 0.070  0.6384 -150.3  40.802  124.2  0.0118   51.6  0.4767  -72.0
 0.080  0.6618 -153.7  36.854  120.8  0.0124   50.8  0.4354  -77.7
 0.090  0.6873 -156.8  33.070  116.5  0.0131   50.0  0.3994  -84.6
 0.100  0.7147 -159.7  29.515  111.2  0.0138   49.4  0.3702  -92.7
 0.110  0.7213 -161.2  27.687  110.0  0.0143   50.3  0.3519  -95.5
 0.120  0.7284 -162.6  25.872  108.7  0.0148   51.1  0.3344  -98.5
 0.130  0.7360 -164.0  24.073  107.2  0.0152   51.8  0.3180 -101.9
 0.140  0.7440 -165.4  22.294  105.4  0.0157   52.5  0.3029 -105.6
 0.150  0.7524 -166.8  20.540  103.3  0.0162   53.2  0.2891 -109.7
 0.200  0.7634 -170.8  15.628   98.6  0.0186   56.9  0.2492 -120.6
 0.250  0.7704 -173.7  12.566   95.5  0.0217   61.2  0.2256 -129.8
 0.300  0.7729 -175.6  10.551   93.1  0.0243   62.9  0.2148 -135.9
 0.350  0.7751 -177.1   9.240   91.5  0.0275   65.0  0.2069 -140.2
 0.400  0.7778 -178.6   7.938   89.4  0.0307   66.6  0.2002 -144.8
 0.450  0.7788 -179.7   7.157   88.2  0.0336   68.3  0.1973 -147.6
 0.500  0.7801  179.2   6.380   86.8  0.0366   69.7  0.1948 -150.4
 0.600  0.7806  177.5   5.338   84.3  0.0431   72.4  0.1937 -154.6
 0.700  0.7838  175.6   4.581   82.2  0.0494   72.8  0.1946 -157.1
 0.800  0.7846  174.4   4.013   80.3  0.0556   73.5  0.1967 -159.6
 0.900  0.7870  172.9   3.582   78.4  0.0621   74.4  0.1987 -161.1
 1.000  0.7854  171.8   3.231   76.6  0.0689   74.6  0.2014 -161.9
 1.100  0.7889  170.4   2.944   74.8  0.0746   75.0  0.2059 -162.7
 1.200  0.7905  169.4   2.707   73.1  0.0814   74.9  0.2093 -163.8
 1.300  0.7916  168.2   2.507   71.5  0.0877   75.1  0.2121 -164.1
 1.400  0.7922  167.2   2.338   69.9  0.0941   75.2  0.2160 -164.3
 1.500  0.7928  166.1   2.188   68.4  0.1002   75.1  0.2212 -164.9
 1.600  0.7947  165.0   2.055   66.8  0.1067   75.1  0.2249 -165.4
 1.700  0.7933  164.0   1.939   65.3  0.1130   75.0  0.2291 -165.4
 1.800  0.7943  163.2   1.840   63.8  0.1192   74.8  0.2334 -165.4
 1.900  0.7948  162.3   1.750   62.5  0.1254   74.6  0.2374 -165.2
 2.000  0.7973  161.2   1.671   61.1  0.1321   74.5  0.2426 -165.4
 2.100  0.7953  160.3   1.600   59.9  0.1384   74.3  0.2462 -165.2
 2.200  0.7934  159.4   1.529   58.6  0.1448   74.1  0.2499 -165.1
 2.300  0.7950  158.6   1.474   57.4  0.1512   73.8  0.2542 -165.1
 2.400  0.7968  157.8   1.420   56.2  0.1577   73.5  0.2586 -165.1
 2.500  0.7961  157.0   1.374   55.0  0.1643   73.3  0.2622 -164.9
 2.600  0.7955  156.2   1.328   53.8  0.1710   73.1  0.2659 -164.7
 2.700  0.7956  155.2   1.287   52.6  0.1778   72.7  0.2703 -164.7
 2.800  0.7959  154.3   1.247   51.4  0.1846   72.3  0.2747 -164.7
 2.900  0.7960  153.4   1.216   50.3  0.1911   72.1  0.2784 -164.3
 3.000  0.7963  152.6   1.186   49.2  0.1976   71.9  0.2822 -164.0
 3.100  0.7959  151.7   1.159   48.2  0.2051   71.4  0.2863 -164.1
 3.200  0.7957  150.8   1.132   47.2  0.2125   71.0  0.2903 -164.2
 3.300  0.7957  149.9   1.106   46.2  0.2200   70.6  0.2944 -164.3
 3.400  0.7959  149.0   1.080   45.1  0.2275   70.2  0.2984 -164.4
 3.500  0.7963  148.1   1.054   43.9  0.2350   69.8  0.3025 -164.5
 3.600  0.7950  147.1   1.036   43.0  0.2422   69.2  0.3061 -164.9
 3.700  0.7940  146.2   1.018   42.1  0.2494   68.6  0.3097 -165.3
 3.800  0.7931  145.2   1.001   41.2  0.2566   68.0  0.3133 -165.7
 3.900  0.7925  144.3   0.984   40.2  0.2638   67.5  0.3170 -166.0
 4.000  0.7921  143.3   0.967   39.2  0.2711   67.0  0.3206 -166.4
 4.100  0.7921  142.3   0.951   38.3  0.2779   66.3  0.3248 -167.1
 4.200  0.7923  141.4   0.936   37.3  0.2847   65.5  0.3289 -167.8
 4.300  0.7927  140.4   0.921   36.4  0.2916   64.9  0.3332 -168.4
 4.400  0.7933  139.5   0.906   35.3  0.2985   64.2  0.3375 -169.1
 4.500  0.7942  138.5   0.892   34.3  0.3054   63.6  0.3418 -169.7
 4.600  0.7934  137.4   0.876   33.6  0.3116   62.9  0.3450 -170.8
 4.700  0.7929  136.3   0.860   32.8  0.3179   62.2  0.3484 -171.9
 4.800  0.7927  135.3   0.844   32.0  0.3243   61.5  0.3519 -173.0
 4.900  0.7928  134.2   0.828   31.2  0.3307   60.8  0.3555 -174.1
 5.000  0.7931  133.1   0.812   30.4  0.3371   60.2  0.3592 -175.1
 5.100  0.7917  132.0   0.802   29.8  0.3428   59.5  0.3630 -176.1
 5.200  0.7906  131.0   0.792   29.1  0.3486   58.9  0.3669 -177.0
 5.300  0.7898  129.9   0.782   28.5  0.3544   58.2  0.3709 -177.9
 5.400  0.7892  128.9   0.772   27.8  0.3603   57.6  0.3749 -178.8
 5.500  0.7889  127.8   0.762   27.1  0.3662   57.0  0.3791 -179.7
 5.600  0.7911  126.9   0.758   26.6  0.3714   56.2  0.3851  179.1
 5.700  0.7935  126.0   0.755   26.1  0.3767   55.5  0.3913  177.9
 5.800  0.7961  125.1   0.752   25.6  0.3820   54.8  0.3977  176.8
 5.900  0.7988  124.2   0.748   25.0  0.3874   54.1  0.4042  175.7
 6.000  0.8018  123.3   0.745   24.5  0.3928   53.4  0.4108  174.6
!
!  f       NFmin   Gammaopt  rn/50
! GHz       dB    MAG  ANG    -
!
! noise parameter not available yet for this operation point!
!
! (c) 2017  Infineon Technologies AG, Munich