! Infineon Technologies  Discrete & RF Semiconductors
! BFR193F
! VCE =  6.0 V,  IC =  75 mA
! Common Emitter S-Parameters:                            Jan 2017
# GHz  S  MA  R  50
!  f         S11            S21            S12            S22
! GHz     MAG   ANG      MAG   ANG      MAG   ANG      MAG   ANG
 0.010  0.1729  -55.4  81.203  169.8  0.0027   88.1  0.9146  -10.5
 0.020  0.2632  -84.7  77.608  159.7  0.0050   75.3  0.8782  -21.1
 0.030  0.3184 -102.2  71.017  153.4  0.0064   69.2  0.8022  -28.3
 0.040  0.3937 -113.7  65.454  145.9  0.0079   65.4  0.7411  -36.7
 0.050  0.4798 -121.4  61.201  137.2  0.0094   62.8  0.6989  -46.5
 0.060  0.4975 -127.4  56.536  134.5  0.0101   60.2  0.6447  -49.8
 0.070  0.5203 -133.0  52.023  131.2  0.0109   57.9  0.5929  -53.6
 0.080  0.5475 -138.0  47.707  127.4  0.0117   55.9  0.5443  -58.1
 0.090  0.5786 -142.6  43.644  122.9  0.0125   54.2  0.4998  -63.5
 0.100  0.6129 -146.6  39.912  117.4  0.0133   52.7  0.4605  -69.9
 0.110  0.6198 -148.9  37.564  116.0  0.0138   53.0  0.4344  -71.9
 0.120  0.6277 -151.1  35.241  114.4  0.0143   53.3  0.4090  -74.2
 0.130  0.6365 -153.3  32.950  112.6  0.0149   53.5  0.3842  -76.8
 0.140  0.6462 -155.4  30.696  110.5  0.0154   53.8  0.3604  -79.7
 0.150  0.6568 -157.5  28.489  108.1  0.0159   54.0  0.3376  -83.0
 0.200  0.6736 -163.6  21.913  102.6  0.0186   57.7  0.2708  -91.4
 0.250  0.6831 -167.9  17.733   98.9  0.0209   59.6  0.2241  -98.4
 0.300  0.6889 -170.6  14.911   96.2  0.0235   63.2  0.1979 -104.0
 0.350  0.6916 -172.6  13.081   94.4  0.0261   65.1  0.1797 -108.1
 0.400  0.6952 -174.6  11.268   92.1  0.0287   66.6  0.1627 -113.0
 0.450  0.6969 -176.0  10.164   90.9  0.0317   67.9  0.1536 -116.3
 0.500  0.6991 -177.4   9.066   89.4  0.0347   69.0  0.1450 -120.0
 0.600  0.7024 -179.6   7.587   86.8  0.0409   71.3  0.1352 -125.7
 0.700  0.7056  178.3   6.521   84.7  0.0465   72.4  0.1315 -130.0
 0.800  0.7050  177.0   5.707   82.9  0.0518   73.9  0.1287 -134.4
 0.900  0.7091  175.2   5.093   81.0  0.0580   74.0  0.1281 -137.4
 1.000  0.7092  174.0   4.591   79.3  0.0634   74.3  0.1288 -139.1
 1.100  0.7116  172.5   4.180   77.6  0.0695   75.2  0.1325 -141.4
 1.200  0.7140  171.4   3.841   76.0  0.0759   75.1  0.1341 -143.6
 1.300  0.7170  170.1   3.555   74.5  0.0815   75.5  0.1362 -144.4
 1.400  0.7163  169.2   3.315   72.9  0.0878   75.7  0.1401 -145.3
 1.500  0.7192  168.2   3.098   71.5  0.0934   75.4  0.1445 -146.7
 1.600  0.7201  166.9   2.906   70.0  0.0994   75.4  0.1477 -147.8
 1.700  0.7199  165.9   2.738   68.6  0.1052   75.4  0.1517 -148.0
 1.800  0.7227  165.1   2.595   67.2  0.1110   75.4  0.1565 -148.3
 1.900  0.7218  164.2   2.465   66.0  0.1169   75.0  0.1604 -148.5
 2.000  0.7251  163.1   2.351   64.6  0.1227   75.1  0.1654 -149.3
 2.100  0.7240  162.3   2.248   63.5  0.1288   74.9  0.1693 -149.1
 2.200  0.7230  161.4   2.146   62.2  0.1349   74.7  0.1732 -149.0
 2.300  0.7245  160.6   2.065   61.0  0.1408   74.6  0.1774 -149.2
 2.400  0.7261  159.8   1.984   59.8  0.1467   74.6  0.1816 -149.3
 2.500  0.7259  159.0   1.915   58.7  0.1529   74.2  0.1855 -149.0
 2.600  0.7259  158.2   1.847   57.5  0.1591   73.8  0.1895 -148.7
 2.700  0.7271  157.3   1.789   56.3  0.1654   73.6  0.1939 -148.9
 2.800  0.7285  156.4   1.731   55.1  0.1718   73.4  0.1983 -149.0
 2.900  0.7278  155.6   1.685   54.1  0.1777   73.2  0.2022 -148.5
 3.000  0.7273  154.8   1.639   53.0  0.1837   73.1  0.2062 -148.1
 3.100  0.7274  153.9   1.599   52.0  0.1906   72.7  0.2102 -148.1
 3.200  0.7277  153.1   1.559   51.0  0.1975   72.3  0.2142 -148.2
 3.300  0.7281  152.2   1.520   49.9  0.2044   71.9  0.2183 -148.2
 3.400  0.7287  151.4   1.481   48.7  0.2113   71.6  0.2223 -148.3
 3.500  0.7295  150.5   1.443   47.5  0.2182   71.3  0.2263 -148.3
 3.600  0.7284  149.6   1.416   46.6  0.2248   70.8  0.2298 -148.6
 3.700  0.7275  148.7   1.389   45.6  0.2315   70.3  0.2333 -148.9
 3.800  0.7268  147.9   1.362   44.6  0.2381   69.8  0.2368 -149.2
 3.900  0.7262  147.0   1.337   43.5  0.2448   69.4  0.2403 -149.4
 4.000  0.7258  146.1   1.311   42.4  0.2515   69.0  0.2438 -149.7
 4.100  0.7267  145.2   1.288   41.4  0.2579   68.4  0.2479 -150.4
 4.200  0.7278  144.3   1.266   40.4  0.2643   67.8  0.2521 -151.2
 4.300  0.7291  143.4   1.244   39.3  0.2707   67.2  0.2563 -151.9
 4.400  0.7306  142.5   1.222   38.2  0.2772   66.6  0.2605 -152.5
 4.500  0.7322  141.6   1.201   37.1  0.2837   66.1  0.2648 -153.2
 4.600  0.7321  140.5   1.178   36.3  0.2898   65.5  0.2678 -154.5
 4.700  0.7322  139.5   1.155   35.4  0.2959   64.9  0.2709 -155.7
 4.800  0.7325  138.4   1.132   34.5  0.3020   64.3  0.2741 -156.9
 4.900  0.7331  137.4   1.109   33.6  0.3082   63.7  0.2774 -158.1
 5.000  0.7340  136.3   1.087   32.6  0.3144   63.2  0.2809 -159.2
 5.100  0.7340  135.3   1.072   31.9  0.3203   62.6  0.2844 -160.3
 5.200  0.7342  134.2   1.056   31.1  0.3262   61.9  0.2879 -161.4
 5.300  0.7347  133.2   1.041   30.3  0.3322   61.3  0.2916 -162.5
 5.400  0.7354  132.1   1.027   29.5  0.3382   60.8  0.2953 -163.6
 5.500  0.7363  131.1   1.012   28.7  0.3442   60.2  0.2992 -164.6
 5.600  0.7396  130.2   1.005   28.0  0.3495   59.5  0.3046 -165.9
 5.700  0.7431  129.4   0.998   27.3  0.3549   58.9  0.3101 -167.1
 5.800  0.7467  128.6   0.991   26.6  0.3603   58.2  0.3158 -168.3
 5.900  0.7505  127.7   0.985   25.9  0.3658   57.6  0.3216 -169.5
 6.000  0.7544  126.9   0.978   25.2  0.3713   57.0  0.3275 -170.6
!
!  f       NFmin   Gammaopt  rn/50
! GHz       dB    MAG  ANG    -
!
! noise parameter not available yet for this operation point!
!
! (c) 2017  Infineon Technologies AG, Munich