! Infineon Technologies  Discrete & RF Semiconductors
! BFR193F
! VCE =  5.0 V,  IC =  40 mA
! Common Emitter S-Parameters:                            Jan 2017
# GHz  S  MA  R  50
!  f         S11            S21            S12            S22
! GHz     MAG   ANG      MAG   ANG      MAG   ANG      MAG   ANG
 0.010  0.2842  -27.4  67.872  171.8  0.0030   84.5  0.9556   -9.0
 0.020  0.3147  -52.7  65.986  163.5  0.0055   79.2  0.9337  -17.6
 0.030  0.3362  -71.0  61.810  157.7  0.0073   72.3  0.8725  -24.3
 0.040  0.3865  -85.8  58.358  151.1  0.0093   68.3  0.8249  -31.9
 0.050  0.4561  -96.7  55.766  143.8  0.0112   65.6  0.7933  -40.2
 0.060  0.4650 -104.6  52.055  140.8  0.0122   61.8  0.7390  -43.8
 0.070  0.4824 -112.2  48.508  137.3  0.0133   58.6  0.6880  -47.9
 0.080  0.5074 -119.0  45.165  133.4  0.0144   55.9  0.6412  -52.6
 0.090  0.5390 -125.2  42.074  128.8  0.0155   53.6  0.5994  -58.1
 0.100  0.5761 -130.6  39.294  123.5  0.0167   51.6  0.5638  -64.3
 0.110  0.5830 -133.9  37.147  121.9  0.0173   51.3  0.5340  -66.6
 0.120  0.5918 -137.1  35.034  120.0  0.0179   50.9  0.5051  -69.1
 0.130  0.6023 -140.2  32.962  118.0  0.0186   50.6  0.4774  -72.0
 0.140  0.6146 -143.1  30.937  115.7  0.0192   50.4  0.4510  -75.2
 0.150  0.6284 -146.0  28.971  113.0  0.0198   50.1  0.4262  -78.8
 0.200  0.6520 -154.6  22.607  106.5  0.0225   50.8  0.3450  -88.5
 0.250  0.6616 -160.6  18.417  102.2  0.0244   53.3  0.2883  -96.4
 0.300  0.6713 -164.5  15.558   99.0  0.0275   55.5  0.2543 -102.7
 0.350  0.6739 -167.3  13.672   97.0  0.0300   57.5  0.2307 -107.2
 0.400  0.6782 -170.1  11.809   94.3  0.0325   59.2  0.2089 -112.7
 0.450  0.6792 -171.9  10.661   92.9  0.0349   61.1  0.1966 -116.4
 0.500  0.6809 -173.6   9.521   91.2  0.0373   62.8  0.1852 -120.6
 0.600  0.6861 -176.5   7.976   88.4  0.0426   64.6  0.1717 -127.2
 0.700  0.6898 -179.0   6.856   86.1  0.0486   67.3  0.1651 -132.0
 0.800  0.6891  179.2   6.004   84.2  0.0541   68.0  0.1603 -136.7
 0.900  0.6944  177.3   5.360   82.2  0.0599   69.9  0.1578 -140.2
 1.000  0.6947  176.0   4.838   80.5  0.0655   70.2  0.1575 -142.4
 1.100  0.6988  174.4   4.404   78.7  0.0715   71.3  0.1597 -144.8
 1.200  0.7011  173.0   4.046   77.1  0.0769   71.2  0.1608 -147.6
 1.300  0.7025  171.8   3.742   75.5  0.0830   71.7  0.1619 -148.6
 1.400  0.7031  170.6   3.489   74.0  0.0890   72.0  0.1650 -149.6
 1.500  0.7051  169.6   3.261   72.6  0.0944   72.3  0.1683 -151.3
 1.600  0.7073  168.3   3.061   71.1  0.1005   72.6  0.1704 -152.5
 1.700  0.7072  167.2   2.882   69.6  0.1064   72.3  0.1742 -153.0
 1.800  0.7094  166.2   2.733   68.2  0.1121   72.5  0.1777 -153.6
 1.900  0.7086  165.4   2.593   67.0  0.1182   72.2  0.1811 -153.8
 2.000  0.7124  164.3   2.474   65.7  0.1239   72.5  0.1848 -154.5
 2.100  0.7107  163.4   2.366   64.5  0.1298   72.4  0.1878 -154.4
 2.200  0.7092  162.5   2.259   63.2  0.1357   72.3  0.1908 -154.4
 2.300  0.7112  161.6   2.173   62.1  0.1416   72.2  0.1943 -154.6
 2.400  0.7133  160.8   2.088   60.9  0.1476   72.2  0.1979 -154.8
 2.500  0.7124  160.0   2.016   59.8  0.1536   72.0  0.2008 -154.5
 2.600  0.7116  159.2   1.945   58.6  0.1597   71.8  0.2038 -154.3
 2.700  0.7125  158.3   1.883   57.4  0.1658   71.6  0.2073 -154.4
 2.800  0.7136  157.4   1.822   56.2  0.1720   71.4  0.2108 -154.5
 2.900  0.7142  156.5   1.773   55.1  0.1778   71.3  0.2142 -154.0
 3.000  0.7150  155.7   1.724   54.0  0.1837   71.2  0.2176 -153.6
 3.100  0.7150  154.9   1.682   53.0  0.1905   70.8  0.2209 -153.6
 3.200  0.7151  154.0   1.640   52.0  0.1974   70.5  0.2242 -153.6
 3.300  0.7154  153.2   1.599   50.9  0.2043   70.2  0.2275 -153.7
 3.400  0.7159  152.3   1.559   49.8  0.2111   69.9  0.2308 -153.7
 3.500  0.7165  151.5   1.519   48.6  0.2180   69.6  0.2341 -153.7
 3.600  0.7153  150.6   1.490   47.7  0.2246   69.1  0.2370 -153.9
 3.700  0.7143  149.7   1.462   46.7  0.2311   68.6  0.2399 -154.2
 3.800  0.7135  148.7   1.434   45.7  0.2377   68.2  0.2428 -154.4
 3.900  0.7129  147.8   1.407   44.6  0.2443   67.8  0.2458 -154.6
 4.000  0.7125  146.9   1.380   43.5  0.2509   67.4  0.2487 -154.8
 4.100  0.7136  146.0   1.356   42.5  0.2572   66.8  0.2524 -155.5
 4.200  0.7148  145.2   1.332   41.5  0.2635   66.2  0.2562 -156.1
 4.300  0.7162  144.3   1.308   40.4  0.2699   65.7  0.2600 -156.7
 4.400  0.7177  143.5   1.285   39.3  0.2762   65.2  0.2638 -157.3
 4.500  0.7194  142.6   1.263   38.1  0.2826   64.7  0.2677 -157.9
 4.600  0.7198  141.5   1.239   37.3  0.2886   64.1  0.2705 -159.0
 4.700  0.7205  140.5   1.214   36.4  0.2947   63.5  0.2734 -160.2
 4.800  0.7214  139.4   1.191   35.5  0.3007   62.9  0.2763 -161.3
 4.900  0.7225  138.4   1.167   34.5  0.3069   62.3  0.2794 -162.3
 5.000  0.7239  137.3   1.144   33.5  0.3130   61.8  0.2826 -163.4
 5.100  0.7237  136.3   1.128   32.7  0.3187   61.2  0.2858 -164.5
 5.200  0.7237  135.2   1.112   32.0  0.3245   60.6  0.2891 -165.5
 5.300  0.7239  134.2   1.096   31.2  0.3302   60.1  0.2925 -166.5
 5.400  0.7244  133.1   1.080   30.3  0.3361   59.5  0.2959 -167.5
 5.500  0.7251  132.1   1.065   29.5  0.3419   59.0  0.2995 -168.5
 5.600  0.7287  131.2   1.057   28.8  0.3470   58.4  0.3050 -169.7
 5.700  0.7325  130.4   1.050   28.1  0.3522   57.7  0.3105 -170.8
 5.800  0.7364  129.6   1.042   27.3  0.3574   57.1  0.3162 -171.9
 5.900  0.7405  128.7   1.035   26.6  0.3627   56.6  0.3220 -172.9
 6.000  0.7448  127.9   1.028   25.8  0.3680   56.0  0.3279 -173.9
!
!  f       NFmin   Gammaopt  rn/50
! GHz       dB    MAG  ANG    -
 0.450      1.34  0.43  179   0.06
 0.900      1.42  0.44  180   0.07
 1.900      1.98  0.59 -165   0.08
 2.400      2.27  0.61 -157   0.13
!
! (c) 2017  Infineon Technologies AG, Munich