! Infineon Technologies  Discrete & RF Semiconductors
! BFR193F
! VCE =  3.0 V,  IC =  55 mA
! Common Emitter S-Parameters:                            Jan 2017
# GHz  S  MA  R  50
!  f         S11            S21            S12            S22
! GHz     MAG   ANG      MAG   ANG      MAG   ANG      MAG   ANG
 0.010  0.1575  -62.5  76.069  170.1  0.0030   85.8  0.9298  -11.4
 0.020  0.2527  -88.8  72.592  160.1  0.0056   75.0  0.8983  -22.5
 0.030  0.3142 -105.5  66.626  153.8  0.0074   69.2  0.8196  -30.2
 0.040  0.3931 -116.2  61.625  146.3  0.0092   65.7  0.7585  -39.2
 0.050  0.4809 -123.1  57.839  137.7  0.0111   63.4  0.7193  -49.6
 0.060  0.5001 -128.9  53.468  134.9  0.0118   60.7  0.6633  -53.4
 0.070  0.5241 -134.3  49.242  131.7  0.0124   58.3  0.6107  -57.9
 0.080  0.5522 -139.2  45.202  127.9  0.0131   56.2  0.5624  -63.1
 0.090  0.5840 -143.5  41.403  123.3  0.0139   54.2  0.5198  -69.3
 0.100  0.6187 -147.4  37.916  117.9  0.0146   52.5  0.4843  -76.5
 0.110  0.6267 -149.6  35.699  116.5  0.0152   52.5  0.4583  -79.0
 0.120  0.6356 -151.8  33.507  114.9  0.0158   52.5  0.4333  -81.8
 0.130  0.6454 -154.0  31.345  113.0  0.0164   52.5  0.4094  -85.0
 0.140  0.6561 -156.0  29.220  110.9  0.0170   52.5  0.3870  -88.5
 0.150  0.6676 -158.0  27.141  108.5  0.0176   52.5  0.3662  -92.5
 0.200  0.6869 -164.0  20.912  102.8  0.0198   56.0  0.3018 -103.2
 0.250  0.6961 -168.2  16.922   99.1  0.0226   58.0  0.2599 -112.4
 0.300  0.7042 -170.8  14.226   96.4  0.0250   61.5  0.2371 -119.2
 0.350  0.7062 -172.8  12.485   94.6  0.0281   63.2  0.2214 -124.2
 0.400  0.7090 -174.8  10.761   92.2  0.0312   64.5  0.2076 -130.0
 0.450  0.7104 -176.2   9.707   90.9  0.0342   66.3  0.1999 -133.7
 0.500  0.7123 -177.6   8.659   89.3  0.0373   67.8  0.1931 -137.6
 0.600  0.7167 -179.8   7.246   86.8  0.0427   69.7  0.1869 -143.4
 0.700  0.7195  178.1   6.227   84.6  0.0494   70.5  0.1844 -147.5
 0.800  0.7200  176.7   5.448   82.8  0.0552   71.7  0.1838 -151.2
 0.900  0.7238  175.0   4.865   80.9  0.0617   72.8  0.1841 -153.9
 1.000  0.7225  173.8   4.383   79.2  0.0676   73.0  0.1848 -155.5
 1.100  0.7271  172.5   3.994   77.5  0.0737   73.5  0.1884 -157.2
 1.200  0.7291  171.2   3.670   75.9  0.0797   73.6  0.1908 -159.0
 1.300  0.7310  169.9   3.395   74.3  0.0863   74.0  0.1920 -159.8
 1.400  0.7300  169.0   3.167   72.8  0.0922   74.2  0.1957 -160.5
 1.500  0.7326  167.9   2.960   71.3  0.0983   74.0  0.2000 -161.5
 1.600  0.7339  166.7   2.778   69.9  0.1042   74.0  0.2026 -162.5
 1.700  0.7340  165.6   2.617   68.4  0.1105   73.8  0.2053 -162.7
 1.800  0.7370  164.9   2.482   67.0  0.1169   73.7  0.2092 -163.0
 1.900  0.7345  164.0   2.358   65.8  0.1227   73.6  0.2126 -163.1
 2.000  0.7384  163.0   2.249   64.5  0.1288   73.6  0.2167 -163.5
 2.100  0.7371  162.1   2.152   63.3  0.1347   73.4  0.2193 -163.4
 2.200  0.7360  161.2   2.056   62.0  0.1407   73.2  0.2220 -163.4
 2.300  0.7376  160.3   1.979   60.9  0.1470   73.0  0.2253 -163.5
 2.400  0.7394  159.4   1.902   59.7  0.1533   72.8  0.2286 -163.5
 2.500  0.7389  158.7   1.837   58.6  0.1597   72.5  0.2311 -163.2
 2.600  0.7385  158.0   1.772   57.4  0.1662   72.2  0.2336 -163.0
 2.700  0.7394  157.1   1.717   56.2  0.1725   71.9  0.2372 -163.1
 2.800  0.7404  156.2   1.663   55.0  0.1789   71.6  0.2408 -163.1
 2.900  0.7402  155.4   1.619   53.9  0.1851   71.4  0.2435 -162.7
 3.000  0.7401  154.5   1.576   52.8  0.1913   71.3  0.2463 -162.3
 3.100  0.7398  153.6   1.538   51.8  0.1984   70.9  0.2493 -162.3
 3.200  0.7397  152.8   1.501   50.8  0.2054   70.5  0.2523 -162.3
 3.300  0.7398  151.9   1.464   49.7  0.2125   70.1  0.2552 -162.3
 3.400  0.7400  151.1   1.428   48.6  0.2196   69.7  0.2582 -162.3
 3.500  0.7404  150.2   1.392   47.4  0.2267   69.4  0.2612 -162.3
 3.600  0.7396  149.3   1.366   46.5  0.2334   68.8  0.2639 -162.5
 3.700  0.7389  148.4   1.341   45.5  0.2402   68.3  0.2666 -162.7
 3.800  0.7385  147.5   1.316   44.5  0.2470   67.8  0.2693 -162.9
 3.900  0.7382  146.6   1.291   43.4  0.2538   67.3  0.2720 -163.1
 4.000  0.7381  145.7   1.267   42.3  0.2606   66.9  0.2747 -163.3
 4.100  0.7384  144.8   1.246   41.3  0.2669   66.2  0.2782 -163.9
 4.200  0.7388  143.9   1.225   40.3  0.2733   65.5  0.2818 -164.5
 4.300  0.7395  143.0   1.204   39.2  0.2797   64.9  0.2854 -165.1
 4.400  0.7403  142.1   1.184   38.1  0.2861   64.3  0.2890 -165.6
 4.500  0.7413  141.2   1.164   37.0  0.2926   63.7  0.2926 -166.2
 4.600  0.7414  140.2   1.142   36.2  0.2986   63.1  0.2954 -167.3
 4.700  0.7416  139.1   1.120   35.3  0.3046   62.4  0.2982 -168.3
 4.800  0.7422  138.1   1.098   34.3  0.3107   61.8  0.3012 -169.3
 4.900  0.7430  137.0   1.076   33.4  0.3168   61.3  0.3043 -170.3
 5.000  0.7440  136.0   1.055   32.4  0.3229   60.7  0.3074 -171.3
 5.100  0.7436  134.9   1.040   31.7  0.3285   60.1  0.3107 -172.2
 5.200  0.7435  133.9   1.026   30.9  0.3342   59.5  0.3142 -173.2
 5.300  0.7437  132.8   1.012   30.1  0.3399   59.0  0.3177 -174.1
 5.400  0.7441  131.8   0.998   29.3  0.3456   58.4  0.3212 -174.9
 5.500  0.7447  130.7   0.984   28.5  0.3514   57.9  0.3249 -175.8
 5.600  0.7479  129.8   0.978   27.8  0.3565   57.2  0.3306 -176.9
 5.700  0.7513  129.0   0.972   27.2  0.3617   56.5  0.3363 -177.9
 5.800  0.7549  128.2   0.966   26.5  0.3669   55.9  0.3422 -178.9
 5.900  0.7586  127.3   0.960   25.8  0.3722   55.2  0.3482 -179.9
 6.000  0.7625  126.5   0.954   25.1  0.3775   54.6  0.3543  179.2
!
!  f       NFmin   Gammaopt  rn/50
! GHz       dB    MAG  ANG    -
 0.450      1.56  0.48 -179   0.07
 0.900      1.64  0.49 -177   0.08
 1.900      2.22  0.60 -163   0.10
 2.400      2.54  0.62 -155   0.16
!
! (c) 2017  Infineon Technologies AG, Munich