! Infineon Technologies  Discrete & RF Semiconductors
! BFR193F
! VCE =  2.0 V,  IC =  85 mA
! Common Emitter S-Parameters:                            Jan 2017
# GHz  S  MA  R  50
!  f         S11            S21            S12            S22
! GHz     MAG   ANG      MAG   ANG      MAG   ANG      MAG   ANG
 0.010  0.2565 -133.2  68.796  164.3  0.0032   71.9  0.7156  -19.3
 0.020  0.4199 -134.8  62.013  150.0  0.0065   59.6  0.6552  -37.1
 0.030  0.5005 -142.3  53.898  143.7  0.0077   56.1  0.5658  -46.3
 0.040  0.5873 -147.6  46.656  135.3  0.0090   53.5  0.4962  -58.5
 0.050  0.6778 -151.6  40.755  124.2  0.0102   51.6  0.4554  -73.8
 0.060  0.6935 -154.6  37.105  122.1  0.0107   51.3  0.4169  -78.1
 0.070  0.7109 -157.4  33.514  119.6  0.0112   51.1  0.3812  -83.2
 0.080  0.7301 -160.1  30.005  116.4  0.0118   50.8  0.3492  -89.3
 0.090  0.7507 -162.7  26.610  112.5  0.0123   50.6  0.3219  -96.6
 0.100  0.7728 -165.1  23.378  107.4  0.0128   50.4  0.3006 -105.0
 0.110  0.7782 -166.2  21.901  106.4  0.0134   51.0  0.2881 -107.9
 0.120  0.7838 -167.3  20.432  105.3  0.0140   51.5  0.2764 -111.1
 0.130  0.7898 -168.5  18.972  103.9  0.0147   52.0  0.2656 -114.5
 0.140  0.7960 -169.5  17.523  102.4  0.0153   52.5  0.2558 -118.2
 0.150  0.8025 -170.6  16.090  100.6  0.0159   52.9  0.2472 -122.2
 0.200  0.8081 -173.8  12.187   96.3  0.0184   57.8  0.2230 -132.4
 0.250  0.8127 -176.2   9.787   93.5  0.0212   61.2  0.2094 -140.6
 0.300  0.8160 -177.7   8.191   91.3  0.0242   63.9  0.2038 -145.7
 0.350  0.8174 -179.0   7.169   89.8  0.0271   66.8  0.1999 -149.1
 0.400  0.8192  179.7   6.154   87.8  0.0300   69.2  0.1968 -152.7
 0.450  0.8187  178.8   5.547   86.6  0.0333   70.2  0.1957 -154.7
 0.500  0.8185  177.8   4.942   85.2  0.0366   71.1  0.1948 -156.8
 0.600  0.8223  176.2   4.134   82.8  0.0428   73.5  0.1958 -159.8
 0.700  0.8242  174.4   3.553   80.5  0.0497   74.0  0.1983 -161.4
 0.800  0.8217  173.3   3.112   78.7  0.0562   74.6  0.2011 -163.1
 0.900  0.8233  171.9   2.780   76.7  0.0624   75.0  0.2039 -163.9
 1.000  0.8249  170.8   2.512   74.8  0.0687   75.6  0.2070 -164.3
 1.100  0.8268  169.5   2.289   72.9  0.0754   75.7  0.2127 -164.6
 1.200  0.8272  168.4   2.106   71.1  0.0818   75.9  0.2170 -165.4
 1.300  0.8278  167.1   1.952   69.4  0.0884   76.0  0.2203 -165.5
 1.400  0.8286  166.2   1.823   67.8  0.0948   76.0  0.2249 -165.4
 1.500  0.8291  165.2   1.705   66.2  0.1012   75.9  0.2310 -165.7
 1.600  0.8294  164.0   1.605   64.5  0.1074   75.7  0.2352 -166.1
 1.700  0.8291  163.0   1.516   63.0  0.1139   75.7  0.2402 -165.8
 1.800  0.8304  162.2   1.440   61.5  0.1206   75.4  0.2453 -165.8
 1.900  0.8293  161.4   1.371   60.2  0.1271   75.3  0.2509 -165.6
 2.000  0.8321  160.2   1.312   58.7  0.1336   75.1  0.2563 -165.7
 2.100  0.8302  159.4   1.258   57.5  0.1401   74.8  0.2606 -165.4
 2.200  0.8284  158.5   1.204   56.2  0.1466   74.6  0.2649 -165.2
 2.300  0.8300  157.6   1.161   55.0  0.1532   74.4  0.2701 -165.2
 2.400  0.8318  156.8   1.119   53.8  0.1598   74.3  0.2753 -165.2
 2.500  0.8302  156.0   1.084   52.6  0.1666   73.9  0.2797 -165.0
 2.600  0.8288  155.2   1.049   51.4  0.1734   73.6  0.2842 -164.8
 2.700  0.8296  154.2   1.019   50.3  0.1803   73.3  0.2893 -164.9
 2.800  0.8306  153.2   0.989   49.1  0.1872   73.0  0.2944 -165.0
 2.900  0.8303  152.4   0.965   48.1  0.1942   72.7  0.2991 -164.7
 3.000  0.8302  151.5   0.942   47.0  0.2013   72.4  0.3039 -164.5
 3.100  0.8295  150.6   0.922   46.1  0.2090   71.9  0.3086 -164.7
 3.200  0.8289  149.6   0.902   45.2  0.2166   71.4  0.3133 -164.9
 3.300  0.8286  148.7   0.882   44.2  0.2243   71.0  0.3181 -165.1
 3.400  0.8286  147.7   0.863   43.2  0.2320   70.6  0.3228 -165.2
 3.500  0.8287  146.8   0.844   42.1  0.2397   70.2  0.3275 -165.4
 3.600  0.8272  145.8   0.831   41.3  0.2471   69.5  0.3316 -165.9
 3.700  0.8259  144.8   0.818   40.5  0.2546   68.9  0.3357 -166.4
 3.800  0.8249  143.9   0.805   39.7  0.2621   68.2  0.3398 -166.9
 3.900  0.8241  142.9   0.792   38.8  0.2696   67.7  0.3440 -167.3
 4.000  0.8236  141.9   0.780   37.9  0.2772   67.1  0.3482 -167.8
 4.100  0.8230  140.9   0.768   37.1  0.2842   66.3  0.3528 -168.6
 4.200  0.8226  139.9   0.757   36.3  0.2912   65.5  0.3574 -169.4
 4.300  0.8225  138.8   0.745   35.5  0.2982   64.8  0.3621 -170.1
 4.400  0.8226  137.8   0.734   34.6  0.3053   64.1  0.3668 -170.9
 4.500  0.8230  136.8   0.723   33.7  0.3125   63.4  0.3716 -171.6
 4.600  0.8214  135.7   0.711   33.1  0.3188   62.6  0.3749 -172.8
 4.700  0.8200  134.6   0.699   32.4  0.3251   61.9  0.3784 -173.9
 4.800  0.8190  133.6   0.687   31.8  0.3314   61.2  0.3821 -175.0
 4.900  0.8183  132.5   0.675   31.1  0.3378   60.5  0.3859 -176.1
 5.000  0.8178  131.4   0.663   30.4  0.3443   59.8  0.3898 -177.2
 5.100  0.8159  130.3   0.656   30.0  0.3502   59.1  0.3936 -178.3
 5.200  0.8144  129.2   0.649   29.5  0.3561   58.3  0.3976 -179.3
 5.300  0.8131  128.0   0.642   29.0  0.3621   57.6  0.4017  179.7
 5.400  0.8122  126.9   0.636   28.6  0.3681   57.0  0.4060  178.7
 5.500  0.8116  125.8   0.629   28.1  0.3742   56.3  0.4103  177.7
 5.600  0.8129  124.9   0.628   27.7  0.3794   55.5  0.4164  176.5
 5.700  0.8144  124.0   0.627   27.4  0.3846   54.8  0.4227  175.3
 5.800  0.8161  123.1   0.625   27.0  0.3899   54.1  0.4291  174.1
 5.900  0.8180  122.3   0.624   26.7  0.3952   53.4  0.4357  173.0
 6.000  0.8201  121.4   0.623   26.3  0.4006   52.7  0.4425  171.9
!
!  f       NFmin   Gammaopt  rn/50
! GHz       dB    MAG  ANG    -
!
! noise parameter not available yet for this operation point!
!
! (c) 2017  Infineon Technologies AG, Munich