! Infineon Technologies  Discrete & RF Semiconductors
! BFR193F
! VCE =  7.0 V,  IC =  30 mA
! Common Emitter S-Parameters:                            Jan 2017
# GHz  S  MA  R  50
!  f         S11            S21            S12            S22
! GHz     MAG   ANG      MAG   ANG      MAG   ANG      MAG   ANG
 0.010  0.4078  -17.5  58.560  173.0  0.0028   88.6  0.9679   -7.3
 0.020  0.4139  -35.5  56.821  165.9  0.0057   74.8  0.9503  -14.4
 0.030  0.4144  -50.5  54.169  160.5  0.0080   69.7  0.9028  -20.2
 0.040  0.4420  -64.5  52.038  154.7  0.0103   66.9  0.8656  -26.6
 0.050  0.4922  -76.2  50.492  148.4  0.0126   65.1  0.8400  -33.5
 0.060  0.4886  -84.5  47.560  145.3  0.0138   61.8  0.7904  -36.9
 0.070  0.4954  -92.8  44.787  141.7  0.0151   59.1  0.7440  -40.7
 0.080  0.5121 -100.7  42.207  137.8  0.0164   56.8  0.7013  -45.1
 0.090  0.5378 -108.0  39.856  133.3  0.0177   54.9  0.6632  -49.9
 0.100  0.5714 -114.5  37.776  128.3  0.0190   53.2  0.6303  -55.3
 0.110  0.5752 -118.6  35.853  126.5  0.0196   52.2  0.5988  -57.4
 0.120  0.5819 -122.7  33.969  124.5  0.0202   51.3  0.5683  -59.8
 0.130  0.5914 -126.7  32.131  122.3  0.0208   50.4  0.5389  -62.5
 0.140  0.6037 -130.5  30.347  119.8  0.0215   49.6  0.5107  -65.4
 0.150  0.6185 -134.1  28.628  117.0  0.0221   48.8  0.4841  -68.7
 0.200  0.6406 -145.1  22.673  109.8  0.0254   49.5  0.3915  -77.3
 0.250  0.6502 -152.9  18.607  104.9  0.0272   49.8  0.3240  -84.1
 0.300  0.6585 -158.0  15.788  101.4  0.0298   51.3  0.2814  -89.3
 0.350  0.6612 -161.6  13.896   99.2  0.0320   52.8  0.2518  -93.1
 0.400  0.6664 -165.1  12.033   96.2  0.0342   54.2  0.2236  -97.8
 0.450  0.6680 -167.5  10.871   94.6  0.0364   55.9  0.2069 -100.8
 0.500  0.6707 -169.8   9.719   92.7  0.0386   57.5  0.1908 -104.3
 0.600  0.6755 -173.1   8.157   89.7  0.0435   60.6  0.1701 -110.3
 0.700  0.6787 -176.1   7.019   87.2  0.0481   62.8  0.1586 -114.9
 0.800  0.6783 -178.1   6.146   85.2  0.0537   64.3  0.1499 -119.8
 0.900  0.6838  179.7   5.486   83.1  0.0589   65.7  0.1446 -123.4
 1.000  0.6847  178.0   4.951   81.2  0.0640   66.8  0.1424 -126.1
 1.100  0.6885  176.4   4.510   79.4  0.0695   67.8  0.1430 -129.1
 1.200  0.6891  174.7   4.143   77.7  0.0755   68.7  0.1421 -132.2
 1.300  0.6918  173.3   3.834   76.1  0.0809   69.5  0.1424 -133.5
 1.400  0.6911  172.3   3.574   74.5  0.0864   69.7  0.1450 -134.9
 1.500  0.6936  171.0   3.337   73.0  0.0914   70.4  0.1479 -137.1
 1.600  0.6968  169.7   3.134   71.5  0.0968   70.8  0.1498 -138.8
 1.700  0.6943  168.4   2.952   70.0  0.1026   70.9  0.1535 -139.5
 1.800  0.6988  167.6   2.799   68.6  0.1086   71.0  0.1566 -140.5
 1.900  0.6985  166.6   2.655   67.4  0.1140   71.2  0.1606 -141.0
 2.000  0.7024  165.4   2.533   66.0  0.1195   71.4  0.1641 -142.0
 2.100  0.7010  164.5   2.421   64.8  0.1251   71.5  0.1678 -142.3
 2.200  0.6997  163.6   2.311   63.5  0.1307   71.6  0.1715 -142.5
 2.300  0.7017  162.7   2.223   62.3  0.1363   71.5  0.1753 -142.9
 2.400  0.7039  161.8   2.136   61.1  0.1420   71.5  0.1792 -143.3
 2.500  0.7034  161.1   2.061   59.9  0.1479   71.5  0.1831 -143.2
 2.600  0.7031  160.3   1.987   58.7  0.1537   71.5  0.1870 -143.1
 2.700  0.7035  159.3   1.923   57.6  0.1597   71.3  0.1909 -143.4
 2.800  0.7041  158.4   1.860   56.4  0.1657   71.2  0.1949 -143.6
 2.900  0.7052  157.6   1.810   55.3  0.1713   71.1  0.1990 -143.2
 3.000  0.7064  156.8   1.760   54.1  0.1769   71.1  0.2031 -142.8
 3.100  0.7064  155.9   1.716   53.1  0.1836   70.8  0.2070 -143.0
 3.200  0.7065  155.0   1.673   52.1  0.1903   70.6  0.2109 -143.1
 3.300  0.7068  154.2   1.631   51.0  0.1970   70.3  0.2148 -143.3
 3.400  0.7073  153.3   1.589   49.8  0.2037   70.1  0.2187 -143.5
 3.500  0.7079  152.4   1.548   48.6  0.2104   69.9  0.2226 -143.6
 3.600  0.7073  151.5   1.518   47.7  0.2168   69.5  0.2261 -143.9
 3.700  0.7069  150.6   1.489   46.7  0.2233   69.1  0.2296 -144.2
 3.800  0.7067  149.7   1.460   45.7  0.2298   68.8  0.2331 -144.5
 3.900  0.7067  148.8   1.431   44.6  0.2362   68.4  0.2367 -144.8
 4.000  0.7068  147.9   1.403   43.5  0.2427   68.1  0.2402 -145.1
 4.100  0.7076  147.0   1.378   42.5  0.2492   67.5  0.2443 -145.9
 4.200  0.7086  146.1   1.354   41.5  0.2556   67.0  0.2485 -146.7
 4.300  0.7097  145.2   1.330   40.4  0.2621   66.5  0.2527 -147.5
 4.400  0.7110  144.3   1.307   39.3  0.2687   66.1  0.2569 -148.2
 4.500  0.7125  143.4   1.284   38.1  0.2752   65.6  0.2612 -148.9
 4.600  0.7131  142.3   1.259   37.2  0.2812   65.1  0.2640 -150.2
 4.700  0.7140  141.3   1.234   36.3  0.2873   64.5  0.2669 -151.5
 4.800  0.7151  140.2   1.210   35.4  0.2933   64.0  0.2700 -152.8
 4.900  0.7164  139.2   1.186   34.4  0.2994   63.6  0.2732 -154.0
 5.000  0.7180  138.1   1.162   33.4  0.3055   63.1  0.2765 -155.2
 5.100  0.7180  137.0   1.145   32.6  0.3114   62.5  0.2797 -156.4
 5.200  0.7182  136.0   1.128   31.9  0.3173   61.9  0.2830 -157.5
 5.300  0.7186  134.9   1.112   31.1  0.3233   61.4  0.2864 -158.6
 5.400  0.7193  133.9   1.095   30.2  0.3293   60.8  0.2900 -159.7
 5.500  0.7203  132.8   1.079   29.4  0.3353   60.3  0.2936 -160.8
 5.600  0.7238  131.9   1.071   28.7  0.3408   59.7  0.2989 -162.1
 5.700  0.7274  131.1   1.063   28.0  0.3463   59.0  0.3044 -163.4
 5.800  0.7312  130.3   1.056   27.2  0.3519   58.4  0.3100 -164.7
 5.900  0.7352  129.4   1.048   26.5  0.3575   57.9  0.3158 -165.8
 6.000  0.7393  128.6   1.041   25.7  0.3631   57.3  0.3217 -167.0
!
!  f       NFmin   Gammaopt  rn/50
! GHz       dB    MAG  ANG    -
 0.450      1.18  0.39  176   0.06
 0.900      1.27  0.42  176   0.07
 1.900      1.84  0.57 -168   0.07
 2.400      2.13  0.61 -159   0.11
!
! (c) 2017  Infineon Technologies AG, Munich