! Infineon Technologies  Discrete & RF Semiconductors
! BFR193F
! VCE =  5.0 V,  IC =  10 mA
! Common Emitter S-Parameters:                            Jan 2017
# GHz  S  MA  R  50
!  f         S11            S21            S12            S22
! GHz     MAG   ANG      MAG   ANG      MAG   ANG      MAG   ANG
 0.010  0.6918   -7.9  29.078  176.2  0.0037   83.8  0.9865   -4.1
 0.020  0.6782  -17.0  28.801  171.6  0.0077   85.7  0.9803   -8.0
 0.030  0.6715  -24.6  28.244  167.8  0.0109   79.6  0.9615  -11.7
 0.040  0.6768  -32.3  27.814  163.9  0.0141   76.3  0.9469  -15.5
 0.050  0.6939  -39.7  27.517  159.9  0.0174   74.2  0.9365  -19.4
 0.060  0.6754  -45.9  26.626  156.9  0.0198   69.8  0.9063  -22.2
 0.070  0.6652  -52.5  25.813  153.7  0.0222   66.3  0.8784  -25.1
 0.080  0.6639  -59.1  25.085  150.3  0.0247   63.6  0.8529  -28.3
 0.090  0.6714  -65.7  24.450  146.8  0.0273   61.4  0.8302  -31.6
 0.100  0.6875  -72.0  23.915  143.0  0.0299   59.5  0.8104  -35.1
 0.110  0.6787  -76.7  23.072  140.9  0.0315   57.4  0.7829  -37.0
 0.120  0.6746  -81.6  22.263  138.6  0.0331   55.6  0.7565  -39.1
 0.130  0.6753  -86.4  21.491  136.2  0.0347   53.9  0.7310  -41.4
 0.140  0.6808  -91.2  20.760  133.6  0.0364   52.3  0.7068  -43.7
 0.150  0.6910  -95.9  20.076  130.8  0.0381   50.9  0.6839  -46.3
 0.200  0.6968 -112.5  16.934  121.8  0.0429   45.1  0.5828  -54.0
 0.250  0.6917 -124.8  14.385  115.1  0.0467   41.8  0.4983  -59.5
 0.300  0.6972 -133.6  12.495  110.2  0.0486   39.8  0.4378  -63.6
 0.350  0.6943 -139.9  11.116  107.0  0.0503   39.2  0.3937  -66.0
 0.400  0.6998 -146.1   9.783  102.8  0.0520   38.6  0.3504  -69.0
 0.450  0.6974 -150.1   8.879  100.6  0.0535   38.8  0.3231  -70.7
 0.500  0.6985 -154.2   7.992   97.8  0.0550   39.0  0.2962  -72.7
 0.600  0.7027 -160.1   6.750   93.7  0.0574   40.6  0.2592  -75.5
 0.700  0.7069 -164.9   5.833   90.3  0.0601   42.0  0.2347  -78.1
 0.800  0.7066 -168.3   5.124   87.5  0.0631   43.8  0.2164  -80.6
 0.900  0.7098 -171.7   4.585   84.9  0.0656   46.3  0.2041  -82.6
 1.000  0.7113 -174.0   4.141   82.5  0.0688   47.9  0.1963  -84.6
 1.100  0.7138 -176.6   3.775   80.2  0.0721   49.9  0.1911  -87.3
 1.200  0.7167 -178.6   3.475   78.1  0.0755   51.6  0.1856  -89.6
 1.300  0.7186  179.5   3.219   76.1  0.0793   53.4  0.1837  -91.2
 1.400  0.7183  177.9   3.001   74.3  0.0824   55.2  0.1840  -93.4
 1.500  0.7208  176.2   2.804   72.4  0.0867   56.5  0.1837  -96.1
 1.600  0.7226  174.6   2.632   70.6  0.0904   57.9  0.1841  -98.1
 1.700  0.7223  173.1   2.480   68.8  0.0943   59.2  0.1875 -100.0
 1.800  0.7254  172.0   2.353   67.2  0.0986   60.4  0.1903 -101.9
 1.900  0.7262  170.9   2.233   65.7  0.1033   61.5  0.1942 -103.6
 2.000  0.7290  169.4   2.129   64.1  0.1076   62.5  0.1979 -105.4
 2.100  0.7280  168.4   2.035   62.7  0.1122   63.4  0.2026 -106.8
 2.200  0.7272  167.3   1.942   61.2  0.1168   64.2  0.2075 -108.1
 2.300  0.7293  166.3   1.866   59.9  0.1216   64.9  0.2127 -109.4
 2.400  0.7317  165.3   1.792   58.5  0.1265   65.6  0.2180 -110.7
 2.500  0.7319  164.3   1.730   57.2  0.1317   66.3  0.2241 -111.8
 2.600  0.7323  163.4   1.668   55.8  0.1369   66.9  0.2302 -112.8
 2.700  0.7335  162.3   1.614   54.5  0.1424   67.4  0.2354 -114.1
 2.800  0.7349  161.2   1.561   53.2  0.1479   67.8  0.2407 -115.3
 2.900  0.7363  160.2   1.518   52.0  0.1530   68.3  0.2474 -115.9
 3.000  0.7379  159.3   1.476   50.8  0.1582   68.8  0.2541 -116.5
 3.100  0.7386  158.3   1.439   49.8  0.1647   69.1  0.2600 -117.5
 3.200  0.7395  157.4   1.402   48.7  0.1713   69.3  0.2660 -118.5
 3.300  0.7406  156.4   1.365   47.5  0.1778   69.5  0.2721 -119.4
 3.400  0.7419  155.5   1.329   46.3  0.1844   69.7  0.2782 -120.3
 3.500  0.7434  154.5   1.294   45.0  0.1909   69.9  0.2844 -121.2
 3.600  0.7431  153.5   1.268   44.0  0.1977   69.8  0.2897 -122.2
 3.700  0.7431  152.5   1.243   43.0  0.2044   69.7  0.2950 -123.2
 3.800  0.7433  151.5   1.218   41.9  0.2112   69.6  0.3005 -124.2
 3.900  0.7437  150.5   1.194   40.8  0.2179   69.6  0.3060 -125.1
 4.000  0.7443  149.5   1.170   39.7  0.2247   69.5  0.3116 -126.0
 4.100  0.7455  148.5   1.149   38.7  0.2318   69.1  0.3170 -127.4
 4.200  0.7469  147.4   1.128   37.7  0.2389   68.8  0.3225 -128.8
 4.300  0.7486  146.4   1.107   36.6  0.2460   68.5  0.3283 -130.2
 4.400  0.7505  145.4   1.087   35.5  0.2531   68.2  0.3342 -131.5
 4.500  0.7527  144.4   1.067   34.4  0.2602   67.9  0.3403 -132.7
 4.600  0.7528  143.2   1.046   33.6  0.2673   67.4  0.3434 -134.4
 4.700  0.7532  142.1   1.024   32.7  0.2745   67.0  0.3469 -136.1
 4.800  0.7539  140.9   1.003   31.8  0.2817   66.5  0.3506 -137.8
 4.900  0.7550  139.8   0.982   30.9  0.2889   66.1  0.3547 -139.4
 5.000  0.7563  138.6   0.962   29.9  0.2961   65.7  0.3590 -141.0
 5.100  0.7559  137.5   0.948   29.2  0.3030   65.1  0.3625 -142.6
 5.200  0.7558  136.3   0.934   28.5  0.3099   64.5  0.3662 -144.1
 5.300  0.7561  135.2   0.920   27.8  0.3168   63.9  0.3702 -145.7
 5.400  0.7566  134.0   0.906   27.1  0.3238   63.4  0.3745 -147.1
 5.500  0.7574  132.9   0.892   26.3  0.3308   62.9  0.3790 -148.6
 5.600  0.7603  131.9   0.885   25.7  0.3371   62.2  0.3844 -150.3
 5.700  0.7634  130.9   0.878   25.1  0.3435   61.5  0.3900 -152.0
 5.800  0.7668  129.9   0.871   24.5  0.3499   60.9  0.3961 -153.6
 5.900  0.7704  129.0   0.865   23.8  0.3564   60.3  0.4024 -155.2
 6.000  0.7742  128.0   0.858   23.2  0.3629   59.7  0.4090 -156.7
!
!  f       NFmin   Gammaopt  rn/50
! GHz       dB    MAG  ANG    -
 0.450      0.87  0.25  139   0.07
 0.900      1.00  0.38  152   0.07
 1.900      1.70  0.59 -176   0.06
 2.400      2.05  0.63 -165   0.08
!
! (c) 2017  Infineon Technologies AG, Munich