! Infineon Technologies  Discrete & RF Semiconductors
! BFR193F
! VCE =  12. V,  IC =  25 mA
! Common Emitter S-Parameters:                            Jan 2017
# GHz  S  MA  R  50
!  f         S11            S21            S12            S22
! GHz     MAG   ANG      MAG   ANG      MAG   ANG      MAG   ANG
 0.010  0.5248  -12.4  51.127  173.7  0.0030   75.0  0.9541   -6.0
 0.020  0.5196  -26.4  49.979  167.6  0.0055   76.0  0.9449  -11.9
 0.030  0.5121  -38.0  48.122  162.8  0.0081   70.8  0.9082  -16.9
 0.040  0.5255  -49.4  46.629  157.6  0.0108   68.1  0.8789  -22.2
 0.050  0.5585  -59.9  45.536  152.2  0.0135   66.5  0.8578  -27.9
 0.060  0.5445  -67.7  43.256  149.1  0.0149   63.3  0.8148  -31.1
 0.070  0.5411  -75.8  41.120  145.6  0.0164   60.7  0.7746  -34.7
 0.080  0.5484  -83.8  39.152  141.7  0.0179   58.5  0.7376  -38.6
 0.090  0.5661  -91.5  37.378  137.5  0.0194   56.6  0.7045  -42.9
 0.100  0.5933  -98.6  35.826  132.9  0.0209   55.0  0.6758  -47.6
 0.110  0.5915 -103.2  34.157  131.0  0.0217   53.6  0.6448  -49.6
 0.120  0.5935 -107.8  32.531  128.8  0.0225   52.3  0.6147  -51.8
 0.130  0.5993 -112.4  30.955  126.5  0.0234   51.1  0.5856  -54.1
 0.140  0.6088 -116.8  29.437  123.9  0.0242   50.0  0.5576  -56.8
 0.150  0.6219 -121.1  27.986  121.0  0.0251   49.0  0.5309  -59.7
 0.200  0.6373 -134.6  22.539  113.1  0.0281   46.8  0.4335  -67.5
 0.250  0.6424 -144.2  18.643  107.8  0.0302   46.8  0.3601  -73.1
 0.300  0.6516 -150.5  15.897  103.9  0.0319   47.0  0.3119  -77.5
 0.350  0.6531 -154.9  14.022  101.4  0.0341   48.3  0.2780  -80.2
 0.400  0.6585 -159.3  12.183   98.1  0.0363   49.5  0.2449  -83.7
 0.450  0.6589 -162.1  11.023   96.4  0.0383   51.1  0.2247  -85.8
 0.500  0.6608 -164.9   9.875   94.2  0.0404   52.6  0.2048  -88.4
 0.600  0.6631 -169.2   8.292   91.0  0.0441   55.9  0.1785  -92.6
 0.700  0.6675 -172.8   7.144   88.3  0.0490   57.9  0.1625  -96.4
 0.800  0.6682 -175.2   6.263   86.1  0.0539   59.9  0.1499 -100.0
 0.900  0.6726 -177.7   5.595   84.0  0.0578   62.0  0.1416 -103.0
 1.000  0.6729 -179.6   5.044   82.0  0.0631   63.4  0.1371 -105.8
 1.100  0.6767  178.5   4.598   80.1  0.0684   64.7  0.1351 -108.8
 1.200  0.6784  176.8   4.226   78.3  0.0730   65.4  0.1323 -111.7
 1.300  0.6804  175.3   3.909   76.7  0.0782   66.7  0.1318 -113.5
 1.400  0.6820  174.1   3.643   75.1  0.0836   67.7  0.1334 -115.4
 1.500  0.6833  172.7   3.406   73.5  0.0881   68.1  0.1347 -118.1
 1.600  0.6858  171.3   3.196   71.9  0.0935   68.9  0.1357 -120.0
 1.700  0.6866  170.0   3.011   70.4  0.0983   69.0  0.1390 -121.3
 1.800  0.6875  169.1   2.854   68.9  0.1038   69.4  0.1420 -122.6
 1.900  0.6878  168.1   2.708   67.7  0.1095   69.7  0.1460 -123.9
 2.000  0.6915  166.8   2.582   66.3  0.1145   70.3  0.1497 -125.3
 2.100  0.6907  165.9   2.468   65.1  0.1200   70.5  0.1532 -125.9
 2.200  0.6901  164.9   2.356   63.7  0.1255   70.6  0.1568 -126.4
 2.300  0.6923  163.9   2.266   62.5  0.1307   70.8  0.1613 -127.2
 2.400  0.6946  163.0   2.176   61.3  0.1360   70.9  0.1658 -127.9
 2.500  0.6932  162.2   2.100   60.1  0.1417   70.9  0.1703 -128.1
 2.600  0.6920  161.4   2.024   58.8  0.1475   70.9  0.1748 -128.3
 2.700  0.6935  160.4   1.958   57.6  0.1531   71.0  0.1791 -128.9
 2.800  0.6952  159.5   1.893   56.4  0.1588   71.0  0.1835 -129.5
 2.900  0.6955  158.6   1.842   55.3  0.1642   71.1  0.1885 -129.4
 3.000  0.6960  157.8   1.791   54.1  0.1697   71.1  0.1936 -129.4
 3.100  0.6963  156.9   1.746   53.1  0.1762   70.9  0.1980 -129.8
 3.200  0.6967  156.0   1.702   52.1  0.1827   70.8  0.2025 -130.2
 3.300  0.6974  155.2   1.658   51.0  0.1892   70.7  0.2069 -130.6
 3.400  0.6982  154.3   1.615   49.8  0.1957   70.5  0.2113 -131.0
 3.500  0.6991  153.4   1.573   48.6  0.2022   70.4  0.2158 -131.3
 3.600  0.6988  152.5   1.542   47.6  0.2086   70.1  0.2198 -131.8
 3.700  0.6987  151.6   1.511   46.6  0.2149   69.8  0.2238 -132.3
 3.800  0.6987  150.7   1.481   45.6  0.2213   69.5  0.2278 -132.7
 3.900  0.6989  149.8   1.451   44.5  0.2277   69.2  0.2318 -133.2
 4.000  0.6993  148.9   1.422   43.4  0.2341   69.0  0.2358 -133.6
 4.100  0.7003  148.0   1.396   42.4  0.2405   68.5  0.2402 -134.6
 4.200  0.7016  147.0   1.371   41.3  0.2469   68.0  0.2447 -135.5
 4.300  0.7030  146.1   1.347   40.2  0.2533   67.6  0.2493 -136.5
 4.400  0.7045  145.2   1.323   39.1  0.2597   67.1  0.2539 -137.3
 4.500  0.7063  144.3   1.299   37.9  0.2661   66.7  0.2586 -138.2
 4.600  0.7068  143.2   1.274   37.0  0.2724   66.2  0.2612 -139.7
 4.700  0.7076  142.2   1.248   36.1  0.2786   65.7  0.2640 -141.1
 4.800  0.7086  141.1   1.224   35.2  0.2849   65.2  0.2670 -142.6
 4.900  0.7099  140.1   1.199   34.2  0.2913   64.7  0.2701 -143.9
 5.000  0.7114  139.0   1.175   33.2  0.2976   64.3  0.2734 -145.3
 5.100  0.7116  137.9   1.158   32.4  0.3037   63.8  0.2766 -146.6
 5.200  0.7121  136.8   1.141   31.6  0.3098   63.2  0.2799 -148.0
 5.300  0.7128  135.7   1.124   30.8  0.3159   62.7  0.2833 -149.2
 5.400  0.7138  134.6   1.107   30.0  0.3220   62.3  0.2869 -150.5
 5.500  0.7151  133.5   1.091   29.1  0.3282   61.8  0.2906 -151.7
 5.600  0.7189  132.6   1.082   28.4  0.3337   61.2  0.2956 -153.2
 5.700  0.7228  131.8   1.074   27.7  0.3393   60.5  0.3007 -154.6
 5.800  0.7269  130.9   1.065   26.9  0.3449   59.9  0.3061 -156.0
 5.900  0.7311  130.0   1.057   26.2  0.3506   59.4  0.3116 -157.4
 6.000  0.7355  129.2   1.049   25.4  0.3563   58.8  0.3173 -158.7
!
!  f       NFmin   Gammaopt  rn/50
! GHz       dB    MAG  ANG    -
 0.450      1.11  0.36  173   0.06
 0.900      1.19  0.41  174   0.06
 1.900      1.77  0.57 -169   0.07
 2.400      2.06  0.61 -160   0.11
!
! (c) 2017  Infineon Technologies AG, Munich