! Infineon Technologies  Discrete & RF Semiconductors
! BFR193F
! VCE =  6.0 V,  IC =  95 mA
! Common Emitter S-Parameters:                            Jan 2017
# GHz  S  MA  R  50
!  f         S11            S21            S12            S22
! GHz     MAG   ANG      MAG   ANG      MAG   ANG      MAG   ANG
 0.010  0.1615  -82.7  77.857  168.3  0.0026   83.2  0.8499  -11.4
 0.020  0.2915 -104.2  73.727  156.8  0.0050   71.4  0.8084  -22.9
 0.030  0.3621 -118.0  66.262  150.4  0.0065   64.8  0.7269  -29.8
 0.040  0.4465 -126.9  59.827  142.5  0.0080   60.8  0.6583  -38.2
 0.050  0.5383 -132.9  54.786  132.9  0.0096   58.0  0.6070  -48.3
 0.060  0.5568 -137.8  50.332  130.4  0.0102   56.7  0.5579  -51.0
 0.070  0.5792 -142.4  45.994  127.4  0.0107   55.4  0.5103  -54.3
 0.080  0.6050 -146.6  41.808  123.8  0.0113   54.4  0.4647  -58.2
 0.090  0.6337 -150.4  37.824  119.4  0.0119   53.4  0.4217  -62.9
 0.100  0.6650 -153.9  34.113  114.0  0.0125   52.5  0.3822  -68.7
 0.110  0.6716 -155.7  32.041  112.7  0.0130   52.7  0.3600  -70.2
 0.120  0.6789 -157.5  29.986  111.3  0.0135   52.9  0.3382  -71.9
 0.130  0.6869 -159.3  27.953  109.7  0.0139   53.1  0.3166  -73.8
 0.140  0.6955 -161.0  25.945  107.8  0.0144   53.2  0.2955  -76.1
 0.150  0.7047 -162.7  23.971  105.6  0.0149   53.4  0.2749  -78.6
 0.200  0.7185 -167.7  18.319  100.5  0.0171   57.7  0.2184  -84.3
 0.250  0.7262 -171.2  14.780   97.3  0.0195   60.2  0.1803  -89.0
 0.300  0.7318 -173.5  12.409   94.9  0.0223   64.2  0.1587  -92.7
 0.350  0.7331 -175.3  10.881   93.3  0.0250   65.8  0.1445  -95.3
 0.400  0.7350 -177.0   9.364   91.2  0.0278   67.0  0.1306  -98.4
 0.450  0.7357 -178.2   8.446   90.0  0.0304   69.2  0.1236 -100.7
 0.500  0.7367 -179.4   7.533   88.6  0.0331   71.0  0.1169 -103.3
 0.600  0.7400  178.6   6.310   86.2  0.0388   72.3  0.1097 -107.6
 0.700  0.7438  176.6   5.428   84.2  0.0441   74.0  0.1079 -111.6
 0.800  0.7406  175.3   4.757   82.4  0.0500   75.5  0.1071 -115.5
 0.900  0.7437  173.7   4.251   80.6  0.0560   76.0  0.1080 -118.3
 1.000  0.7449  172.5   3.839   78.9  0.0614   76.1  0.1111 -120.6
 1.100  0.7476  171.2   3.501   77.2  0.0679   77.0  0.1164 -123.0
 1.200  0.7494  169.9   3.219   75.7  0.0734   76.9  0.1190 -126.0
 1.300  0.7505  168.7   2.984   74.1  0.0795   77.3  0.1230 -127.0
 1.400  0.7493  168.0   2.786   72.5  0.0855   77.5  0.1290 -128.2
 1.500  0.7526  166.8   2.607   71.1  0.0911   77.6  0.1350 -130.4
 1.600  0.7533  165.7   2.450   69.6  0.0971   77.6  0.1388 -132.0
 1.700  0.7516  164.7   2.311   68.1  0.1032   77.4  0.1454 -132.9
 1.800  0.7532  163.9   2.195   66.7  0.1091   77.1  0.1517 -133.9
 1.900  0.7534  162.9   2.086   65.4  0.1151   77.0  0.1578 -134.7
 2.000  0.7558  161.9   1.992   64.1  0.1214   77.1  0.1637 -135.7
 2.100  0.7544  161.1   1.907   62.9  0.1271   76.8  0.1691 -136.1
 2.200  0.7531  160.2   1.823   61.5  0.1328   76.6  0.1745 -136.5
 2.300  0.7553  159.4   1.756   60.4  0.1391   76.4  0.1802 -137.1
 2.400  0.7577  158.6   1.689   59.2  0.1455   76.3  0.1859 -137.7
 2.500  0.7560  157.8   1.632   58.0  0.1517   76.0  0.1916 -137.9
 2.600  0.7544  157.0   1.576   56.8  0.1579   75.8  0.1974 -138.1
 2.700  0.7552  156.0   1.528   55.6  0.1645   75.5  0.2028 -138.7
 2.800  0.7562  155.1   1.480   54.4  0.1711   75.2  0.2083 -139.2
 2.900  0.7563  154.2   1.441   53.3  0.1771   75.0  0.2138 -139.1
 3.000  0.7566  153.4   1.403   52.1  0.1831   74.9  0.2194 -139.1
 3.100  0.7565  152.5   1.370   51.1  0.1902   74.5  0.2245 -139.5
 3.200  0.7565  151.7   1.338   50.1  0.1974   74.1  0.2297 -140.0
 3.300  0.7567  150.8   1.306   49.1  0.2046   73.7  0.2348 -140.4
 3.400  0.7571  150.0   1.274   48.0  0.2117   73.3  0.2400 -140.7
 3.500  0.7576  149.1   1.243   46.8  0.2189   73.0  0.2452 -141.1
 3.600  0.7564  148.2   1.220   45.9  0.2258   72.5  0.2496 -141.7
 3.700  0.7554  147.3   1.198   44.9  0.2327   72.0  0.2539 -142.2
 3.800  0.7546  146.3   1.176   43.9  0.2397   71.5  0.2583 -142.8
 3.900  0.7540  145.4   1.154   42.9  0.2466   71.0  0.2628 -143.3
 4.000  0.7536  144.5   1.133   41.8  0.2536   70.6  0.2672 -143.8
 4.100  0.7538  143.6   1.114   40.8  0.2602   69.9  0.2719 -144.8
 4.200  0.7541  142.6   1.095   39.9  0.2669   69.3  0.2766 -145.8
 4.300  0.7547  141.7   1.077   38.8  0.2736   68.6  0.2814 -146.7
 4.400  0.7554  140.7   1.059   37.8  0.2803   68.1  0.2863 -147.6
 4.500  0.7564  139.8   1.041   36.7  0.2871   67.5  0.2913 -148.5
 4.600  0.7560  138.8   1.022   35.9  0.2935   66.8  0.2944 -149.9
 4.700  0.7558  137.7   1.002   35.0  0.3000   66.2  0.2978 -151.4
 4.800  0.7559  136.7   0.983   34.2  0.3066   65.6  0.3013 -152.7
 4.900  0.7562  135.6   0.965   33.2  0.3131   65.0  0.3050 -154.1
 5.000  0.7568  134.6   0.946   32.3  0.3197   64.4  0.3088 -155.4
 5.100  0.7561  133.6   0.933   31.6  0.3258   63.7  0.3123 -156.7
 5.200  0.7557  132.5   0.920   30.9  0.3320   63.1  0.3160 -157.9
 5.300  0.7555  131.5   0.908   30.2  0.3382   62.5  0.3199 -159.1
 5.400  0.7556  130.4   0.895   29.5  0.3445   61.9  0.3239 -160.3
 5.500  0.7559  129.4   0.883   28.7  0.3508   61.3  0.3280 -161.5
 5.600  0.7584  128.5   0.878   28.1  0.3563   60.6  0.3335 -162.9
 5.700  0.7612  127.6   0.873   27.5  0.3620   59.8  0.3393 -164.3
 5.800  0.7641  126.7   0.868   26.9  0.3676   59.1  0.3452 -165.6
 5.900  0.7672  125.8   0.863   26.2  0.3733   58.5  0.3513 -166.9
 6.000  0.7705  124.9   0.858   25.6  0.3791   57.8  0.3576 -168.1
!
!  f       NFmin   Gammaopt  rn/50
! GHz       dB    MAG  ANG    -
!
! noise parameter not available yet for this operation point!
!
! (c) 2017  Infineon Technologies AG, Munich