! Infineon Technologies  Discrete & RF Semiconductors
! BFR193F
! VCE =  4.0 V,  IC = 0.11 A
! Common Emitter S-Parameters:                            Jan 2017
# GHz  S  MA  R  50
!  f         S11            S21            S12            S22
! GHz     MAG   ANG      MAG   ANG      MAG   ANG      MAG   ANG
 0.010  0.2317 -130.4  70.358  165.4  0.0030   77.1  0.7257  -15.3
 0.020  0.3864 -131.9  64.323  151.8  0.0053   65.1  0.6695  -30.1
 0.030  0.4678 -139.7  56.362  145.4  0.0065   60.6  0.5850  -37.6
 0.040  0.5553 -145.2  49.319  137.1  0.0078   57.5  0.5136  -47.4
 0.050  0.6464 -149.1  43.643  126.3  0.0091   55.3  0.4616  -59.8
 0.060  0.6634 -152.3  39.814  124.1  0.0096   54.1  0.4210  -62.8
 0.070  0.6824 -155.4  36.057  121.4  0.0101   53.1  0.3817  -66.4
 0.080  0.7032 -158.3  32.395  118.2  0.0107   52.1  0.3444  -70.9
 0.090  0.7257 -161.0  28.865  114.1  0.0112   51.3  0.3096  -76.3
 0.100  0.7498 -163.6  25.522  108.9  0.0117   50.5  0.2783  -83.1
 0.110  0.7554 -164.8  23.917  107.8  0.0121   51.5  0.2627  -85.1
 0.120  0.7613 -166.0  22.322  106.6  0.0126   52.4  0.2474  -87.3
 0.130  0.7675 -167.1  20.738  105.2  0.0130   53.3  0.2325  -89.8
 0.140  0.7740 -168.3  19.168  103.6  0.0135   54.1  0.2181  -92.6
 0.150  0.7808 -169.4  17.617  101.7  0.0139   54.8  0.2043  -95.8
 0.200  0.7885 -172.9  13.365   97.3  0.0163   57.8  0.1671 -103.6
 0.250  0.7927 -175.5  10.742   94.4  0.0194   62.3  0.1431 -110.6
 0.300  0.7969 -177.1   9.002   92.3  0.0218   66.5  0.1316 -115.8
 0.350  0.7975 -178.6   7.883   90.8  0.0248   68.6  0.1236 -119.6
 0.400  0.7986 -180.0   6.772   88.7  0.0278   70.2  0.1163 -123.8
 0.450  0.7993  179.1   6.104   87.5  0.0305   71.5  0.1136 -126.1
 0.500  0.8002  178.2   5.439   86.1  0.0333   72.5  0.1110 -128.6
 0.600  0.8038  176.4   4.553   83.8  0.0392   74.3  0.1099 -132.4
 0.700  0.8036  174.7   3.914   81.6  0.0454   75.4  0.1125 -134.9
 0.800  0.8036  173.7   3.429   79.8  0.0510   75.8  0.1149 -137.6
 0.900  0.8067  172.1   3.063   77.8  0.0569   76.8  0.1182 -138.7
 1.000  0.8064  170.9   2.765   76.0  0.0637   76.9  0.1234 -139.2
 1.100  0.8081  169.8   2.522   74.2  0.0695   77.6  0.1299 -140.5
 1.200  0.8090  168.6   2.322   72.5  0.0756   77.7  0.1350 -141.8
 1.300  0.8104  167.4   2.152   70.8  0.0815   77.8  0.1401 -142.0
 1.400  0.8094  166.6   2.009   69.2  0.0878   77.8  0.1468 -142.0
 1.500  0.8117  165.4   1.882   67.6  0.0937   78.1  0.1543 -143.1
 1.600  0.8116  164.4   1.768   66.0  0.0999   78.0  0.1601 -143.8
 1.700  0.8107  163.3   1.670   64.4  0.1060   77.7  0.1669 -143.9
 1.800  0.8128  162.5   1.586   62.9  0.1120   77.7  0.1747 -144.2
 1.900  0.8122  161.6   1.508   61.6  0.1186   77.6  0.1814 -144.3
 2.000  0.8156  160.5   1.441   60.2  0.1248   77.4  0.1890 -145.0
 2.100  0.8132  159.7   1.381   59.0  0.1310   77.3  0.1956 -145.0
 2.200  0.8109  158.8   1.322   57.6  0.1373   77.3  0.2021 -145.0
 2.300  0.8128  157.9   1.274   56.4  0.1436   77.0  0.2088 -145.3
 2.400  0.8149  157.1   1.227   55.2  0.1500   76.8  0.2156 -145.6
 2.500  0.8138  156.3   1.187   54.0  0.1566   76.5  0.2221 -145.6
 2.600  0.8128  155.5   1.148   52.8  0.1632   76.3  0.2286 -145.6
 2.700  0.8129  154.6   1.114   51.7  0.1701   75.9  0.2352 -146.1
 2.800  0.8133  153.7   1.080   50.5  0.1770   75.6  0.2419 -146.5
 2.900  0.8140  152.7   1.053   49.4  0.1835   75.4  0.2485 -146.4
 3.000  0.8149  151.8   1.026   48.3  0.1900   75.2  0.2551 -146.4
 3.100  0.8142  150.9   1.003   47.4  0.1976   74.7  0.2612 -146.9
 3.200  0.8137  150.0   0.981   46.4  0.2051   74.3  0.2673 -147.3
 3.300  0.8135  149.1   0.958   45.4  0.2127   73.9  0.2734 -147.8
 3.400  0.8134  148.2   0.937   44.3  0.2203   73.5  0.2795 -148.2
 3.500  0.8135  147.3   0.915   43.2  0.2279   73.1  0.2857 -148.6
 3.600  0.8119  146.3   0.900   42.4  0.2353   72.5  0.2907 -149.3
 3.700  0.8106  145.3   0.884   41.5  0.2427   71.9  0.2957 -149.9
 3.800  0.8095  144.2   0.869   40.7  0.2502   71.3  0.3008 -150.6
 3.900  0.8087  143.2   0.855   39.7  0.2576   70.8  0.3059 -151.2
 4.000  0.8081  142.2   0.840   38.8  0.2651   70.3  0.3110 -151.8
 4.100  0.8079  141.2   0.827   38.0  0.2723   69.5  0.3163 -152.9
 4.200  0.8080  140.2   0.814   37.2  0.2795   68.8  0.3216 -153.9
 4.300  0.8082  139.3   0.801   36.3  0.2867   68.2  0.3271 -154.9
 4.400  0.8087  138.3   0.788   35.4  0.2940   67.5  0.3326 -155.9
 4.500  0.8095  137.3   0.776   34.5  0.3013   66.9  0.3383 -156.8
 4.600  0.8081  136.2   0.762   33.9  0.3079   66.1  0.3420 -158.2
 4.700  0.8069  135.1   0.748   33.2  0.3145   65.4  0.3458 -159.6
 4.800  0.8061  134.0   0.735   32.5  0.3213   64.6  0.3499 -161.0
 4.900  0.8055  132.9   0.721   31.8  0.3280   64.0  0.3542 -162.3
 5.000  0.8053  131.8   0.708   31.1  0.3348   63.3  0.3586 -163.6
 5.100  0.8036  130.7   0.700   30.6  0.3411   62.5  0.3626 -164.9
 5.200  0.8023  129.6   0.692   30.1  0.3474   61.8  0.3667 -166.1
 5.300  0.8012  128.4   0.684   29.6  0.3537   61.1  0.3711 -167.3
 5.400  0.8004  127.3   0.676   29.0  0.3601   60.5  0.3756 -168.5
 5.500  0.8000  126.2   0.668   28.5  0.3666   59.8  0.3802 -169.7
 5.600  0.8017  125.3   0.666   28.1  0.3722   59.0  0.3863 -171.1
 5.700  0.8037  124.4   0.664   27.7  0.3778   58.3  0.3926 -172.4
 5.800  0.8058  123.5   0.662   27.4  0.3835   57.5  0.3992 -173.7
 5.900  0.8081  122.7   0.660   27.0  0.3893   56.8  0.4059 -175.0
 6.000  0.8106  121.8   0.658   26.6  0.3951   56.1  0.4128 -176.2
!
!  f       NFmin   Gammaopt  rn/50
! GHz       dB    MAG  ANG    -
!
! noise parameter not available yet for this operation point!
!
! (c) 2017  Infineon Technologies AG, Munich