! Infineon Technologies  Discrete & RF Semiconductors
! BFR193F
! VCE =  8.0 V,  IC =  32 mA
! Common Emitter S-Parameters:                            Jan 2017
# GHz  S  MA  R  50
!  f         S11            S21            S12            S22
! GHz     MAG   ANG      MAG   ANG      MAG   ANG      MAG   ANG
 0.010  0.4082  -17.3  60.030  172.8  0.0028   81.4  0.9645   -7.3
 0.020  0.4153  -36.1  58.596  165.7  0.0056   80.3  0.9452  -14.4
 0.030  0.4158  -50.8  55.689  160.3  0.0078   72.5  0.8984  -20.2
 0.040  0.4428  -64.7  53.318  154.5  0.0101   68.3  0.8619  -26.6
 0.050  0.4919  -76.3  51.558  148.1  0.0125   65.6  0.8370  -33.5
 0.060  0.4882  -84.7  48.546  145.0  0.0136   62.6  0.7870  -36.9
 0.070  0.4949  -93.0  45.695  141.5  0.0148   60.1  0.7402  -40.7
 0.080  0.5116 -100.9  43.037  137.5  0.0160   57.9  0.6970  -45.0
 0.090  0.5375 -108.3  40.611  133.1  0.0172   56.0  0.6584  -49.9
 0.100  0.5713 -114.8  38.460  128.1  0.0184   54.4  0.6250  -55.3
 0.110  0.5747 -118.9  36.494  126.3  0.0191   53.4  0.5936  -57.4
 0.120  0.5810 -122.9  34.568  124.3  0.0199   52.4  0.5631  -59.7
 0.130  0.5901 -126.9  32.689  122.1  0.0206   51.6  0.5336  -62.3
 0.140  0.6019 -130.7  30.865  119.6  0.0214   50.8  0.5053  -65.1
 0.150  0.6162 -134.3  29.106  116.8  0.0221   50.0  0.4784  -68.3
 0.200  0.6382 -145.4  23.032  109.6  0.0249   49.3  0.3867  -76.8
 0.250  0.6453 -153.0  18.886  104.8  0.0272   49.1  0.3192  -83.3
 0.300  0.6549 -158.0  16.019  101.3  0.0289   51.5  0.2777  -88.6
 0.350  0.6576 -161.7  14.104   99.1  0.0310   53.5  0.2483  -92.2
 0.400  0.6629 -165.3  12.217   96.1  0.0331   55.3  0.2201  -96.7
 0.450  0.6637 -167.5  11.032   94.5  0.0355   57.1  0.2030  -99.6
 0.500  0.6655 -169.7   9.858   92.6  0.0380   58.7  0.1865 -103.0
 0.600  0.6724 -173.2   8.276   89.7  0.0433   61.0  0.1663 -108.6
 0.700  0.6742 -176.1   7.117   87.2  0.0479   62.8  0.1547 -113.3
 0.800  0.6750 -178.1   6.236   85.2  0.0534   64.9  0.1457 -118.0
 0.900  0.6789  179.7   5.566   83.1  0.0588   66.4  0.1405 -121.6
 1.000  0.6782  178.1   5.020   81.3  0.0638   67.3  0.1379 -124.1
 1.100  0.6835  176.3   4.575   79.4  0.0695   68.7  0.1381 -127.2
 1.200  0.6853  174.9   4.204   77.8  0.0748   69.3  0.1373 -130.3
 1.300  0.6876  173.4   3.890   76.2  0.0803   69.9  0.1381 -131.9
 1.400  0.6885  172.3   3.626   74.6  0.0860   70.4  0.1403 -133.4
 1.500  0.6903  171.0   3.385   73.1  0.0910   70.8  0.1433 -135.5
 1.600  0.6907  169.6   3.178   71.6  0.0963   70.9  0.1448 -137.2
 1.700  0.6936  168.5   2.994   70.1  0.1019   71.1  0.1486 -138.1
 1.800  0.6948  167.6   2.837   68.7  0.1079   71.6  0.1520 -138.9
 1.900  0.6945  166.7   2.694   67.4  0.1130   71.5  0.1558 -139.5
 2.000  0.6979  165.4   2.569   66.1  0.1191   71.8  0.1593 -140.7
 2.100  0.6966  164.6   2.455   64.9  0.1245   71.9  0.1630 -140.9
 2.200  0.6955  163.7   2.343   63.6  0.1300   71.9  0.1667 -141.0
 2.300  0.6974  162.8   2.254   62.4  0.1357   71.8  0.1705 -141.4
 2.400  0.6995  161.9   2.166   61.2  0.1415   71.8  0.1743 -141.7
 2.500  0.6986  161.1   2.090   60.1  0.1473   71.7  0.1782 -141.6
 2.600  0.6979  160.3   2.015   58.9  0.1531   71.6  0.1821 -141.6
 2.700  0.6996  159.4   1.950   57.7  0.1592   71.5  0.1862 -141.9
 2.800  0.7014  158.5   1.885   56.5  0.1654   71.4  0.1903 -142.2
 2.900  0.7017  157.7   1.835   55.4  0.1710   71.3  0.1944 -141.8
 3.000  0.7022  156.9   1.785   54.3  0.1766   71.3  0.1986 -141.4
 3.100  0.7022  156.0   1.741   53.3  0.1833   71.0  0.2025 -141.6
 3.200  0.7025  155.1   1.697   52.3  0.1899   70.8  0.2064 -141.7
 3.300  0.7028  154.3   1.654   51.2  0.1966   70.6  0.2104 -141.8
 3.400  0.7034  153.4   1.611   50.0  0.2032   70.4  0.2143 -142.0
 3.500  0.7041  152.5   1.569   48.8  0.2099   70.2  0.2182 -142.1
 3.600  0.7035  151.6   1.538   47.8  0.2163   69.8  0.2217 -142.4
 3.700  0.7030  150.7   1.508   46.8  0.2228   69.5  0.2252 -142.8
 3.800  0.7027  149.8   1.479   45.8  0.2292   69.1  0.2287 -143.1
 3.900  0.7026  148.9   1.450   44.7  0.2356   68.8  0.2323 -143.4
 4.000  0.7027  148.0   1.421   43.6  0.2421   68.5  0.2358 -143.7
 4.100  0.7038  147.1   1.396   42.6  0.2484   67.9  0.2399 -144.5
 4.200  0.7051  146.2   1.371   41.6  0.2547   67.4  0.2439 -145.3
 4.300  0.7066  145.3   1.347   40.5  0.2610   66.9  0.2481 -146.1
 4.400  0.7082  144.5   1.323   39.4  0.2673   66.4  0.2523 -146.8
 4.500  0.7100  143.6   1.300   38.3  0.2737   65.9  0.2565 -147.5
 4.600  0.7102  142.5   1.275   37.4  0.2799   65.3  0.2592 -148.8
 4.700  0.7106  141.4   1.249   36.5  0.2861   64.8  0.2621 -150.1
 4.800  0.7112  140.4   1.225   35.5  0.2923   64.3  0.2651 -151.4
 4.900  0.7121  139.3   1.200   34.5  0.2985   63.8  0.2682 -152.7
 5.000  0.7133  138.2   1.176   33.5  0.3048   63.3  0.2715 -153.9
 5.100  0.7136  137.2   1.159   32.7  0.3107   62.7  0.2747 -155.1
 5.200  0.7142  136.1   1.142   32.0  0.3166   62.2  0.2781 -156.2
 5.300  0.7149  135.1   1.126   31.2  0.3225   61.7  0.2815 -157.3
 5.400  0.7159  134.0   1.109   30.3  0.3284   61.2  0.2851 -158.4
 5.500  0.7172  133.0   1.093   29.5  0.3344   60.7  0.2887 -159.5
 5.600  0.7207  132.1   1.085   28.8  0.3397   60.0  0.2939 -160.9
 5.700  0.7245  131.3   1.077   28.0  0.3450   59.4  0.2993 -162.2
 5.800  0.7283  130.5   1.069   27.3  0.3503   58.8  0.3048 -163.4
 5.900  0.7323  129.6   1.061   26.5  0.3557   58.2  0.3104 -164.6
 6.000  0.7365  128.8   1.054   25.7  0.3611   57.6  0.3162 -165.8
!
!  f       NFmin   Gammaopt  rn/50
! GHz       dB    MAG  ANG    -
 0.450      1.21  0.40  177   0.06
 0.900      1.30  0.43  177   0.07
 1.900      1.86  0.58 -167   0.07
 2.400      2.15  0.61 -158   0.12
!
! (c) 2017  Infineon Technologies AG, Munich