! Infineon Technologies  Discrete & RF Semiconductors
! BFR193F
! VCE =  11. V,  IC =  40 mA
! Common Emitter S-Parameters:                            Jan 2017
# GHz  S  MA  R  50
!  f         S11            S21            S12            S22
! GHz     MAG   ANG      MAG   ANG      MAG   ANG      MAG   ANG
 0.010  0.4109  -17.5  64.196  172.2  0.0027   79.7  0.9462   -7.4
 0.020  0.4181  -36.6  62.165  165.0  0.0053   75.7  0.9261  -14.7
 0.030  0.4167  -51.8  58.947  159.5  0.0075   70.1  0.8772  -20.6
 0.040  0.4438  -66.2  56.327  153.5  0.0098   67.1  0.8387  -27.1
 0.050  0.4948  -78.2  54.392  146.9  0.0121   65.2  0.8120  -34.2
 0.060  0.4907  -86.5  51.080  143.8  0.0131   62.3  0.7623  -37.5
 0.070  0.4969  -94.8  47.936  140.3  0.0142   59.9  0.7154  -41.2
 0.080  0.5132 -102.7  44.995  136.4  0.0152   57.7  0.6720  -45.4
 0.090  0.5387 -110.0  42.298  131.9  0.0163   55.9  0.6327  -50.2
 0.100  0.5720 -116.6  39.896  126.8  0.0174   54.3  0.5984  -55.6
 0.110  0.5750 -120.6  37.825  125.0  0.0181   53.3  0.5677  -57.6
 0.120  0.5807 -124.5  35.794  123.1  0.0188   52.3  0.5377  -59.8
 0.130  0.5891 -128.4  33.809  120.9  0.0195   51.5  0.5086  -62.3
 0.140  0.6002 -132.1  31.879  118.5  0.0202   50.7  0.4806  -65.1
 0.150  0.6136 -135.7  30.015  115.7  0.0209   49.9  0.4539  -68.2
 0.200  0.6334 -146.6  23.660  108.7  0.0232   49.5  0.3649  -76.1
 0.250  0.6410 -154.1  19.357  104.1  0.0258   50.7  0.3007  -82.1
 0.300  0.6506 -158.9  16.415  100.7  0.0275   52.2  0.2605  -87.0
 0.350  0.6521 -162.4  14.435   98.5  0.0298   54.6  0.2324  -90.2
 0.400  0.6559 -165.8  12.484   95.6  0.0321   56.6  0.2052  -94.2
 0.450  0.6572 -168.0  11.274   94.1  0.0347   58.4  0.1893  -96.9
 0.500  0.6594 -170.1  10.073   92.2  0.0373   60.0  0.1739 -100.0
 0.600  0.6634 -173.7   8.452   89.4  0.0420   62.7  0.1535 -105.2
 0.700  0.6671 -176.5   7.270   87.0  0.0474   63.9  0.1421 -109.9
 0.800  0.6680 -178.5   6.371   85.0  0.0524   66.4  0.1337 -114.4
 0.900  0.6717  179.4   5.685   83.0  0.0575   67.5  0.1285 -117.6
 1.000  0.6718  177.9   5.126   81.2  0.0631   69.0  0.1263 -120.6
 1.100  0.6757  176.1   4.670   79.4  0.0691   69.2  0.1262 -123.5
 1.200  0.6777  174.6   4.290   77.7  0.0739   70.1  0.1254 -126.6
 1.300  0.6801  173.2   3.972   76.1  0.0798   70.5  0.1259 -128.1
 1.400  0.6811  172.2   3.703   74.5  0.0850   71.4  0.1279 -129.5
 1.500  0.6836  171.0   3.458   73.1  0.0905   71.6  0.1308 -132.0
 1.600  0.6858  169.6   3.245   71.6  0.0960   71.8  0.1325 -133.6
 1.700  0.6843  168.5   3.057   70.0  0.1015   72.0  0.1358 -134.4
 1.800  0.6874  167.6   2.899   68.7  0.1071   71.9  0.1398 -135.5
 1.900  0.6870  166.7   2.749   67.4  0.1129   72.2  0.1434 -136.1
 2.000  0.6912  165.4   2.623   66.0  0.1180   72.4  0.1475 -137.2
 2.100  0.6900  164.5   2.507   64.8  0.1236   72.3  0.1509 -137.4
 2.200  0.6890  163.6   2.393   63.5  0.1292   72.3  0.1544 -137.5
 2.300  0.6909  162.7   2.302   62.4  0.1349   72.2  0.1583 -137.9
 2.400  0.6930  161.8   2.211   61.2  0.1406   72.2  0.1623 -138.3
 2.500  0.6926  161.1   2.133   60.0  0.1465   72.2  0.1663 -138.1
 2.600  0.6923  160.3   2.056   58.8  0.1523   72.2  0.1704 -138.0
 2.700  0.6933  159.4   1.990   57.7  0.1583   72.0  0.1746 -138.4
 2.800  0.6944  158.5   1.925   56.5  0.1643   71.8  0.1788 -138.7
 2.900  0.6947  157.7   1.873   55.4  0.1698   71.7  0.1830 -138.3
 3.000  0.6952  156.9   1.822   54.2  0.1754   71.7  0.1872 -137.9
 3.100  0.6952  156.0   1.776   53.2  0.1820   71.4  0.1912 -138.1
 3.200  0.6954  155.2   1.731   52.2  0.1886   71.2  0.1952 -138.2
 3.300  0.6957  154.3   1.687   51.1  0.1952   71.0  0.1993 -138.3
 3.400  0.6962  153.5   1.643   49.9  0.2018   70.8  0.2033 -138.5
 3.500  0.6969  152.6   1.600   48.7  0.2084   70.6  0.2073 -138.6
 3.600  0.6961  151.7   1.569   47.7  0.2148   70.2  0.2110 -138.9
 3.700  0.6955  150.8   1.538   46.7  0.2211   69.8  0.2147 -139.2
 3.800  0.6951  149.9   1.507   45.7  0.2275   69.4  0.2184 -139.5
 3.900  0.6949  149.0   1.477   44.6  0.2339   69.0  0.2221 -139.8
 4.000  0.6948  148.1   1.448   43.5  0.2403   68.7  0.2258 -140.1
 4.100  0.6960  147.2   1.422   42.5  0.2465   68.2  0.2299 -140.9
 4.200  0.6974  146.4   1.397   41.5  0.2528   67.7  0.2340 -141.7
 4.300  0.6990  145.5   1.372   40.4  0.2591   67.2  0.2381 -142.5
 4.400  0.7007  144.7   1.348   39.3  0.2654   66.7  0.2423 -143.2
 4.500  0.7026  143.8   1.324   38.1  0.2717   66.3  0.2465 -143.9
 4.600  0.7033  142.7   1.298   37.2  0.2778   65.8  0.2492 -145.3
 4.700  0.7043  141.6   1.272   36.3  0.2840   65.2  0.2520 -146.6
 4.800  0.7056  140.5   1.247   35.3  0.2902   64.7  0.2549 -148.0
 4.900  0.7071  139.5   1.222   34.3  0.2964   64.3  0.2580 -149.2
 5.000  0.7088  138.4   1.197   33.3  0.3026   63.8  0.2612 -150.5
 5.100  0.7089  137.4   1.179   32.5  0.3084   63.2  0.2644 -151.7
 5.200  0.7092  136.3   1.162   31.7  0.3143   62.7  0.2677 -152.9
 5.300  0.7097  135.3   1.145   30.9  0.3202   62.1  0.2711 -154.1
 5.400  0.7105  134.2   1.128   30.1  0.3261   61.6  0.2747 -155.2
 5.500  0.7115  133.2   1.111   29.2  0.3321   61.1  0.2783 -156.3
 5.600  0.7150  132.3   1.102   28.5  0.3374   60.4  0.2833 -157.7
 5.700  0.7187  131.5   1.094   27.7  0.3427   59.8  0.2885 -159.1
 5.800  0.7225  130.7   1.086   27.0  0.3481   59.2  0.2939 -160.4
 5.900  0.7265  129.8   1.078   26.2  0.3535   58.6  0.2994 -161.7
 6.000  0.7306  129.0   1.070   25.4  0.3590   58.0  0.3050 -162.9
!
!  f       NFmin   Gammaopt  rn/50
! GHz       dB    MAG  ANG    -
 0.450      1.34  0.43  179   0.06
 0.900      1.42  0.44  180   0.07
 1.900      1.98  0.59 -165   0.08
 2.400      2.27  0.61 -157   0.13
!
! (c) 2017  Infineon Technologies AG, Munich