! Infineon Technologies  Discrete & RF Semiconductors
! BFR193F
! VCE =  5.0 V,  IC = 0.11 A
! Common Emitter S-Parameters:                            Jan 2017
# GHz  S  MA  R  50
!  f         S11            S21            S12            S22
! GHz     MAG   ANG      MAG   ANG      MAG   ANG      MAG   ANG
 0.010  0.1953 -117.4  72.475  166.4  0.0027   83.2  0.7653  -13.4
 0.020  0.3526 -124.4  67.091  153.4  0.0055   69.7  0.7125  -26.8
 0.030  0.4324 -133.6  59.259  147.0  0.0065   62.1  0.6295  -33.8
 0.040  0.5199 -139.9  52.381  138.8  0.0076   56.6  0.5586  -42.7
 0.050  0.6117 -144.3  46.879  128.4  0.0088   52.5  0.5049  -53.9
 0.060  0.6293 -148.0  42.852  126.1  0.0093   52.0  0.4617  -56.5
 0.070  0.6494 -151.5  38.909  123.3  0.0097   51.5  0.4196  -59.6
 0.080  0.6717 -154.8  35.076  120.0  0.0102   51.1  0.3789  -63.3
 0.090  0.6961 -157.9  31.395  115.8  0.0106   50.7  0.3404  -68.0
 0.100  0.7224 -160.7  27.926  110.5  0.0111   50.3  0.3046  -73.8
 0.110  0.7285 -162.1  26.187  109.4  0.0117   52.0  0.2868  -75.3
 0.120  0.7350 -163.5  24.459  108.1  0.0124   53.5  0.2693  -77.1
 0.130  0.7420 -164.9  22.745  106.6  0.0130   54.9  0.2521  -79.0
 0.140  0.7494 -166.3  21.048  104.9  0.0136   56.2  0.2352  -81.3
 0.150  0.7572 -167.6  19.374  102.9  0.0143   57.3  0.2187  -83.9
 0.200  0.7665 -171.5  14.727   98.4  0.0165   59.9  0.1757  -89.4
 0.250  0.7730 -174.3  11.847   95.5  0.0189   61.8  0.1456  -94.5
 0.300  0.7767 -176.1   9.945   93.2  0.0215   64.9  0.1306  -98.3
 0.350  0.7771 -177.6   8.711   91.7  0.0242   67.6  0.1202 -101.0
 0.400  0.7781 -179.1   7.484   89.7  0.0269   69.8  0.1102 -104.3
 0.450  0.7791  179.9   6.749   88.6  0.0295   71.1  0.1060 -106.5
 0.500  0.7803  178.9   6.018   87.2  0.0322   72.2  0.1020 -108.9
 0.600  0.7832  177.0   5.040   84.8  0.0378   72.8  0.0982 -113.3
 0.700  0.7861  175.3   4.334   82.8  0.0441   74.9  0.0996 -116.3
 0.800  0.7836  174.1   3.799   81.0  0.0503   75.9  0.1013 -119.9
 0.900  0.7873  172.5   3.397   79.1  0.0565   77.0  0.1043 -122.3
 1.000  0.7860  171.4   3.069   77.4  0.0620   77.1  0.1085 -123.6
 1.100  0.7893  170.2   2.800   75.6  0.0679   78.0  0.1151 -125.8
 1.200  0.7898  168.9   2.577   73.9  0.0736   77.5  0.1196 -127.9
 1.300  0.7895  167.8   2.390   72.2  0.0801   77.9  0.1249 -128.7
 1.400  0.7906  166.8   2.234   70.7  0.0856   78.4  0.1317 -129.7
 1.500  0.7927  165.9   2.091   69.2  0.0918   78.5  0.1392 -131.6
 1.600  0.7946  164.7   1.965   67.6  0.0977   78.2  0.1448 -132.9
 1.700  0.7923  163.6   1.855   66.0  0.1037   78.2  0.1518 -133.6
 1.800  0.7938  162.8   1.762   64.5  0.1097   78.0  0.1594 -134.3
 1.900  0.7935  161.9   1.677   63.2  0.1163   78.0  0.1662 -135.0
 2.000  0.7956  160.9   1.602   61.8  0.1221   77.8  0.1736 -135.8
 2.100  0.7939  160.1   1.535   60.6  0.1283   77.7  0.1801 -136.2
 2.200  0.7923  159.2   1.468   59.3  0.1345   77.6  0.1867 -136.6
 2.300  0.7941  158.3   1.415   58.1  0.1407   77.4  0.1936 -137.3
 2.400  0.7960  157.5   1.362   56.9  0.1469   77.2  0.2005 -137.9
 2.500  0.7945  156.7   1.318   55.7  0.1534   76.9  0.2072 -138.1
 2.600  0.7932  155.9   1.274   54.4  0.1600   76.6  0.2139 -138.3
 2.700  0.7941  154.9   1.236   53.3  0.1666   76.3  0.2206 -139.0
 2.800  0.7953  154.0   1.198   52.1  0.1733   76.0  0.2274 -139.6
 2.900  0.7953  153.1   1.167   51.0  0.1797   75.8  0.2339 -139.7
 3.000  0.7954  152.3   1.137   49.9  0.1862   75.7  0.2405 -139.7
 3.100  0.7949  151.4   1.111   49.0  0.1936   75.3  0.2465 -140.3
 3.200  0.7946  150.5   1.086   48.0  0.2010   74.9  0.2525 -140.9
 3.300  0.7945  149.6   1.060   46.9  0.2084   74.5  0.2586 -141.4
 3.400  0.7945  148.7   1.035   45.8  0.2158   74.1  0.2646 -141.9
 3.500  0.7948  147.8   1.011   44.7  0.2232   73.8  0.2707 -142.4
 3.600  0.7936  146.8   0.994   43.8  0.2304   73.2  0.2757 -143.1
 3.700  0.7927  145.8   0.977   42.9  0.2377   72.7  0.2808 -143.8
 3.800  0.7919  144.9   0.960   42.0  0.2450   72.1  0.2859 -144.5
 3.900  0.7915  143.9   0.943   41.0  0.2523   71.7  0.2911 -145.2
 4.000  0.7912  142.9   0.927   40.0  0.2596   71.2  0.2963 -145.8
 4.100  0.7909  141.9   0.912   39.1  0.2666   70.4  0.3014 -146.9
 4.200  0.7909  140.9   0.897   38.2  0.2737   69.7  0.3067 -148.0
 4.300  0.7910  140.0   0.882   37.3  0.2808   69.1  0.3120 -149.0
 4.400  0.7915  139.0   0.868   36.3  0.2880   68.4  0.3175 -150.0
 4.500  0.7921  138.0   0.854   35.3  0.2952   67.8  0.3230 -151.0
 4.600  0.7910  136.9   0.839   34.6  0.3019   67.0  0.3265 -152.5
 4.700  0.7903  135.8   0.824   33.9  0.3087   66.3  0.3302 -154.0
 4.800  0.7898  134.8   0.809   33.1  0.3155   65.6  0.3341 -155.4
 4.900  0.7895  133.7   0.794   32.3  0.3223   64.9  0.3383 -156.8
 5.000  0.7896  132.6   0.779   31.5  0.3292   64.3  0.3426 -158.2
 5.100  0.7883  131.5   0.769   30.9  0.3355   63.6  0.3464 -159.6
 5.200  0.7873  130.4   0.760   30.4  0.3418   62.9  0.3504 -160.9
 5.300  0.7866  129.2   0.751   29.8  0.3481   62.2  0.3546 -162.2
 5.400  0.7862  128.1   0.741   29.2  0.3545   61.5  0.3590 -163.5
 5.500  0.7861  127.0   0.732   28.6  0.3610   60.9  0.3635 -164.7
 5.600  0.7881  126.1   0.729   28.1  0.3665   60.1  0.3693 -166.1
 5.700  0.7902  125.3   0.726   27.7  0.3720   59.4  0.3754 -167.5
 5.800  0.7925  124.4   0.723   27.2  0.3776   58.6  0.3817 -168.9
 5.900  0.7950  123.5   0.720   26.7  0.3833   57.9  0.3881 -170.1
 6.000  0.7977  122.7   0.717   26.2  0.3890   57.2  0.3948 -171.4
!
!  f       NFmin   Gammaopt  rn/50
! GHz       dB    MAG  ANG    -
!
! noise parameter not available yet for this operation point!
!
! (c) 2017  Infineon Technologies AG, Munich