! Infineon Technologies  Discrete & RF Semiconductors
! BFR193F
! VCE =  4.0 V,  IC =  72 mA
! Common Emitter S-Parameters:                            Jan 2017
# GHz  S  MA  R  50
!  f         S11            S21            S12            S22
! GHz     MAG   ANG      MAG   ANG      MAG   ANG      MAG   ANG
 0.010  0.1433  -81.2  81.013  169.3  0.0026   77.3  0.9057  -11.6
 0.020  0.2618 -101.1  77.210  158.6  0.0041   74.8  0.8679  -23.2
 0.030  0.3305 -115.1  70.176  152.2  0.0058   66.5  0.7864  -30.8
 0.040  0.4119 -124.0  64.194  144.6  0.0076   62.1  0.7218  -40.0
 0.050  0.4999 -129.8  59.582  135.5  0.0094   59.3  0.6789  -50.6
 0.060  0.5193 -135.0  54.906  132.8  0.0102   57.7  0.6245  -54.1
 0.070  0.5426 -139.8  50.370  129.7  0.0110   56.4  0.5728  -58.3
 0.080  0.5694 -144.1  46.015  126.0  0.0118   55.2  0.5248  -63.3
 0.090  0.5991 -148.0  41.897  121.4  0.0126   54.2  0.4816  -69.2
 0.100  0.6314 -151.6  38.094  116.0  0.0134   53.3  0.4444  -76.2
 0.110  0.6393 -153.6  35.834  114.7  0.0139   54.1  0.4197  -78.5
 0.120  0.6479 -155.5  33.597  113.1  0.0143   54.8  0.3957  -81.1
 0.130  0.6572 -157.3  31.387  111.4  0.0148   55.5  0.3726  -83.9
 0.140  0.6673 -159.1  29.209  109.4  0.0152   56.1  0.3506  -87.2
 0.150  0.6779 -160.9  27.073  107.1  0.0157   56.7  0.3299  -90.9
 0.200  0.6927 -166.2  20.753  101.7  0.0184   58.1  0.2691 -100.6
 0.250  0.7017 -169.9  16.773   98.2  0.0213   60.2  0.2277 -109.1
 0.300  0.7080 -172.3  14.091   95.5  0.0238   63.3  0.2067 -115.6
 0.350  0.7105 -174.2  12.363   93.8  0.0265   65.3  0.1914 -120.2
 0.400  0.7137 -176.0  10.649   91.6  0.0292   66.9  0.1776 -125.6
 0.450  0.7158 -177.3   9.602   90.4  0.0321   68.8  0.1706 -129.1
 0.500  0.7182 -178.6   8.561   88.8  0.0350   70.4  0.1642 -132.9
 0.600  0.7200  179.5   7.167   86.4  0.0413   72.0  0.1567 -138.9
 0.700  0.7213  177.5   6.150   84.2  0.0473   72.9  0.1550 -142.8
 0.800  0.7234  176.2   5.391   82.4  0.0536   73.9  0.1539 -146.5
 0.900  0.7261  174.4   4.807   80.5  0.0594   74.2  0.1544 -148.9
 1.000  0.7259  173.3   4.335   78.9  0.0654   74.4  0.1558 -150.5
 1.100  0.7286  171.9   3.948   77.1  0.0714   75.1  0.1598 -152.1
 1.200  0.7307  170.8   3.627   75.5  0.0777   75.1  0.1620 -154.2
 1.300  0.7328  169.6   3.356   74.0  0.0838   75.4  0.1640 -154.8
 1.400  0.7329  168.7   3.129   72.4  0.0899   75.5  0.1677 -155.3
 1.500  0.7357  167.7   2.925   71.0  0.0955   75.5  0.1722 -156.2
 1.600  0.7361  166.4   2.745   69.5  0.1015   75.2  0.1754 -157.1
 1.700  0.7369  165.4   2.586   68.0  0.1084   75.2  0.1790 -157.3
 1.800  0.7390  164.6   2.453   66.6  0.1142   75.0  0.1832 -157.5
 1.900  0.7377  163.8   2.329   65.4  0.1203   74.8  0.1870 -157.7
 2.000  0.7417  162.6   2.223   64.1  0.1267   74.9  0.1920 -157.9
 2.100  0.7403  161.8   2.126   62.9  0.1326   74.6  0.1952 -157.7
 2.200  0.7390  160.9   2.031   61.6  0.1386   74.3  0.1985 -157.6
 2.300  0.7406  160.0   1.954   60.5  0.1446   74.2  0.2022 -157.7
 2.400  0.7423  159.2   1.878   59.3  0.1507   74.1  0.2060 -157.7
 2.500  0.7413  158.5   1.814   58.1  0.1570   73.7  0.2095 -157.4
 2.600  0.7404  157.7   1.750   56.9  0.1633   73.4  0.2130 -157.1
 2.700  0.7412  156.8   1.695   55.8  0.1697   73.1  0.2169 -157.2
 2.800  0.7422  155.9   1.641   54.6  0.1761   72.9  0.2208 -157.2
 2.900  0.7421  155.1   1.598   53.5  0.1822   72.6  0.2246 -156.7
 3.000  0.7421  154.3   1.555   52.3  0.1884   72.4  0.2284 -156.2
 3.100  0.7421  153.4   1.518   51.3  0.1954   72.0  0.2321 -156.2
 3.200  0.7423  152.6   1.481   50.3  0.2025   71.6  0.2358 -156.2
 3.300  0.7427  151.7   1.444   49.2  0.2095   71.2  0.2395 -156.2
 3.400  0.7432  150.9   1.408   48.1  0.2165   70.9  0.2432 -156.2
 3.500  0.7439  150.0   1.373   46.9  0.2236   70.6  0.2469 -156.2
 3.600  0.7428  149.1   1.347   46.0  0.2304   70.0  0.2500 -156.5
 3.700  0.7420  148.2   1.322   45.0  0.2372   69.5  0.2530 -156.7
 3.800  0.7413  147.3   1.297   44.0  0.2441   69.0  0.2561 -157.0
 3.900  0.7407  146.4   1.272   43.0  0.2509   68.5  0.2592 -157.3
 4.000  0.7404  145.5   1.248   41.9  0.2578   68.1  0.2623 -157.5
 4.100  0.7409  144.6   1.227   40.9  0.2642   67.4  0.2663 -158.2
 4.200  0.7417  143.7   1.206   39.9  0.2706   66.8  0.2704 -158.8
 4.300  0.7426  142.7   1.185   38.8  0.2770   66.2  0.2744 -159.4
 4.400  0.7437  141.8   1.165   37.7  0.2835   65.6  0.2786 -160.0
 4.500  0.7450  140.9   1.145   36.6  0.2900   65.0  0.2827 -160.6
 4.600  0.7451  139.9   1.123   35.8  0.2961   64.4  0.2856 -161.7
 4.700  0.7455  138.8   1.101   34.9  0.3021   63.7  0.2887 -162.9
 4.800  0.7461  137.8   1.079   34.0  0.3083   63.1  0.2918 -164.0
 4.900  0.7470  136.7   1.058   33.1  0.3144   62.6  0.2950 -165.0
 5.000  0.7481  135.7   1.037   32.1  0.3206   62.0  0.2984 -166.1
 5.100  0.7477  134.7   1.023   31.4  0.3264   61.4  0.3019 -167.1
 5.200  0.7475  133.6   1.008   30.6  0.3323   60.7  0.3056 -168.1
 5.300  0.7476  132.6   0.994   29.9  0.3382   60.1  0.3093 -169.1
 5.400  0.7479  131.5   0.981   29.1  0.3441   59.6  0.3131 -170.1
 5.500  0.7485  130.5   0.967   28.3  0.3501   59.0  0.3170 -171.0
 5.600  0.7514  129.6   0.961   27.6  0.3553   58.3  0.3227 -172.2
 5.700  0.7544  128.8   0.955   26.9  0.3606   57.7  0.3285 -173.3
 5.800  0.7576  127.9   0.949   26.2  0.3660   57.0  0.3345 -174.4
 5.900  0.7610  127.0   0.943   25.5  0.3714   56.4  0.3405 -175.5
 6.000  0.7646  126.2   0.937   24.8  0.3768   55.8  0.3467 -176.5
!
!  f       NFmin   Gammaopt  rn/50
! GHz       dB    MAG  ANG    -
!
! noise parameter not available yet for this operation point!
!
! (c) 2017  Infineon Technologies AG, Munich