! Infineon Technologies  Discrete & RF Semiconductors
! BFR193F
! VCE =  4.0 V,  IC =  5.0 mA
! Common Emitter S-Parameters:                            Jan 2017
# GHz  S  MA  R  50
!  f         S11            S21            S12            S22
! GHz     MAG   ANG      MAG   ANG      MAG   ANG      MAG   ANG
 0.010  0.8301   -5.0  16.379  177.6  0.0041   87.5  0.9921   -2.6
 0.020  0.8068  -11.4  16.149  174.1  0.0086   85.6  0.9864   -5.1
 0.030  0.8063  -16.5  16.051  171.3  0.0123   80.2  0.9788   -7.5
 0.040  0.8121  -21.5  15.992  168.5  0.0161   77.3  0.9729   -9.9
 0.050  0.8240  -26.4  15.972  165.6  0.0199   75.5  0.9688  -12.4
 0.060  0.8090  -31.1  15.680  163.0  0.0232   72.3  0.9521  -14.5
 0.070  0.7995  -35.9  15.420  160.4  0.0265   69.8  0.9367  -16.6
 0.080  0.7957  -40.8  15.196  157.6  0.0298   67.9  0.9226  -18.8
 0.090  0.7978  -45.7  15.007  154.8  0.0332   66.4  0.9100  -21.1
 0.100  0.8056  -50.5  14.855  151.9  0.0366   65.2  0.8988  -23.4
 0.110  0.7937  -54.6  14.503  149.9  0.0391   63.1  0.8795  -25.0
 0.120  0.7860  -58.8  14.170  147.7  0.0417   61.3  0.8610  -26.7
 0.130  0.7825  -63.0  13.858  145.5  0.0443   59.7  0.8432  -28.5
 0.140  0.7833  -67.3  13.568  143.1  0.0469   58.3  0.8263  -30.3
 0.150  0.7885  -71.5  13.302  140.7  0.0496   57.0  0.8102  -32.2
 0.200  0.7807  -88.2  11.863  131.5  0.0585   49.5  0.7282  -38.7
 0.250  0.7620 -101.7  10.461  124.0  0.0646   44.1  0.6502  -43.7
 0.300  0.7577 -112.4   9.345  118.3  0.0689   39.4  0.5882  -47.3
 0.350  0.7460 -120.3   8.422  114.2  0.0717   36.9  0.5404  -49.4
 0.400  0.7487 -128.3   7.552  109.2  0.0746   34.5  0.4936  -52.0
 0.450  0.7412 -133.7   6.905  106.3  0.0760   33.2  0.4616  -53.3
 0.500  0.7404 -139.1   6.279  102.8  0.0774   31.9  0.4298  -54.8
 0.600  0.7419 -147.2   5.360   97.6  0.0792   30.5  0.3865  -56.8
 0.700  0.7404 -153.7   4.664   93.4  0.0804   29.8  0.3564  -58.5
 0.800  0.7392 -158.5   4.112   89.7  0.0822   30.0  0.3333  -60.2
 0.900  0.7403 -162.8   3.692   86.5  0.0824   30.9  0.3179  -61.6
 1.000  0.7421 -166.1   3.342   83.6  0.0827   31.8  0.3069  -63.3
 1.100  0.7434 -169.3   3.055   80.8  0.0840   33.1  0.2999  -65.2
 1.200  0.7440 -172.1   2.814   78.2  0.0848   34.4  0.2925  -67.3
 1.300  0.7479 -174.4   2.609   75.9  0.0857   36.1  0.2891  -69.0
 1.400  0.7477 -176.3   2.436   73.5  0.0863   38.0  0.2884  -71.0
 1.500  0.7495 -178.3   2.277   71.4  0.0874   40.0  0.2868  -73.5
 1.600  0.7509  179.7   2.139   69.2  0.0887   41.7  0.2864  -75.5
 1.700  0.7513  177.9   2.015   67.2  0.0904   44.0  0.2887  -77.9
 1.800  0.7536  176.5   1.912   65.3  0.0924   46.0  0.2906  -80.0
 1.900  0.7550  175.0   1.815   63.6  0.0941   48.0  0.2934  -82.2
 2.000  0.7598  173.4   1.730   61.8  0.0972   50.2  0.2966  -84.3
 2.100  0.7585  172.1   1.653   60.2  0.0997   52.1  0.3013  -86.2
 2.200  0.7575  170.8   1.577   58.5  0.1023   53.9  0.3063  -88.1
 2.300  0.7604  169.6   1.515   57.0  0.1056   55.9  0.3116  -90.1
 2.400  0.7637  168.4   1.455   55.4  0.1091   57.7  0.3173  -92.1
 2.500  0.7636  167.4   1.402   54.0  0.1134   59.4  0.3236  -93.9
 2.600  0.7638  166.4   1.349   52.5  0.1177   61.0  0.3302  -95.6
 2.700  0.7662  165.1   1.305   51.1  0.1222   62.5  0.3357  -97.4
 2.800  0.7690  163.9   1.262   49.7  0.1268   63.9  0.3415  -99.1
 2.900  0.7700  162.8   1.227   48.4  0.1317   65.2  0.3489 -100.5
 3.000  0.7713  161.8   1.192   47.1  0.1367   66.5  0.3565 -101.8
 3.100  0.7723  160.7   1.160   46.0  0.1432   67.5  0.3628 -103.4
 3.200  0.7736  159.5   1.129   44.9  0.1497   68.4  0.3694 -105.0
 3.300  0.7752  158.4   1.099   43.8  0.1563   69.2  0.3762 -106.5
 3.400  0.7771  157.3   1.069   42.5  0.1629   70.0  0.3833 -107.9
 3.500  0.7793  156.2   1.039   41.2  0.1695   70.7  0.3906 -109.3
 3.600  0.7794  155.1   1.018   40.3  0.1768   71.0  0.3965 -110.9
 3.700  0.7797  154.0   0.997   39.4  0.1842   71.4  0.4027 -112.4
 3.800  0.7804  152.9   0.976   38.4  0.1916   71.7  0.4091 -113.8
 3.900  0.7813  151.8   0.956   37.4  0.1989   71.9  0.4158 -115.2
 4.000  0.7825  150.7   0.936   36.3  0.2063   72.2  0.4228 -116.6
 4.100  0.7837  149.5   0.918   35.4  0.2145   72.0  0.4284 -118.4
 4.200  0.7852  148.4   0.900   34.5  0.2227   71.8  0.4345 -120.1
 4.300  0.7870  147.2   0.883   33.5  0.2308   71.7  0.4409 -121.8
 4.400  0.7891  146.0   0.866   32.5  0.2390   71.5  0.4477 -123.5
 4.500  0.7916  144.9   0.849   31.5  0.2472   71.4  0.4549 -125.1
 4.600  0.7911  143.6   0.831   30.8  0.2557   70.9  0.4576 -127.1
 4.700  0.7909  142.3   0.814   30.2  0.2642   70.3  0.4608 -129.2
 4.800  0.7912  141.1   0.796   29.4  0.2728   69.9  0.4646 -131.1
 4.900  0.7919  139.8   0.779   28.7  0.2813   69.4  0.4690 -133.1
 5.000  0.7929  138.5   0.762   27.9  0.2899   69.0  0.4739 -135.0
 5.100  0.7920  137.3   0.751   27.4  0.2980   68.3  0.4764 -136.9
 5.200  0.7914  136.1   0.739   26.9  0.3062   67.7  0.4794 -138.7
 5.300  0.7912  134.8   0.728   26.4  0.3145   67.0  0.4828 -140.5
 5.400  0.7914  133.6   0.717   25.9  0.3227   66.5  0.4868 -142.3
 5.500  0.7919  132.4   0.706   25.4  0.3310   65.9  0.4912 -144.1
 5.600  0.7941  131.4   0.701   25.0  0.3382   65.1  0.4956 -146.0
 5.700  0.7966  130.3   0.697   24.7  0.3454   64.3  0.5005 -147.9
 5.800  0.7993  129.3   0.692   24.3  0.3527   63.6  0.5060 -149.7
 5.900  0.8023  128.3   0.688   23.9  0.3600   62.9  0.5119 -151.5
 6.000  0.8055  127.3   0.683   23.5  0.3674   62.2  0.5184 -153.3
!
!  f       NFmin   Gammaopt  rn/50
! GHz       dB    MAG  ANG    -
 0.450      0.81  0.31  100   0.10
 0.900      1.01  0.45  136   0.09
 1.900      1.90  0.63 -179   0.06
 2.400      2.34  0.67 -168   0.11
!
! (c) 2017  Infineon Technologies AG, Munich