! Infineon Technologies  Discrete & RF Semiconductors
! BFR193F
! VCE =  7.0 V,  IC =  72 mA
! Common Emitter S-Parameters:                            Jan 2017
# GHz  S  MA  R  50
!  f         S11            S21            S12            S22
! GHz     MAG   ANG      MAG   ANG      MAG   ANG      MAG   ANG
 0.010  0.2056  -43.8  79.647  170.1  0.0026   84.9  0.9199   -9.8
 0.020  0.2766  -74.2  76.361  160.4  0.0044   75.9  0.8876  -19.9
 0.030  0.3208  -92.9  70.203  154.2  0.0062   68.3  0.8152  -26.8
 0.040  0.3899 -106.1  65.028  146.8  0.0081   64.2  0.7568  -34.9
 0.050  0.4732 -115.0  61.088  138.4  0.0100   61.7  0.7159  -44.2
 0.060  0.4881 -121.6  56.526  135.6  0.0106   59.5  0.6615  -47.4
 0.070  0.5090 -127.7  52.121  132.3  0.0113   57.6  0.6096  -51.2
 0.080  0.5352 -133.3  47.916  128.5  0.0119   55.8  0.5608  -55.6
 0.090  0.5660 -138.3  43.968  123.9  0.0126   54.3  0.5159  -60.8
 0.100  0.6007 -142.8  40.354  118.5  0.0133   52.9  0.4762  -67.0
 0.110  0.6077 -145.3  38.010  117.1  0.0139   53.0  0.4494  -68.9
 0.120  0.6158 -147.8  35.693  115.4  0.0145   53.1  0.4231  -71.0
 0.130  0.6251 -150.2  33.409  113.6  0.0152   53.2  0.3975  -73.4
 0.140  0.6354 -152.5  31.165  111.4  0.0158   53.2  0.3727  -76.2
 0.150  0.6468 -154.8  28.970  109.0  0.0164   53.3  0.3489  -79.3
 0.200  0.6654 -161.6  22.355  103.2  0.0185   56.0  0.2780  -87.1
 0.250  0.6739 -166.3  18.104   99.5  0.0210   59.5  0.2293  -93.7
 0.300  0.6809 -169.1  15.237   96.8  0.0235   61.3  0.2012  -98.8
 0.350  0.6835 -171.4  13.371   95.0  0.0263   63.7  0.1815 -102.5
 0.400  0.6872 -173.6  11.523   92.6  0.0291   65.6  0.1627 -107.1
 0.450  0.6882 -175.1  10.391   91.3  0.0318   67.0  0.1525 -110.1
 0.500  0.6897 -176.5   9.266   89.7  0.0346   68.2  0.1428 -113.6
 0.600  0.6939 -178.9   7.758   87.2  0.0402   70.3  0.1311 -119.2
 0.700  0.6984  178.9   6.671   85.0  0.0458   72.1  0.1260 -123.5
 0.800  0.6966  177.5   5.835   83.2  0.0516   72.5  0.1223 -128.0
 0.900  0.7010  175.5   5.208   81.3  0.0575   73.5  0.1216 -131.0
 1.000  0.7015  174.4   4.701   79.6  0.0634   73.6  0.1222 -133.0
 1.100  0.7048  172.9   4.280   77.9  0.0690   74.6  0.1246 -135.6
 1.200  0.7061  171.7   3.928   76.3  0.0746   74.8  0.1263 -138.1
 1.300  0.7082  170.5   3.637   74.7  0.0807   75.1  0.1286 -138.9
 1.400  0.7080  169.5   3.390   73.2  0.0866   75.1  0.1320 -140.0
 1.500  0.7110  168.4   3.166   71.8  0.0921   75.2  0.1368 -141.7
 1.600  0.7130  167.3   2.974   70.3  0.0985   75.2  0.1393 -142.9
 1.700  0.7115  166.2   2.801   68.9  0.1042   75.3  0.1437 -143.4
 1.800  0.7158  165.4   2.656   67.4  0.1098   75.2  0.1483 -143.9
 1.900  0.7146  164.5   2.522   66.2  0.1156   75.1  0.1529 -144.3
 2.000  0.7175  163.5   2.405   64.9  0.1214   75.1  0.1574 -144.9
 2.100  0.7164  162.7   2.300   63.7  0.1272   74.9  0.1615 -144.9
 2.200  0.7155  161.8   2.196   62.4  0.1330   74.7  0.1655 -144.9
 2.300  0.7177  160.9   2.113   61.3  0.1391   74.6  0.1699 -145.2
 2.400  0.7201  160.0   2.030   60.1  0.1453   74.5  0.1743 -145.4
 2.500  0.7191  159.3   1.959   58.9  0.1514   74.2  0.1785 -145.1
 2.600  0.7182  158.5   1.889   57.7  0.1575   74.0  0.1827 -144.9
 2.700  0.7186  157.6   1.829   56.6  0.1637   73.7  0.1871 -145.2
 2.800  0.7191  156.7   1.769   55.4  0.1699   73.5  0.1916 -145.4
 2.900  0.7195  155.9   1.722   54.3  0.1758   73.3  0.1958 -144.9
 3.000  0.7200  155.1   1.675   53.2  0.1817   73.2  0.2000 -144.4
 3.100  0.7200  154.3   1.634   52.2  0.1886   72.8  0.2042 -144.5
 3.200  0.7201  153.4   1.593   51.2  0.1954   72.4  0.2084 -144.7
 3.300  0.7203  152.6   1.553   50.1  0.2023   72.1  0.2127 -144.8
 3.400  0.7207  151.7   1.513   49.0  0.2092   71.8  0.2169 -144.9
 3.500  0.7213  150.9   1.474   47.8  0.2161   71.5  0.2211 -145.0
 3.600  0.7205  150.0   1.446   46.9  0.2226   71.0  0.2246 -145.3
 3.700  0.7198  149.1   1.418   45.9  0.2292   70.5  0.2282 -145.7
 3.800  0.7194  148.2   1.391   44.9  0.2357   70.0  0.2317 -146.0
 3.900  0.7191  147.3   1.364   43.8  0.2423   69.6  0.2352 -146.3
 4.000  0.7190  146.4   1.338   42.7  0.2489   69.2  0.2388 -146.6
 4.100  0.7198  145.5   1.315   41.7  0.2553   68.6  0.2430 -147.4
 4.200  0.7207  144.6   1.292   40.7  0.2617   68.0  0.2472 -148.1
 4.300  0.7218  143.7   1.269   39.6  0.2682   67.4  0.2515 -148.8
 4.400  0.7231  142.8   1.248   38.5  0.2747   66.9  0.2558 -149.5
 4.500  0.7246  141.9   1.226   37.4  0.2812   66.4  0.2601 -150.2
 4.600  0.7250  140.9   1.202   36.6  0.2873   65.8  0.2630 -151.5
 4.700  0.7257  139.8   1.178   35.7  0.2934   65.2  0.2660 -152.8
 4.800  0.7266  138.8   1.155   34.8  0.2996   64.6  0.2691 -154.1
 4.900  0.7277  137.7   1.132   33.8  0.3058   64.0  0.2724 -155.3
 5.000  0.7291  136.7   1.109   32.8  0.3120   63.5  0.2758 -156.5
 5.100  0.7289  135.6   1.093   32.0  0.3179   62.9  0.2792 -157.7
 5.200  0.7289  134.6   1.078   31.3  0.3239   62.3  0.2826 -158.8
 5.300  0.7292  133.5   1.063   30.5  0.3299   61.7  0.2862 -159.9
 5.400  0.7297  132.5   1.048   29.6  0.3359   61.1  0.2899 -161.0
 5.500  0.7305  131.4   1.033   28.8  0.3420   60.6  0.2937 -162.0
 5.600  0.7338  130.5   1.026   28.1  0.3473   60.0  0.2990 -163.3
 5.700  0.7373  129.7   1.018   27.4  0.3526   59.3  0.3045 -164.6
 5.800  0.7410  128.8   1.011   26.7  0.3580   58.7  0.3101 -165.9
 5.900  0.7448  127.9   1.004   26.0  0.3634   58.2  0.3158 -167.0
 6.000  0.7488  127.1   0.997   25.3  0.3689   57.6  0.3217 -168.2
!
!  f       NFmin   Gammaopt  rn/50
! GHz       dB    MAG  ANG    -
!
! noise parameter not available yet for this operation point!
!
! (c) 2017  Infineon Technologies AG, Munich