! Infineon Technologies  Discrete & RF Semiconductors
! BFR193F
! VCE =  7.0 V,  IC =  8.0 mA
! Common Emitter S-Parameters:                            Jan 2017
# GHz  S  MA  R  50
!  f         S11            S21            S12            S22
! GHz     MAG   ANG      MAG   ANG      MAG   ANG      MAG   ANG
 0.010  0.7516   -6.3  24.211  176.8  0.0036   83.0  0.9892   -3.3
 0.020  0.7344  -14.0  23.895  172.7  0.0072   82.4  0.9900   -6.5
 0.030  0.7301  -20.4  23.589  169.4  0.0107   79.6  0.9750   -9.5
 0.040  0.7348  -26.7  23.364  166.0  0.0143   78.2  0.9627  -12.6
 0.050  0.7483  -32.9  23.221  162.6  0.0178   77.3  0.9532  -15.7
 0.060  0.7309  -38.4  22.628  159.8  0.0203   73.0  0.9297  -18.1
 0.070  0.7204  -44.1  22.092  156.8  0.0229   69.6  0.9079  -20.6
 0.080  0.7172  -49.9  21.618  153.8  0.0256   66.9  0.8879  -23.3
 0.090  0.7214  -55.6  21.209  150.5  0.0283   64.8  0.8700  -26.0
 0.100  0.7328  -61.3  20.870  147.2  0.0311   63.0  0.8541  -28.9
 0.110  0.7218  -65.8  20.248  145.1  0.0328   60.7  0.8302  -30.7
 0.120  0.7153  -70.4  19.654  142.9  0.0345   58.7  0.8072  -32.5
 0.130  0.7136  -75.1  19.092  140.5  0.0362   56.8  0.7851  -34.5
 0.140  0.7166  -79.7  18.564  138.0  0.0380   55.1  0.7640  -36.6
 0.150  0.7242  -84.3  18.073  135.4  0.0398   53.6  0.7439  -38.8
 0.200  0.7205 -101.3  15.616  126.1  0.0469   47.4  0.6489  -45.8
 0.250  0.7098 -114.4  13.478  119.1  0.0505   42.9  0.5652  -50.7
 0.300  0.7112 -124.1  11.837  113.8  0.0532   40.4  0.5034  -54.3
 0.350  0.7054 -131.2  10.585  110.3  0.0549   38.8  0.4570  -56.3
 0.400  0.7105 -138.3   9.385  105.8  0.0566   37.3  0.4112  -58.8
 0.450  0.7057 -143.0   8.540  103.3  0.0581   36.9  0.3813  -60.0
 0.500  0.7056 -147.7   7.715  100.2  0.0596   36.6  0.3515  -61.4
 0.600  0.7070 -154.7   6.540   95.6  0.0619   36.7  0.3119  -63.3
 0.700  0.7090 -160.2   5.668   92.0  0.0637   38.2  0.2848  -64.9
 0.800  0.7078 -164.3   4.987   88.9  0.0657   39.6  0.2635  -66.6
 0.900  0.7114 -167.9   4.468   86.1  0.0684   41.4  0.2492  -67.9
 1.000  0.7124 -170.6   4.037   83.5  0.0705   43.1  0.2397  -69.5
 1.100  0.7152 -173.4   3.686   81.1  0.0726   44.9  0.2328  -71.4
 1.200  0.7167 -175.8   3.392   78.8  0.0752   46.5  0.2256  -73.4
 1.300  0.7201 -178.0   3.143   76.7  0.0780   48.4  0.2231  -75.0
 1.400  0.7204 -179.5   2.930   74.7  0.0807   50.5  0.2223  -77.0
 1.500  0.7225  178.6   2.739   72.8  0.0832   52.2  0.2206  -79.3
 1.600  0.7244  176.8   2.572   70.9  0.0868   53.9  0.2205  -81.2
 1.700  0.7245  175.3   2.423   69.0  0.0901   55.4  0.2223  -83.4
 1.800  0.7273  173.9   2.298   67.3  0.0936   57.0  0.2238  -85.4
 1.900  0.7271  172.8   2.180   65.7  0.0971   58.4  0.2273  -87.5
 2.000  0.7299  171.2   2.080   64.1  0.1008   60.0  0.2299  -89.5
 2.100  0.7294  170.1   1.987   62.6  0.1048   61.1  0.2342  -91.2
 2.200  0.7291  168.9   1.896   61.0  0.1089   62.2  0.2386  -92.8
 2.300  0.7318  167.8   1.822   59.7  0.1132   63.3  0.2434  -94.5
 2.400  0.7348  166.7   1.750   58.3  0.1175   64.3  0.2485  -96.2
 2.500  0.7346  165.8   1.687   57.0  0.1224   65.2  0.2544  -97.7
 2.600  0.7347  164.8   1.625   55.5  0.1274   66.1  0.2605  -99.1
 2.700  0.7360  163.7   1.572   54.2  0.1324   66.9  0.2657 -100.7
 2.800  0.7376  162.6   1.519   52.8  0.1375   67.7  0.2710 -102.2
 2.900  0.7394  161.6   1.477   51.6  0.1426   68.4  0.2777 -103.2
 3.000  0.7415  160.6   1.435   50.3  0.1478   69.1  0.2845 -104.2
 3.100  0.7422  159.6   1.398   49.2  0.1542   69.6  0.2903 -105.6
 3.200  0.7432  158.6   1.362   48.1  0.1607   70.0  0.2963 -106.9
 3.300  0.7445  157.5   1.326   47.0  0.1671   70.4  0.3024 -108.1
 3.400  0.7459  156.5   1.291   45.7  0.1735   70.8  0.3087 -109.3
 3.500  0.7476  155.5   1.256   44.4  0.1800   71.1  0.3151 -110.5
 3.600  0.7474  154.5   1.231   43.4  0.1869   71.2  0.3206 -111.8
 3.700  0.7474  153.4   1.206   42.4  0.1938   71.2  0.3263 -113.0
 3.800  0.7476  152.4   1.181   41.4  0.2006   71.3  0.3321 -114.2
 3.900  0.7481  151.3   1.157   40.3  0.2075   71.3  0.3380 -115.3
 4.000  0.7489  150.3   1.133   39.2  0.2144   71.4  0.3441 -116.4
 4.100  0.7503  149.3   1.112   38.2  0.2217   71.1  0.3494 -118.0
 4.200  0.7520  148.2   1.091   37.2  0.2289   70.9  0.3550 -119.6
 4.300  0.7539  147.2   1.070   36.1  0.2362   70.6  0.3608 -121.1
 4.400  0.7560  146.1   1.050   35.0  0.2435   70.4  0.3669 -122.6
 4.500  0.7584  145.1   1.030   33.9  0.2508   70.2  0.3732 -124.0
 4.600  0.7585  143.9   1.009   33.1  0.2584   69.7  0.3761 -125.9
 4.700  0.7590  142.7   0.988   32.3  0.2660   69.3  0.3793 -127.7
 4.800  0.7598  141.4   0.968   31.4  0.2737   68.9  0.3830 -129.6
 4.900  0.7610  140.2   0.947   30.5  0.2813   68.5  0.3870 -131.4
 5.000  0.7625  139.0   0.927   29.5  0.2890   68.1  0.3914 -133.1
 5.100  0.7618  137.8   0.913   28.9  0.2963   67.5  0.3943 -134.8
 5.200  0.7614  136.7   0.899   28.2  0.3036   66.9  0.3976 -136.5
 5.300  0.7613  135.5   0.885   27.5  0.3110   66.4  0.4012 -138.2
 5.400  0.7616  134.4   0.872   26.8  0.3184   65.9  0.4051 -139.9
 5.500  0.7621  133.2   0.858   26.1  0.3258   65.4  0.4094 -141.5
 5.600  0.7652  132.2   0.851   25.5  0.3325   64.7  0.4141 -143.4
 5.700  0.7685  131.2   0.845   24.9  0.3393   64.0  0.4192 -145.2
 5.800  0.7721  130.2   0.839   24.3  0.3461   63.3  0.4248 -146.9
 5.900  0.7759  129.3   0.832   23.7  0.3530   62.6  0.4307 -148.6
 6.000  0.7799  128.3   0.826   23.1  0.3599   62.0  0.4370 -150.3
!
!  f       NFmin   Gammaopt  rn/50
! GHz       dB    MAG  ANG    -
 0.450      0.84  0.25  124   0.08
 0.900      0.99  0.40  147   0.07
 1.900      1.74  0.61 -177   0.05
 2.400      2.11  0.64 -167   0.08
!
! (c) 2017  Infineon Technologies AG, Munich