! Infineon Technologies  Discrete & RF Semiconductors
! BFR193F
! VCE =  5.0 V,  IC =  30 mA
! Common Emitter S-Parameters:                            Jan 2017
# GHz  S  MA  R  50
!  f         S11            S21            S12            S22
! GHz     MAG   ANG      MAG   ANG      MAG   ANG      MAG   ANG
 0.010  0.3703  -20.0  59.280  172.8  0.0029   87.6  0.9667   -7.9
 0.020  0.3842  -40.0  57.641  165.4  0.0061   75.9  0.9461  -15.4
 0.030  0.3893  -55.9  54.696  159.9  0.0082   72.0  0.8955  -21.6
 0.040  0.4226  -70.4  52.314  153.8  0.0103   69.7  0.8564  -28.4
 0.050  0.4781  -82.1  50.574  147.2  0.0124   68.2  0.8306  -35.8
 0.060  0.4789  -90.5  47.512  144.1  0.0136   64.0  0.7791  -39.3
 0.070  0.4898  -98.6  44.608  140.6  0.0149   60.6  0.7309  -43.3
 0.080  0.5100 -106.3  41.895  136.6  0.0162   57.7  0.6868  -47.9
 0.090  0.5386 -113.2  39.413  132.1  0.0175   55.2  0.6476  -53.0
 0.100  0.5743 -119.4  37.206  127.0  0.0189   53.1  0.6143  -58.8
 0.110  0.5795 -123.3  35.279  125.2  0.0196   52.3  0.5830  -61.1
 0.120  0.5874 -127.2  33.389  123.3  0.0203   51.5  0.5527  -63.6
 0.130  0.5979 -130.9  31.543  121.1  0.0210   50.7  0.5236  -66.3
 0.140  0.6108 -134.5  29.748  118.7  0.0218   50.0  0.4959  -69.4
 0.150  0.6260 -137.9  28.014  115.9  0.0225   49.4  0.4698  -72.9
 0.200  0.6492 -148.3  22.092  108.8  0.0251   49.0  0.3810  -82.3
 0.250  0.6591 -155.5  18.084  104.1  0.0274   49.8  0.3162  -89.8
 0.300  0.6686 -160.1  15.329  100.7  0.0299   52.0  0.2774  -95.7
 0.350  0.6711 -163.4  13.487   98.5  0.0320   53.4  0.2497  -99.9
 0.400  0.6759 -166.7  11.671   95.6  0.0342   54.7  0.2238 -105.2
 0.450  0.6784 -168.9  10.539   94.0  0.0365   56.6  0.2090 -108.7
 0.500  0.6818 -171.0   9.417   92.1  0.0388   58.2  0.1950 -112.7
 0.600  0.6838 -174.2   7.895   89.3  0.0438   61.2  0.1768 -119.1
 0.700  0.6903 -177.1   6.790   86.8  0.0493   63.3  0.1672 -124.2
 0.800  0.6910 -179.0   5.951   84.8  0.0549   65.0  0.1604 -129.0
 0.900  0.6927  178.8   5.309   82.7  0.0598   66.7  0.1561 -132.6
 1.000  0.6938  177.3   4.789   80.9  0.0656   67.3  0.1552 -135.1
 1.100  0.6969  175.6   4.365   79.1  0.0712   68.5  0.1565 -137.9
 1.200  0.6991  174.2   4.009   77.3  0.0763   68.6  0.1565 -140.8
 1.300  0.7014  172.7   3.709   75.7  0.0825   69.7  0.1577 -142.2
 1.400  0.7019  171.8   3.458   74.2  0.0878   70.0  0.1598 -143.4
 1.500  0.7039  170.5   3.231   72.7  0.0935   70.6  0.1634 -145.3
 1.600  0.7063  169.2   3.035   71.2  0.0994   70.6  0.1656 -146.7
 1.700  0.7064  167.9   2.858   69.7  0.1047   70.8  0.1691 -147.2
 1.800  0.7088  167.1   2.708   68.3  0.1106   70.9  0.1728 -148.0
 1.900  0.7078  166.2   2.572   67.0  0.1164   71.1  0.1764 -148.5
 2.000  0.7112  165.0   2.453   65.7  0.1220   71.4  0.1801 -149.2
 2.100  0.7103  164.1   2.346   64.5  0.1277   71.3  0.1832 -149.4
 2.200  0.7096  163.2   2.240   63.2  0.1334   71.2  0.1864 -149.5
 2.300  0.7112  162.3   2.155   62.0  0.1391   71.1  0.1901 -149.7
 2.400  0.7130  161.4   2.070   60.8  0.1449   71.1  0.1939 -149.9
 2.500  0.7123  160.7   1.999   59.6  0.1507   71.2  0.1974 -149.7
 2.600  0.7117  159.9   1.928   58.4  0.1566   71.2  0.2009 -149.6
 2.700  0.7122  158.9   1.866   57.3  0.1628   71.0  0.2048 -149.9
 2.800  0.7129  157.9   1.805   56.1  0.1690   70.9  0.2088 -150.1
 2.900  0.7139  157.1   1.757   55.0  0.1748   70.8  0.2124 -149.7
 3.000  0.7151  156.3   1.709   53.8  0.1806   70.7  0.2161 -149.3
 3.100  0.7150  155.4   1.667   52.8  0.1874   70.4  0.2198 -149.4
 3.200  0.7151  154.5   1.626   51.8  0.1942   70.2  0.2234 -149.5
 3.300  0.7153  153.7   1.585   50.7  0.2010   69.9  0.2271 -149.5
 3.400  0.7157  152.8   1.545   49.5  0.2078   69.7  0.2307 -149.6
 3.500  0.7163  151.9   1.506   48.3  0.2146   69.5  0.2344 -149.7
 3.600  0.7156  151.0   1.477   47.4  0.2212   69.1  0.2377 -150.0
 3.700  0.7150  150.1   1.448   46.4  0.2278   68.6  0.2411 -150.3
 3.800  0.7146  149.2   1.420   45.4  0.2344   68.2  0.2445 -150.6
 3.900  0.7144  148.3   1.392   44.3  0.2410   67.9  0.2478 -150.8
 4.000  0.7144  147.4   1.365   43.2  0.2476   67.5  0.2512 -151.1
 4.100  0.7152  146.5   1.341   42.2  0.2540   66.9  0.2551 -151.8
 4.200  0.7161  145.6   1.317   41.2  0.2604   66.3  0.2590 -152.5
 4.300  0.7172  144.8   1.294   40.1  0.2668   65.8  0.2630 -153.2
 4.400  0.7185  143.9   1.271   39.0  0.2732   65.3  0.2670 -153.9
 4.500  0.7199  143.0   1.249   37.8  0.2797   64.8  0.2711 -154.5
 4.600  0.7205  141.9   1.225   37.0  0.2858   64.2  0.2739 -155.7
 4.700  0.7214  140.8   1.201   36.1  0.2919   63.7  0.2768 -156.9
 4.800  0.7225  139.7   1.177   35.2  0.2981   63.2  0.2799 -158.1
 4.900  0.7239  138.7   1.154   34.2  0.3043   62.7  0.2830 -159.3
 5.000  0.7255  137.6   1.131   33.2  0.3105   62.2  0.2863 -160.4
 5.100  0.7252  136.6   1.115   32.4  0.3164   61.6  0.2897 -161.5
 5.200  0.7252  135.5   1.099   31.7  0.3223   61.0  0.2931 -162.6
 5.300  0.7254  134.5   1.084   30.9  0.3283   60.5  0.2967 -163.7
 5.400  0.7259  133.4   1.068   30.0  0.3343   59.9  0.3003 -164.7
 5.500  0.7266  132.4   1.053   29.2  0.3403   59.4  0.3041 -165.7
 5.600  0.7303  131.5   1.046   28.5  0.3456   58.7  0.3095 -166.9
 5.700  0.7341  130.7   1.039   27.7  0.3509   58.1  0.3150 -168.1
 5.800  0.7381  129.8   1.032   27.0  0.3562   57.5  0.3206 -169.3
 5.900  0.7423  128.9   1.025   26.3  0.3616   56.9  0.3264 -170.4
 6.000  0.7466  128.1   1.019   25.5  0.3670   56.3  0.3323 -171.5
!
!  f       NFmin   Gammaopt  rn/50
! GHz       dB    MAG  ANG    -
 0.450      1.18  0.39  176   0.06
 0.900      1.27  0.42  176   0.07
 1.900      1.84  0.57 -168   0.07
 2.400      2.13  0.61 -159   0.11
!
! (c) 2017  Infineon Technologies AG, Munich