! Infineon Technologies  Discrete & RF Semiconductors
! BFR193F
! VCE =  1.0 V,  IC = 0.12 A
! Common Emitter S-Parameters:                            Jan 2017
# GHz  S  MA  R  50
!  f         S11            S21            S12            S22
! GHz     MAG   ANG      MAG   ANG      MAG   ANG      MAG   ANG
 0.010  0.5586 -157.3  38.474  152.6  0.0051   58.0  0.3110  -69.7
 0.020  0.7186 -159.2  29.984  133.1  0.0087   45.7  0.3787 -107.0
 0.030  0.7678 -162.9  24.775  128.3  0.0096   42.9  0.3764 -121.2
 0.040  0.8198 -166.2  19.825  121.1  0.0106   40.5  0.3967 -134.7
 0.050  0.8742 -169.1  15.388  109.5  0.0115   38.6  0.4365 -146.4
 0.060  0.8792 -170.4  13.899  108.1  0.0119   40.2  0.4365 -149.8
 0.070  0.8847 -171.6  12.420  106.4  0.0123   41.7  0.4379 -153.2
 0.080  0.8905 -172.9  10.955  104.3  0.0127   43.1  0.4409 -156.5
 0.090  0.8968 -174.1   9.509  101.5  0.0132   44.5  0.4454 -159.8
 0.100  0.9035 -175.3   8.095   97.7  0.0136   45.7  0.4513 -163.0
 0.110  0.9062 -175.8   7.565   97.0  0.0143   47.5  0.4519 -164.1
 0.120  0.9090 -176.3   7.036   96.1  0.0151   49.1  0.4527 -165.3
 0.130  0.9119 -176.7   6.510   95.2  0.0159   50.6  0.4537 -166.4
 0.140  0.9148 -177.2   5.985   94.1  0.0166   51.9  0.4548 -167.5
 0.150  0.9178 -177.7   5.463   92.7  0.0174   53.1  0.4561 -168.6
 0.200  0.9149 -179.4   4.099   89.1  0.0206   58.9  0.4554 -171.3
 0.250  0.9184  179.4   3.281   86.7  0.0242   62.8  0.4570 -173.5
 0.300  0.9168  178.4   2.741   84.4  0.0282   66.1  0.4587 -174.5
 0.350  0.9170  177.5   2.399   82.6  0.0320   68.0  0.4595 -175.4
 0.400  0.9174  176.6   2.060   80.3  0.0358   69.5  0.4604 -176.3
 0.450  0.9173  175.9   1.858   78.8  0.0398   70.7  0.4612 -176.8
 0.500  0.9173  175.2   1.658   77.0  0.0438   71.7  0.4620 -177.3
 0.600  0.9181  173.8   1.393   73.9  0.0513   72.9  0.4660 -178.1
 0.700  0.9208  172.2   1.203   70.8  0.0599   73.8  0.4700 -178.6
 0.800  0.9178  171.2   1.057   68.2  0.0678   74.6  0.4753 -179.2
 0.900  0.9187  169.7   0.949   65.5  0.0755   74.9  0.4794 -179.6
 1.000  0.9188  168.9   0.862   63.1  0.0835   74.5  0.4835 -180.0
 1.100  0.9201  167.5   0.789   60.6  0.0916   74.6  0.4903  179.7
 1.200  0.9197  166.3   0.730   58.4  0.0995   74.5  0.4953  179.1
 1.300  0.9217  165.2   0.681   56.3  0.1073   74.4  0.4992  178.8
 1.400  0.9190  164.2   0.641   54.5  0.1150   74.4  0.5047  178.6
 1.500  0.9206  163.2   0.604   52.8  0.1230   73.7  0.5112  178.1
 1.600  0.9208  162.1   0.571   51.1  0.1309   73.4  0.5166  177.5
 1.700  0.9179  160.9   0.542   49.5  0.1381   73.3  0.5204  177.2
 1.800  0.9174  160.1   0.519   48.2  0.1467   72.7  0.5260  176.9
 1.900  0.9164  159.2   0.498   47.2  0.1542   72.4  0.5305  176.6
 2.000  0.9184  158.1   0.479   46.3  0.1619   72.1  0.5366  176.2
 2.100  0.9161  157.2   0.463   45.6  0.1698   71.6  0.5403  175.8
 2.200  0.9141  156.2   0.448   44.8  0.1777   71.1  0.5441  175.5
 2.300  0.9151  155.2   0.435   44.3  0.1856   70.7  0.5490  175.1
 2.400  0.9163  154.3   0.423   43.8  0.1935   70.3  0.5539  174.7
 2.500  0.9141  153.5   0.414   43.4  0.2016   69.7  0.5572  174.3
 2.600  0.9122  152.6   0.406   43.0  0.2097   69.2  0.5606  173.9
 2.700  0.9115  151.6   0.399   42.9  0.2179   68.7  0.5652  173.4
 2.800  0.9111  150.6   0.392   42.7  0.2262   68.2  0.5699  173.0
 2.900  0.9104  149.6   0.389   42.6  0.2345   67.6  0.5733  172.5
 3.000  0.9099  148.6   0.386   42.4  0.2428   67.0  0.5767  172.1
 3.100  0.9081  147.6   0.384   42.4  0.2516   66.2  0.5802  171.4
 3.200  0.9066  146.6   0.382   42.4  0.2604   65.5  0.5838  170.8
 3.300  0.9054  145.6   0.380   42.4  0.2693   64.8  0.5875  170.2
 3.400  0.9044  144.6   0.378   42.4  0.2782   64.2  0.5912  169.5
 3.500  0.9037  143.6   0.376   42.4  0.2871   63.6  0.5950  168.9
 3.600  0.9003  142.5   0.377   42.4  0.2951   62.6  0.5970  168.0
 3.700  0.8971  141.5   0.379   42.4  0.3031   61.7  0.5991  167.0
 3.800  0.8943  140.4   0.380   42.5  0.3112   60.8  0.6014  166.1
 3.900  0.8919  139.3   0.382   42.5  0.3194   59.9  0.6039  165.2
 4.000  0.8897  138.2   0.383   42.5  0.3277   59.1  0.6065  164.3
 4.100  0.8871  137.2   0.385   42.3  0.3343   58.0  0.6074  163.2
 4.200  0.8848  136.1   0.387   42.1  0.3410   56.9  0.6086  162.1
 4.300  0.8827  135.0   0.389   41.8  0.3478   55.9  0.6100  161.0
 4.400  0.8810  134.0   0.391   41.6  0.3547   54.9  0.6116  160.0
 4.500  0.8796  132.9   0.393   41.4  0.3617   54.0  0.6134  158.9
 4.600  0.8760  131.8   0.394   41.2  0.3665   53.1  0.6124  157.7
 4.700  0.8727  130.7   0.395   41.0  0.3715   52.2  0.6118  156.5
 4.800  0.8698  129.6   0.395   40.8  0.3765   51.3  0.6113  155.3
 4.900  0.8671  128.5   0.396   40.6  0.3816   50.4  0.6112  154.1
 5.000  0.8648  127.4   0.397   40.4  0.3868   49.6  0.6113  152.9
 5.100  0.8611  126.3   0.400   40.1  0.3911   48.9  0.6108  151.9
 5.200  0.8577  125.3   0.403   39.9  0.3954   48.2  0.6105  151.0
 5.300  0.8546  124.2   0.406   39.6  0.3998   47.5  0.6103  150.0
 5.400  0.8519  123.1   0.409   39.4  0.4042   46.8  0.6103  149.1
 5.500  0.8494  122.0   0.412   39.1  0.4087   46.1  0.6105  148.1
 5.600  0.8489  121.1   0.419   38.8  0.4128   45.4  0.6134  147.1
 5.700  0.8486  120.3   0.426   38.4  0.4169   44.6  0.6164  146.2
 5.800  0.8485  119.4   0.432   38.1  0.4211   43.9  0.6196  145.3
 5.900  0.8486  118.6   0.439   37.8  0.4254   43.2  0.6230  144.3
 6.000  0.8489  117.7   0.446   37.5  0.4297   42.5  0.6265  143.4
!
!  f       NFmin   Gammaopt  rn/50
! GHz       dB    MAG  ANG    -
!
! noise parameter not available yet for this operation point!
!
! (c) 2017  Infineon Technologies AG, Munich