! Infineon Technologies  Discrete & RF Semiconductors
! BFR193F
! VCE =  2.0 V,  IC =  48 mA
! Common Emitter S-Parameters:                            Jan 2017
# GHz  S  MA  R  50
!  f         S11            S21            S12            S22
! GHz     MAG   ANG      MAG   ANG      MAG   ANG      MAG   ANG
 0.010  0.1698  -60.9  72.004  169.9  0.0031   84.7  0.9271  -12.1
 0.020  0.2696  -88.9  68.990  159.7  0.0059   75.7  0.8914  -23.7
 0.030  0.3306 -105.4  63.096  153.4  0.0076   68.3  0.8117  -31.7
 0.040  0.4100 -116.2  58.124  145.8  0.0094   63.7  0.7510  -41.2
 0.050  0.4990 -123.3  54.326  137.1  0.0112   60.6  0.7141  -52.0
 0.060  0.5180 -129.1  50.168  134.4  0.0121   58.2  0.6580  -56.0
 0.070  0.5420 -134.5  46.146  131.1  0.0130   56.2  0.6058  -60.8
 0.080  0.5703 -139.4  42.296  127.3  0.0139   54.4  0.5586  -66.4
 0.090  0.6023 -143.8  38.672  122.8  0.0148   52.9  0.5177  -73.0
 0.100  0.6375 -147.7  35.342  117.3  0.0157   51.5  0.4847  -80.6
 0.110  0.6459 -149.9  33.274  115.9  0.0163   51.4  0.4594  -83.3
 0.120  0.6553 -152.1  31.229  114.3  0.0170   51.3  0.4353  -86.3
 0.130  0.6656 -154.3  29.211  112.5  0.0176   51.2  0.4125  -89.7
 0.140  0.6769 -156.3  27.227  110.4  0.0183   51.1  0.3913  -93.4
 0.150  0.6889 -158.3  25.285  108.0  0.0189   51.0  0.3720  -97.6
 0.200  0.7059 -164.2  19.454  102.4  0.0215   54.3  0.3131 -109.1
 0.250  0.7141 -168.4  15.724   98.7  0.0237   56.6  0.2752 -118.7
 0.300  0.7201 -171.0  13.229   96.0  0.0265   59.1  0.2544 -125.7
 0.350  0.7228 -173.1  11.608   94.2  0.0295   61.5  0.2405 -130.7
 0.400  0.7265 -175.2  10.001   91.9  0.0325   63.5  0.2287 -136.3
 0.450  0.7282 -176.5   9.018   90.6  0.0354   65.1  0.2225 -139.8
 0.500  0.7302 -177.8   8.040   89.0  0.0383   66.5  0.2172 -143.5
 0.600  0.7349 -180.0   6.736   86.5  0.0443   68.4  0.2124 -149.0
 0.700  0.7366  177.8   5.783   84.2  0.0506   69.8  0.2113 -152.7
 0.800  0.7365  176.5   5.063   82.4  0.0567   71.1  0.2111 -156.1
 0.900  0.7406  174.8   4.519   80.5  0.0634   71.7  0.2117 -158.5
 1.000  0.7394  173.5   4.077   78.7  0.0693   71.9  0.2128 -160.1
 1.100  0.7414  172.1   3.713   77.0  0.0752   72.1  0.2166 -161.5
 1.200  0.7453  170.9   3.413   75.3  0.0819   72.6  0.2189 -163.3
 1.300  0.7474  169.7   3.158   73.8  0.0885   72.8  0.2205 -164.0
 1.400  0.7465  168.8   2.944   72.2  0.0944   73.2  0.2238 -164.5
 1.500  0.7492  167.6   2.751   70.8  0.1006   73.2  0.2282 -165.6
 1.600  0.7503  166.5   2.583   69.2  0.1069   72.9  0.2308 -166.3
 1.700  0.7487  165.3   2.438   67.8  0.1128   72.8  0.2341 -166.6
 1.800  0.7521  164.6   2.311   66.4  0.1194   72.7  0.2375 -166.8
 1.900  0.7513  163.8   2.194   65.1  0.1254   72.8  0.2403 -167.0
 2.000  0.7539  162.5   2.096   63.8  0.1318   72.9  0.2443 -167.3
 2.100  0.7528  161.7   2.006   62.6  0.1379   72.6  0.2467 -167.3
 2.200  0.7519  160.9   1.916   61.3  0.1441   72.3  0.2490 -167.3
 2.300  0.7532  160.1   1.846   60.2  0.1503   72.1  0.2525 -167.5
 2.400  0.7547  159.3   1.776   59.0  0.1565   71.9  0.2560 -167.6
 2.500  0.7536  158.5   1.715   57.8  0.1630   71.6  0.2583 -167.3
 2.600  0.7527  157.6   1.655   56.6  0.1695   71.4  0.2607 -167.1
 2.700  0.7535  156.7   1.604   55.5  0.1762   71.1  0.2637 -167.2
 2.800  0.7545  155.8   1.554   54.3  0.1829   70.8  0.2668 -167.3
 2.900  0.7544  155.0   1.514   53.2  0.1892   70.6  0.2694 -166.9
 3.000  0.7544  154.1   1.474   52.1  0.1955   70.4  0.2721 -166.5
 3.100  0.7542  153.2   1.439   51.1  0.2027   70.0  0.2750 -166.6
 3.200  0.7542  152.3   1.405   50.1  0.2099   69.6  0.2779 -166.6
 3.300  0.7544  151.5   1.372   49.0  0.2171   69.2  0.2807 -166.7
 3.400  0.7548  150.6   1.339   47.8  0.2243   68.8  0.2836 -166.7
 3.500  0.7553  149.7   1.306   46.6  0.2315   68.5  0.2865 -166.8
 3.600  0.7540  148.8   1.282   45.7  0.2383   67.9  0.2891 -167.1
 3.700  0.7530  147.9   1.259   44.7  0.2452   67.3  0.2916 -167.3
 3.800  0.7521  147.0   1.236   43.7  0.2521   66.8  0.2942 -167.6
 3.900  0.7514  146.1   1.213   42.7  0.2590   66.3  0.2968 -167.8
 4.000  0.7509  145.2   1.191   41.6  0.2659   65.8  0.2994 -168.1
 4.100  0.7514  144.3   1.171   40.6  0.2723   65.1  0.3028 -168.7
 4.200  0.7521  143.4   1.152   39.6  0.2788   64.5  0.3062 -169.3
 4.300  0.7530  142.4   1.133   38.5  0.2852   63.9  0.3096 -169.8
 4.400  0.7541  141.5   1.114   37.4  0.2918   63.3  0.3130 -170.4
 4.500  0.7554  140.6   1.096   36.3  0.2983   62.7  0.3165 -170.9
 4.600  0.7553  139.6   1.075   35.5  0.3043   62.0  0.3193 -171.9
 4.700  0.7555  138.5   1.054   34.6  0.3103   61.3  0.3221 -173.0
 4.800  0.7559  137.5   1.034   33.7  0.3164   60.7  0.3251 -174.0
 4.900  0.7565  136.4   1.014   32.8  0.3225   60.1  0.3281 -174.9
 5.000  0.7574  135.4   0.994   31.8  0.3286   59.5  0.3313 -175.9
 5.100  0.7567  134.3   0.981   31.1  0.3342   58.9  0.3347 -176.8
 5.200  0.7563  133.3   0.968   30.3  0.3399   58.3  0.3381 -177.6
 5.300  0.7561  132.2   0.955   29.6  0.3455   57.7  0.3417 -178.4
 5.400  0.7562  131.2   0.942   28.8  0.3513   57.1  0.3452 -179.2
 5.500  0.7565  130.1   0.930   28.0  0.3570   56.6  0.3489  180.0
 5.600  0.7594  129.2   0.924   27.4  0.3622   55.9  0.3545  178.9
 5.700  0.7625  128.4   0.918   26.7  0.3674   55.3  0.3603  177.8
 5.800  0.7658  127.6   0.913   26.0  0.3726   54.6  0.3662  176.8
 5.900  0.7692  126.7   0.907   25.4  0.3779   54.0  0.3722  175.8
 6.000  0.7728  125.9   0.902   24.7  0.3833   53.4  0.3783  174.8
!
!  f       NFmin   Gammaopt  rn/50
! GHz       dB    MAG  ANG    -
 0.450      1.45  0.46 -180   0.07
 0.900      1.54  0.47 -179   0.07
 1.900      2.11  0.60 -164   0.09
 2.400      2.42  0.62 -156   0.14
!
! (c) 2017  Infineon Technologies AG, Munich