! Infineon Technologies  Discrete & RF Semiconductors
! BFR193F
! VCE =  1.0 V,  IC =  80 mA
! Common Emitter S-Parameters:                            Jan 2017
# GHz  S  MA  R  50
!  f         S11            S21            S12            S22
! GHz     MAG   ANG      MAG   ANG      MAG   ANG      MAG   ANG
 0.010  0.3809 -138.9  53.275  157.6  0.0050   66.6  0.5023  -38.3
 0.020  0.5872 -144.4  44.311  139.8  0.0084   55.1  0.4681  -69.5
 0.030  0.6530 -150.9  37.153  134.4  0.0097   49.4  0.4102  -83.7
 0.040  0.7257 -156.2  30.476  126.6  0.0111   45.1  0.3842 -101.2
 0.050  0.8034 -160.5  24.674  114.7  0.0126   41.8  0.3966 -119.2
 0.060  0.8122 -162.6  22.333  113.1  0.0131   42.4  0.3842 -124.4
 0.070  0.8221 -164.7  20.014  111.1  0.0136   42.9  0.3752 -129.9
 0.080  0.8331 -166.8  17.724  108.7  0.0142   43.3  0.3698 -135.6
 0.090  0.8451 -168.8  15.477  105.5  0.0147   43.8  0.3682 -141.5
 0.100  0.8581 -170.7  13.295  101.2  0.0152   44.2  0.3704 -147.3
 0.110  0.8615 -171.5  12.431  100.4  0.0157   45.6  0.3688 -149.4
 0.120  0.8651 -172.3  11.570   99.5  0.0163   46.8  0.3677 -151.5
 0.130  0.8689 -173.1  10.713   98.5  0.0169   48.0  0.3671 -153.6
 0.140  0.8728 -173.8   9.859   97.3  0.0174   49.2  0.3671 -155.8
 0.150  0.8769 -174.6   9.011   95.8  0.0180   50.2  0.3675 -157.9
 0.200  0.8784 -177.0   6.774   92.2  0.0209   56.0  0.3635 -163.0
 0.250  0.8807 -178.8   5.428   89.9  0.0246   59.3  0.3625 -167.0
 0.300  0.8818 -179.9   4.535   87.8  0.0277   62.1  0.3637 -169.0
 0.350  0.8812  179.0   3.969   86.3  0.0313   64.3  0.3636 -170.6
 0.400  0.8810  177.8   3.406   84.3  0.0349   66.1  0.3637 -172.2
 0.450  0.8819  177.0   3.070   83.1  0.0383   67.5  0.3640 -173.1
 0.500  0.8830  176.2   2.736   81.6  0.0417   68.7  0.3643 -174.0
 0.600  0.8847  174.8   2.295   79.0  0.0490   70.6  0.3676 -175.5
 0.700  0.8852  173.1   1.975   76.5  0.0563   72.4  0.3706 -176.2
 0.800  0.8810  172.2   1.735   74.5  0.0639   72.7  0.3741 -177.2
 0.900  0.8852  170.6   1.553   72.1  0.0709   73.4  0.3770 -177.8
 1.000  0.8835  169.4   1.407   70.1  0.0783   73.3  0.3800 -178.2
 1.100  0.8847  168.3   1.287   68.0  0.0860   73.8  0.3846 -178.5
 1.200  0.8851  167.1   1.187   65.9  0.0927   73.6  0.3888 -179.1
 1.300  0.8873  165.9   1.105   64.2  0.1001   73.3  0.3912 -179.3
 1.400  0.8854  165.0   1.036   62.3  0.1067   73.5  0.3950 -179.5
 1.500  0.8859  164.0   0.974   60.7  0.1146   73.4  0.4000 -179.8
 1.600  0.8857  162.8   0.919   59.0  0.1216   73.1  0.4038  179.7
 1.700  0.8845  161.7   0.872   57.3  0.1287   72.8  0.4069  179.6
 1.800  0.8845  160.9   0.833   55.7  0.1358   72.6  0.4109  179.4
 1.900  0.8837  160.1   0.795   54.5  0.1431   72.2  0.4142  179.4
 2.000  0.8871  158.8   0.765   53.1  0.1500   72.1  0.4191  179.2
 2.100  0.8846  158.0   0.737   52.0  0.1571   71.8  0.4219  179.1
 2.200  0.8822  157.1   0.709   50.8  0.1643   71.6  0.4247  179.0
 2.300  0.8833  156.2   0.687   49.8  0.1716   71.2  0.4287  178.8
 2.400  0.8847  155.3   0.666   48.7  0.1790   70.8  0.4328  178.6
 2.500  0.8826  154.5   0.649   47.7  0.1865   70.4  0.4355  178.5
 2.600  0.8807  153.6   0.632   46.7  0.1940   70.1  0.4383  178.5
 2.700  0.8811  152.6   0.617   45.9  0.2016   69.6  0.4426  178.2
 2.800  0.8817  151.6   0.602   45.0  0.2093   69.1  0.4469  178.0
 2.900  0.8808  150.7   0.591   44.2  0.2167   68.8  0.4500  177.9
 3.000  0.8802  149.7   0.580   43.4  0.2242   68.5  0.4532  177.8
 3.100  0.8788  148.7   0.571   42.8  0.2325   67.9  0.4568  177.4
 3.200  0.8776  147.7   0.562   42.1  0.2409   67.3  0.4603  177.0
 3.300  0.8767  146.8   0.553   41.5  0.2493   66.7  0.4639  176.6
 3.400  0.8760  145.8   0.545   40.8  0.2577   66.2  0.4676  176.2
 3.500  0.8756  144.8   0.536   40.1  0.2661   65.7  0.4712  175.8
 3.600  0.8732  143.8   0.531   39.7  0.2738   64.9  0.4741  175.1
 3.700  0.8711  142.7   0.527   39.2  0.2816   64.1  0.4771  174.5
 3.800  0.8692  141.7   0.522   38.8  0.2895   63.3  0.4802  173.8
 3.900  0.8677  140.6   0.518   38.4  0.2974   62.6  0.4833  173.1
 4.000  0.8664  139.6   0.513   37.9  0.3053   61.9  0.4865  172.5
 4.100  0.8648  138.5   0.509   37.4  0.3121   60.9  0.4894  171.6
 4.200  0.8635  137.5   0.505   37.0  0.3190   60.0  0.4923  170.7
 4.300  0.8625  136.4   0.501   36.5  0.3260   59.1  0.4954  169.9
 4.400  0.8617  135.4   0.498   36.0  0.3331   58.3  0.4986  169.0
 4.500  0.8613  134.3   0.494   35.5  0.3402   57.5  0.5019  168.2
 4.600  0.8587  133.2   0.489   35.2  0.3457   56.6  0.5034  167.1
 4.700  0.8563  132.1   0.484   34.9  0.3513   55.8  0.5050  165.9
 4.800  0.8543  131.0   0.480   34.6  0.3569   55.0  0.5068  164.8
 4.900  0.8526  129.9   0.475   34.3  0.3626   54.2  0.5089  163.7
 5.000  0.8512  128.8   0.470   34.0  0.3684   53.5  0.5111  162.6
 5.100  0.8478  127.7   0.469   33.8  0.3735   52.8  0.5129  161.6
 5.200  0.8447  126.6   0.468   33.6  0.3786   52.0  0.5149  160.7
 5.300  0.8419  125.5   0.468   33.4  0.3838   51.3  0.5170  159.7
 5.400  0.8394  124.3   0.467   33.2  0.3891   50.7  0.5192  158.7
 5.500  0.8373  123.2   0.466   33.0  0.3944   50.0  0.5216  157.8
 5.600  0.8377  122.3   0.470   32.8  0.3990   49.2  0.5262  156.8
 5.700  0.8383  121.4   0.474   32.6  0.4037   48.5  0.5310  155.8
 5.800  0.8390  120.6   0.479   32.5  0.4085   47.7  0.5360  154.8
 5.900  0.8400  119.7   0.483   32.3  0.4133   47.0  0.5411  153.8
 6.000  0.8412  118.8   0.487   32.1  0.4182   46.3  0.5464  152.9
!
!  f       NFmin   Gammaopt  rn/50
! GHz       dB    MAG  ANG    -
!
! noise parameter not available yet for this operation point!
!
! (c) 2017  Infineon Technologies AG, Munich