! Infineon Technologies  Discrete & RF Semiconductors
! BFR193F
! VCE =  2.0 V,  IC =  10 mA
! Common Emitter S-Parameters:                            Jan 2017
# GHz  S  MA  R  50
!  f         S11            S21            S12            S22
! GHz     MAG   ANG      MAG   ANG      MAG   ANG      MAG   ANG
 0.010  0.6709   -9.1  29.347  175.8  0.0041   88.9  0.9858   -5.0
 0.020  0.6590  -19.5  29.026  170.7  0.0084   84.7  0.9774   -9.7
 0.030  0.6507  -28.1  28.347  166.5  0.0124   77.4  0.9534  -14.1
 0.040  0.6575  -36.8  27.825  162.2  0.0164   73.7  0.9351  -18.6
 0.050  0.6787  -45.1  27.469  157.7  0.0205   71.5  0.9230  -23.3
 0.060  0.6599  -51.9  26.439  154.6  0.0230   67.0  0.8872  -26.5
 0.070  0.6509  -59.0  25.492  151.3  0.0256   63.5  0.8543  -29.9
 0.080  0.6519  -66.2  24.638  147.7  0.0283   60.6  0.8248  -33.6
 0.090  0.6631  -73.2  23.887  143.9  0.0310   58.2  0.7990  -37.6
 0.100  0.6839  -79.9  23.249  139.8  0.0338   56.2  0.7772  -41.8
 0.110  0.6766  -84.7  22.342  137.7  0.0354   54.2  0.7476  -44.0
 0.120  0.6743  -89.7  21.467  135.4  0.0369   52.4  0.7192  -46.4
 0.130  0.6770  -94.6  20.629  133.0  0.0386   50.7  0.6922  -49.0
 0.140  0.6845  -99.4  19.832  130.3  0.0402   49.2  0.6667  -51.8
 0.150  0.6968 -104.1  19.082  127.4  0.0419   47.8  0.6429  -54.8
 0.200  0.7067 -120.0  15.848  118.6  0.0473   42.8  0.5405  -64.0
 0.250  0.7071 -131.5  13.337  112.3  0.0501   39.5  0.4583  -70.9
 0.300  0.7143 -139.7  11.520  107.6  0.0524   38.1  0.4009  -76.4
 0.350  0.7134 -145.4  10.211  104.5  0.0542   37.4  0.3598  -80.0
 0.400  0.7196 -151.1   8.939  100.6  0.0560   36.8  0.3204  -84.4
 0.450  0.7181 -154.6   8.100   98.4  0.0574   37.3  0.2953  -87.2
 0.500  0.7194 -158.2   7.276   95.8  0.0589   37.7  0.2711  -90.5
 0.600  0.7244 -163.5   6.133   91.9  0.0614   39.0  0.2399  -95.5
 0.700  0.7270 -167.9   5.297   88.7  0.0644   41.1  0.2197  -99.9
 0.800  0.7256 -171.1   4.646   86.0  0.0674   43.0  0.2049 -104.0
 0.900  0.7291 -174.1   4.156   83.4  0.0706   45.4  0.1951 -107.4
 1.000  0.7294 -176.4   3.751   81.1  0.0739   47.1  0.1901 -110.2
 1.100  0.7346 -178.6   3.422   78.8  0.0779   48.9  0.1879 -113.3
 1.200  0.7363  179.4   3.147   76.7  0.0813   50.7  0.1857 -116.2
 1.300  0.7376  177.6   2.913   74.7  0.0851   52.3  0.1851 -117.9
 1.400  0.7376  176.1   2.718   72.8  0.0892   54.0  0.1872 -119.7
 1.500  0.7410  174.7   2.541   71.0  0.0932   55.4  0.1899 -122.2
 1.600  0.7410  173.1   2.386   69.2  0.0978   56.5  0.1920 -123.8
 1.700  0.7405  171.6   2.249   67.4  0.1017   57.6  0.1963 -125.4
 1.800  0.7436  170.5   2.133   65.8  0.1065   58.9  0.2003 -126.7
 1.900  0.7432  169.4   2.026   64.3  0.1114   59.7  0.2052 -127.8
 2.000  0.7471  168.1   1.932   62.7  0.1159   60.7  0.2099 -129.2
 2.100  0.7461  167.1   1.848   61.3  0.1206   61.6  0.2149 -129.9
 2.200  0.7453  166.0   1.765   59.8  0.1253   62.4  0.2200 -130.6
 2.300  0.7479  165.0   1.698   58.6  0.1305   63.1  0.2258 -131.5
 2.400  0.7508  164.0   1.632   57.2  0.1357   63.7  0.2316 -132.3
 2.500  0.7502  163.1   1.576   55.9  0.1412   64.2  0.2376 -132.8
 2.600  0.7498  162.1   1.520   54.5  0.1468   64.7  0.2437 -133.3
 2.700  0.7509  161.0   1.472   53.2  0.1524   65.2  0.2494 -134.0
 2.800  0.7522  160.0   1.424   51.9  0.1581   65.7  0.2552 -134.7
 2.900  0.7535  159.1   1.386   50.7  0.1636   66.1  0.2613 -135.0
 3.000  0.7550  158.2   1.349   49.4  0.1691   66.4  0.2674 -135.3
 3.100  0.7554  157.2   1.316   48.4  0.1759   66.6  0.2734 -136.0
 3.200  0.7561  156.2   1.283   47.3  0.1826   66.7  0.2793 -136.6
 3.300  0.7569  155.3   1.251   46.2  0.1894   66.8  0.2854 -137.2
 3.400  0.7580  154.3   1.219   45.0  0.1961   67.0  0.2914 -137.8
 3.500  0.7593  153.3   1.188   43.7  0.2029   67.1  0.2975 -138.4
 3.600  0.7589  152.3   1.166   42.8  0.2099   66.9  0.3027 -139.2
 3.700  0.7588  151.3   1.143   41.8  0.2168   66.7  0.3079 -140.0
 3.800  0.7589  150.4   1.122   40.8  0.2238   66.6  0.3132 -140.7
 3.900  0.7592  149.4   1.100   39.8  0.2307   66.4  0.3185 -141.4
 4.000  0.7597  148.4   1.079   38.7  0.2377   66.3  0.3239 -142.1
 4.100  0.7607  147.4   1.060   37.7  0.2448   65.9  0.3294 -143.3
 4.200  0.7620  146.3   1.041   36.7  0.2518   65.5  0.3350 -144.4
 4.300  0.7636  145.3   1.022   35.7  0.2589   65.2  0.3407 -145.5
 4.400  0.7654  144.2   1.004   34.6  0.2660   64.8  0.3466 -146.6
 4.500  0.7674  143.2   0.986   33.5  0.2731   64.5  0.3526 -147.6
 4.600  0.7672  142.0   0.967   32.7  0.2800   64.0  0.3561 -149.2
 4.700  0.7673  140.9   0.947   31.8  0.2868   63.4  0.3599 -150.7
 4.800  0.7677  139.7   0.928   30.9  0.2937   62.9  0.3640 -152.2
 4.900  0.7685  138.6   0.910   30.0  0.3007   62.5  0.3683 -153.7
 5.000  0.7695  137.4   0.891   29.0  0.3076   62.0  0.3728 -155.1
 5.100  0.7687  136.2   0.878   28.4  0.3143   61.4  0.3768 -156.5
 5.200  0.7683  135.1   0.866   27.7  0.3210   60.9  0.3810 -157.9
 5.300  0.7682  133.9   0.853   27.1  0.3277   60.3  0.3854 -159.2
 5.400  0.7684  132.8   0.841   26.4  0.3344   59.8  0.3900 -160.5
 5.500  0.7689  131.6   0.829   25.7  0.3412   59.3  0.3948 -161.8
 5.600  0.7719  130.6   0.824   25.1  0.3472   58.6  0.4009 -163.3
 5.700  0.7751  129.7   0.818   24.6  0.3533   58.0  0.4073 -164.7
 5.800  0.7785  128.8   0.813   24.0  0.3595   57.3  0.4139 -166.1
 5.900  0.7821  127.8   0.808   23.4  0.3657   56.7  0.4208 -167.5
 6.000  0.7859  126.9   0.803   22.8  0.3719   56.1  0.4279 -168.8
!
!  f       NFmin   Gammaopt  rn/50
! GHz       dB    MAG  ANG    -
 0.450      0.87  0.25  139   0.07
 0.900      1.00  0.38  152   0.07
 1.900      1.70  0.59 -176   0.06
 2.400      2.05  0.63 -165   0.08
!
! (c) 2017  Infineon Technologies AG, Munich