! Infineon Technologies  Discrete & RF Semiconductors
! BFR193F
! VCE =  4.0 V,  IC =  60 mA
! Common Emitter S-Parameters:                            Jan 2017
# GHz  S  MA  R  50
!  f         S11            S21            S12            S22
! GHz     MAG   ANG      MAG   ANG      MAG   ANG      MAG   ANG
 0.010  0.1613  -58.3  78.368  170.1  0.0027   79.2  0.9296  -10.9
 0.020  0.2522  -86.8  75.181  160.2  0.0049   75.7  0.8984  -21.7
 0.030  0.3106 -103.6  68.996  154.0  0.0065   69.7  0.8213  -29.1
 0.040  0.3866 -114.4  63.782  146.6  0.0081   66.1  0.7608  -38.0
 0.050  0.4717 -121.5  59.794  138.1  0.0098   63.7  0.7210  -48.0
 0.060  0.4905 -127.5  55.302  135.3  0.0106   60.5  0.6654  -51.6
 0.070  0.5142 -133.0  50.962  132.1  0.0115   57.7  0.6129  -55.9
 0.080  0.5422 -137.9  46.817  128.2  0.0123   55.4  0.5645  -61.0
 0.090  0.5738 -142.3  42.925  123.6  0.0132   53.3  0.5212  -66.9
 0.100  0.6085 -146.3  39.358  118.2  0.0141   51.5  0.4845  -73.8
 0.110  0.6165 -148.6  37.068  116.8  0.0146   52.2  0.4580  -76.2
 0.120  0.6255 -150.9  34.805  115.1  0.0151   52.9  0.4324  -78.8
 0.130  0.6355 -153.1  32.573  113.3  0.0157   53.5  0.4078  -81.8
 0.140  0.6464 -155.2  30.381  111.2  0.0162   54.1  0.3845  -85.1
 0.150  0.6581 -157.3  28.237  108.7  0.0167   54.6  0.3626  -88.9
 0.200  0.6755 -163.4  21.759  103.0  0.0190   57.8  0.2951  -98.9
 0.250  0.6849 -167.6  17.626   99.3  0.0221   59.0  0.2508 -107.6
 0.300  0.6928 -170.5  14.831   96.6  0.0245   61.9  0.2263 -114.3
 0.350  0.6947 -172.6  13.012   94.8  0.0275   63.8  0.2091 -119.1
 0.400  0.6974 -174.6  11.211   92.4  0.0305   65.4  0.1936 -124.8
 0.450  0.6992 -176.0  10.111   91.2  0.0332   67.1  0.1853 -128.4
 0.500  0.7014 -177.3   9.017   89.6  0.0359   68.5  0.1779 -132.4
 0.600  0.7058 -179.6   7.550   87.1  0.0426   70.1  0.1697 -138.5
 0.700  0.7100  178.3   6.487   84.9  0.0482   71.3  0.1668 -142.7
 0.800  0.7088  177.0   5.679   83.1  0.0541   72.5  0.1650 -146.8
 0.900  0.7118  175.3   5.065   81.2  0.0604   73.0  0.1646 -149.6
 1.000  0.7127  173.9   4.568   79.5  0.0662   73.6  0.1656 -151.4
 1.100  0.7164  172.6   4.161   77.7  0.0720   73.9  0.1691 -153.2
 1.200  0.7196  171.3   3.824   76.1  0.0783   73.8  0.1711 -155.2
 1.300  0.7204  170.2   3.537   74.6  0.0847   74.4  0.1727 -156.1
 1.400  0.7205  169.2   3.297   73.1  0.0902   74.6  0.1759 -156.7
 1.500  0.7231  168.2   3.080   71.7  0.0968   74.3  0.1799 -158.0
 1.600  0.7236  166.9   2.892   70.2  0.1029   74.3  0.1827 -158.8
 1.700  0.7241  165.9   2.726   68.7  0.1089   74.2  0.1861 -159.2
 1.800  0.7269  165.1   2.584   67.4  0.1148   74.2  0.1900 -159.5
 1.900  0.7263  164.2   2.453   66.2  0.1206   74.1  0.1935 -159.6
 2.000  0.7297  163.1   2.341   64.9  0.1266   74.0  0.1977 -160.0
 2.100  0.7282  162.3   2.238   63.7  0.1327   73.8  0.2004 -159.9
 2.200  0.7268  161.4   2.136   62.4  0.1389   73.7  0.2032 -159.8
 2.300  0.7286  160.5   2.056   61.3  0.1449   73.4  0.2066 -159.9
 2.400  0.7305  159.7   1.977   60.1  0.1510   73.2  0.2101 -159.9
 2.500  0.7294  159.0   1.909   58.9  0.1572   72.9  0.2131 -159.6
 2.600  0.7284  158.2   1.842   57.7  0.1634   72.7  0.2162 -159.3
 2.700  0.7291  157.3   1.784   56.6  0.1697   72.4  0.2195 -159.4
 2.800  0.7300  156.4   1.727   55.4  0.1761   72.2  0.2228 -159.4
 2.900  0.7301  155.5   1.681   54.3  0.1823   72.0  0.2260 -158.9
 3.000  0.7303  154.7   1.635   53.2  0.1886   71.8  0.2293 -158.4
 3.100  0.7302  153.9   1.596   52.2  0.1955   71.4  0.2325 -158.4
 3.200  0.7302  153.0   1.557   51.2  0.2024   71.0  0.2358 -158.4
 3.300  0.7304  152.2   1.518   50.1  0.2093   70.6  0.2390 -158.4
 3.400  0.7307  151.3   1.480   49.0  0.2162   70.2  0.2423 -158.4
 3.500  0.7312  150.5   1.443   47.8  0.2231   69.9  0.2455 -158.4
 3.600  0.7305  149.6   1.416   46.9  0.2297   69.4  0.2483 -158.6
 3.700  0.7299  148.7   1.389   45.9  0.2364   68.9  0.2510 -158.8
 3.800  0.7295  147.9   1.363   44.9  0.2431   68.4  0.2538 -159.0
 3.900  0.7293  147.0   1.337   43.8  0.2498   67.9  0.2565 -159.2
 4.000  0.7292  146.1   1.312   42.7  0.2565   67.5  0.2593 -159.4
 4.100  0.7298  145.2   1.289   41.7  0.2629   66.8  0.2629 -160.0
 4.200  0.7305  144.3   1.267   40.7  0.2693   66.2  0.2665 -160.6
 4.300  0.7315  143.4   1.245   39.6  0.2757   65.6  0.2701 -161.1
 4.400  0.7326  142.5   1.223   38.5  0.2822   65.0  0.2738 -161.7
 4.500  0.7339  141.6   1.202   37.4  0.2887   64.4  0.2775 -162.2
 4.600  0.7339  140.5   1.179   36.5  0.2947   63.8  0.2803 -163.3
 4.700  0.7342  139.5   1.156   35.6  0.3008   63.2  0.2832 -164.4
 4.800  0.7347  138.4   1.134   34.7  0.3068   62.6  0.2863 -165.5
 4.900  0.7355  137.4   1.112   33.7  0.3130   62.0  0.2894 -166.6
 5.000  0.7365  136.3   1.090   32.7  0.3191   61.5  0.2926 -167.6
 5.100  0.7363  135.3   1.075   32.0  0.3247   60.9  0.2959 -168.6
 5.200  0.7363  134.2   1.060   31.2  0.3304   60.3  0.2994 -169.5
 5.300  0.7366  133.2   1.045   30.4  0.3360   59.8  0.3029 -170.5
 5.400  0.7371  132.1   1.030   29.6  0.3418   59.2  0.3064 -171.4
 5.500  0.7378  131.1   1.016   28.8  0.3475   58.7  0.3101 -172.3
 5.600  0.7410  130.2   1.009   28.1  0.3527   58.0  0.3157 -173.4
 5.700  0.7444  129.4   1.002   27.5  0.3580   57.3  0.3213 -174.4
 5.800  0.7479  128.5   0.996   26.8  0.3633   56.7  0.3271 -175.5
 5.900  0.7516  127.6   0.989   26.1  0.3686   56.0  0.3330 -176.5
 6.000  0.7555  126.8   0.983   25.4  0.3740   55.4  0.3390 -177.4
!
!  f       NFmin   Gammaopt  rn/50
! GHz       dB    MAG  ANG    -
 0.450      1.64  0.49 -178   0.08
 0.900      1.73  0.50 -177   0.09
 1.900      2.33  0.61 -162   0.10
 2.400      2.66  0.62 -155   0.17
!
! (c) 2017  Infineon Technologies AG, Munich