! Infineon Technologies  Discrete & RF Semiconductors
! BFR193F
! VCE =  6.0 V,  IC =  48 mA
! Common Emitter S-Parameters:                            Jan 2017
# GHz  S  MA  R  50
!  f         S11            S21            S12            S22
! GHz     MAG   ANG      MAG   ANG      MAG   ANG      MAG   ANG
 0.010  0.2602  -30.6  72.550  171.4  0.0029   85.2  0.9483   -9.1
 0.020  0.3002  -57.5  70.273  162.7  0.0051   76.6  0.9267  -18.2
 0.030  0.3263  -76.2  65.515  156.8  0.0068   70.3  0.8618  -24.9
 0.040  0.3805  -90.8  61.564  150.0  0.0085   66.6  0.8106  -32.6
 0.050  0.4529 -101.3  58.584  142.4  0.0103   64.1  0.7759  -41.2
 0.060  0.4634 -109.0  54.549  139.5  0.0114   61.2  0.7212  -44.7
 0.070  0.4818 -116.2  50.680  136.1  0.0124   58.8  0.6696  -48.8
 0.080  0.5071 -122.7  47.019  132.1  0.0136   56.8  0.6219  -53.5
 0.090  0.5384 -128.6  43.618  127.5  0.0147   55.2  0.5791  -58.9
 0.100  0.5748 -133.8  40.542  122.2  0.0158   53.7  0.5424  -65.2
 0.110  0.5824 -136.9  38.297  120.6  0.0163   53.0  0.5131  -67.4
 0.120  0.5917 -140.0  36.085  118.8  0.0168   52.3  0.4846  -69.9
 0.130  0.6026 -142.9  33.912  116.8  0.0173   51.6  0.4572  -72.7
 0.140  0.6150 -145.7  31.788  114.5  0.0178   51.0  0.4310  -75.8
 0.150  0.6288 -148.4  29.721  111.9  0.0183   50.4  0.4062  -79.3
 0.200  0.6505 -156.4  23.132  105.6  0.0210   53.1  0.3275  -88.6
 0.250  0.6598 -162.3  18.807  101.5  0.0232   54.1  0.2723  -96.1
 0.300  0.6674 -165.8  15.871   98.5  0.0262   58.0  0.2401 -102.2
 0.350  0.6703 -168.4  13.940   96.5  0.0284   59.9  0.2177 -106.6
 0.400  0.6746 -170.9  12.031   93.9  0.0307   61.6  0.1969 -111.9
 0.450  0.6764 -172.7  10.859   92.6  0.0335   63.3  0.1849 -115.4
 0.500  0.6789 -174.4   9.695   90.9  0.0363   64.7  0.1737 -119.4
 0.600  0.6819 -177.1   8.116   88.2  0.0420   66.7  0.1606 -126.0
 0.700  0.6847 -179.7   6.977   85.9  0.0474   68.6  0.1541 -130.8
 0.800  0.6858  178.8   6.108   84.0  0.0534   69.6  0.1497 -135.5
 0.900  0.6915  176.9   5.452   82.2  0.0593   70.7  0.1476 -138.7
 1.000  0.6901  175.5   4.916   80.4  0.0653   71.5  0.1471 -141.1
 1.100  0.6947  174.1   4.477   78.7  0.0706   72.3  0.1493 -143.6
 1.200  0.6966  172.8   4.114   77.0  0.0764   72.4  0.1505 -146.0
 1.300  0.6983  171.5   3.808   75.5  0.0826   72.9  0.1518 -147.3
 1.400  0.6985  170.5   3.548   74.0  0.0881   73.3  0.1546 -148.3
 1.500  0.7002  169.3   3.317   72.6  0.0939   73.3  0.1584 -149.9
 1.600  0.7016  168.1   3.112   71.1  0.0999   73.4  0.1607 -151.1
 1.700  0.7020  166.9   2.933   69.6  0.1056   73.4  0.1644 -151.5
 1.800  0.7049  166.2   2.779   68.2  0.1115   73.4  0.1677 -152.0
 1.900  0.7041  165.3   2.639   67.0  0.1175   73.3  0.1713 -152.3
 2.000  0.7086  164.1   2.515   65.7  0.1231   73.3  0.1757 -152.9
 2.100  0.7068  163.3   2.405   64.6  0.1289   73.2  0.1786 -152.9
 2.200  0.7051  162.4   2.297   63.3  0.1348   73.1  0.1815 -152.9
 2.300  0.7077  161.5   2.210   62.2  0.1407   72.9  0.1849 -153.1
 2.400  0.7105  160.7   2.124   61.0  0.1466   72.8  0.1884 -153.2
 2.500  0.7093  159.9   2.050   59.8  0.1527   72.6  0.1916 -152.9
 2.600  0.7083  159.1   1.977   58.6  0.1588   72.4  0.1948 -152.6
 2.700  0.7092  158.2   1.914   57.5  0.1649   72.1  0.1985 -152.8
 2.800  0.7102  157.3   1.851   56.3  0.1711   71.9  0.2023 -152.9
 2.900  0.7105  156.5   1.801   55.2  0.1770   71.8  0.2056 -152.3
 3.000  0.7110  155.7   1.751   54.1  0.1829   71.7  0.2090 -151.7
 3.100  0.7110  154.8   1.708   53.1  0.1897   71.3  0.2123 -151.7
 3.200  0.7112  154.0   1.666   52.1  0.1965   71.0  0.2157 -151.7
 3.300  0.7116  153.1   1.624   51.0  0.2033   70.7  0.2190 -151.8
 3.400  0.7121  152.3   1.583   49.9  0.2102   70.4  0.2224 -151.8
 3.500  0.7128  151.4   1.542   48.7  0.2170   70.1  0.2257 -151.8
 3.600  0.7119  150.5   1.512   47.8  0.2235   69.6  0.2287 -152.0
 3.700  0.7112  149.6   1.483   46.8  0.2300   69.1  0.2317 -152.3
 3.800  0.7107  148.8   1.454   45.8  0.2365   68.7  0.2347 -152.5
 3.900  0.7103  147.9   1.426   44.7  0.2430   68.3  0.2377 -152.7
 4.000  0.7101  147.0   1.398   43.6  0.2495   67.9  0.2407 -152.9
 4.100  0.7109  146.1   1.374   42.6  0.2558   67.3  0.2445 -153.5
 4.200  0.7119  145.2   1.350   41.6  0.2621   66.7  0.2483 -154.2
 4.300  0.7130  144.4   1.326   40.5  0.2684   66.1  0.2521 -154.8
 4.400  0.7143  143.5   1.303   39.4  0.2748   65.6  0.2559 -155.3
 4.500  0.7158  142.6   1.281   38.2  0.2812   65.1  0.2598 -155.9
 4.600  0.7160  141.6   1.256   37.4  0.2872   64.5  0.2625 -157.1
 4.700  0.7165  140.6   1.231   36.5  0.2933   63.9  0.2653 -158.3
 4.800  0.7172  139.5   1.207   35.6  0.2994   63.4  0.2682 -159.5
 4.900  0.7181  138.5   1.183   34.6  0.3055   62.8  0.2713 -160.6
 5.000  0.7193  137.5   1.159   33.6  0.3117   62.3  0.2744 -161.7
 5.100  0.7190  136.4   1.143   32.8  0.3174   61.7  0.2776 -162.7
 5.200  0.7191  135.3   1.127   32.0  0.3231   61.1  0.2809 -163.8
 5.300  0.7193  134.3   1.111   31.2  0.3289   60.6  0.2843 -164.8
 5.400  0.7198  133.2   1.095   30.4  0.3347   60.0  0.2878 -165.7
 5.500  0.7206  132.1   1.080   29.5  0.3405   59.5  0.2913 -166.7
 5.600  0.7245  131.3   1.072   28.8  0.3457   58.9  0.2966 -167.9
 5.700  0.7285  130.4   1.064   28.1  0.3510   58.2  0.3021 -169.1
 5.800  0.7328  129.6   1.057   27.3  0.3563   57.6  0.3076 -170.2
 5.900  0.7371  128.8   1.049   26.6  0.3617   57.1  0.3133 -171.3
 6.000  0.7416  128.0   1.042   25.8  0.3671   56.5  0.3191 -172.4
!
!  f       NFmin   Gammaopt  rn/50
! GHz       dB    MAG  ANG    -
 0.450      1.45  0.46 -180   0.07
 0.900      1.54  0.47 -179   0.07
 1.900      2.11  0.60 -164   0.09
 2.400      2.42  0.62 -156   0.14
!
! (c) 2017  Infineon Technologies AG, Munich