! Infineon Technologies  Discrete & RF Semiconductors
! BFR193F
! VCE =  11. V,  IC =  35 mA
! Common Emitter S-Parameters:                            Jan 2017
# GHz  S  MA  R  50
!  f         S11            S21            S12            S22
! GHz     MAG   ANG      MAG   ANG      MAG   ANG      MAG   ANG
 0.010  0.4364  -16.0  60.816  172.6  0.0028   85.0  0.9519   -7.1
 0.020  0.4419  -33.5  58.937  165.7  0.0055   76.1  0.9346  -14.1
 0.030  0.4379  -47.8  56.145  160.4  0.0077   69.0  0.8890  -19.8
 0.040  0.4607  -61.5  53.885  154.6  0.0099   65.1  0.8529  -25.9
 0.050  0.5067  -73.3  52.225  148.3  0.0122   62.6  0.8276  -32.6
 0.060  0.4998  -81.6  49.189  145.2  0.0135   60.3  0.7788  -35.9
 0.070  0.5034  -89.9  46.317  141.7  0.0147   58.4  0.7329  -39.7
 0.080  0.5175  -98.0  43.641  137.7  0.0160   56.8  0.6906  -43.9
 0.090  0.5411 -105.4  41.200  133.3  0.0173   55.4  0.6524  -48.6
 0.100  0.5731 -112.2  39.037  128.3  0.0186   54.2  0.6193  -53.9
 0.110  0.5751 -116.4  37.057  126.5  0.0192   53.2  0.5884  -55.9
 0.120  0.5801 -120.5  35.117  124.5  0.0199   52.2  0.5584  -58.1
 0.130  0.5880 -124.5  33.225  122.3  0.0206   51.3  0.5292  -60.6
 0.140  0.5988 -128.4  31.389  119.8  0.0212   50.4  0.5012  -63.3
 0.150  0.6123 -132.2  29.620  117.0  0.0219   49.6  0.4744  -66.4
 0.200  0.6318 -143.8  23.467  109.8  0.0244   49.0  0.3828  -74.3
 0.250  0.6405 -151.7  19.257  104.9  0.0265   49.8  0.3156  -80.4
 0.300  0.6493 -157.0  16.338  101.4  0.0291   51.7  0.2740  -85.1
 0.350  0.6516 -160.6  14.385   99.2  0.0310   53.6  0.2440  -88.3
 0.400  0.6565 -164.2  12.459   96.3  0.0329   55.2  0.2149  -92.3
 0.450  0.6573 -166.6  11.254   94.7  0.0353   56.9  0.1981  -94.9
 0.500  0.6592 -168.9  10.059   92.7  0.0378   58.4  0.1818  -98.0
 0.600  0.6640 -172.6   8.440   89.8  0.0424   60.9  0.1601 -103.2
 0.700  0.6671 -175.6   7.263   87.3  0.0472   63.7  0.1476 -107.5
 0.800  0.6668 -177.7   6.360   85.3  0.0530   65.2  0.1379 -111.9
 0.900  0.6723  179.9   5.679   83.2  0.0579   66.8  0.1323 -115.4
 1.000  0.6731  178.4   5.120   81.4  0.0632   67.4  0.1295 -117.9
 1.100  0.6754  176.7   4.666   79.6  0.0685   68.5  0.1289 -121.3
 1.200  0.6788  175.1   4.289   77.9  0.0737   69.1  0.1276 -124.2
 1.300  0.6798  173.6   3.969   76.3  0.0787   69.7  0.1283 -125.9
 1.400  0.6799  172.6   3.700   74.7  0.0848   70.3  0.1300 -127.4
 1.500  0.6833  171.3   3.455   73.3  0.0899   70.6  0.1327 -130.0
 1.600  0.6850  169.9   3.244   71.7  0.0954   70.9  0.1341 -131.8
 1.700  0.6855  168.7   3.054   70.2  0.1008   71.2  0.1378 -132.6
 1.800  0.6873  167.9   2.896   68.8  0.1068   71.5  0.1413 -133.7
 1.900  0.6878  166.9   2.748   67.6  0.1120   71.6  0.1447 -134.3
 2.000  0.6911  165.7   2.620   66.2  0.1177   71.8  0.1487 -135.5
 2.100  0.6900  164.8   2.505   65.0  0.1231   71.8  0.1524 -135.8
 2.200  0.6890  163.8   2.391   63.7  0.1285   71.8  0.1562 -136.0
 2.300  0.6909  163.0   2.299   62.5  0.1342   71.9  0.1601 -136.5
 2.400  0.6930  162.2   2.209   61.3  0.1399   71.9  0.1640 -137.0
 2.500  0.6922  161.4   2.132   60.2  0.1457   71.9  0.1681 -136.8
 2.600  0.6916  160.6   2.055   59.0  0.1515   71.9  0.1723 -136.7
 2.700  0.6930  159.6   1.988   57.8  0.1574   71.7  0.1763 -137.1
 2.800  0.6945  158.7   1.922   56.6  0.1634   71.6  0.1804 -137.5
 2.900  0.6943  157.9   1.871   55.5  0.1691   71.6  0.1848 -137.2
 3.000  0.6942  157.0   1.820   54.4  0.1748   71.6  0.1892 -136.9
 3.100  0.6944  156.2   1.774   53.4  0.1814   71.3  0.1933 -137.1
 3.200  0.6948  155.3   1.729   52.4  0.1880   71.1  0.1974 -137.2
 3.300  0.6953  154.5   1.685   51.3  0.1945   70.9  0.2016 -137.4
 3.400  0.6960  153.6   1.641   50.1  0.2011   70.7  0.2057 -137.6
 3.500  0.6968  152.8   1.598   48.9  0.2077   70.5  0.2098 -137.7
 3.600  0.6964  151.9   1.567   47.9  0.2140   70.1  0.2134 -138.1
 3.700  0.6961  151.0   1.536   46.9  0.2203   69.7  0.2171 -138.5
 3.800  0.6960  150.1   1.506   45.9  0.2266   69.4  0.2207 -138.8
 3.900  0.6961  149.2   1.476   44.8  0.2329   69.0  0.2243 -139.2
 4.000  0.6964  148.3   1.447   43.7  0.2392   68.7  0.2280 -139.5
 4.100  0.6975  147.4   1.421   42.7  0.2455   68.2  0.2321 -140.3
 4.200  0.6987  146.5   1.395   41.6  0.2518   67.7  0.2363 -141.1
 4.300  0.7001  145.6   1.370   40.5  0.2582   67.2  0.2405 -141.9
 4.400  0.7017  144.7   1.346   39.4  0.2645   66.7  0.2447 -142.7
 4.500  0.7035  143.8   1.322   38.2  0.2709   66.3  0.2490 -143.4
 4.600  0.7041  142.8   1.296   37.3  0.2770   65.8  0.2517 -144.8
 4.700  0.7049  141.7   1.270   36.4  0.2831   65.2  0.2545 -146.1
 4.800  0.7060  140.7   1.245   35.5  0.2892   64.7  0.2575 -147.5
 4.900  0.7073  139.6   1.220   34.5  0.2953   64.3  0.2606 -148.7
 5.000  0.7088  138.6   1.195   33.5  0.3015   63.8  0.2638 -150.0
 5.100  0.7089  137.5   1.178   32.7  0.3074   63.2  0.2669 -151.2
 5.200  0.7093  136.5   1.161   31.9  0.3134   62.7  0.2701 -152.4
 5.300  0.7099  135.4   1.144   31.1  0.3194   62.1  0.2734 -153.6
 5.400  0.7107  134.4   1.127   30.3  0.3254   61.6  0.2768 -154.8
 5.500  0.7118  133.3   1.111   29.4  0.3315   61.1  0.2803 -155.9
 5.600  0.7154  132.4   1.103   28.7  0.3368   60.5  0.2853 -157.3
 5.700  0.7192  131.6   1.095   27.9  0.3422   59.8  0.2905 -158.7
 5.800  0.7231  130.7   1.087   27.2  0.3476   59.2  0.2959 -160.0
 5.900  0.7272  129.8   1.079   26.4  0.3531   58.7  0.3014 -161.3
 6.000  0.7314  129.0   1.072   25.6  0.3586   58.1  0.3070 -162.5
!
!  f       NFmin   Gammaopt  rn/50
! GHz       dB    MAG  ANG    -
 0.450      1.26  0.42  178   0.06
 0.900      1.35  0.44  178   0.07
 1.900      1.90  0.58 -166   0.08
 2.400      2.20  0.61 -157   0.12
!
! (c) 2017  Infineon Technologies AG, Munich