! Infineon Technologies  Discrete & RF Semiconductors
! BFR193F
! VCE =  5.0 V,  IC =  72 mA
! Common Emitter S-Parameters:                            Jan 2017
# GHz  S  MA  R  50
!  f         S11            S21            S12            S22
! GHz     MAG   ANG      MAG   ANG      MAG   ANG      MAG   ANG
 0.010  0.1574  -63.8  81.342  169.7  0.0022   86.3  0.9153  -10.8
 0.020  0.2559  -90.0  77.451  159.5  0.0046   73.2  0.8809  -21.9
 0.030  0.3167 -106.6  70.819  153.1  0.0063   65.7  0.8024  -29.2
 0.040  0.3951 -117.3  65.230  145.6  0.0082   61.5  0.7398  -38.0
 0.050  0.4825 -124.3  60.972  136.8  0.0100   58.8  0.6973  -48.1
 0.060  0.5006 -130.1  56.285  134.1  0.0106   57.2  0.6425  -51.5
 0.070  0.5235 -135.4  51.746  130.9  0.0113   55.8  0.5905  -55.5
 0.080  0.5505 -140.2  47.400  127.1  0.0120   54.5  0.5419  -60.3
 0.090  0.5810 -144.6  43.303  122.5  0.0126   53.4  0.4978  -66.0
 0.100  0.6145 -148.5  39.533  117.1  0.0133   52.4  0.4595  -72.7
 0.110  0.6225 -150.7  37.212  115.7  0.0139   53.1  0.4337  -74.9
 0.120  0.6314 -152.8  34.915  114.1  0.0144   53.8  0.4086  -77.3
 0.130  0.6411 -154.9  32.649  112.3  0.0150   54.4  0.3844  -80.0
 0.140  0.6517 -156.9  30.419  110.3  0.0155   55.0  0.3611  -83.1
 0.150  0.6630 -158.8  28.235  107.9  0.0161   55.5  0.3390  -86.6
 0.200  0.6789 -164.5  21.691  102.4  0.0189   58.3  0.2740  -95.8
 0.250  0.6870 -168.6  17.547   98.7  0.0211   60.8  0.2292 -103.7
 0.300  0.6943 -171.0  14.760   96.1  0.0236   62.9  0.2050 -109.8
 0.350  0.6969 -173.1  12.945   94.3  0.0264   65.6  0.1879 -114.3
 0.400  0.7003 -175.1  11.147   92.0  0.0292   67.7  0.1721 -119.7
 0.450  0.7015 -176.4  10.054   90.8  0.0321   68.6  0.1637 -123.1
 0.500  0.7031 -177.7   8.967   89.2  0.0351   69.4  0.1559 -126.9
 0.600  0.7052 -180.0   7.501   86.7  0.0409   71.2  0.1472 -132.9
 0.700  0.7084  178.1   6.449   84.6  0.0466   72.8  0.1444 -137.2
 0.800  0.7095  176.6   5.649   82.8  0.0528   73.8  0.1425 -141.3
 0.900  0.7127  174.9   5.037   80.9  0.0586   74.6  0.1420 -144.1
 1.000  0.7124  173.8   4.541   79.2  0.0650   74.7  0.1432 -145.7
 1.100  0.7161  172.4   4.135   77.5  0.0705   74.8  0.1467 -147.8
 1.200  0.7179  171.1   3.799   75.9  0.0765   75.0  0.1488 -149.8
 1.300  0.7202  169.9   3.516   74.4  0.0827   75.2  0.1506 -150.5
 1.400  0.7209  169.0   3.278   72.8  0.0886   75.2  0.1541 -151.3
 1.500  0.7240  167.9   3.063   71.4  0.0946   75.4  0.1590 -152.5
 1.600  0.7257  166.8   2.875   69.9  0.1007   75.2  0.1615 -153.4
 1.700  0.7244  165.7   2.709   68.5  0.1061   75.1  0.1655 -153.8
 1.800  0.7266  165.0   2.568   67.1  0.1126   74.8  0.1699 -153.9
 1.900  0.7264  164.1   2.437   65.9  0.1185   75.0  0.1737 -154.0
 2.000  0.7304  163.0   2.325   64.5  0.1248   75.0  0.1785 -154.6
 2.100  0.7289  162.2   2.224   63.4  0.1308   74.7  0.1818 -154.3
 2.200  0.7275  161.3   2.124   62.1  0.1369   74.4  0.1851 -154.1
 2.300  0.7294  160.5   2.044   60.9  0.1427   74.2  0.1890 -154.3
 2.400  0.7314  159.7   1.964   59.7  0.1486   74.1  0.1929 -154.4
 2.500  0.7304  158.9   1.896   58.6  0.1548   73.8  0.1965 -154.1
 2.600  0.7295  158.1   1.829   57.4  0.1611   73.5  0.2001 -153.8
 2.700  0.7297  157.2   1.771   56.3  0.1674   73.3  0.2040 -153.9
 2.800  0.7300  156.4   1.713   55.1  0.1738   73.1  0.2079 -153.9
 2.900  0.7306  155.5   1.668   54.0  0.1798   72.9  0.2116 -153.4
 3.000  0.7314  154.6   1.623   52.9  0.1858   72.7  0.2154 -152.9
 3.100  0.7314  153.7   1.584   51.9  0.1927   72.3  0.2191 -152.9
 3.200  0.7315  152.9   1.545   50.9  0.1997   71.9  0.2228 -152.9
 3.300  0.7317  152.0   1.506   49.8  0.2066   71.5  0.2266 -152.9
 3.400  0.7322  151.2   1.468   48.6  0.2135   71.2  0.2303 -152.9
 3.500  0.7328  150.3   1.431   47.4  0.2205   70.9  0.2340 -152.9
 3.600  0.7320  149.4   1.404   46.5  0.2271   70.4  0.2373 -153.2
 3.700  0.7313  148.5   1.377   45.5  0.2338   69.9  0.2405 -153.4
 3.800  0.7308  147.7   1.351   44.5  0.2405   69.4  0.2438 -153.6
 3.900  0.7305  146.8   1.325   43.5  0.2472   68.9  0.2471 -153.9
 4.000  0.7303  145.9   1.299   42.4  0.2539   68.5  0.2504 -154.1
 4.100  0.7310  145.0   1.277   41.4  0.2603   67.8  0.2544 -154.8
 4.200  0.7320  144.1   1.255   40.4  0.2668   67.2  0.2583 -155.4
 4.300  0.7331  143.2   1.233   39.3  0.2733   66.6  0.2624 -156.0
 4.400  0.7343  142.3   1.212   38.2  0.2798   66.0  0.2664 -156.6
 4.500  0.7358  141.4   1.191   37.1  0.2863   65.5  0.2705 -157.2
 4.600  0.7359  140.4   1.168   36.3  0.2924   64.8  0.2734 -158.4
 4.700  0.7363  139.3   1.145   35.4  0.2986   64.2  0.2764 -159.6
 4.800  0.7369  138.3   1.123   34.4  0.3047   63.6  0.2796 -160.8
 4.900  0.7377  137.2   1.101   33.5  0.3110   63.1  0.2828 -161.9
 5.000  0.7388  136.2   1.079   32.5  0.3172   62.5  0.2862 -163.0
 5.100  0.7384  135.2   1.064   31.8  0.3230   61.9  0.2897 -164.0
 5.200  0.7383  134.1   1.049   31.0  0.3289   61.3  0.2932 -165.1
 5.300  0.7384  133.1   1.034   30.2  0.3348   60.7  0.2969 -166.1
 5.400  0.7387  132.0   1.019   29.4  0.3407   60.1  0.3006 -167.0
 5.500  0.7393  131.0   1.005   28.6  0.3467   59.6  0.3044 -168.0
 5.600  0.7422  130.1   0.998   27.9  0.3519   58.9  0.3099 -169.2
 5.700  0.7453  129.3   0.991   27.2  0.3571   58.3  0.3156 -170.4
 5.800  0.7486  128.5   0.985   26.5  0.3623   57.6  0.3214 -171.5
 5.900  0.7520  127.6   0.978   25.7  0.3677   57.0  0.3273 -172.6
 6.000  0.7556  126.8   0.972   25.0  0.3730   56.4  0.3333 -173.6
!
!  f       NFmin   Gammaopt  rn/50
! GHz       dB    MAG  ANG    -
!
! noise parameter not available yet for this operation point!
!
! (c) 2017  Infineon Technologies AG, Munich