! Infineon Technologies  Discrete & RF Semiconductors
! BFR193F
! VCE =  12. V,  IC =  10 mA
! Common Emitter S-Parameters:                            Jan 2017
# GHz  S  MA  R  50
!  f         S11            S21            S12            S22
! GHz     MAG   ANG      MAG   ANG      MAG   ANG      MAG   ANG
 0.010  0.7374   -6.7  28.347  176.3  0.0032   80.0  0.9802   -3.6
 0.020  0.7178  -14.9  27.771  172.1  0.0067   81.1  0.9803   -7.0
 0.030  0.7130  -21.7  27.400  168.6  0.0096   77.0  0.9632  -10.2
 0.040  0.7183  -28.5  27.134  165.0  0.0126   74.8  0.9492  -13.4
 0.050  0.7334  -35.1  26.975  161.4  0.0156   73.5  0.9384  -16.8
 0.060  0.7145  -40.8  26.211  158.5  0.0180   69.8  0.9129  -19.3
 0.070  0.7031  -46.7  25.516  155.5  0.0205   67.0  0.8893  -22.0
 0.080  0.6994  -52.8  24.897  152.3  0.0230   64.7  0.8677  -24.7
 0.090  0.7036  -58.9  24.358  149.0  0.0255   63.0  0.8483  -27.7
 0.100  0.7155  -64.8  23.906  145.5  0.0281   61.5  0.8311  -30.7
 0.110  0.7040  -69.4  23.134  143.4  0.0297   59.4  0.8057  -32.5
 0.120  0.6972  -74.0  22.395  141.2  0.0313   57.5  0.7811  -34.3
 0.130  0.6950  -78.8  21.693  138.8  0.0330   55.8  0.7574  -36.3
 0.140  0.6976  -83.5  21.031  136.2  0.0347   54.3  0.7347  -38.4
 0.150  0.7050  -88.2  20.413  133.5  0.0364   52.9  0.7130  -40.7
 0.200  0.7044 -104.9  17.452  124.3  0.0415   47.0  0.6165  -47.7
 0.250  0.6934 -117.9  14.961  117.6  0.0447   43.3  0.5330  -52.5
 0.300  0.6948 -127.4  13.076  112.5  0.0473   41.4  0.4723  -55.9
 0.350  0.6886 -134.1  11.660  109.1  0.0490   40.2  0.4275  -57.8
 0.400  0.6921 -140.9  10.298  104.7  0.0507   39.0  0.3832  -60.1
 0.450  0.6891 -145.4   9.363  102.3  0.0522   39.2  0.3546  -61.2
 0.500  0.6903 -149.9   8.447   99.4  0.0537   39.4  0.3262  -62.5
 0.600  0.6910 -156.6   7.149   95.2  0.0562   40.0  0.2879  -64.1
 0.700  0.6932 -161.6   6.188   91.7  0.0588   41.8  0.2622  -65.8
 0.800  0.6908 -165.5   5.440   88.8  0.0611   43.1  0.2418  -67.3
 0.900  0.6949 -169.0   4.867   86.2  0.0638   46.0  0.2282  -68.5
 1.000  0.6964 -171.7   4.398   83.7  0.0667   47.1  0.2189  -70.0
 1.100  0.6993 -174.3   4.014   81.4  0.0697   49.5  0.2118  -71.9
 1.200  0.7016 -176.7   3.693   79.3  0.0724   51.3  0.2053  -73.8
 1.300  0.7031 -178.6   3.420   77.3  0.0755   53.0  0.2026  -75.3
 1.400  0.7046  179.7   3.189   75.4  0.0793   54.6  0.2017  -77.2
 1.500  0.7075  177.9   2.979   73.5  0.0826   56.3  0.1995  -79.4
 1.600  0.7081  176.1   2.799   71.7  0.0860   57.7  0.1990  -81.4
 1.700  0.7082  174.5   2.636   69.9  0.0899   59.4  0.2005  -83.4
 1.800  0.7112  173.5   2.499   68.2  0.0939   60.1  0.2027  -85.4
 1.900  0.7102  172.2   2.373   66.8  0.0980   61.4  0.2050  -87.4
 2.000  0.7131  170.7   2.260   65.2  0.1020   62.9  0.2078  -89.5
 2.100  0.7124  169.7   2.160   63.8  0.1062   63.7  0.2117  -91.0
 2.200  0.7120  168.6   2.061   62.2  0.1105   64.5  0.2157  -92.5
 2.300  0.7149  167.4   1.981   60.9  0.1150   65.4  0.2201  -94.2
 2.400  0.7181  166.3   1.902   59.5  0.1196   66.2  0.2246  -95.9
 2.500  0.7178  165.4   1.834   58.2  0.1247   67.0  0.2300  -97.2
 2.600  0.7176  164.5   1.767   56.9  0.1298   67.7  0.2356  -98.5
 2.700  0.7190  163.4   1.709   55.6  0.1350   68.3  0.2404 -100.0
 2.800  0.7207  162.4   1.652   54.2  0.1403   68.8  0.2453 -101.4
 2.900  0.7216  161.4   1.607   53.0  0.1453   69.4  0.2517 -102.4
 3.000  0.7227  160.4   1.562   51.8  0.1504   69.9  0.2581 -103.3
 3.100  0.7236  159.4   1.522   50.8  0.1568   70.2  0.2636 -104.6
 3.200  0.7247  158.4   1.482   49.7  0.1631   70.5  0.2693 -105.8
 3.300  0.7260  157.4   1.443   48.5  0.1695   70.8  0.2750 -106.9
 3.400  0.7275  156.4   1.405   47.3  0.1758   71.1  0.2809 -108.0
 3.500  0.7293  155.4   1.367   46.0  0.1822   71.3  0.2869 -109.1
 3.600  0.7293  154.4   1.339   45.0  0.1887   71.3  0.2920 -110.3
 3.700  0.7294  153.4   1.312   44.0  0.1953   71.3  0.2972 -111.4
 3.800  0.7298  152.4   1.285   43.0  0.2018   71.3  0.3025 -112.5
 3.900  0.7305  151.4   1.259   41.8  0.2084   71.3  0.3080 -113.6
 4.000  0.7313  150.4   1.233   40.7  0.2149   71.3  0.3135 -114.6
 4.100  0.7325  149.4   1.210   39.7  0.2219   71.0  0.3185 -116.2
 4.200  0.7340  148.4   1.188   38.7  0.2288   70.8  0.3238 -117.7
 4.300  0.7357  147.4   1.166   37.6  0.2358   70.5  0.3292 -119.1
 4.400  0.7376  146.4   1.144   36.5  0.2428   70.3  0.3349 -120.5
 4.500  0.7397  145.4   1.123   35.3  0.2498   70.1  0.3408 -121.9
 4.600  0.7401  144.2   1.100   34.5  0.2570   69.6  0.3434 -123.7
 4.700  0.7408  143.0   1.077   33.6  0.2642   69.2  0.3464 -125.5
 4.800  0.7418  141.8   1.055   32.7  0.2714   68.8  0.3497 -127.2
 4.900  0.7432  140.7   1.033   31.7  0.2787   68.4  0.3533 -128.9
 5.000  0.7448  139.5   1.011   30.7  0.2859   68.0  0.3572 -130.6
 5.100  0.7443  138.3   0.995   30.0  0.2930   67.4  0.3600 -132.3
 5.200  0.7442  137.2   0.980   29.3  0.3001   66.9  0.3631 -134.0
 5.300  0.7444  136.0   0.965   28.5  0.3072   66.4  0.3665 -135.6
 5.400  0.7448  134.9   0.950   27.8  0.3143   65.9  0.3702 -137.2
 5.500  0.7456  133.7   0.935   27.0  0.3215   65.4  0.3742 -138.8
 5.600  0.7492  132.7   0.927   26.4  0.3279   64.7  0.3787 -140.7
 5.700  0.7530  131.8   0.920   25.7  0.3343   64.0  0.3835 -142.5
 5.800  0.7570  130.8   0.912   25.1  0.3408   63.4  0.3888 -144.2
 5.900  0.7612  129.9   0.905   24.4  0.3473   62.8  0.3944 -145.9
 6.000  0.7656  129.0   0.898   23.7  0.3539   62.2  0.4003 -147.6
!
!  f       NFmin   Gammaopt  rn/50
! GHz       dB    MAG  ANG    -
 0.450      0.87  0.25  139   0.07
 0.900      1.00  0.38  152   0.07
 1.900      1.70  0.59 -176   0.06
 2.400      2.05  0.63 -165   0.08
!
! (c) 2017  Infineon Technologies AG, Munich