! Infineon Technologies  Discrete & RF Semiconductors
! BFR193F
! VCE =  4.0 V,  IC =  70 mA
! Common Emitter S-Parameters:                            Jan 2017
# GHz  S  MA  R  50
!  f         S11            S21            S12            S22
! GHz     MAG   ANG      MAG   ANG      MAG   ANG      MAG   ANG
 0.010  0.1449  -76.6  80.746  169.5  0.0026   84.8  0.9120  -11.5
 0.020  0.2592  -98.8  76.880  158.9  0.0049   76.2  0.8733  -22.9
 0.030  0.3259 -113.3  70.038  152.5  0.0064   68.2  0.7927  -30.5
 0.040  0.4061 -122.5  64.235  144.9  0.0080   63.3  0.7290  -39.6
 0.050  0.4932 -128.6  59.774  136.0  0.0096   60.0  0.6870  -50.2
 0.060  0.5128 -133.9  55.117  133.3  0.0103   58.4  0.6323  -53.7
 0.070  0.5364 -138.7  50.603  130.2  0.0111   57.1  0.5805  -57.9
 0.080  0.5635 -143.1  46.273  126.4  0.0119   55.9  0.5324  -62.9
 0.090  0.5936 -147.1  42.184  121.9  0.0126   54.9  0.4891  -68.8
 0.100  0.6263 -150.7  38.414  116.4  0.0134   54.0  0.4520  -75.8
 0.110  0.6344 -152.7  36.141  115.0  0.0139   54.3  0.4268  -78.1
 0.120  0.6432 -154.7  33.890  113.5  0.0144   54.5  0.4023  -80.7
 0.130  0.6528 -156.6  31.668  111.8  0.0148   54.8  0.3788  -83.6
 0.140  0.6630 -158.5  29.479  109.7  0.0153   55.0  0.3564  -87.0
 0.150  0.6740 -160.3  27.333  107.4  0.0158   55.2  0.3353  -90.7
 0.200  0.6884 -165.6  20.994  101.9  0.0185   58.2  0.2732 -100.5
 0.250  0.6986 -169.6  16.963   98.4  0.0212   60.5  0.2323 -109.1
 0.300  0.7047 -172.0  14.258   95.7  0.0239   63.9  0.2100 -115.4
 0.350  0.7068 -173.9  12.507   94.0  0.0269   65.8  0.1943 -120.2
 0.400  0.7097 -175.8  10.771   91.7  0.0300   67.3  0.1802 -125.8
 0.450  0.7112 -177.1   9.713   90.5  0.0328   68.4  0.1729 -129.3
 0.500  0.7131 -178.3   8.661   88.9  0.0357   69.4  0.1663 -133.0
 0.600  0.7170  179.6   7.248   86.5  0.0417   71.6  0.1595 -138.7
 0.700  0.7217  177.6   6.226   84.3  0.0475   72.9  0.1573 -142.8
 0.800  0.7197  176.2   5.450   82.5  0.0535   73.9  0.1563 -146.8
 0.900  0.7226  174.6   4.863   80.7  0.0597   74.5  0.1565 -149.2
 1.000  0.7234  173.4   4.385   79.0  0.0657   74.8  0.1577 -151.0
 1.100  0.7267  172.0   3.995   77.2  0.0719   74.9  0.1615 -152.5
 1.200  0.7282  170.9   3.669   75.6  0.0779   75.0  0.1641 -154.4
 1.300  0.7319  169.7   3.395   74.1  0.0842   75.1  0.1659 -155.1
 1.400  0.7290  168.7   3.165   72.6  0.0902   75.4  0.1695 -155.7
 1.500  0.7322  167.7   2.958   71.1  0.0960   75.3  0.1739 -156.7
 1.600  0.7339  166.6   2.776   69.6  0.1023   75.2  0.1769 -157.5
 1.700  0.7350  165.5   2.617   68.2  0.1083   75.0  0.1803 -157.7
 1.800  0.7364  164.7   2.479   66.8  0.1143   74.8  0.1846 -158.1
 1.900  0.7352  163.9   2.355   65.5  0.1204   74.7  0.1885 -158.1
 2.000  0.7397  162.7   2.248   64.2  0.1269   74.7  0.1929 -158.5
 2.100  0.7384  161.9   2.149   63.0  0.1327   74.4  0.1959 -158.3
 2.200  0.7373  161.1   2.052   61.7  0.1385   74.1  0.1990 -158.1
 2.300  0.7384  160.2   1.975   60.6  0.1445   74.0  0.2030 -158.2
 2.400  0.7397  159.4   1.899   59.4  0.1506   73.9  0.2071 -158.3
 2.500  0.7392  158.6   1.834   58.3  0.1570   73.6  0.2103 -157.9
 2.600  0.7388  157.8   1.770   57.1  0.1635   73.4  0.2135 -157.6
 2.700  0.7394  156.9   1.715   55.9  0.1697   73.1  0.2174 -157.7
 2.800  0.7402  156.1   1.660   54.7  0.1760   72.8  0.2213 -157.7
 2.900  0.7402  155.2   1.615   53.6  0.1824   72.5  0.2247 -157.2
 3.000  0.7404  154.4   1.571   52.5  0.1888   72.3  0.2281 -156.7
 3.100  0.7402  153.5   1.533   51.5  0.1958   71.9  0.2317 -156.7
 3.200  0.7402  152.7   1.496   50.5  0.2027   71.5  0.2353 -156.7
 3.300  0.7404  151.8   1.459   49.4  0.2097   71.1  0.2390 -156.8
 3.400  0.7407  151.0   1.423   48.3  0.2167   70.8  0.2426 -156.8
 3.500  0.7412  150.1   1.387   47.1  0.2237   70.5  0.2462 -156.8
 3.600  0.7403  149.2   1.361   46.2  0.2304   69.9  0.2493 -157.0
 3.700  0.7396  148.3   1.335   45.2  0.2371   69.4  0.2524 -157.2
 3.800  0.7390  147.4   1.310   44.2  0.2439   68.9  0.2554 -157.4
 3.900  0.7387  146.5   1.285   43.2  0.2506   68.4  0.2585 -157.6
 4.000  0.7385  145.6   1.261   42.1  0.2574   68.0  0.2616 -157.8
 4.100  0.7392  144.7   1.240   41.1  0.2638   67.3  0.2655 -158.5
 4.200  0.7400  143.8   1.219   40.0  0.2703   66.7  0.2694 -159.1
 4.300  0.7411  142.9   1.198   39.0  0.2767   66.1  0.2733 -159.7
 4.400  0.7423  142.0   1.178   37.9  0.2833   65.5  0.2773 -160.3
 4.500  0.7437  141.1   1.158   36.7  0.2898   64.9  0.2813 -160.9
 4.600  0.7435  140.0   1.135   35.9  0.2959   64.3  0.2843 -162.1
 4.700  0.7436  139.0   1.113   35.0  0.3021   63.6  0.2874 -163.2
 4.800  0.7439  137.9   1.091   34.1  0.3082   63.0  0.2906 -164.3
 4.900  0.7445  136.9   1.069   33.2  0.3145   62.5  0.2939 -165.4
 5.000  0.7453  135.8   1.048   32.2  0.3207   61.9  0.2973 -166.5
 5.100  0.7450  134.8   1.034   31.5  0.3264   61.3  0.3007 -167.5
 5.200  0.7449  133.8   1.019   30.7  0.3321   60.6  0.3043 -168.5
 5.300  0.7450  132.7   1.005   30.0  0.3379   60.0  0.3079 -169.4
 5.400  0.7454  131.7   0.992   29.2  0.3437   59.5  0.3116 -170.4
 5.500  0.7460  130.7   0.978   28.4  0.3495   58.9  0.3154 -171.3
 5.600  0.7493  129.8   0.971   27.7  0.3547   58.2  0.3210 -172.4
 5.700  0.7528  129.0   0.965   27.0  0.3600   57.5  0.3268 -173.5
 5.800  0.7565  128.1   0.958   26.3  0.3653   56.9  0.3326 -174.6
 5.900  0.7604  127.2   0.952   25.6  0.3706   56.2  0.3386 -175.6
 6.000  0.7644  126.4   0.946   24.9  0.3760   55.6  0.3447 -176.6
!
!  f       NFmin   Gammaopt  rn/50
! GHz       dB    MAG  ANG    -
!
! noise parameter not available yet for this operation point!
!
! (c) 2017  Infineon Technologies AG, Munich