! Infineon Technologies  Discrete & RF Semiconductors
! BFR193F
! VCE =  6.0 V,  IC =  90 mA
! Common Emitter S-Parameters:                            Jan 2017
# GHz  S  MA  R  50
!  f         S11            S21            S12            S22
! GHz     MAG   ANG      MAG   ANG      MAG   ANG      MAG   ANG
 0.010  0.1593  -75.2  79.608  168.7  0.0023   89.7  0.8718  -11.1
 0.020  0.2789  -98.6  75.239  157.6  0.0042   71.9  0.8346  -22.5
 0.030  0.3462 -113.8  68.054  151.2  0.0057   65.7  0.7527  -29.4
 0.040  0.4296 -123.6  61.911  143.4  0.0073   62.1  0.6844  -37.9
 0.050  0.5213 -130.1  57.147  134.1  0.0089   59.8  0.6341  -48.0
 0.060  0.5393 -135.3  52.554  131.5  0.0096   57.5  0.5829  -50.9
 0.070  0.5614 -140.1  48.088  128.4  0.0103   55.6  0.5335  -54.3
 0.080  0.5871 -144.5  43.789  124.7  0.0110   53.9  0.4864  -58.4
 0.090  0.6160 -148.5  39.712  120.3  0.0118   52.4  0.4422  -63.3
 0.100  0.6477 -152.2  35.931  114.8  0.0125   51.1  0.4021  -69.3
 0.110  0.6549 -154.1  33.775  113.5  0.0130   51.7  0.3791  -71.0
 0.120  0.6628 -156.0  31.638  112.0  0.0135   52.2  0.3564  -72.9
 0.130  0.6714 -157.9  29.526  110.4  0.0139   52.7  0.3342  -75.0
 0.140  0.6807 -159.7  27.442  108.4  0.0144   53.2  0.3125  -77.5
 0.150  0.6906 -161.4  25.394  106.2  0.0149   53.6  0.2915  -80.3
 0.200  0.7049 -166.6  19.441  101.1  0.0173   56.4  0.2316  -86.8
 0.250  0.7131 -170.3  15.681   97.7  0.0199   60.7  0.1906  -92.4
 0.300  0.7178 -172.9  13.170   95.2  0.0224   64.1  0.1680  -96.8
 0.350  0.7204 -174.7  11.552   93.6  0.0250   65.9  0.1527  -99.7
 0.400  0.7236 -176.4   9.947   91.4  0.0276   67.3  0.1379 -103.3
 0.450  0.7248 -177.7   8.972   90.2  0.0304   69.1  0.1302 -105.9
 0.500  0.7263 -178.9   8.001   88.7  0.0332   70.6  0.1228 -108.8
 0.600  0.7290  178.9   6.697   86.3  0.0390   72.0  0.1143 -113.7
 0.700  0.7307  177.1   5.755   84.2  0.0441   73.7  0.1123 -117.6
 0.800  0.7298  175.8   5.043   82.5  0.0507   74.6  0.1108 -121.5
 0.900  0.7332  174.0   4.501   80.6  0.0562   75.3  0.1109 -124.5
 1.000  0.7343  172.9   4.062   79.0  0.0623   76.0  0.1135 -126.2
 1.100  0.7367  171.5   3.702   77.2  0.0681   76.4  0.1179 -128.8
 1.200  0.7392  170.4   3.407   75.6  0.0738   76.5  0.1213 -131.4
 1.300  0.7408  169.2   3.153   74.1  0.0799   76.6  0.1245 -132.2
 1.400  0.7398  168.2   2.942   72.6  0.0859   77.1  0.1297 -133.3
 1.500  0.7426  167.2   2.751   71.1  0.0919   77.0  0.1354 -135.1
 1.600  0.7443  166.0   2.585   69.6  0.0975   76.8  0.1394 -136.6
 1.700  0.7416  164.9   2.438   68.1  0.1035   76.9  0.1452 -137.1
 1.800  0.7451  164.2   2.312   66.7  0.1093   76.7  0.1507 -137.9
 1.900  0.7438  163.4   2.197   65.5  0.1157   76.5  0.1565 -138.6
 2.000  0.7482  162.2   2.098   64.1  0.1219   76.5  0.1620 -139.3
 2.100  0.7463  161.4   2.007   62.9  0.1277   76.3  0.1672 -139.6
 2.200  0.7445  160.6   1.917   61.6  0.1335   76.2  0.1725 -139.8
 2.300  0.7463  159.7   1.846   60.5  0.1395   76.0  0.1778 -140.3
 2.400  0.7482  158.9   1.775   59.3  0.1455   75.8  0.1832 -140.7
 2.500  0.7473  158.2   1.715   58.1  0.1518   75.6  0.1884 -140.8
 2.600  0.7466  157.4   1.655   56.9  0.1582   75.4  0.1937 -140.8
 2.700  0.7469  156.4   1.604   55.8  0.1645   75.1  0.1988 -141.2
 2.800  0.7475  155.5   1.553   54.6  0.1708   74.8  0.2040 -141.6
 2.900  0.7482  154.7   1.513   53.5  0.1769   74.6  0.2093 -141.4
 3.000  0.7491  153.9   1.473   52.3  0.1830   74.4  0.2146 -141.3
 3.100  0.7486  153.0   1.438   51.3  0.1900   74.0  0.2194 -141.6
 3.200  0.7482  152.2   1.403   50.3  0.1971   73.6  0.2243 -141.9
 3.300  0.7481  151.3   1.368   49.2  0.2041   73.2  0.2292 -142.2
 3.400  0.7480  150.5   1.334   48.1  0.2111   72.9  0.2340 -142.5
 3.500  0.7482  149.6   1.301   46.9  0.2182   72.6  0.2389 -142.8
 3.600  0.7473  148.7   1.277   46.0  0.2250   72.1  0.2430 -143.3
 3.700  0.7465  147.8   1.253   45.0  0.2319   71.6  0.2471 -143.8
 3.800  0.7459  146.8   1.230   44.0  0.2388   71.1  0.2513 -144.3
 3.900  0.7456  145.9   1.207   43.0  0.2457   70.6  0.2554 -144.8
 4.000  0.7454  145.0   1.185   41.9  0.2526   70.2  0.2596 -145.2
 4.100  0.7457  144.1   1.165   40.9  0.2592   69.5  0.2642 -146.1
 4.200  0.7463  143.2   1.145   39.9  0.2659   68.9  0.2688 -147.0
 4.300  0.7470  142.2   1.126   38.9  0.2726   68.3  0.2735 -147.9
 4.400  0.7479  141.3   1.107   37.8  0.2793   67.7  0.2783 -148.7
 4.500  0.7490  140.4   1.088   36.7  0.2861   67.2  0.2831 -149.5
 4.600  0.7489  139.3   1.067   35.9  0.2924   66.5  0.2862 -150.9
 4.700  0.7491  138.3   1.047   35.0  0.2988   65.9  0.2894 -152.2
 4.800  0.7496  137.2   1.027   34.2  0.3053   65.3  0.2928 -153.6
 4.900  0.7502  136.2   1.007   33.3  0.3117   64.7  0.2963 -154.8
 5.000  0.7512  135.1   0.987   32.3  0.3182   64.1  0.3000 -156.1
 5.100  0.7504  134.0   0.973   31.6  0.3242   63.4  0.3035 -157.4
 5.200  0.7498  133.0   0.960   30.9  0.3303   62.8  0.3072 -158.6
 5.300  0.7495  131.9   0.947   30.1  0.3364   62.2  0.3111 -159.8
 5.400  0.7495  130.9   0.934   29.4  0.3426   61.6  0.3150 -161.0
 5.500  0.7497  129.8   0.921   28.6  0.3488   61.0  0.3191 -162.1
 5.600  0.7529  128.9   0.915   28.0  0.3543   60.3  0.3246 -163.5
 5.700  0.7563  128.1   0.909   27.3  0.3599   59.6  0.3304 -164.8
 5.800  0.7598  127.3   0.903   26.6  0.3655   59.0  0.3362 -166.1
 5.900  0.7635  126.4   0.898   26.0  0.3711   58.3  0.3423 -167.3
 6.000  0.7674  125.6   0.892   25.3  0.3768   57.7  0.3485 -168.5
!
!  f       NFmin   Gammaopt  rn/50
! GHz       dB    MAG  ANG    -
!
! noise parameter not available yet for this operation point!
!
! (c) 2017  Infineon Technologies AG, Munich