! Infineon Technologies  Discrete & RF Semiconductors
! BFR193F
! VCE =  1.0 V,  IC =  55 mA
! Common Emitter S-Parameters:                            Jan 2017
# GHz  S  MA  R  50
!  f         S11            S21            S12            S22
! GHz     MAG   ANG      MAG   ANG      MAG   ANG      MAG   ANG
 0.010  0.2327 -105.5  64.104  164.0  0.0046   76.3  0.7488  -22.2
 0.020  0.4178 -121.0  57.624  149.5  0.0083   66.9  0.6921  -42.2
 0.030  0.4948 -132.3  50.003  143.3  0.0098   58.0  0.5972  -52.8
 0.040  0.5857 -140.3  43.172  135.0  0.0114   51.6  0.5298  -66.8
 0.050  0.6849 -146.1  37.567  123.9  0.0132   46.8  0.5012  -83.5
 0.060  0.6990 -149.7  34.202  121.8  0.0139   45.8  0.4637  -88.7
 0.070  0.7157 -153.1  30.891  119.3  0.0147   44.9  0.4306  -94.7
 0.080  0.7349 -156.3  27.653  116.2  0.0154   44.1  0.4031 -101.6
 0.090  0.7563 -159.4  24.517  112.3  0.0162   43.4  0.3822 -109.5
 0.100  0.7797 -162.3  21.528  107.3  0.0169   42.7  0.3692 -118.0
 0.110  0.7848 -163.6  20.166  106.3  0.0173   43.8  0.3588 -121.1
 0.120  0.7904 -164.9  18.811  105.1  0.0178   44.8  0.3496 -124.4
 0.130  0.7963 -166.2  17.465  103.8  0.0183   45.7  0.3415 -127.8
 0.140  0.8027 -167.5  16.130  102.2  0.0187   46.6  0.3347 -131.4
 0.150  0.8094 -168.7  14.809  100.4  0.0192   47.5  0.3293 -135.1
 0.200  0.8172 -172.5  11.214   96.1  0.0220   50.4  0.3110 -144.6
 0.250  0.8221 -175.1   9.003   93.4  0.0247   54.9  0.3024 -151.7
 0.300  0.8268 -176.9   7.539   91.1  0.0276   58.5  0.2990 -156.0
 0.350  0.8267 -178.3   6.596   89.6  0.0308   60.9  0.2963 -159.0
 0.400  0.8271 -179.7   5.659   87.6  0.0341   62.8  0.2944 -162.1
 0.450  0.8275  179.3   5.102   86.4  0.0373   64.5  0.2936 -163.9
 0.500  0.8281  178.3   4.548   85.0  0.0406   65.9  0.2932 -165.8
 0.600  0.8311  176.5   3.805   82.5  0.0479   68.3  0.2939 -168.4
 0.700  0.8310  174.7   3.271   80.3  0.0541   69.0  0.2969 -169.9
 0.800  0.8286  173.5   2.866   78.5  0.0606   70.8  0.2993 -171.6
 0.900  0.8315  172.0   2.561   76.4  0.0679   71.4  0.3016 -172.5
 1.000  0.8336  170.8   2.315   74.5  0.0748   72.0  0.3042 -173.4
 1.100  0.8343  169.6   2.112   72.6  0.0811   72.2  0.3086 -173.8
 1.200  0.8338  168.3   1.944   70.8  0.0880   72.3  0.3126 -174.8
 1.300  0.8367  167.2   1.805   69.1  0.0955   72.4  0.3144 -175.1
 1.400  0.8357  166.3   1.685   67.5  0.1017   72.6  0.3177 -175.3
 1.500  0.8380  165.1   1.579   65.9  0.1083   72.6  0.3228 -175.7
 1.600  0.8390  164.1   1.486   64.3  0.1152   72.4  0.3256 -176.3
 1.700  0.8354  162.9   1.406   62.7  0.1220   72.1  0.3285 -176.4
 1.800  0.8382  162.1   1.336   61.2  0.1290   72.2  0.3326 -176.5
 1.900  0.8351  161.2   1.274   60.0  0.1354   71.9  0.3357 -176.4
 2.000  0.8382  160.2   1.220   58.6  0.1422   71.8  0.3403 -176.7
 2.100  0.8366  159.3   1.171   57.3  0.1490   71.5  0.3427 -176.6
 2.200  0.8352  158.4   1.123   55.9  0.1558   71.3  0.3451 -176.6
 2.300  0.8364  157.5   1.085   54.8  0.1624   71.0  0.3485 -176.7
 2.400  0.8378  156.6   1.047   53.7  0.1690   70.8  0.3519 -176.8
 2.500  0.8362  155.8   1.016   52.6  0.1759   70.5  0.3545 -176.7
 2.600  0.8348  155.0   0.985   51.4  0.1829   70.2  0.3572 -176.7
 2.700  0.8349  154.0   0.958   50.3  0.1901   69.9  0.3607 -176.8
 2.800  0.8352  153.1   0.932   49.2  0.1974   69.6  0.3643 -176.9
 2.900  0.8349  152.2   0.911   48.2  0.2044   69.3  0.3671 -176.8
 3.000  0.8349  151.3   0.890   47.1  0.2115   69.1  0.3700 -176.7
 3.100  0.8341  150.4   0.873   46.2  0.2192   68.6  0.3733 -176.9
 3.200  0.8335  149.4   0.855   45.3  0.2270   68.0  0.3765 -177.1
 3.300  0.8332  148.5   0.838   44.3  0.2348   67.6  0.3798 -177.3
 3.400  0.8331  147.5   0.821   43.3  0.2426   67.1  0.3831 -177.5
 3.500  0.8332  146.6   0.805   42.2  0.2504   66.7  0.3864 -177.7
 3.600  0.8313  145.6   0.794   41.4  0.2578   66.0  0.3893 -178.2
 3.700  0.8297  144.7   0.783   40.6  0.2652   65.4  0.3922 -178.6
 3.800  0.8283  143.7   0.771   39.8  0.2727   64.7  0.3951 -179.1
 3.900  0.8271  142.7   0.761   38.9  0.2802   64.2  0.3980 -179.6
 4.000  0.8262  141.7   0.750   38.0  0.2877   63.6  0.4010 -180.0
 4.100  0.8254  140.7   0.740   37.2  0.2944   62.7  0.4043  179.3
 4.200  0.8249  139.7   0.730   36.4  0.3012   61.9  0.4077  178.6
 4.300  0.8247  138.6   0.720   35.5  0.3081   61.2  0.4112  177.9
 4.400  0.8247  137.6   0.710   34.7  0.3150   60.4  0.4147  177.2
 4.500  0.8250  136.6   0.700   33.8  0.3220   59.7  0.4183  176.5
 4.600  0.8234  135.5   0.689   33.2  0.3279   58.9  0.4208  175.4
 4.700  0.8222  134.4   0.678   32.6  0.3339   58.2  0.4234  174.4
 4.800  0.8212  133.4   0.667   31.9  0.3400   57.5  0.4261  173.3
 4.900  0.8205  132.3   0.657   31.3  0.3461   56.8  0.4290  172.3
 5.000  0.8201  131.2   0.646   30.6  0.3522   56.1  0.4320  171.3
 5.100  0.8179  130.1   0.640   30.1  0.3576   55.4  0.4349  170.4
 5.200  0.8160  129.0   0.634   29.6  0.3631   54.8  0.4380  169.5
 5.300  0.8145  127.9   0.628   29.1  0.3686   54.1  0.4411  168.6
 5.400  0.8132  126.8   0.623   28.6  0.3742   53.5  0.4443  167.7
 5.500  0.8122  125.7   0.617   28.1  0.3798   52.9  0.4477  166.8
 5.600  0.8137  124.8   0.617   27.7  0.3848   52.2  0.4532  165.8
 5.700  0.8154  124.0   0.616   27.3  0.3898   51.4  0.4589  164.8
 5.800  0.8173  123.1   0.616   27.0  0.3949   50.7  0.4648  163.8
 5.900  0.8194  122.3   0.615   26.6  0.4000   50.1  0.4707  162.8
 6.000  0.8216  121.4   0.615   26.2  0.4052   49.4  0.4768  161.9
!
!  f       NFmin   Gammaopt  rn/50
! GHz       dB    MAG  ANG    -
 0.450      1.56  0.48 -179   0.07
 0.900      1.64  0.49 -177   0.08
 1.900      2.22  0.60 -163   0.10
 2.400      2.54  0.62 -155   0.16
!
! (c) 2017  Infineon Technologies AG, Munich