! Infineon Technologies  Discrete & RF Semiconductors
! BFR193F
! VCE =  1.0 V,  IC =  30 mA
! Common Emitter S-Parameters:                            Jan 2017
# GHz  S  MA  R  50
!  f         S11            S21            S12            S22
! GHz     MAG   ANG      MAG   ANG      MAG   ANG      MAG   ANG
 0.010  0.2928  -35.1  58.641  170.7  0.0043   82.6  0.9369  -12.1
 0.020  0.3452  -63.5  56.521  160.9  0.0078   74.8  0.9051  -23.5
 0.030  0.3767  -82.7  52.072  154.7  0.0105   66.2  0.8298  -31.9
 0.040  0.4422  -97.6  48.343  147.4  0.0133   61.2  0.7755  -41.7
 0.050  0.5293 -108.1  45.511  139.1  0.0162   57.9  0.7468  -52.6
 0.060  0.5412 -115.3  42.171  136.3  0.0173   55.0  0.6906  -57.1
 0.070  0.5612 -122.0  38.952  132.9  0.0184   52.5  0.6394  -62.4
 0.080  0.5884 -128.2  35.887  129.0  0.0196   50.3  0.5945  -68.5
 0.090  0.6218 -133.8  33.019  124.4  0.0208   48.4  0.5575  -75.5
 0.100  0.6605 -138.8  30.403  119.0  0.0220   46.6  0.5299  -83.4
 0.110  0.6669 -141.6  28.648  117.5  0.0226   46.2  0.5043  -86.5
 0.120  0.6749 -144.4  26.916  115.8  0.0232   45.7  0.4804  -89.8
 0.130  0.6844 -147.1  25.209  113.9  0.0238   45.3  0.4583  -93.6
 0.140  0.6955 -149.8  23.535  111.7  0.0244   45.0  0.4383  -97.7
 0.150  0.7079 -152.3  21.901  109.2  0.0250   44.6  0.4207 -102.1
 0.200  0.7265 -159.8  16.921  103.3  0.0275   45.1  0.3636 -114.6
 0.250  0.7360 -164.8  13.704   99.4  0.0301   47.6  0.3275 -124.6
 0.300  0.7431 -168.2  11.549   96.5  0.0326   49.1  0.3093 -131.7
 0.350  0.7455 -170.7  10.132   94.6  0.0351   51.7  0.2965 -136.7
 0.400  0.7492 -173.1   8.731   92.0  0.0376   53.9  0.2862 -142.2
 0.450  0.7511 -174.6   7.876   90.7  0.0403   56.1  0.2802 -145.7
 0.500  0.7536 -176.1   7.026   89.0  0.0430   58.0  0.2753 -149.3
 0.600  0.7546 -178.6   5.885   86.4  0.0493   60.6  0.2710 -154.4
 0.700  0.7591  179.1   5.056   84.0  0.0551   62.3  0.2706 -157.7
 0.800  0.7588  177.4   4.427   82.1  0.0615   64.5  0.2710 -161.0
 0.900  0.7620  175.5   3.949   80.1  0.0676   65.8  0.2720 -163.3
 1.000  0.7626  174.2   3.568   78.2  0.0738   66.4  0.2726 -164.9
 1.100  0.7650  172.7   3.249   76.4  0.0799   67.3  0.2765 -166.2
 1.200  0.7651  171.3   2.987   74.7  0.0863   67.7  0.2792 -167.9
 1.300  0.7680  170.0   2.767   73.0  0.0925   68.1  0.2805 -168.6
 1.400  0.7669  169.1   2.583   71.5  0.0994   68.5  0.2836 -169.4
 1.500  0.7687  167.9   2.415   70.0  0.1055   69.1  0.2879 -170.3
 1.600  0.7703  166.6   2.268   68.4  0.1116   68.9  0.2903 -171.2
 1.700  0.7696  165.5   2.140   66.8  0.1179   69.1  0.2929 -171.6
 1.800  0.7708  164.7   2.030   65.4  0.1242   69.0  0.2962 -171.9
 1.900  0.7699  163.8   1.930   64.1  0.1307   69.1  0.2988 -172.2
 2.000  0.7745  162.6   1.845   62.8  0.1369   69.2  0.3022 -172.6
 2.100  0.7724  161.8   1.766   61.6  0.1432   69.1  0.3041 -172.7
 2.200  0.7704  160.9   1.688   60.3  0.1495   69.0  0.3060 -172.8
 2.300  0.7720  160.0   1.627   59.1  0.1559   68.8  0.3090 -173.0
 2.400  0.7738  159.2   1.567   57.9  0.1623   68.7  0.3121 -173.2
 2.500  0.7728  158.4   1.516   56.7  0.1689   68.5  0.3141 -173.1
 2.600  0.7719  157.5   1.466   55.5  0.1755   68.4  0.3162 -173.1
 2.700  0.7726  156.5   1.422   54.3  0.1821   68.1  0.3190 -173.3
 2.800  0.7735  155.6   1.379   53.1  0.1888   67.9  0.3218 -173.4
 2.900  0.7731  154.8   1.345   52.0  0.1954   67.8  0.3240 -173.2
 3.000  0.7728  153.9   1.311   50.9  0.2021   67.7  0.3263 -173.0
 3.100  0.7724  153.0   1.281   49.9  0.2094   67.3  0.3288 -173.2
 3.200  0.7723  152.1   1.252   48.9  0.2168   66.9  0.3313 -173.3
 3.300  0.7723  151.2   1.223   47.8  0.2242   66.5  0.3339 -173.5
 3.400  0.7725  150.3   1.194   46.7  0.2315   66.1  0.3364 -173.6
 3.500  0.7729  149.4   1.166   45.5  0.2389   65.8  0.3389 -173.8
 3.600  0.7716  148.5   1.146   44.6  0.2459   65.2  0.3412 -174.1
 3.700  0.7704  147.5   1.127   43.6  0.2528   64.7  0.3436 -174.5
 3.800  0.7695  146.6   1.107   42.6  0.2598   64.2  0.3459 -174.8
 3.900  0.7688  145.6   1.089   41.6  0.2669   63.7  0.3483 -175.2
 4.000  0.7683  144.7   1.070   40.5  0.2739   63.2  0.3507 -175.5
 4.100  0.7686  143.7   1.053   39.5  0.2804   62.5  0.3538 -176.1
 4.200  0.7691  142.8   1.037   38.5  0.2870   61.8  0.3569 -176.8
 4.300  0.7699  141.8   1.020   37.5  0.2936   61.1  0.3601 -177.4
 4.400  0.7708  140.9   1.005   36.4  0.3003   60.5  0.3633 -178.0
 4.500  0.7720  139.9   0.989   35.3  0.3070   59.9  0.3666 -178.6
 4.600  0.7714  138.8   0.971   34.5  0.3128   59.2  0.3690 -179.6
 4.700  0.7710  137.8   0.954   33.7  0.3186   58.6  0.3715  179.4
 4.800  0.7709  136.7   0.936   32.8  0.3245   58.0  0.3741  178.5
 4.900  0.7711  135.7   0.919   31.9  0.3304   57.4  0.3768  177.5
 5.000  0.7715  134.6   0.902   31.0  0.3363   56.8  0.3796  176.6
 5.100  0.7706  133.5   0.891   30.3  0.3417   56.2  0.3827  175.7
 5.200  0.7700  132.5   0.879   29.6  0.3472   55.5  0.3858  174.8
 5.300  0.7696  131.4   0.868   28.9  0.3527   54.9  0.3890  173.9
 5.400  0.7695  130.4   0.857   28.2  0.3583   54.4  0.3924  173.1
 5.500  0.7697  129.3   0.846   27.4  0.3639   53.8  0.3958  172.2
 5.600  0.7723  128.4   0.842   26.8  0.3689   53.1  0.4013  171.2
 5.700  0.7751  127.5   0.837   26.2  0.3740   52.5  0.4070  170.2
 5.800  0.7782  126.6   0.833   25.6  0.3792   51.8  0.4127  169.2
 5.900  0.7813  125.8   0.829   24.9  0.3844   51.2  0.4186  168.3
 6.000  0.7847  124.9   0.825   24.3  0.3896   50.6  0.4246  167.4
!
!  f       NFmin   Gammaopt  rn/50
! GHz       dB    MAG  ANG    -
 0.450      1.18  0.39  176   0.06
 0.900      1.27  0.42  176   0.07
 1.900      1.84  0.57 -168   0.07
 2.400      2.13  0.61 -159   0.11
!
! (c) 2017  Infineon Technologies AG, Munich