! Infineon Technologies  Discrete & RF Semiconductors
! BFR193F
! VCE =  5.0 V,  IC = 0.10 A
! Common Emitter S-Parameters:                            Jan 2017
# GHz  S  MA  R  50
!  f         S11            S21            S12            S22
! GHz     MAG   ANG      MAG   ANG      MAG   ANG      MAG   ANG
 0.010  0.1711 -105.9  77.206  167.5  0.0028   80.6  0.8185  -12.6
 0.020  0.3171 -117.1  72.404  155.2  0.0049   66.0  0.7749  -25.3
 0.030  0.3946 -127.9  64.514  148.8  0.0063   61.4  0.6892  -32.4
 0.040  0.4812 -134.9  57.651  140.7  0.0077   58.4  0.6169  -41.3
 0.050  0.5730 -139.8  52.221  130.7  0.0091   56.4  0.5632  -52.3
 0.060  0.5915 -144.0  47.834  128.3  0.0097   55.6  0.5158  -55.1
 0.070  0.6129 -147.9  43.549  125.4  0.0102   54.9  0.4699  -58.5
 0.080  0.6369 -151.5  39.399  121.9  0.0108   54.2  0.4259  -62.6
 0.090  0.6633 -154.8  35.431  117.6  0.0113   53.6  0.3847  -67.6
 0.100  0.6918 -157.9  31.714  112.2  0.0119   53.1  0.3471  -73.8
 0.110  0.6981 -159.5  29.769  111.0  0.0124   53.4  0.3270  -75.5
 0.120  0.7049 -161.0  27.838  109.7  0.0129   53.6  0.3073  -77.4
 0.130  0.7122 -162.6  25.925  108.1  0.0134   53.9  0.2879  -79.5
 0.140  0.7200 -164.0  24.034  106.3  0.0139   54.1  0.2690  -82.0
 0.150  0.7283 -165.5  22.171  104.2  0.0144   54.3  0.2507  -84.8
 0.200  0.7405 -169.8  16.895   99.3  0.0166   58.7  0.2001  -91.4
 0.250  0.7484 -173.0  13.600   96.3  0.0197   62.5  0.1661  -97.3
 0.300  0.7513 -175.1  11.434   93.9  0.0221   64.8  0.1482 -101.7
 0.350  0.7528 -176.6  10.014   92.4  0.0248   67.1  0.1357 -104.9
 0.400  0.7549 -178.1   8.603   90.3  0.0276   68.9  0.1238 -108.7
 0.450  0.7562 -179.2   7.759   89.1  0.0303   70.4  0.1182 -111.3
 0.500  0.7578  179.8   6.919   87.7  0.0331   71.6  0.1128 -114.2
 0.600  0.7605  177.7   5.786   85.3  0.0390   72.9  0.1083 -118.9
 0.700  0.7621  175.9   4.976   83.2  0.0449   74.6  0.1082 -122.3
 0.800  0.7612  174.8   4.360   81.5  0.0504   75.6  0.1079 -125.9
 0.900  0.7644  173.1   3.893   79.6  0.0563   76.5  0.1099 -128.4
 1.000  0.7649  172.1   3.517   77.9  0.0624   76.4  0.1137 -129.5
 1.100  0.7674  170.7   3.206   76.1  0.0682   76.8  0.1190 -131.5
 1.200  0.7685  169.4   2.949   74.5  0.0742   77.0  0.1228 -133.8
 1.300  0.7690  168.3   2.730   72.9  0.0804   77.3  0.1270 -134.4
 1.400  0.7700  167.4   2.550   71.4  0.0864   77.6  0.1332 -135.2
 1.500  0.7702  166.4   2.386   69.9  0.0923   77.5  0.1399 -136.7
 1.600  0.7739  165.2   2.240   68.3  0.0983   77.6  0.1445 -137.9
 1.700  0.7711  164.1   2.114   66.8  0.1041   77.3  0.1506 -138.3
 1.800  0.7744  163.4   2.007   65.4  0.1100   77.6  0.1572 -138.8
 1.900  0.7732  162.6   1.908   64.1  0.1170   77.2  0.1629 -139.3
 2.000  0.7761  161.5   1.823   62.7  0.1222   77.1  0.1698 -140.2
 2.100  0.7744  160.7   1.745   61.5  0.1284   76.9  0.1758 -140.4
 2.200  0.7729  159.8   1.668   60.1  0.1347   76.8  0.1818 -140.6
 2.300  0.7748  158.9   1.606   59.0  0.1409   76.6  0.1878 -141.1
 2.400  0.7769  158.1   1.545   57.8  0.1471   76.4  0.1939 -141.5
 2.500  0.7755  157.3   1.494   56.6  0.1534   76.1  0.1998 -141.4
 2.600  0.7742  156.4   1.443   55.4  0.1597   75.8  0.2057 -141.4
 2.700  0.7746  155.6   1.399   54.2  0.1663   75.6  0.2115 -141.9
 2.800  0.7752  154.8   1.355   53.0  0.1729   75.4  0.2174 -142.4
 2.900  0.7756  153.9   1.320   51.9  0.1791   75.1  0.2234 -142.3
 3.000  0.7761  153.0   1.286   50.8  0.1854   74.9  0.2295 -142.2
 3.100  0.7758  152.1   1.256   49.8  0.1927   74.5  0.2349 -142.6
 3.200  0.7757  151.2   1.226   48.8  0.2000   74.1  0.2404 -143.0
 3.300  0.7757  150.4   1.197   47.7  0.2073   73.7  0.2458 -143.3
 3.400  0.7760  149.5   1.168   46.6  0.2146   73.3  0.2512 -143.7
 3.500  0.7764  148.6   1.140   45.4  0.2219   73.0  0.2567 -144.0
 3.600  0.7751  147.6   1.120   44.5  0.2290   72.5  0.2612 -144.6
 3.700  0.7740  146.7   1.099   43.6  0.2360   72.0  0.2657 -145.2
 3.800  0.7731  145.7   1.080   42.6  0.2432   71.5  0.2703 -145.8
 3.900  0.7724  144.8   1.060   41.6  0.2503   71.0  0.2749 -146.4
 4.000  0.7720  143.8   1.041   40.6  0.2574   70.6  0.2795 -146.9
 4.100  0.7722  142.9   1.023   39.7  0.2642   69.9  0.2845 -147.9
 4.200  0.7727  141.9   1.006   38.7  0.2711   69.2  0.2895 -148.9
 4.300  0.7733  141.0   0.989   37.7  0.2781   68.5  0.2946 -149.8
 4.400  0.7741  140.0   0.972   36.7  0.2850   67.9  0.2998 -150.7
 4.500  0.7752  139.1   0.956   35.6  0.2920   67.3  0.3051 -151.6
 4.600  0.7745  138.0   0.939   34.8  0.2985   66.6  0.3085 -153.0
 4.700  0.7741  136.9   0.921   34.1  0.3050   65.9  0.3120 -154.4
 4.800  0.7740  135.8   0.904   33.2  0.3116   65.3  0.3157 -155.8
 4.900  0.7742  134.7   0.888   32.4  0.3182   64.7  0.3196 -157.1
 5.000  0.7747  133.6   0.871   31.5  0.3249   64.1  0.3237 -158.4
 5.100  0.7736  132.5   0.860   30.9  0.3311   63.4  0.3275 -159.7
 5.200  0.7728  131.5   0.848   30.2  0.3373   62.7  0.3314 -160.9
 5.300  0.7723  130.4   0.837   29.5  0.3435   62.0  0.3354 -162.1
 5.400  0.7720  129.4   0.826   28.8  0.3499   61.4  0.3397 -163.3
 5.500  0.7720  128.3   0.815   28.1  0.3562   60.8  0.3440 -164.4
 5.600  0.7743  127.4   0.810   27.6  0.3617   60.1  0.3498 -165.8
 5.700  0.7768  126.6   0.806   27.0  0.3672   59.3  0.3558 -167.2
 5.800  0.7795  125.7   0.802   26.4  0.3728   58.6  0.3620 -168.5
 5.900  0.7823  124.8   0.797   25.9  0.3785   58.0  0.3683 -169.8
 6.000  0.7853  124.0   0.793   25.3  0.3842   57.3  0.3749 -171.0
!
!  f       NFmin   Gammaopt  rn/50
! GHz       dB    MAG  ANG    -
!
! noise parameter not available yet for this operation point!
!
! (c) 2017  Infineon Technologies AG, Munich