! Infineon Technologies  Discrete & RF Semiconductors
! BFR193F
! VCE =  5.0 V,  IC =  25 mA
! Common Emitter S-Parameters:                            Jan 2017
# GHz  S  MA  R  50
!  f         S11            S21            S12            S22
! GHz     MAG   ANG      MAG   ANG      MAG   ANG      MAG   ANG
 0.010  0.4265  -16.7  53.760  173.4  0.0029   83.4  0.9710   -7.2
 0.020  0.4326  -33.9  52.412  166.5  0.0062   79.6  0.9535  -14.0
 0.030  0.4306  -48.2  50.102  161.2  0.0086   73.0  0.9091  -19.8
 0.040  0.4546  -61.8  48.253  155.5  0.0110   69.3  0.8749  -26.1
 0.050  0.5010  -73.4  46.921  149.4  0.0135   67.0  0.8522  -32.9
 0.060  0.4968  -81.7  44.280  146.3  0.0148   63.2  0.8030  -36.4
 0.070  0.5031  -90.0  41.788  142.7  0.0161   60.0  0.7572  -40.3
 0.080  0.5195  -97.9  39.476  138.8  0.0175   57.3  0.7153  -44.7
 0.090  0.5452 -105.2  37.375  134.3  0.0190   55.1  0.6782  -49.6
 0.100  0.5789 -111.8  35.523  129.4  0.0204   53.1  0.6465  -55.0
 0.110  0.5824 -116.1  33.750  127.6  0.0212   52.2  0.6148  -57.2
 0.120  0.5890 -120.3  32.016  125.5  0.0221   51.3  0.5842  -59.7
 0.130  0.5988 -124.3  30.327  123.3  0.0229   50.5  0.5547  -62.4
 0.140  0.6114 -128.3  28.691  120.7  0.0238   49.7  0.5266  -65.4
 0.150  0.6268 -132.0  27.118  117.9  0.0246   49.0  0.5002  -68.8
 0.200  0.6506 -143.5  21.552  110.4  0.0274   46.4  0.4060  -77.9
 0.250  0.6598 -151.7  17.724  105.5  0.0294   47.3  0.3380  -85.0
 0.300  0.6699 -156.8  15.055  101.9  0.0317   49.7  0.2949  -90.7
 0.350  0.6723 -160.5  13.262   99.6  0.0339   50.7  0.2645  -94.7
 0.400  0.6776 -164.2  11.497   96.5  0.0361   51.6  0.2356  -99.6
 0.450  0.6799 -166.7  10.388   94.8  0.0384   53.4  0.2183 -102.9
 0.500  0.6835 -169.1   9.289   92.8  0.0408   55.0  0.2018 -106.7
 0.600  0.6869 -172.7   7.795   89.8  0.0451   58.1  0.1814 -112.7
 0.700  0.6903 -175.6   6.707   87.2  0.0501   60.6  0.1696 -117.7
 0.800  0.6909 -177.8   5.873   85.1  0.0551   62.5  0.1608 -122.6
 0.900  0.6951 -179.9   5.244   83.0  0.0599   63.6  0.1561 -126.2
 1.000  0.6945  178.2   4.732   81.1  0.0657   65.3  0.1537 -129.0
 1.100  0.6974  176.6   4.310   79.2  0.0707   66.3  0.1540 -131.8
 1.200  0.7003  175.0   3.960   77.5  0.0761   67.0  0.1535 -134.8
 1.300  0.7025  173.6   3.666   75.9  0.0818   67.9  0.1540 -136.3
 1.400  0.7017  172.3   3.418   74.3  0.0872   68.6  0.1570 -137.7
 1.500  0.7057  171.1   3.194   72.7  0.0926   68.9  0.1596 -139.8
 1.600  0.7073  169.7   2.996   71.1  0.0982   69.1  0.1619 -141.2
 1.700  0.7060  168.6   2.824   69.6  0.1037   69.7  0.1649 -142.0
 1.800  0.7098  167.7   2.677   68.2  0.1089   70.0  0.1692 -143.0
 1.900  0.7084  166.7   2.541   67.0  0.1149   70.1  0.1726 -143.6
 2.000  0.7115  165.4   2.423   65.6  0.1200   70.5  0.1766 -144.3
 2.100  0.7112  164.5   2.317   64.4  0.1258   70.6  0.1800 -144.6
 2.200  0.7111  163.6   2.212   63.0  0.1317   70.6  0.1834 -144.8
 2.300  0.7125  162.7   2.128   61.8  0.1373   70.7  0.1875 -145.2
 2.400  0.7141  161.8   2.045   60.6  0.1430   70.7  0.1917 -145.5
 2.500  0.7136  161.1   1.974   59.4  0.1488   70.6  0.1956 -145.4
 2.600  0.7132  160.3   1.903   58.2  0.1546   70.6  0.1995 -145.3
 2.700  0.7140  159.3   1.843   57.0  0.1608   70.6  0.2035 -145.7
 2.800  0.7149  158.4   1.784   55.8  0.1670   70.6  0.2076 -146.0
 2.900  0.7153  157.5   1.735   54.7  0.1726   70.5  0.2118 -145.6
 3.000  0.7159  156.6   1.687   53.5  0.1782   70.4  0.2160 -145.3
 3.100  0.7162  155.7   1.645   52.5  0.1850   70.2  0.2200 -145.5
 3.200  0.7166  154.9   1.604   51.5  0.1917   70.0  0.2241 -145.6
 3.300  0.7172  154.0   1.564   50.4  0.1985   69.8  0.2281 -145.8
 3.400  0.7179  153.2   1.524   49.2  0.2052   69.6  0.2322 -146.0
 3.500  0.7188  152.3   1.485   48.0  0.2120   69.4  0.2362 -146.1
 3.600  0.7181  151.4   1.457   47.1  0.2186   69.0  0.2397 -146.5
 3.700  0.7176  150.4   1.428   46.1  0.2252   68.6  0.2431 -146.8
 3.800  0.7173  149.5   1.401   45.1  0.2318   68.3  0.2466 -147.1
 3.900  0.7171  148.5   1.374   44.0  0.2384   67.9  0.2501 -147.5
 4.000  0.7172  147.6   1.347   42.9  0.2450   67.6  0.2536 -147.8
 4.100  0.7181  146.7   1.323   41.9  0.2514   67.0  0.2578 -148.6
 4.200  0.7191  145.8   1.300   40.9  0.2578   66.5  0.2621 -149.4
 4.300  0.7204  145.0   1.277   39.8  0.2643   66.0  0.2665 -150.2
 4.400  0.7217  144.1   1.255   38.7  0.2707   65.6  0.2709 -150.9
 4.500  0.7233  143.2   1.233   37.5  0.2772   65.1  0.2753 -151.6
 4.600  0.7234  142.1   1.209   36.6  0.2834   64.5  0.2781 -152.9
 4.700  0.7238  141.0   1.186   35.7  0.2895   64.0  0.2811 -154.2
 4.800  0.7245  140.0   1.162   34.8  0.2957   63.5  0.2842 -155.4
 4.900  0.7254  138.9   1.140   33.8  0.3020   63.0  0.2874 -156.6
 5.000  0.7266  137.8   1.117   32.8  0.3082   62.5  0.2908 -157.8
 5.100  0.7267  136.7   1.101   32.0  0.3142   61.9  0.2942 -159.0
 5.200  0.7270  135.7   1.086   31.3  0.3201   61.3  0.2977 -160.1
 5.300  0.7276  134.6   1.070   30.5  0.3262   60.8  0.3013 -161.2
 5.400  0.7284  133.6   1.055   29.6  0.3322   60.2  0.3050 -162.3
 5.500  0.7295  132.5   1.040   28.8  0.3383   59.7  0.3088 -163.3
 5.600  0.7328  131.6   1.032   28.1  0.3438   59.0  0.3143 -164.6
 5.700  0.7364  130.7   1.024   27.4  0.3494   58.4  0.3199 -165.9
 5.800  0.7401  129.8   1.017   26.7  0.3550   57.8  0.3258 -167.2
 5.900  0.7440  129.0   1.009   25.9  0.3606   57.2  0.3317 -168.3
 6.000  0.7480  128.1   1.002   25.2  0.3663   56.6  0.3378 -169.5
!
!  f       NFmin   Gammaopt  rn/50
! GHz       dB    MAG  ANG    -
 0.450      1.11  0.36  173   0.06
 0.900      1.19  0.41  174   0.06
 1.900      1.77  0.57 -169   0.07
 2.400      2.06  0.61 -160   0.11
!
! (c) 2017  Infineon Technologies AG, Munich