! Infineon Technologies  Discrete & RF Semiconductors
! BFR193F
! VCE =  1.0 V,  IC =  16 mA
! Common Emitter S-Parameters:                            Jan 2017
# GHz  S  MA  R  50
!  f         S11            S21            S12            S22
! GHz     MAG   ANG      MAG   ANG      MAG   ANG      MAG   ANG
 0.010  0.5178  -16.0  41.142  173.7  0.0044   86.1  0.9708   -8.2
 0.020  0.5165  -32.4  40.146  166.6  0.0090   79.9  0.9520  -16.0
 0.030  0.5101  -46.1  38.340  161.2  0.0127   71.0  0.9050  -22.6
 0.040  0.5327  -59.4  36.907  155.3  0.0166   66.3  0.8712  -29.8
 0.050  0.5808  -71.0  35.894  149.0  0.0206   63.3  0.8522  -37.5
 0.060  0.5709  -79.3  33.851  145.8  0.0225   59.5  0.8012  -41.6
 0.070  0.5731  -87.6  31.925  142.3  0.0245   56.3  0.7548  -46.3
 0.080  0.5874  -95.8  30.138  138.3  0.0265   53.6  0.7141  -51.5
 0.090  0.6128 -103.4  28.516  133.8  0.0286   51.3  0.6799  -57.3
 0.100  0.6481 -110.3  27.088  128.8  0.0307   49.3  0.6534  -63.6
 0.110  0.6494 -114.6  25.725  127.0  0.0318   47.9  0.6222  -66.4
 0.120  0.6543 -118.8  24.392  124.9  0.0330   46.7  0.5926  -69.6
 0.130  0.6628 -123.0  23.094  122.6  0.0341   45.5  0.5650  -73.0
 0.140  0.6746 -127.0  21.837  120.1  0.0353   44.4  0.5397  -76.8
 0.150  0.6897 -130.9  20.628  117.2  0.0365   43.4  0.5169  -80.9
 0.200  0.7113 -142.9  16.367  109.7  0.0398   39.5  0.4327  -93.0
 0.250  0.7192 -151.0  13.437  104.7  0.0416   39.4  0.3732 -102.8
 0.300  0.7276 -156.6  11.414  101.0  0.0438   39.6  0.3380 -110.4
 0.350  0.7298 -160.4  10.045   98.6  0.0457   41.1  0.3129 -115.9
 0.400  0.7352 -164.1   8.699   95.4  0.0477   42.4  0.2911 -122.3
 0.450  0.7359 -166.6   7.859   93.7  0.0496   43.8  0.2785 -126.4
 0.500  0.7379 -169.0   7.028   91.7  0.0516   45.0  0.2675 -130.9
 0.600  0.7413 -172.7   5.897   88.5  0.0563   47.8  0.2548 -137.5
 0.700  0.7462 -175.8   5.076   85.8  0.0605   50.5  0.2488 -142.4
 0.800  0.7442 -178.1   4.445   83.6  0.0657   52.5  0.2453 -146.7
 0.900  0.7489  179.6   3.973   81.3  0.0703   54.4  0.2437 -149.8
 1.000  0.7485  177.9   3.585   79.3  0.0759   56.3  0.2436 -152.2
 1.100  0.7503  176.1   3.265   77.3  0.0806   57.7  0.2462 -154.3
 1.200  0.7535  174.4   3.004   75.4  0.0865   59.3  0.2476 -156.4
 1.300  0.7564  173.0   2.783   73.6  0.0919   59.8  0.2490 -157.6
 1.400  0.7556  171.8   2.596   71.9  0.0969   60.9  0.2520 -158.6
 1.500  0.7575  170.4   2.427   70.3  0.1028   61.8  0.2562 -160.0
 1.600  0.7580  169.2   2.279   68.6  0.1081   62.4  0.2587 -161.1
 1.700  0.7571  167.8   2.150   67.0  0.1135   62.8  0.2618 -161.7
 1.800  0.7595  167.0   2.040   65.5  0.1199   63.4  0.2657 -162.2
 1.900  0.7598  165.9   1.939   64.1  0.1252   63.8  0.2691 -162.5
 2.000  0.7622  164.8   1.852   62.7  0.1309   64.3  0.2732 -163.1
 2.100  0.7607  163.8   1.773   61.4  0.1367   64.6  0.2761 -163.3
 2.200  0.7594  162.8   1.695   60.0  0.1425   64.9  0.2790 -163.4
 2.300  0.7616  161.9   1.633   58.8  0.1485   65.1  0.2829 -163.7
 2.400  0.7639  161.0   1.571   57.5  0.1546   65.3  0.2868 -164.0
 2.500  0.7629  160.2   1.519   56.3  0.1608   65.4  0.2901 -164.0
 2.600  0.7620  159.3   1.468   55.1  0.1670   65.5  0.2933 -164.0
 2.700  0.7627  158.3   1.423   53.9  0.1732   65.6  0.2970 -164.2
 2.800  0.7636  157.3   1.378   52.6  0.1794   65.6  0.3008 -164.4
 2.900  0.7644  156.4   1.344   51.5  0.1857   65.6  0.3042 -164.2
 3.000  0.7653  155.5   1.310   50.3  0.1920   65.6  0.3077 -164.1
 3.100  0.7650  154.6   1.280   49.3  0.1991   65.4  0.3113 -164.3
 3.200  0.7649  153.7   1.250   48.3  0.2063   65.2  0.3149 -164.5
 3.300  0.7649  152.8   1.220   47.2  0.2134   65.0  0.3185 -164.7
 3.400  0.7652  151.9   1.191   46.0  0.2206   64.9  0.3222 -164.9
 3.500  0.7656  151.0   1.163   44.8  0.2277   64.7  0.3258 -165.1
 3.600  0.7647  150.0   1.143   43.9  0.2346   64.3  0.3291 -165.5
 3.700  0.7641  149.0   1.122   42.9  0.2415   63.9  0.3324 -166.0
 3.800  0.7637  148.1   1.103   41.9  0.2485   63.5  0.3358 -166.4
 3.900  0.7635  147.1   1.083   40.9  0.2554   63.1  0.3391 -166.8
 4.000  0.7635  146.1   1.064   39.8  0.2624   62.8  0.3425 -167.2
 4.100  0.7641  145.1   1.047   38.8  0.2690   62.2  0.3465 -168.0
 4.200  0.7649  144.2   1.030   37.8  0.2757   61.6  0.3506 -168.7
 4.300  0.7659  143.2   1.013   36.8  0.2824   61.1  0.3548 -169.4
 4.400  0.7672  142.3   0.997   35.7  0.2891   60.6  0.3590 -170.1
 4.500  0.7686  141.3   0.981   34.6  0.2958   60.1  0.3632 -170.8
 4.600  0.7682  140.2   0.963   33.8  0.3020   59.5  0.3662 -171.9
 4.700  0.7681  139.1   0.945   32.9  0.3082   58.9  0.3693 -173.0
 4.800  0.7683  137.9   0.927   32.1  0.3145   58.4  0.3725 -174.0
 4.900  0.7687  136.8   0.909   31.1  0.3208   57.8  0.3759 -175.1
 5.000  0.7695  135.7   0.892   30.2  0.3271   57.3  0.3794 -176.1
 5.100  0.7688  134.6   0.880   29.5  0.3328   56.7  0.3830 -177.1
 5.200  0.7684  133.5   0.869   28.9  0.3386   56.1  0.3866 -178.0
 5.300  0.7682  132.5   0.857   28.2  0.3444   55.6  0.3904 -179.0
 5.400  0.7683  131.4   0.846   27.4  0.3502   55.0  0.3943 -179.9
 5.500  0.7687  130.3   0.835   26.7  0.3561   54.5  0.3983  179.2
 5.600  0.7713  129.4   0.831   26.1  0.3613   53.8  0.4043  178.0
 5.700  0.7741  128.4   0.826   25.5  0.3666   53.2  0.4104  176.9
 5.800  0.7771  127.5   0.822   24.9  0.3719   52.6  0.4167  175.8
 5.900  0.7803  126.6   0.818   24.3  0.3773   52.0  0.4231  174.7
 6.000  0.7837  125.7   0.814   23.7  0.3827   51.4  0.4297  173.7
!
!  f       NFmin   Gammaopt  rn/50
! GHz       dB    MAG  ANG    -
 0.450      0.97  0.28  157   0.06
 0.900      1.06  0.38  161   0.06
 1.900      1.70  0.58 -173   0.06
 2.400      2.00  0.61 -163   0.09
!
! (c) 2017  Infineon Technologies AG, Munich