! Infineon Technologies  Discrete & RF Semiconductors
! BFR193F
! VCE =  1.0 V,  IC = 0.11 A
! Common Emitter S-Parameters:                            Jan 2017
# GHz  S  MA  R  50
!  f         S11            S21            S12            S22
! GHz     MAG   ANG      MAG   ANG      MAG   ANG      MAG   ANG
 0.010  0.5218 -154.3  41.554  153.4  0.0052   58.9  0.3404  -61.3
 0.020  0.7031 -156.8  32.923  134.1  0.0083   51.1  0.3814  -98.9
 0.030  0.7526 -160.9  27.233  129.3  0.0095   46.7  0.3694 -114.0
 0.040  0.8055 -164.5  21.836  122.0  0.0107   43.2  0.3837 -129.0
 0.050  0.8611 -167.6  17.011  110.3  0.0119   40.5  0.4215 -142.1
 0.060  0.8673 -169.0  15.370  108.9  0.0124   41.4  0.4198 -145.9
 0.070  0.8741 -170.5  13.740  107.2  0.0129   42.3  0.4200 -149.7
 0.080  0.8814 -171.9  12.127  105.0  0.0133   43.1  0.4220 -153.5
 0.090  0.8892 -173.2  10.536  102.1  0.0138   43.9  0.4259 -157.2
 0.100  0.8975 -174.6   8.982   98.2  0.0143   44.6  0.4315 -160.9
 0.110  0.9003 -175.1   8.394   97.5  0.0149   46.6  0.4321 -162.2
 0.120  0.9031 -175.7   7.808   96.6  0.0155   48.5  0.4330 -163.4
 0.130  0.9060 -176.2   7.224   95.7  0.0161   50.2  0.4340 -164.6
 0.140  0.9090 -176.7   6.643   94.6  0.0168   51.7  0.4353 -165.9
 0.150  0.9121 -177.2   6.064   93.2  0.0174   53.2  0.4367 -167.1
 0.200  0.9088 -179.0   4.546   89.7  0.0208   57.8  0.4358 -170.1
 0.250  0.9125  179.6   3.640   87.3  0.0245   62.5  0.4369 -172.6
 0.300  0.9114  178.7   3.043   85.2  0.0279   65.8  0.4384 -173.8
 0.350  0.9113  177.7   2.663   83.5  0.0320   67.8  0.4389 -174.8
 0.400  0.9114  176.7   2.286   81.3  0.0361   69.4  0.4395 -175.8
 0.450  0.9115  176.0   2.061   79.9  0.0398   70.5  0.4402 -176.4
 0.500  0.9118  175.4   1.838   78.1  0.0435   71.5  0.4410 -176.9
 0.600  0.9110  174.0   1.544   75.1  0.0510   72.5  0.4452 -177.7
 0.700  0.9141  172.4   1.331   72.2  0.0590   73.5  0.4480 -178.3
 0.800  0.9099  171.3   1.170   69.8  0.0664   73.8  0.4535 -179.0
 0.900  0.9143  170.0   1.050   67.0  0.0745   74.3  0.4572 -179.4
 1.000  0.9131  168.9   0.953   64.7  0.0823   74.5  0.4608 -179.8
 1.100  0.9138  167.6   0.873   62.3  0.0900   74.6  0.4666  179.9
 1.200  0.9136  166.5   0.807   60.1  0.0977   74.4  0.4714  179.3
 1.300  0.9154  165.3   0.754   58.1  0.1056   74.2  0.4751  179.1
 1.400  0.9136  164.4   0.709   56.3  0.1132   74.1  0.4803  178.8
 1.500  0.9152  163.3   0.667   54.5  0.1207   73.9  0.4860  178.5
 1.600  0.9158  162.2   0.630   52.8  0.1283   73.5  0.4909  177.9
 1.700  0.9115  161.1   0.599   51.2  0.1364   73.0  0.4947  177.6
 1.800  0.9116  160.2   0.572   49.9  0.1439   72.8  0.5000  177.4
 1.900  0.9111  159.3   0.548   48.7  0.1516   72.3  0.5044  177.2
 2.000  0.9147  158.2   0.529   47.6  0.1595   72.1  0.5102  176.8
 2.100  0.9114  157.3   0.510   46.7  0.1670   71.6  0.5136  176.5
 2.200  0.9083  156.4   0.492   45.8  0.1745   71.2  0.5171  176.2
 2.300  0.9095  155.5   0.478   45.2  0.1825   70.8  0.5219  175.8
 2.400  0.9110  154.6   0.465   44.5  0.1906   70.4  0.5268  175.4
 2.500  0.9091  153.7   0.455   43.9  0.1983   69.9  0.5299  175.1
 2.600  0.9074  152.8   0.445   43.3  0.2061   69.5  0.5331  174.9
 2.700  0.9062  151.8   0.436   42.9  0.2144   69.0  0.5378  174.4
 2.800  0.9053  150.8   0.427   42.5  0.2227   68.5  0.5425  174.0
 2.900  0.9055  149.8   0.421   42.3  0.2307   68.0  0.5461  173.6
 3.000  0.9060  148.8   0.416   42.1  0.2388   67.5  0.5498  173.3
 3.100  0.9042  147.8   0.413   41.9  0.2475   66.7  0.5533  172.7
 3.200  0.9027  146.8   0.410   41.7  0.2563   66.0  0.5569  172.1
 3.300  0.9014  145.8   0.406   41.6  0.2651   65.3  0.5605  171.5
 3.400  0.9004  144.8   0.403   41.4  0.2739   64.6  0.5642  170.9
 3.500  0.8997  143.8   0.400   41.2  0.2828   64.0  0.5680  170.3
 3.600  0.8965  142.7   0.400   41.2  0.2907   63.0  0.5702  169.4
 3.700  0.8935  141.7   0.401   41.2  0.2986   62.1  0.5726  168.5
 3.800  0.8909  140.6   0.401   41.2  0.3067   61.3  0.5752  167.6
 3.900  0.8887  139.5   0.402   41.2  0.3147   60.5  0.5778  166.8
 4.000  0.8867  138.4   0.402   41.2  0.3229   59.7  0.5806  165.9
 4.100  0.8843  137.3   0.403   40.9  0.3296   58.6  0.5822  164.8
 4.200  0.8822  136.3   0.404   40.7  0.3364   57.6  0.5839  163.8
 4.300  0.8803  135.2   0.404   40.4  0.3432   56.6  0.5858  162.8
 4.400  0.8788  134.2   0.405   40.2  0.3502   55.7  0.5880  161.7
 4.500  0.8776  133.1   0.406   39.9  0.3573   54.8  0.5903  160.7
 4.600  0.8741  132.0   0.406   39.7  0.3623   53.9  0.5898  159.5
 4.700  0.8710  130.9   0.405   39.5  0.3675   53.0  0.5896  158.3
 4.800  0.8681  129.8   0.405   39.4  0.3727   52.1  0.5897  157.1
 4.900  0.8656  128.7   0.404   39.2  0.3780   51.3  0.5900  155.9
 5.000  0.8634  127.6   0.404   39.0  0.3834   50.5  0.5906  154.7
 5.100  0.8601  126.5   0.407   38.8  0.3878   49.7  0.5907  153.7
 5.200  0.8571  125.4   0.409   38.5  0.3923   49.0  0.5909  152.8
 5.300  0.8545  124.3   0.412   38.3  0.3968   48.3  0.5914  151.8
 5.400  0.8521  123.2   0.414   38.0  0.4014   47.6  0.5919  150.9
 5.500  0.8501  122.1   0.417   37.8  0.4061   46.9  0.5927  149.9
 5.600  0.8494  121.2   0.424   37.6  0.4103   46.1  0.5959  148.9
 5.700  0.8489  120.4   0.430   37.3  0.4145   45.4  0.5992  148.0
 5.800  0.8486  119.5   0.437   37.1  0.4189   44.6  0.6027  147.0
 5.900  0.8485  118.7   0.443   36.9  0.4232   43.9  0.6063  146.1
 6.000  0.8486  117.8   0.450   36.7  0.4277   43.2  0.6101  145.2
!
!  f       NFmin   Gammaopt  rn/50
! GHz       dB    MAG  ANG    -
!
! noise parameter not available yet for this operation point!
!
! (c) 2017  Infineon Technologies AG, Munich