! Infineon Technologies  Discrete & RF Semiconductors
! BFR193F
! VCE =  11. V,  IC =  5.0 mA
! Common Emitter S-Parameters:                            Jan 2017
# GHz  S  MA  R  50
!  f         S11            S21            S12            S22
! GHz     MAG   ANG      MAG   ANG      MAG   ANG      MAG   ANG
 0.010  0.8512   -4.4  16.086  177.7  0.0036   87.5  0.9914   -2.2
 0.020  0.8268  -10.2  15.819  174.5  0.0072   85.3  0.9877   -4.3
 0.030  0.8274  -14.8  15.749  171.9  0.0106   80.5  0.9816   -6.3
 0.040  0.8332  -19.3  15.710  169.4  0.0140   78.1  0.9767   -8.4
 0.050  0.8442  -23.8  15.703  166.8  0.0175   76.6  0.9731  -10.5
 0.060  0.8306  -28.1  15.459  164.4  0.0204   73.8  0.9594  -12.3
 0.070  0.8219  -32.5  15.242  161.9  0.0234   71.8  0.9467  -14.2
 0.080  0.8180  -37.0  15.055  159.4  0.0264   70.2  0.9350  -16.1
 0.090  0.8192  -41.5  14.899  156.8  0.0295   68.9  0.9243  -18.0
 0.100  0.8254  -45.9  14.774  154.1  0.0325   67.9  0.9148  -20.0
 0.110  0.8137  -49.7  14.464  152.1  0.0348   65.6  0.8982  -21.4
 0.120  0.8056  -53.6  14.171  150.1  0.0372   63.6  0.8821  -22.9
 0.130  0.8013  -57.6  13.897  147.9  0.0396   61.8  0.8667  -24.5
 0.140  0.8009  -61.5  13.644  145.7  0.0420   60.2  0.8519  -26.1
 0.150  0.8043  -65.5  13.412  143.4  0.0445   58.8  0.8378  -27.7
 0.200  0.7925  -81.7  12.128  134.3  0.0532   51.6  0.7637  -33.4
 0.250  0.7688  -95.2  10.810  126.9  0.0592   46.5  0.6910  -37.9
 0.300  0.7630 -106.1   9.735  121.1  0.0638   42.3  0.6323  -41.0
 0.350  0.7479 -114.3   8.816  116.9  0.0665   39.4  0.5856  -42.8
 0.400  0.7486 -122.7   7.956  111.7  0.0693   36.7  0.5397  -45.0
 0.450  0.7393 -128.4   7.291  108.7  0.0709   35.1  0.5081  -46.0
 0.500  0.7374 -134.1   6.650  105.1  0.0726   33.5  0.4766  -47.2
 0.600  0.7348 -142.9   5.698   99.7  0.0742   31.8  0.4328  -48.7
 0.700  0.7344 -149.7   4.972   95.4  0.0756   31.2  0.4026  -50.0
 0.800  0.7291 -154.9   4.393   91.6  0.0764   31.3  0.3792  -51.2
 0.900  0.7322 -159.7   3.949   88.4  0.0775   32.1  0.3625  -52.2
 1.000  0.7314 -163.2   3.573   85.4  0.0777   32.7  0.3511  -53.5
 1.100  0.7329 -166.7   3.268   82.5  0.0786   34.2  0.3427  -55.2
 1.200  0.7353 -169.7   3.015   80.0  0.0789   35.3  0.3348  -56.7
 1.300  0.7385 -172.3   2.795   77.6  0.0798   37.2  0.3309  -58.3
 1.400  0.7376 -174.3   2.607   75.3  0.0806   38.7  0.3287  -60.1
 1.500  0.7394 -176.4   2.439   73.2  0.0816   41.0  0.3253  -62.2
 1.600  0.7405 -178.5   2.291   71.0  0.0833   42.8  0.3238  -64.1
 1.700  0.7416  179.6   2.158   69.0  0.0844   44.7  0.3243  -66.2
 1.800  0.7433  178.1   2.047   67.0  0.0863   47.1  0.3254  -68.2
 1.900  0.7439  176.5   1.942   65.3  0.0883   49.3  0.3269  -70.3
 2.000  0.7478  174.8   1.853   63.5  0.0900   51.4  0.3280  -72.3
 2.100  0.7475  173.5   1.770   61.9  0.0926   53.7  0.3314  -74.2
 2.200  0.7476  172.2   1.688   60.2  0.0954   55.8  0.3352  -76.1
 2.300  0.7501  170.9   1.620   58.8  0.0984   57.7  0.3392  -78.2
 2.400  0.7530  169.7   1.554   57.2  0.1016   59.5  0.3436  -80.2
 2.500  0.7532  168.6   1.497   55.8  0.1056   61.3  0.3486  -82.0
 2.600  0.7536  167.5   1.441   54.2  0.1096   63.0  0.3539  -83.8
 2.700  0.7552  166.2   1.393   52.8  0.1141   64.6  0.3582  -85.6
 2.800  0.7572  165.0   1.346   51.4  0.1186   66.1  0.3628  -87.4
 2.900  0.7587  163.9   1.309   50.1  0.1232   67.6  0.3696  -88.9
 3.000  0.7604  162.8   1.272   48.8  0.1279   68.9  0.3766  -90.3
 3.100  0.7614  161.7   1.238   47.7  0.1342   70.0  0.3820  -92.0
 3.200  0.7627  160.5   1.205   46.6  0.1405   71.0  0.3877  -93.6
 3.300  0.7643  159.4   1.172   45.4  0.1469   71.9  0.3937  -95.2
 3.400  0.7661  158.3   1.140   44.1  0.1534   72.7  0.4000  -96.7
 3.500  0.7683  157.2   1.108   42.8  0.1598   73.5  0.4066  -98.2
 3.600  0.7684  156.1   1.085   41.9  0.1670   73.9  0.4119  -99.8
 3.700  0.7687  154.9   1.062   40.9  0.1742   74.3  0.4175 -101.3
 3.800  0.7694  153.8   1.039   39.9  0.1814   74.7  0.4234 -102.8
 3.900  0.7704  152.6   1.017   38.9  0.1887   75.0  0.4296 -104.3
 4.000  0.7717  151.5   0.995   37.8  0.1959   75.3  0.4361 -105.7
 4.100  0.7728  150.4   0.975   36.9  0.2040   75.2  0.4410 -107.5
 4.200  0.7743  149.2   0.956   36.0  0.2121   75.1  0.4463 -109.4
 4.300  0.7761  148.1   0.937   35.0  0.2203   75.0  0.4521 -111.1
 4.400  0.7781  146.9   0.918   34.0  0.2284   74.9  0.4582 -112.8
 4.500  0.7805  145.8   0.900   32.9  0.2365   74.8  0.4648 -114.5
 4.600  0.7802  144.5   0.881   32.2  0.2451   74.3  0.4668 -116.5
 4.700  0.7804  143.2   0.862   31.4  0.2538   73.8  0.4695 -118.6
 4.800  0.7809  142.0   0.844   30.7  0.2624   73.4  0.4727 -120.6
 4.900  0.7818  140.7   0.825   29.9  0.2711   73.0  0.4765 -122.6
 5.000  0.7831  139.4   0.807   29.0  0.2798   72.6  0.4808 -124.5
 5.100  0.7822  138.2   0.794   28.5  0.2881   71.9  0.4825 -126.4
 5.200  0.7818  136.9   0.782   28.0  0.2965   71.3  0.4848 -128.4
 5.300  0.7816  135.7   0.770   27.4  0.3050   70.6  0.4877 -130.3
 5.400  0.7819  134.4   0.757   26.9  0.3134   70.1  0.4910 -132.1
 5.500  0.7825  133.2   0.745   26.3  0.3219   69.5  0.4949 -134.0
 5.600  0.7850  132.1   0.740   25.9  0.3294   68.6  0.4982 -136.0
 5.700  0.7877  131.1   0.735   25.6  0.3369   67.8  0.5021 -137.9
 5.800  0.7907  130.1   0.729   25.2  0.3446   67.1  0.5066 -139.9
 5.900  0.7939  129.0   0.724   24.8  0.3523   66.3  0.5116 -141.8
 6.000  0.7974  128.0   0.719   24.4  0.3600   65.6  0.5172 -143.6
!
!  f       NFmin   Gammaopt  rn/50
! GHz       dB    MAG  ANG    -
 0.450      0.81  0.31  100   0.10
 0.900      1.01  0.45  136   0.09
 1.900      1.90  0.63 -179   0.06
 2.400      2.34  0.67 -168   0.11
!
! (c) 2017  Infineon Technologies AG, Munich