! Infineon Technologies  Discrete & RF Semiconductors
! BFR193F
! VCE =  6.0 V,  IC =  5.0 mA
! Common Emitter S-Parameters:                            Jan 2017
# GHz  S  MA  R  50
!  f         S11            S21            S12            S22
! GHz     MAG   ANG      MAG   ANG      MAG   ANG      MAG   ANG
 0.010  0.8350   -4.7  16.247  177.7  0.0038   84.9  0.9926   -2.4
 0.020  0.8167  -10.7  16.070  174.3  0.0074   86.2  0.9908   -4.7
 0.030  0.8155  -15.6  15.963  171.6  0.0112   82.0  0.9827   -6.9
 0.040  0.8202  -20.4  15.893  168.9  0.0150   80.0  0.9761   -9.2
 0.050  0.8307  -25.2  15.859  166.1  0.0189   78.8  0.9711  -11.5
 0.060  0.8159  -29.7  15.588  163.6  0.0220   75.0  0.9560  -13.4
 0.070  0.8062  -34.3  15.347  161.0  0.0251   72.1  0.9420  -15.5
 0.080  0.8020  -39.1  15.139  158.4  0.0283   69.9  0.9292  -17.5
 0.090  0.8033  -43.8  14.963  155.7  0.0315   68.1  0.9177  -19.6
 0.100  0.8100  -48.5  14.822  152.9  0.0348   66.7  0.9074  -21.8
 0.110  0.7984  -52.5  14.491  150.9  0.0371   64.4  0.8893  -23.3
 0.120  0.7906  -56.5  14.179  148.8  0.0395   62.3  0.8718  -24.9
 0.130  0.7870  -60.6  13.886  146.6  0.0419   60.5  0.8550  -26.6
 0.140  0.7874  -64.8  13.615  144.3  0.0444   58.9  0.8389  -28.3
 0.150  0.7919  -68.9  13.367  141.9  0.0469   57.5  0.8237  -30.1
 0.200  0.7847  -85.3  12.002  132.8  0.0560   50.3  0.7440  -36.3
 0.250  0.7637  -98.9  10.629  125.3  0.0617   44.6  0.6693  -40.9
 0.300  0.7579 -109.8   9.531  119.5  0.0666   41.0  0.6088  -44.3
 0.350  0.7462 -117.9   8.608  115.4  0.0690   38.3  0.5609  -46.3
 0.400  0.7496 -126.0   7.740  110.3  0.0716   35.7  0.5139  -48.7
 0.450  0.7417 -131.5   7.084  107.3  0.0732   34.1  0.4820  -49.8
 0.500  0.7408 -137.1   6.451  103.8  0.0748   32.6  0.4504  -51.1
 0.600  0.7378 -145.3   5.510   98.5  0.0770   30.9  0.4067  -52.9
 0.700  0.7368 -152.0   4.805   94.3  0.0777   30.1  0.3763  -54.4
 0.800  0.7346 -157.0   4.239   90.5  0.0793   30.8  0.3540  -55.7
 0.900  0.7353 -161.5   3.809   87.3  0.0796   31.5  0.3376  -57.1
 1.000  0.7356 -165.0   3.447   84.4  0.0800   32.4  0.3266  -58.5
 1.100  0.7385 -168.2   3.153   81.6  0.0811   33.6  0.3190  -60.3
 1.200  0.7397 -171.1   2.907   79.0  0.0816   35.1  0.3106  -62.2
 1.300  0.7440 -173.6   2.694   76.6  0.0825   36.4  0.3073  -63.8
 1.400  0.7441 -175.5   2.514   74.4  0.0834   38.6  0.3059  -65.7
 1.500  0.7456 -177.6   2.351   72.2  0.0846   40.2  0.3035  -68.0
 1.600  0.7468 -179.6   2.208   70.0  0.0859   42.5  0.3026  -70.0
 1.700  0.7467  178.6   2.080   68.0  0.0874   44.6  0.3042  -72.2
 1.800  0.7505  177.1   1.974   66.0  0.0893   46.7  0.3052  -74.3
 1.900  0.7513  175.7   1.872   64.4  0.0912   48.9  0.3076  -76.5
 2.000  0.7534  174.0   1.786   62.5  0.0936   50.9  0.3101  -78.6
 2.100  0.7531  172.7   1.706   60.9  0.0962   53.0  0.3141  -80.5
 2.200  0.7531  171.4   1.628   59.2  0.0990   54.9  0.3185  -82.4
 2.300  0.7557  170.2   1.563   57.8  0.1023   56.9  0.3231  -84.5
 2.400  0.7586  169.0   1.500   56.2  0.1058   58.7  0.3281  -86.5
 2.500  0.7591  167.9   1.445   54.8  0.1097   60.6  0.3337  -88.3
 2.600  0.7598  166.9   1.391   53.3  0.1137   62.3  0.3396  -90.0
 2.700  0.7615  165.6   1.346   51.9  0.1183   63.7  0.3447  -91.8
 2.800  0.7636  164.4   1.301   50.4  0.1230   65.0  0.3502  -93.6
 2.900  0.7655  163.3   1.264   49.1  0.1278   66.4  0.3573  -95.1
 3.000  0.7677  162.3   1.228   47.8  0.1327   67.7  0.3646  -96.5
 3.100  0.7685  161.2   1.195   46.7  0.1391   68.7  0.3705  -98.1
 3.200  0.7696  160.0   1.163   45.6  0.1455   69.7  0.3768  -99.7
 3.300  0.7710  158.9   1.132   44.5  0.1520   70.6  0.3833 -101.3
 3.400  0.7727  157.8   1.101   43.2  0.1585   71.4  0.3901 -102.8
 3.500  0.7747  156.7   1.070   41.9  0.1650   72.1  0.3971 -104.2
 3.600  0.7748  155.6   1.048   41.0  0.1724   72.5  0.4028 -105.8
 3.700  0.7751  154.4   1.026   40.0  0.1797   72.8  0.4087 -107.3
 3.800  0.7758  153.3   1.004   39.0  0.1871   73.1  0.4150 -108.8
 3.900  0.7768  152.1   0.983   38.0  0.1945   73.4  0.4215 -110.2
 4.000  0.7781  151.0   0.962   36.9  0.2019   73.7  0.4283 -111.6
 4.100  0.7794  149.8   0.944   36.0  0.2101   73.5  0.4336 -113.4
 4.200  0.7810  148.7   0.925   35.1  0.2182   73.4  0.4393 -115.2
 4.300  0.7829  147.6   0.907   34.1  0.2264   73.2  0.4455 -117.0
 4.400  0.7851  146.4   0.889   33.1  0.2345   73.1  0.4521 -118.7
 4.500  0.7876  145.3   0.872   32.1  0.2427   73.0  0.4590 -120.3
 4.600  0.7869  144.0   0.854   31.4  0.2513   72.5  0.4613 -122.4
 4.700  0.7866  142.7   0.836   30.7  0.2599   72.0  0.4642 -124.4
 4.800  0.7867  141.5   0.818   30.0  0.2686   71.5  0.4677 -126.4
 4.900  0.7872  140.2   0.800   29.2  0.2772   71.1  0.4718 -128.4
 5.000  0.7881  138.9   0.782   28.4  0.2859   70.7  0.4764 -130.3
 5.100  0.7873  137.7   0.770   27.9  0.2941   70.0  0.4786 -132.2
 5.200  0.7869  136.4   0.758   27.4  0.3024   69.4  0.4814 -134.1
 5.300  0.7868  135.2   0.746   26.9  0.3108   68.7  0.4847 -136.0
 5.400  0.7871  133.9   0.735   26.4  0.3191   68.2  0.4884 -137.8
 5.500  0.7878  132.7   0.723   25.8  0.3275   67.6  0.4927 -139.6
 5.600  0.7902  131.6   0.718   25.4  0.3348   66.8  0.4967 -141.6
 5.700  0.7929  130.6   0.713   25.1  0.3422   65.9  0.5012 -143.5
 5.800  0.7959  129.6   0.709   24.7  0.3497   65.2  0.5063 -145.4
 5.900  0.7991  128.5   0.704   24.3  0.3572   64.4  0.5119 -147.2
 6.000  0.8026  127.5   0.699   23.9  0.3648   63.7  0.5181 -149.0
!
!  f       NFmin   Gammaopt  rn/50
! GHz       dB    MAG  ANG    -
 0.450      0.81  0.31  100   0.10
 0.900      1.01  0.45  136   0.09
 1.900      1.90  0.63 -179   0.06
 2.400      2.34  0.67 -168   0.11
!
! (c) 2017  Infineon Technologies AG, Munich