! Infineon Technologies  Discrete & RF Semiconductors
! BFR193F
! VCE =  12. V,  IC =  8.0 mA
! Common Emitter S-Parameters:                            Jan 2017
# GHz  S  MA  R  50
!  f         S11            S21            S12            S22
! GHz     MAG   ANG      MAG   ANG      MAG   ANG      MAG   ANG
 0.010  0.7791   -5.9  23.869  176.8  0.0036   84.0  0.9843   -3.1
 0.020  0.7632  -13.0  23.525  172.9  0.0065   82.6  0.9823   -6.0
 0.030  0.7589  -18.9  23.264  169.8  0.0098   78.0  0.9697   -8.8
 0.040  0.7629  -24.9  23.074  166.5  0.0132   75.7  0.9595  -11.6
 0.050  0.7749  -30.7  22.957  163.3  0.0166   74.4  0.9516  -14.5
 0.060  0.7575  -35.9  22.418  160.6  0.0191   70.6  0.9303  -16.8
 0.070  0.7467  -41.4  21.933  157.7  0.0217   67.8  0.9105  -19.2
 0.080  0.7427  -46.9  21.504  154.7  0.0244   65.5  0.8924  -21.6
 0.090  0.7458  -52.4  21.137  151.6  0.0270   63.7  0.8760  -24.2
 0.100  0.7557  -57.9  20.834  148.4  0.0297   62.2  0.8615  -26.9
 0.110  0.7432  -62.2  20.238  146.3  0.0315   60.2  0.8390  -28.6
 0.120  0.7350  -66.6  19.670  144.1  0.0333   58.5  0.8172  -30.3
 0.130  0.7313  -71.1  19.133  141.8  0.0351   56.9  0.7962  -32.2
 0.140  0.7321  -75.6  18.630  139.3  0.0369   55.5  0.7761  -34.1
 0.150  0.7374  -80.1  18.163  136.7  0.0388   54.2  0.7570  -36.2
 0.200  0.7326  -97.0  15.802  127.6  0.0453   48.0  0.6653  -42.8
 0.250  0.7153 -110.5  13.706  120.4  0.0496   44.1  0.5838  -47.4
 0.300  0.7146 -120.7  12.104  115.1  0.0526   40.8  0.5226  -50.8
 0.350  0.7055 -127.9  10.837  111.4  0.0545   39.2  0.4761  -52.6
 0.400  0.7077 -135.2   9.626  106.8  0.0565   37.7  0.4302  -54.8
 0.450  0.7023 -140.1   8.769  104.2  0.0577   37.2  0.4003  -55.8
 0.500  0.7021 -145.0   7.933  101.1  0.0589   36.8  0.3706  -56.9
 0.600  0.7028 -152.3   6.733   96.5  0.0610   36.9  0.3298  -58.5
 0.700  0.7027 -158.1   5.841   92.8  0.0633   38.2  0.3018  -59.8
 0.800  0.6999 -162.3   5.142   89.7  0.0652   39.0  0.2810  -61.0
 0.900  0.7042 -166.3   4.606   86.8  0.0667   41.3  0.2660  -62.2
 1.000  0.7050 -169.2   4.163   84.3  0.0697   42.8  0.2558  -63.4
 1.100  0.7084 -172.1   3.801   81.8  0.0711   44.5  0.2483  -65.1
 1.200  0.7098 -174.6   3.502   79.5  0.0735   46.0  0.2415  -66.8
 1.300  0.7133 -176.7   3.243   77.4  0.0760   48.1  0.2383  -68.3
 1.400  0.7125 -178.6   3.024   75.4  0.0786   49.8  0.2366  -70.0
 1.500  0.7153  179.6   2.826   73.4  0.0817   51.9  0.2342  -72.4
 1.600  0.7169  177.8   2.654   71.5  0.0845   53.3  0.2333  -74.2
 1.700  0.7167  176.2   2.499   69.7  0.0876   55.3  0.2343  -76.2
 1.800  0.7193  174.9   2.371   67.9  0.0913   56.6  0.2358  -78.3
 1.900  0.7184  173.5   2.249   66.4  0.0946   58.2  0.2381  -80.4
 2.000  0.7229  171.9   2.146   64.8  0.0981   59.8  0.2399  -82.3
 2.100  0.7223  170.8   2.050   63.3  0.1021   61.0  0.2438  -84.0
 2.200  0.7219  169.6   1.956   61.7  0.1061   62.2  0.2479  -85.7
 2.300  0.7242  168.5   1.879   60.4  0.1102   63.4  0.2521  -87.5
 2.400  0.7267  167.5   1.803   58.9  0.1144   64.5  0.2565  -89.3
 2.500  0.7272  166.4   1.738   57.6  0.1190   65.5  0.2620  -90.9
 2.600  0.7279  165.4   1.674   56.1  0.1236   66.5  0.2676  -92.4
 2.700  0.7295  164.2   1.619   54.8  0.1286   67.3  0.2722  -94.0
 2.800  0.7314  163.1   1.565   53.4  0.1337   68.0  0.2771  -95.6
 2.900  0.7320  162.1   1.522   52.2  0.1386   68.9  0.2836  -96.7
 3.000  0.7329  161.2   1.479   50.9  0.1436   69.7  0.2902  -97.8
 3.100  0.7339  160.2   1.441   49.8  0.1499   70.2  0.2957  -99.2
 3.200  0.7352  159.1   1.403   48.7  0.1562   70.6  0.3015 -100.6
 3.300  0.7366  158.1   1.366   47.6  0.1625   71.1  0.3073 -102.0
 3.400  0.7384  157.1   1.329   46.3  0.1688   71.4  0.3134 -103.3
 3.500  0.7403  156.1   1.293   45.0  0.1751   71.8  0.3196 -104.5
 3.600  0.7402  155.0   1.266   44.0  0.1818   71.9  0.3249 -105.8
 3.700  0.7404  154.0   1.240   43.1  0.1885   72.1  0.3303 -107.1
 3.800  0.7408  152.9   1.214   42.0  0.1951   72.2  0.3359 -108.3
 3.900  0.7415  151.9   1.189   40.9  0.2018   72.3  0.3416 -109.5
 4.000  0.7424  150.8   1.164   39.8  0.2085   72.4  0.3475 -110.7
 4.100  0.7439  149.7   1.142   38.8  0.2158   72.2  0.3526 -112.4
 4.200  0.7457  148.7   1.120   37.8  0.2231   71.9  0.3579 -114.0
 4.300  0.7478  147.6   1.099   36.7  0.2305   71.7  0.3635 -115.6
 4.400  0.7501  146.5   1.078   35.6  0.2378   71.5  0.3694 -117.1
 4.500  0.7526  145.5   1.058   34.5  0.2451   71.3  0.3756 -118.6
 4.600  0.7526  144.3   1.036   33.7  0.2527   70.9  0.3780 -120.5
 4.700  0.7529  143.1   1.015   32.8  0.2604   70.5  0.3809 -122.4
 4.800  0.7535  141.9   0.994   31.9  0.2680   70.1  0.3841 -124.2
 4.900  0.7545  140.7   0.973   31.0  0.2757   69.7  0.3878 -126.0
 5.000  0.7558  139.5   0.952   30.0  0.2834   69.4  0.3918 -127.8
 5.100  0.7556  138.3   0.937   29.3  0.2908   68.8  0.3945 -129.6
 5.200  0.7556  137.1   0.923   28.7  0.2982   68.2  0.3975 -131.3
 5.300  0.7560  136.0   0.908   28.0  0.3057   67.6  0.4009 -133.0
 5.400  0.7568  134.8   0.894   27.2  0.3132   67.1  0.4047 -134.7
 5.500  0.7578  133.6   0.880   26.5  0.3207   66.6  0.4088 -136.4
 5.600  0.7608  132.6   0.873   25.9  0.3275   65.9  0.4130 -138.3
 5.700  0.7641  131.6   0.865   25.3  0.3344   65.2  0.4177 -140.2
 5.800  0.7676  130.6   0.858   24.7  0.3413   64.6  0.4228 -142.0
 5.900  0.7713  129.7   0.851   24.1  0.3482   64.0  0.4284 -143.8
 6.000  0.7752  128.7   0.844   23.5  0.3552   63.4  0.4343 -145.5
!
!  f       NFmin   Gammaopt  rn/50
! GHz       dB    MAG  ANG    -
 0.450      0.84  0.25  124   0.08
 0.900      0.99  0.40  147   0.07
 1.900      1.74  0.61 -177   0.05
 2.400      2.11  0.64 -167   0.08
!
! (c) 2017  Infineon Technologies AG, Munich