! Infineon Technologies  Discrete & RF Semiconductors
! BFR193F
! VCE =  4.0 V,  IC = 0.10 A
! Common Emitter S-Parameters:                            Jan 2017
# GHz  S  MA  R  50
!  f         S11            S21            S12            S22
! GHz     MAG   ANG      MAG   ANG      MAG   ANG      MAG   ANG
 0.010  0.1964 -121.5  75.344  166.6  0.0027   78.6  0.7867  -14.1
 0.020  0.3492 -126.4  70.030  153.6  0.0053   68.8  0.7340  -28.0
 0.030  0.4289 -135.1  61.890  147.2  0.0065   61.6  0.6475  -35.5
 0.040  0.5153 -140.9  54.750  139.0  0.0078   56.7  0.5754  -45.1
 0.050  0.6055 -145.1  49.046  128.6  0.0092   53.2  0.5236  -57.0
 0.060  0.6237 -148.7  44.841  126.3  0.0096   52.7  0.4784  -60.1
 0.070  0.6443 -152.1  40.723  123.5  0.0101   52.2  0.4349  -63.8
 0.080  0.6670 -155.3  36.723  120.1  0.0105   51.8  0.3935  -68.2
 0.090  0.6916 -158.3  32.884  115.9  0.0110   51.4  0.3551  -73.7
 0.100  0.7179 -161.0  29.269  110.6  0.0114   51.0  0.3208  -80.5
 0.110  0.7240 -162.4  27.449  109.5  0.0119   51.9  0.3026  -82.5
 0.120  0.7306 -163.7  25.641  108.2  0.0125   52.7  0.2847  -84.7
 0.130  0.7375 -165.0  23.848  106.7  0.0130   53.5  0.2674  -87.2
 0.140  0.7448 -166.3  22.073  105.0  0.0136   54.2  0.2506  -90.1
 0.150  0.7525 -167.6  20.321  103.0  0.0141   54.8  0.2346  -93.4
 0.200  0.7614 -171.5  15.443   98.3  0.0169   59.1  0.1903 -101.5
 0.250  0.7688 -174.3  12.426   95.4  0.0196   62.9  0.1615 -109.1
 0.300  0.7728 -176.1  10.428   93.1  0.0229   66.5  0.1469 -114.2
 0.350  0.7737 -177.5   9.132   91.6  0.0256   68.2  0.1371 -118.1
 0.400  0.7750 -178.9   7.845   89.5  0.0283   69.5  0.1281 -122.6
 0.450  0.7760  180.0   7.072   88.3  0.0311   70.9  0.1238 -125.4
 0.500  0.7773  178.9   6.302   86.9  0.0340   72.0  0.1199 -128.3
 0.600  0.7801  177.3   5.272   84.5  0.0400   73.5  0.1176 -132.8
 0.700  0.7833  175.4   4.530   82.4  0.0458   75.4  0.1188 -135.6
 0.800  0.7801  174.1   3.970   80.6  0.0514   76.1  0.1200 -138.6
 0.900  0.7835  172.6   3.543   78.7  0.0576   76.6  0.1228 -140.2
 1.000  0.7840  171.5   3.198   76.9  0.0636   76.7  0.1266 -141.1
 1.100  0.7861  170.2   2.915   75.1  0.0697   77.2  0.1324 -142.0
 1.200  0.7874  169.1   2.681   73.4  0.0754   77.0  0.1364 -143.9
 1.300  0.7897  167.8   2.483   71.8  0.0822   77.4  0.1410 -144.0
 1.400  0.7878  167.0   2.318   70.2  0.0880   77.5  0.1471 -144.3
 1.500  0.7913  166.0   2.168   68.7  0.0941   77.4  0.1538 -145.3
 1.600  0.7922  164.8   2.038   67.1  0.0997   77.4  0.1588 -146.0
 1.700  0.7895  163.8   1.923   65.6  0.1063   77.1  0.1647 -146.1
 1.800  0.7927  163.1   1.826   64.1  0.1123   77.1  0.1715 -146.4
 1.900  0.7917  162.1   1.736   62.8  0.1182   77.0  0.1780 -146.6
 2.000  0.7945  161.1   1.657   61.4  0.1248   77.1  0.1841 -147.0
 2.100  0.7930  160.3   1.588   60.2  0.1307   76.8  0.1900 -147.0
 2.200  0.7916  159.4   1.519   58.9  0.1367   76.5  0.1958 -147.0
 2.300  0.7931  158.5   1.463   57.7  0.1432   76.3  0.2021 -147.2
 2.400  0.7947  157.7   1.407   56.5  0.1498   76.2  0.2084 -147.4
 2.500  0.7932  156.9   1.361   55.3  0.1563   76.0  0.2140 -147.2
 2.600  0.7918  156.1   1.315   54.1  0.1628   75.8  0.2197 -147.1
 2.700  0.7923  155.2   1.275   52.9  0.1693   75.4  0.2258 -147.5
 2.800  0.7929  154.3   1.235   51.7  0.1758   75.0  0.2320 -147.9
 2.900  0.7935  153.3   1.204   50.6  0.1823   74.8  0.2378 -147.6
 3.000  0.7943  152.4   1.173   49.5  0.1889   74.7  0.2437 -147.4
 3.100  0.7939  151.5   1.146   48.5  0.1963   74.2  0.2492 -147.7
 3.200  0.7937  150.7   1.119   47.5  0.2037   73.8  0.2547 -148.1
 3.300  0.7937  149.8   1.093   46.5  0.2112   73.4  0.2602 -148.4
 3.400  0.7939  149.0   1.067   45.4  0.2186   73.0  0.2658 -148.7
 3.500  0.7942  148.1   1.042   44.2  0.2261   72.7  0.2713 -149.0
 3.600  0.7928  147.1   1.024   43.3  0.2333   72.1  0.2759 -149.6
 3.700  0.7917  146.1   1.006   42.5  0.2404   71.5  0.2806 -150.2
 3.800  0.7907  145.2   0.988   41.5  0.2476   71.0  0.2853 -150.7
 3.900  0.7901  144.2   0.971   40.6  0.2549   70.5  0.2900 -151.3
 4.000  0.7896  143.2   0.954   39.6  0.2621   70.0  0.2948 -151.8
 4.100  0.7897  142.2   0.938   38.7  0.2690   69.2  0.2998 -152.8
 4.200  0.7901  141.2   0.923   37.8  0.2760   68.5  0.3050 -153.7
 4.300  0.7906  140.3   0.908   36.8  0.2830   67.9  0.3102 -154.6
 4.400  0.7915  139.3   0.893   35.8  0.2901   67.2  0.3155 -155.5
 4.500  0.7925  138.3   0.879   34.8  0.2972   66.6  0.3208 -156.3
 4.600  0.7917  137.2   0.863   34.1  0.3038   65.9  0.3243 -157.7
 4.700  0.7913  136.1   0.847   33.4  0.3104   65.2  0.3280 -159.1
 4.800  0.7911  135.1   0.831   32.6  0.3170   64.5  0.3319 -160.4
 4.900  0.7911  134.0   0.815   31.8  0.3238   63.8  0.3360 -161.7
 5.000  0.7915  132.9   0.799   31.0  0.3305   63.2  0.3402 -163.0
 5.100  0.7898  131.8   0.789   30.4  0.3366   62.5  0.3442 -164.2
 5.200  0.7885  130.7   0.779   29.8  0.3427   61.8  0.3483 -165.4
 5.300  0.7874  129.6   0.769   29.2  0.3489   61.1  0.3526 -166.6
 5.400  0.7866  128.5   0.760   28.6  0.3551   60.5  0.3570 -167.7
 5.500  0.7861  127.4   0.750   27.9  0.3614   59.9  0.3616 -168.8
 5.600  0.7884  126.5   0.746   27.4  0.3668   59.1  0.3675 -170.1
 5.700  0.7909  125.6   0.743   26.9  0.3723   58.4  0.3737 -171.4
 5.800  0.7935  124.7   0.740   26.4  0.3778   57.7  0.3800 -172.7
 5.900  0.7964  123.9   0.736   25.9  0.3834   57.0  0.3865 -173.9
 6.000  0.7994  123.0   0.733   25.4  0.3890   56.3  0.3932 -175.1
!
!  f       NFmin   Gammaopt  rn/50
! GHz       dB    MAG  ANG    -
!
! noise parameter not available yet for this operation point!
!
! (c) 2017  Infineon Technologies AG, Munich