! Infineon Technologies  Discrete & RF Semiconductors
! BFR193F
! VCE =  6.0 V,  IC =  20 mA
! Common Emitter S-Parameters:                            Jan 2017
# GHz  S  MA  R  50
!  f         S11            S21            S12            S22
! GHz     MAG   ANG      MAG   ANG      MAG   ANG      MAG   ANG
 0.010  0.5096  -12.9  46.886  174.3  0.0032   86.1  0.9765   -6.1
 0.020  0.5061  -27.2  46.120  168.1  0.0063   77.5  0.9624  -12.0
 0.030  0.4999  -38.9  44.417  163.3  0.0089   73.1  0.9271  -17.1
 0.040  0.5145  -50.4  43.055  158.1  0.0115   70.6  0.8997  -22.6
 0.050  0.5484  -60.9  42.066  152.6  0.0141   69.1  0.8811  -28.4
 0.060  0.5372  -68.9  39.990  149.4  0.0158   65.4  0.8370  -31.7
 0.070  0.5368  -77.0  38.048  145.9  0.0175   62.5  0.7960  -35.3
 0.080  0.5471  -85.0  36.265  142.1  0.0192   60.0  0.7585  -39.4
 0.090  0.5675  -92.6  34.662  137.8  0.0210   58.0  0.7252  -43.8
 0.100  0.5971  -99.5  33.267  133.2  0.0228   56.3  0.6966  -48.6
 0.110  0.5963 -104.1  31.728  131.3  0.0237   54.6  0.6649  -50.7
 0.120  0.5993 -108.7  30.230  129.1  0.0246   53.1  0.6342  -53.0
 0.130  0.6062 -113.3  28.778  126.8  0.0255   51.7  0.6046  -55.5
 0.140  0.6168 -117.7  27.379  124.2  0.0264   50.3  0.5764  -58.3
 0.150  0.6309 -121.9  26.043  121.3  0.0273   49.1  0.5496  -61.4
 0.200  0.6515 -135.4  20.993  113.4  0.0305   46.1  0.4501  -70.0
 0.250  0.6590 -144.9  17.391  107.9  0.0326   45.0  0.3749  -76.2
 0.300  0.6668 -151.0  14.840  104.0  0.0350   46.4  0.3250  -81.2
 0.350  0.6687 -155.4  13.096  101.4  0.0365   47.2  0.2903  -84.5
 0.400  0.6745 -159.7  11.387   98.0  0.0381   48.0  0.2568  -88.6
 0.450  0.6762 -162.6  10.299   96.3  0.0401   49.6  0.2362  -91.3
 0.500  0.6795 -165.4   9.222   94.1  0.0422   51.1  0.2163  -94.4
 0.600  0.6819 -169.6   7.747   90.8  0.0460   53.7  0.1901  -99.4
 0.700  0.6859 -173.1   6.674   88.1  0.0512   55.6  0.1742 -103.8
 0.800  0.6883 -175.5   5.847   85.8  0.0555   58.1  0.1622 -108.0
 0.900  0.6908 -178.0   5.225   83.6  0.0599   60.1  0.1547 -111.4
 1.000  0.6921 -179.8   4.717   81.7  0.0653   61.7  0.1504 -114.1
 1.100  0.6943  178.2   4.295   79.7  0.0700   63.0  0.1491 -117.3
 1.200  0.6967  176.6   3.949   77.9  0.0745   64.1  0.1471 -120.3
 1.300  0.6993  175.0   3.654   76.2  0.0801   65.2  0.1466 -122.0
 1.400  0.6994  173.9   3.406   74.5  0.0849   66.1  0.1487 -123.8
 1.500  0.7025  172.4   3.185   72.9  0.0900   66.8  0.1510 -126.3
 1.600  0.7039  171.0   2.989   71.3  0.0955   67.1  0.1525 -128.0
 1.700  0.7036  169.7   2.814   69.7  0.1005   67.9  0.1559 -129.2
 1.800  0.7069  168.8   2.669   68.3  0.1064   68.2  0.1594 -130.4
 1.900  0.7067  167.8   2.532   66.9  0.1112   68.6  0.1631 -131.2
 2.000  0.7106  166.6   2.415   65.6  0.1164   69.2  0.1674 -132.5
 2.100  0.7097  165.6   2.309   64.3  0.1218   69.5  0.1714 -133.0
 2.200  0.7090  164.6   2.204   62.9  0.1273   69.7  0.1755 -133.5
 2.300  0.7107  163.6   2.120   61.7  0.1328   69.9  0.1798 -134.1
 2.400  0.7126  162.7   2.037   60.5  0.1383   70.0  0.1841 -134.7
 2.500  0.7121  162.0   1.965   59.3  0.1440   70.1  0.1887 -134.8
 2.600  0.7118  161.2   1.894   58.0  0.1497   70.1  0.1934 -134.9
 2.700  0.7125  160.2   1.834   56.8  0.1555   70.2  0.1979 -135.5
 2.800  0.7135  159.2   1.774   55.6  0.1613   70.2  0.2024 -136.0
 2.900  0.7139  158.3   1.726   54.5  0.1670   70.3  0.2073 -135.8
 3.000  0.7144  157.4   1.679   53.3  0.1728   70.4  0.2122 -135.7
 3.100  0.7148  156.5   1.637   52.3  0.1794   70.2  0.2168 -136.1
 3.200  0.7154  155.6   1.596   51.2  0.1860   70.1  0.2214 -136.4
 3.300  0.7162  154.8   1.555   50.1  0.1926   70.0  0.2260 -136.8
 3.400  0.7171  153.9   1.515   48.9  0.1992   69.8  0.2306 -137.1
 3.500  0.7182  153.0   1.476   47.7  0.2058   69.7  0.2352 -137.4
 3.600  0.7176  152.1   1.447   46.7  0.2124   69.4  0.2393 -137.9
 3.700  0.7171  151.1   1.419   45.7  0.2190   69.1  0.2433 -138.4
 3.800  0.7169  150.2   1.391   44.7  0.2256   68.8  0.2474 -138.9
 3.900  0.7169  149.2   1.364   43.6  0.2322   68.5  0.2516 -139.4
 4.000  0.7170  148.3   1.337   42.5  0.2388   68.3  0.2557 -139.8
 4.100  0.7181  147.4   1.313   41.5  0.2452   67.8  0.2602 -140.8
 4.200  0.7194  146.4   1.290   40.5  0.2517   67.3  0.2647 -141.7
 4.300  0.7209  145.5   1.267   39.4  0.2582   66.9  0.2694 -142.6
 4.400  0.7226  144.6   1.245   38.3  0.2647   66.4  0.2741 -143.5
 4.500  0.7245  143.7   1.223   37.1  0.2712   66.0  0.2788 -144.3
 4.600  0.7248  142.6   1.199   36.2  0.2776   65.5  0.2818 -145.7
 4.700  0.7254  141.5   1.175   35.3  0.2840   64.9  0.2849 -147.2
 4.800  0.7262  140.5   1.151   34.4  0.2905   64.4  0.2882 -148.5
 4.900  0.7273  139.4   1.128   33.4  0.2969   64.0  0.2917 -149.9
 5.000  0.7287  138.3   1.105   32.4  0.3034   63.5  0.2953 -151.2
 5.100  0.7288  137.2   1.089   31.7  0.3096   62.9  0.2987 -152.5
 5.200  0.7291  136.1   1.073   30.9  0.3158   62.4  0.3022 -153.7
 5.300  0.7298  135.0   1.058   30.1  0.3220   61.9  0.3059 -154.9
 5.400  0.7306  133.9   1.042   29.3  0.3282   61.4  0.3097 -156.1
 5.500  0.7318  132.8   1.027   28.5  0.3345   60.9  0.3136 -157.3
 5.600  0.7353  131.9   1.019   27.8  0.3401   60.2  0.3190 -158.8
 5.700  0.7389  131.0   1.011   27.1  0.3457   59.6  0.3247 -160.2
 5.800  0.7427  130.1   1.004   26.3  0.3513   59.0  0.3305 -161.5
 5.900  0.7467  129.3   0.996   25.6  0.3570   58.4  0.3365 -162.8
 6.000  0.7509  128.4   0.989   24.8  0.3627   57.8  0.3427 -164.1
!
!  f       NFmin   Gammaopt  rn/50
! GHz       dB    MAG  ANG    -
 0.450      1.04  0.33  168   0.06
 0.900      1.12  0.39  169   0.07
 1.900      1.71  0.57 -171   0.06
 2.400      2.01  0.61 -161   0.10
!
! (c) 2017  Infineon Technologies AG, Munich