! Infineon Technologies  Discrete & RF Semiconductors
! BFR193F
! VCE =  8.0 V,  IC =  48 mA
! Common Emitter S-Parameters:                            Jan 2017
# GHz  S  MA  R  50
!  f         S11            S21            S12            S22
! GHz     MAG   ANG      MAG   ANG      MAG   ANG      MAG   ANG
 0.010  0.3108  -24.9  71.352  171.5  0.0026   86.9  0.9502   -8.6
 0.020  0.3381  -48.7  68.710  163.3  0.0050   77.6  0.9258  -17.0
 0.030  0.3517  -66.8  64.462  157.5  0.0070   70.9  0.8661  -23.5
 0.040  0.3963  -82.2  60.972  150.9  0.0090   67.2  0.8189  -30.8
 0.050  0.4629  -93.8  58.378  143.6  0.0111   64.9  0.7867  -38.9
 0.060  0.4683 -101.8  54.481  140.6  0.0120   62.0  0.7334  -42.3
 0.070  0.4825 -109.4  50.755  137.2  0.0130   59.4  0.6830  -46.2
 0.080  0.5047 -116.5  47.238  133.2  0.0139   57.3  0.6363  -50.7
 0.090  0.5340 -122.9  43.983  128.7  0.0149   55.4  0.5940  -55.8
 0.100  0.5692 -128.6  41.050  123.4  0.0159   53.7  0.5573  -61.7
 0.110  0.5756 -132.0  38.803  121.8  0.0165   53.1  0.5273  -63.8
 0.120  0.5840 -135.4  36.590  119.9  0.0170   52.6  0.4981  -66.1
 0.130  0.5944 -138.7  34.420  117.9  0.0176   52.1  0.4698  -68.7
 0.140  0.6066 -141.8  32.300  115.6  0.0181   51.6  0.4425  -71.6
 0.150  0.6206 -144.8  30.241  112.9  0.0187   51.2  0.4166  -74.9
 0.200  0.6407 -153.7  23.616  106.4  0.0210   52.3  0.3337  -83.4
 0.250  0.6504 -159.9  19.242  102.1  0.0232   54.7  0.2762  -90.3
 0.300  0.6574 -163.8  16.238   99.0  0.0261   57.2  0.2403  -95.6
 0.350  0.6604 -166.7  14.267   97.0  0.0285   59.0  0.2160  -99.5
 0.400  0.6650 -169.6  12.318   94.4  0.0310   60.6  0.1930 -104.3
 0.450  0.6669 -171.5  11.119   93.0  0.0335   62.3  0.1796 -107.5
 0.500  0.6694 -173.3   9.928   91.2  0.0360   63.8  0.1669 -111.3
 0.600  0.6729 -176.2   8.321   88.5  0.0415   66.2  0.1512 -117.5
 0.700  0.6769 -178.7   7.156   86.2  0.0472   68.0  0.1432 -122.2
 0.800  0.6779  179.5   6.268   84.3  0.0524   69.2  0.1373 -126.9
 0.900  0.6812  177.7   5.589   82.4  0.0581   70.3  0.1341 -130.5
 1.000  0.6823  176.2   5.043   80.7  0.0641   71.2  0.1331 -132.9
 1.100  0.6847  174.6   4.592   78.9  0.0695   71.7  0.1343 -135.7
 1.200  0.6867  173.2   4.219   77.2  0.0754   72.0  0.1353 -138.5
 1.300  0.6892  172.0   3.904   75.7  0.0808   72.3  0.1363 -139.8
 1.400  0.6890  171.0   3.639   74.2  0.0865   72.9  0.1388 -140.9
 1.500  0.6926  169.8   3.400   72.8  0.0927   73.0  0.1421 -142.8
 1.600  0.6936  168.5   3.190   71.3  0.0978   73.5  0.1443 -144.3
 1.700  0.6930  167.4   3.005   69.8  0.1033   73.1  0.1482 -144.7
 1.800  0.6969  166.5   2.850   68.4  0.1097   73.1  0.1520 -145.4
 1.900  0.6962  165.7   2.705   67.2  0.1152   73.2  0.1555 -145.6
 2.000  0.6995  164.5   2.580   65.9  0.1209   73.3  0.1597 -146.6
 2.100  0.6986  163.7   2.466   64.7  0.1267   73.2  0.1628 -146.6
 2.200  0.6978  162.9   2.354   63.4  0.1326   73.2  0.1659 -146.6
 2.300  0.6997  162.0   2.264   62.3  0.1383   73.0  0.1697 -146.9
 2.400  0.7017  161.1   2.175   61.1  0.1440   72.8  0.1736 -147.1
 2.500  0.7006  160.3   2.100   59.9  0.1501   72.7  0.1771 -146.8
 2.600  0.6996  159.5   2.025   58.7  0.1562   72.6  0.1807 -146.5
 2.700  0.7006  158.6   1.959   57.6  0.1620   72.4  0.1846 -146.7
 2.800  0.7018  157.7   1.894   56.4  0.1679   72.2  0.1886 -146.8
 2.900  0.7020  156.9   1.843   55.3  0.1739   72.0  0.1923 -146.3
 3.000  0.7024  156.1   1.793   54.2  0.1799   71.9  0.1960 -145.8
 3.100  0.7024  155.3   1.748   53.2  0.1866   71.6  0.1997 -145.9
 3.200  0.7025  154.4   1.704   52.2  0.1932   71.3  0.2034 -145.9
 3.300  0.7028  153.6   1.661   51.1  0.1999   71.0  0.2072 -146.0
 3.400  0.7033  152.7   1.618   50.0  0.2066   70.7  0.2109 -146.0
 3.500  0.7039  151.9   1.576   48.8  0.2133   70.5  0.2146 -146.1
 3.600  0.7033  151.0   1.545   47.8  0.2197   70.0  0.2179 -146.3
 3.700  0.7028  150.1   1.515   46.8  0.2262   69.6  0.2212 -146.6
 3.800  0.7025  149.3   1.486   45.8  0.2326   69.2  0.2244 -146.8
 3.900  0.7024  148.4   1.457   44.7  0.2391   68.8  0.2277 -147.0
 4.000  0.7024  147.5   1.428   43.6  0.2456   68.4  0.2310 -147.2
 4.100  0.7034  146.6   1.403   42.6  0.2519   67.8  0.2349 -147.9
 4.200  0.7047  145.7   1.378   41.6  0.2582   67.2  0.2388 -148.6
 4.300  0.7060  144.8   1.354   40.5  0.2646   66.7  0.2427 -149.2
 4.400  0.7076  144.0   1.330   39.4  0.2709   66.2  0.2467 -149.9
 4.500  0.7093  143.1   1.307   38.2  0.2773   65.7  0.2507 -150.5
 4.600  0.7096  142.0   1.281   37.3  0.2833   65.1  0.2534 -151.8
 4.700  0.7101  141.0   1.256   36.4  0.2894   64.6  0.2562 -153.0
 4.800  0.7109  139.9   1.231   35.5  0.2955   64.0  0.2592 -154.2
 4.900  0.7119  138.9   1.206   34.5  0.3016   63.5  0.2622 -155.4
 5.000  0.7131  137.8   1.182   33.5  0.3077   63.0  0.2654 -156.6
 5.100  0.7132  136.8   1.165   32.7  0.3135   62.4  0.2686 -157.7
 5.200  0.7136  135.7   1.149   32.0  0.3193   61.9  0.2719 -158.8
 5.300  0.7142  134.7   1.132   31.2  0.3251   61.3  0.2753 -159.9
 5.400  0.7150  133.6   1.116   30.3  0.3309   60.8  0.2788 -161.0
 5.500  0.7161  132.6   1.100   29.5  0.3368   60.3  0.2824 -162.0
 5.600  0.7198  131.7   1.092   28.8  0.3421   59.7  0.2875 -163.3
 5.700  0.7237  130.9   1.083   28.0  0.3475   59.0  0.2928 -164.5
 5.800  0.7277  130.1   1.075   27.3  0.3529   58.4  0.2982 -165.7
 5.900  0.7319  129.2   1.068   26.5  0.3583   57.9  0.3037 -166.9
 6.000  0.7362  128.4   1.060   25.7  0.3638   57.3  0.3094 -168.0
!
!  f       NFmin   Gammaopt  rn/50
! GHz       dB    MAG  ANG    -
 0.450      1.45  0.46 -180   0.07
 0.900      1.54  0.47 -179   0.07
 1.900      2.11  0.60 -164   0.09
 2.400      2.42  0.62 -156   0.14
!
! (c) 2017  Infineon Technologies AG, Munich