! Infineon Technologies  Discrete & RF Semiconductors
! BFR193F
! VCE =  9.0 V,  IC =  10 mA
! Common Emitter S-Parameters:                            Jan 2017
# GHz  S  MA  R  50
!  f         S11            S21            S12            S22
! GHz     MAG   ANG      MAG   ANG      MAG   ANG      MAG   ANG
 0.010  0.7135   -7.1  28.587  176.3  0.0033   79.8  0.9869   -3.7
 0.020  0.6992  -15.4  28.199  172.0  0.0065   81.4  0.9845   -7.2
 0.030  0.6934  -22.5  27.747  168.4  0.0095   76.9  0.9671  -10.5
 0.040  0.6982  -29.5  27.406  164.8  0.0125   74.6  0.9530  -13.9
 0.050  0.7134  -36.4  27.180  161.0  0.0156   73.2  0.9424  -17.4
 0.060  0.6950  -42.3  26.389  158.1  0.0180   69.5  0.9155  -20.0
 0.070  0.6843  -48.4  25.669  155.0  0.0205   66.7  0.8905  -22.7
 0.080  0.6816  -54.7  25.028  151.8  0.0231   64.6  0.8677  -25.6
 0.090  0.6871  -60.9  24.472  148.4  0.0256   62.8  0.8471  -28.6
 0.100  0.7005  -67.0  24.006  144.8  0.0282   61.4  0.8291  -31.8
 0.110  0.6902  -71.7  23.206  142.7  0.0298   59.3  0.8031  -33.6
 0.120  0.6846  -76.4  22.439  140.4  0.0314   57.4  0.7780  -35.5
 0.130  0.6837  -81.2  21.710  138.0  0.0330   55.7  0.7539  -37.6
 0.140  0.6877  -86.0  21.022  135.4  0.0347   54.2  0.7307  -39.8
 0.150  0.6964  -90.7  20.379  132.7  0.0364   52.8  0.7087  -42.1
 0.200  0.6974 -107.4  17.370  123.7  0.0413   46.4  0.6103  -49.2
 0.250  0.6893 -120.1  14.854  116.9  0.0452   43.5  0.5255  -54.2
 0.300  0.6938 -129.4  12.946  111.8  0.0471   41.2  0.4647  -57.7
 0.350  0.6888 -136.0  11.542  108.5  0.0490   40.2  0.4198  -59.7
 0.400  0.6929 -142.6  10.189  104.2  0.0509   39.3  0.3755  -62.2
 0.450  0.6908 -146.9   9.258  101.9  0.0523   39.5  0.3470  -63.4
 0.500  0.6926 -151.3   8.345   99.0  0.0538   39.7  0.3186  -64.8
 0.600  0.6938 -157.7   7.057   94.7  0.0563   40.8  0.2809  -66.8
 0.700  0.6964 -162.7   6.107   91.4  0.0584   42.3  0.2553  -68.6
 0.800  0.6939 -166.4   5.365   88.5  0.0607   44.0  0.2352  -70.3
 0.900  0.6983 -169.8   4.802   85.8  0.0637   46.1  0.2217  -71.8
 1.000  0.6995 -172.6   4.338   83.4  0.0670   47.5  0.2129  -73.4
 1.100  0.7030 -175.1   3.960   81.1  0.0703   49.8  0.2065  -75.3
 1.200  0.7054 -177.4   3.644   79.0  0.0730   51.7  0.1997  -77.5
 1.300  0.7076 -179.3   3.372   77.0  0.0765   53.5  0.1974  -78.9
 1.400  0.7088  179.2   3.145   75.1  0.0796   54.9  0.1966  -80.9
 1.500  0.7097  177.4   2.939   73.3  0.0835   56.7  0.1952  -83.4
 1.600  0.7117  175.6   2.759   71.4  0.0870   57.8  0.1946  -85.3
 1.700  0.7120  174.1   2.600   69.7  0.0908   59.4  0.1966  -87.4
 1.800  0.7156  173.0   2.466   68.0  0.0953   60.5  0.1987  -89.3
 1.900  0.7143  171.8   2.339   66.5  0.0992   61.7  0.2020  -91.2
 2.000  0.7178  170.3   2.231   64.9  0.1029   62.8  0.2044  -93.3
 2.100  0.7171  169.2   2.132   63.5  0.1075   63.9  0.2086  -94.8
 2.200  0.7166  168.0   2.034   62.0  0.1121   64.9  0.2130  -96.3
 2.300  0.7188  167.0   1.955   60.7  0.1168   65.6  0.2176  -97.9
 2.400  0.7213  166.0   1.878   59.3  0.1216   66.3  0.2223  -99.4
 2.500  0.7218  165.1   1.810   58.0  0.1265   67.1  0.2278 -100.7
 2.600  0.7224  164.2   1.744   56.6  0.1314   67.8  0.2335 -102.0
 2.700  0.7234  163.1   1.687   55.3  0.1366   68.3  0.2387 -103.4
 2.800  0.7246  162.0   1.631   54.0  0.1419   68.8  0.2440 -104.8
 2.900  0.7255  161.0   1.586   52.8  0.1471   69.3  0.2503 -105.7
 3.000  0.7266  160.1   1.542   51.5  0.1523   69.8  0.2567 -106.6
 3.100  0.7275  159.1   1.502   50.5  0.1587   70.1  0.2623 -107.8
 3.200  0.7286  158.1   1.463   49.4  0.1652   70.4  0.2681 -108.9
 3.300  0.7299  157.1   1.425   48.2  0.1716   70.6  0.2739 -110.0
 3.400  0.7315  156.2   1.387   47.0  0.1781   70.9  0.2799 -111.1
 3.500  0.7332  155.2   1.350   45.7  0.1845   71.1  0.2859 -112.1
 3.600  0.7331  154.2   1.323   44.7  0.1911   71.1  0.2911 -113.3
 3.700  0.7332  153.2   1.296   43.7  0.1977   71.1  0.2964 -114.4
 3.800  0.7335  152.2   1.270   42.7  0.2043   71.0  0.3018 -115.5
 3.900  0.7341  151.2   1.244   41.5  0.2109   71.0  0.3073 -116.5
 4.000  0.7349  150.2   1.219   40.4  0.2175   71.0  0.3129 -117.5
 4.100  0.7360  149.2   1.196   39.4  0.2245   70.7  0.3181 -119.0
 4.200  0.7374  148.1   1.174   38.4  0.2316   70.4  0.3235 -120.5
 4.300  0.7390  147.1   1.152   37.3  0.2386   70.2  0.3292 -121.9
 4.400  0.7409  146.0   1.131   36.2  0.2457   69.9  0.3350 -123.3
 4.500  0.7430  145.0   1.110   35.1  0.2527   69.7  0.3410 -124.6
 4.600  0.7433  143.8   1.087   34.3  0.2599   69.2  0.3437 -126.4
 4.700  0.7439  142.7   1.065   33.4  0.2671   68.7  0.3467 -128.1
 4.800  0.7448  141.5   1.043   32.5  0.2744   68.3  0.3501 -129.9
 4.900  0.7460  140.4   1.021   31.6  0.2816   67.9  0.3537 -131.5
 5.000  0.7475  139.2   0.999   30.6  0.2889   67.5  0.3577 -133.2
 5.100  0.7474  138.0   0.984   29.9  0.2959   66.9  0.3607 -134.9
 5.200  0.7476  136.9   0.968   29.2  0.3029   66.4  0.3640 -136.5
 5.300  0.7481  135.7   0.953   28.4  0.3099   65.9  0.3676 -138.2
 5.400  0.7490  134.6   0.939   27.6  0.3170   65.4  0.3714 -139.7
 5.500  0.7501  133.4   0.924   26.8  0.3241   64.9  0.3756 -141.3
 5.600  0.7534  132.4   0.917   26.2  0.3305   64.2  0.3803 -143.1
 5.700  0.7568  131.5   0.909   25.5  0.3370   63.5  0.3854 -144.9
 5.800  0.7605  130.6   0.902   24.9  0.3435   62.9  0.3909 -146.6
 5.900  0.7644  129.6   0.895   24.2  0.3500   62.3  0.3967 -148.3
 6.000  0.7685  128.7   0.888   23.5  0.3566   61.7  0.4028 -149.9
!
!  f       NFmin   Gammaopt  rn/50
! GHz       dB    MAG  ANG    -
 0.450      0.87  0.25  139   0.07
 0.900      1.00  0.38  152   0.07
 1.900      1.70  0.59 -176   0.06
 2.400      2.05  0.63 -165   0.08
!
! (c) 2017  Infineon Technologies AG, Munich