! Infineon Technologies  Discrete & RF Semiconductors
! BFR193F
! VCE =  7.0 V,  IC =  50 mA
! Common Emitter S-Parameters:                            Jan 2017
# GHz  S  MA  R  50
!  f         S11            S21            S12            S22
! GHz     MAG   ANG      MAG   ANG      MAG   ANG      MAG   ANG
 0.010  0.2762  -28.5  72.963  171.3  0.0028   82.4  0.9478   -9.0
 0.020  0.3104  -54.3  70.337  162.8  0.0053   77.5  0.9259  -17.9
 0.030  0.3330  -73.2  65.728  156.9  0.0071   70.8  0.8620  -24.5
 0.040  0.3855  -88.3  61.925  150.1  0.0090   66.9  0.8114  -32.1
 0.050  0.4579  -99.2  59.085  142.6  0.0109   64.3  0.7767  -40.5
 0.060  0.4669 -107.0  55.053  139.6  0.0119   61.2  0.7223  -43.9
 0.070  0.4840 -114.3  51.190  136.2  0.0129   58.6  0.6709  -47.9
 0.080  0.5085 -121.1  47.537  132.3  0.0140   56.4  0.6233  -52.5
 0.090  0.5395 -127.2  44.147  127.7  0.0150   54.5  0.5804  -57.9
 0.100  0.5757 -132.5  41.085  122.4  0.0161   52.8  0.5433  -64.0
 0.110  0.5820 -135.7  38.801  120.8  0.0166   52.6  0.5139  -66.1
 0.120  0.5901 -138.7  36.551  119.0  0.0171   52.4  0.4853  -68.4
 0.130  0.5999 -141.7  34.341  117.0  0.0176   52.2  0.4577  -71.1
 0.140  0.6112 -144.6  32.180  114.7  0.0181   52.1  0.4311  -74.1
 0.150  0.6240 -147.4  30.077  112.1  0.0186   51.9  0.4058  -77.4
 0.200  0.6455 -155.8  23.412  105.7  0.0210   53.5  0.3262  -86.4
 0.250  0.6555 -161.5  19.046  101.6  0.0234   54.5  0.2701  -93.5
 0.300  0.6635 -165.3  16.073   98.5  0.0253   57.8  0.2366  -99.3
 0.350  0.6662 -168.0  14.119   96.6  0.0279   60.3  0.2135 -103.5
 0.400  0.6704 -170.7  12.186   94.0  0.0306   62.3  0.1917 -108.6
 0.450  0.6718 -172.4  10.999   92.6  0.0331   63.6  0.1793 -111.9
 0.500  0.6738 -174.0   9.819   90.9  0.0357   64.8  0.1675 -115.6
 0.600  0.6776 -176.7   8.225   88.3  0.0419   66.7  0.1537 -122.0
 0.700  0.6810 -179.3   7.070   86.0  0.0473   68.2  0.1467 -126.7
 0.800  0.6830  179.1   6.191   84.1  0.0531   69.7  0.1416 -131.6
 0.900  0.6849  177.2   5.525   82.2  0.0588   70.9  0.1387 -135.0
 1.000  0.6854  175.7   4.982   80.5  0.0644   71.9  0.1386 -137.4
 1.100  0.6892  174.2   4.538   78.7  0.0697   72.1  0.1407 -140.0
 1.200  0.6924  173.0   4.168   77.1  0.0760   72.6  0.1415 -142.5
 1.300  0.6954  171.7   3.856   75.6  0.0815   72.8  0.1426 -143.7
 1.400  0.6948  170.6   3.593   74.1  0.0874   73.2  0.1456 -144.9
 1.500  0.6972  169.4   3.357   72.6  0.0933   73.4  0.1490 -146.6
 1.600  0.6997  168.2   3.151   71.1  0.0992   73.2  0.1513 -147.9
 1.700  0.6979  167.1   2.970   69.7  0.1046   73.3  0.1548 -148.4
 1.800  0.7007  166.4   2.815   68.3  0.1108   73.6  0.1588 -148.9
 1.900  0.7008  165.5   2.671   67.1  0.1164   73.4  0.1622 -149.2
 2.000  0.7038  164.2   2.549   65.8  0.1218   73.6  0.1661 -149.8
 2.100  0.7030  163.4   2.436   64.6  0.1277   73.3  0.1693 -149.9
 2.200  0.7024  162.6   2.325   63.3  0.1337   73.1  0.1726 -149.9
 2.300  0.7036  161.7   2.237   62.2  0.1396   73.0  0.1763 -150.1
 2.400  0.7050  160.8   2.149   61.0  0.1455   73.0  0.1800 -150.3
 2.500  0.7041  160.1   2.074   59.9  0.1515   72.8  0.1835 -150.0
 2.600  0.7034  159.3   2.000   58.7  0.1575   72.6  0.1870 -149.7
 2.700  0.7048  158.4   1.937   57.5  0.1636   72.4  0.1906 -149.8
 2.800  0.7063  157.5   1.874   56.3  0.1698   72.2  0.1943 -149.9
 2.900  0.7067  156.7   1.823   55.3  0.1756   72.0  0.1979 -149.4
 3.000  0.7072  155.9   1.773   54.2  0.1815   71.9  0.2015 -148.9
 3.100  0.7072  155.0   1.729   53.2  0.1882   71.6  0.2050 -148.9
 3.200  0.7073  154.2   1.686   52.2  0.1950   71.2  0.2086 -148.9
 3.300  0.7076  153.3   1.643   51.1  0.2018   70.9  0.2121 -149.0
 3.400  0.7080  152.5   1.601   49.9  0.2085   70.7  0.2157 -149.0
 3.500  0.7086  151.6   1.559   48.7  0.2153   70.4  0.2192 -149.0
 3.600  0.7078  150.7   1.529   47.8  0.2218   69.9  0.2223 -149.2
 3.700  0.7071  149.9   1.499   46.8  0.2282   69.4  0.2253 -149.4
 3.800  0.7066  149.0   1.470   45.8  0.2347   69.0  0.2284 -149.6
 3.900  0.7063  148.2   1.441   44.7  0.2412   68.6  0.2314 -149.8
 4.000  0.7061  147.3   1.413   43.6  0.2477   68.2  0.2345 -150.0
 4.100  0.7071  146.4   1.388   42.6  0.2540   67.6  0.2384 -150.7
 4.200  0.7083  145.5   1.364   41.6  0.2603   67.0  0.2423 -151.3
 4.300  0.7097  144.6   1.341   40.5  0.2667   66.5  0.2463 -151.9
 4.400  0.7112  143.7   1.318   39.4  0.2731   66.0  0.2503 -152.5
 4.500  0.7129  142.8   1.295   38.2  0.2795   65.5  0.2543 -153.1
 4.600  0.7133  141.8   1.269   37.3  0.2855   64.9  0.2570 -154.4
 4.700  0.7140  140.7   1.244   36.4  0.2915   64.4  0.2599 -155.6
 4.800  0.7149  139.7   1.219   35.5  0.2975   63.8  0.2628 -156.8
 4.900  0.7160  138.6   1.194   34.5  0.3035   63.3  0.2659 -158.0
 5.000  0.7174  137.6   1.170   33.5  0.3096   62.8  0.2691 -159.1
 5.100  0.7172  136.6   1.153   32.8  0.3154   62.2  0.2723 -160.2
 5.200  0.7172  135.5   1.137   32.0  0.3212   61.6  0.2756 -161.2
 5.300  0.7175  134.5   1.121   31.2  0.3271   61.0  0.2790 -162.2
 5.400  0.7180  133.4   1.105   30.4  0.3330   60.4  0.2824 -163.2
 5.500  0.7187  132.4   1.089   29.6  0.3389   59.9  0.2860 -164.2
 5.600  0.7222  131.5   1.081   28.9  0.3441   59.3  0.2913 -165.4
 5.700  0.7258  130.7   1.074   28.1  0.3493   58.6  0.2968 -166.7
 5.800  0.7297  129.8   1.066   27.4  0.3546   58.0  0.3024 -167.8
 5.900  0.7337  128.9   1.059   26.6  0.3599   57.5  0.3081 -168.9
 6.000  0.7378  128.1   1.052   25.8  0.3653   56.9  0.3139 -170.0
!
!  f       NFmin   Gammaopt  rn/50
! GHz       dB    MAG  ANG    -
 0.450      1.48  0.47 -179   0.07
 0.900      1.56  0.48 -178   0.08
 1.900      2.14  0.60 -163   0.09
 2.400      2.45  0.62 -155   0.15
!
! (c) 2017  Infineon Technologies AG, Munich