! Infineon Technologies  Discrete & RF Semiconductors
! BFR193F
! VCE =  2.0 V,  IC =  45 mA
! Common Emitter S-Parameters:                            Jan 2017
# GHz  S  MA  R  50
!  f         S11            S21            S12            S22
! GHz     MAG   ANG      MAG   ANG      MAG   ANG      MAG   ANG
 0.010  0.1820  -53.4  70.617  170.2  0.0029   82.9  0.9337  -11.7
 0.020  0.2695  -82.4  67.526  160.3  0.0058   75.9  0.9026  -23.0
 0.030  0.3257 -100.2  62.055  154.0  0.0077   67.5  0.8243  -30.9
 0.040  0.4033 -112.0  57.468  146.6  0.0096   62.5  0.7646  -40.2
 0.050  0.4923 -119.8  53.993  138.1  0.0116   59.2  0.7280  -50.7
 0.060  0.5106 -126.0  49.932  135.3  0.0126   57.2  0.6719  -54.8
 0.070  0.5344 -131.7  46.011  132.0  0.0136   55.4  0.6197  -59.5
 0.080  0.5629 -136.8  42.267  128.2  0.0146   53.9  0.5726  -65.1
 0.090  0.5956 -141.5  38.753  123.6  0.0157   52.6  0.5318  -71.6
 0.100  0.6318 -145.6  35.536  118.1  0.0167   51.5  0.4990  -79.1
 0.110  0.6396 -148.0  33.476  116.7  0.0172   51.1  0.4728  -81.8
 0.120  0.6486 -150.3  31.439  115.1  0.0177   50.7  0.4478  -84.8
 0.130  0.6585 -152.6  29.431  113.2  0.0183   50.4  0.4242  -88.2
 0.140  0.6695 -154.8  27.457  111.1  0.0188   50.0  0.4022  -91.9
 0.150  0.6814 -156.9  25.526  108.7  0.0193   49.7  0.3821  -96.1
 0.200  0.6997 -163.0  19.662  102.9  0.0217   52.5  0.3206 -107.6
 0.250  0.7104 -167.5  15.911   99.2  0.0240   54.5  0.2811 -117.2
 0.300  0.7182 -170.4  13.388   96.4  0.0270   59.2  0.2592 -124.3
 0.350  0.7206 -172.5  11.748   94.5  0.0296   60.6  0.2445 -129.4
 0.400  0.7240 -174.5  10.124   92.1  0.0323   61.7  0.2320 -135.0
 0.450  0.7248 -175.9   9.134   90.9  0.0353   63.5  0.2252 -138.5
 0.500  0.7260 -177.3   8.149   89.3  0.0383   65.1  0.2194 -142.3
 0.600  0.7309 -179.5   6.821   86.7  0.0445   67.0  0.2139 -148.1
 0.700  0.7334  178.3   5.861   84.4  0.0509   68.9  0.2119 -151.9
 0.800  0.7320  176.9   5.130   82.6  0.0569   69.7  0.2119 -155.5
 0.900  0.7369  175.1   4.579   80.7  0.0630   71.2  0.2123 -157.9
 1.000  0.7374  173.8   4.130   78.9  0.0693   71.4  0.2137 -159.3
 1.100  0.7402  172.4   3.761   77.1  0.0755   71.8  0.2172 -161.0
 1.200  0.7420  171.1   3.457   75.5  0.0815   72.3  0.2196 -162.7
 1.300  0.7439  169.9   3.200   74.0  0.0884   72.5  0.2210 -163.5
 1.400  0.7435  168.9   2.984   72.4  0.0944   72.5  0.2240 -164.2
 1.500  0.7453  167.9   2.789   71.0  0.1001   72.5  0.2283 -165.2
 1.600  0.7462  166.6   2.618   69.4  0.1070   72.8  0.2311 -166.0
 1.700  0.7453  165.5   2.469   68.0  0.1131   72.6  0.2343 -166.4
 1.800  0.7482  164.8   2.341   66.5  0.1195   72.6  0.2374 -166.7
 1.900  0.7470  163.9   2.223   65.3  0.1252   72.5  0.2405 -166.8
 2.000  0.7515  162.7   2.122   64.0  0.1316   72.4  0.2445 -167.2
 2.100  0.7496  161.9   2.031   62.8  0.1378   72.2  0.2468 -167.3
 2.200  0.7478  161.1   1.941   61.5  0.1440   72.0  0.2491 -167.3
 2.300  0.7493  160.2   1.869   60.4  0.1502   71.8  0.2524 -167.4
 2.400  0.7510  159.3   1.797   59.2  0.1564   71.6  0.2557 -167.4
 2.500  0.7501  158.6   1.736   58.0  0.1628   71.3  0.2579 -167.2
 2.600  0.7493  157.8   1.676   56.8  0.1693   71.1  0.2602 -167.1
 2.700  0.7499  156.8   1.625   55.7  0.1759   70.9  0.2635 -167.2
 2.800  0.7507  155.9   1.574   54.5  0.1825   70.7  0.2668 -167.2
 2.900  0.7503  155.1   1.533   53.4  0.1887   70.4  0.2692 -166.8
 3.000  0.7501  154.2   1.493   52.2  0.1950   70.2  0.2716 -166.5
 3.100  0.7500  153.3   1.458   51.2  0.2021   69.8  0.2744 -166.6
 3.200  0.7501  152.5   1.423   50.2  0.2093   69.4  0.2773 -166.6
 3.300  0.7504  151.6   1.389   49.1  0.2164   69.0  0.2801 -166.7
 3.400  0.7508  150.8   1.355   48.0  0.2235   68.6  0.2830 -166.7
 3.500  0.7514  149.9   1.322   46.8  0.2307   68.3  0.2858 -166.8
 3.600  0.7504  149.0   1.298   45.9  0.2376   67.7  0.2883 -167.1
 3.700  0.7495  148.1   1.274   44.9  0.2444   67.2  0.2908 -167.3
 3.800  0.7488  147.1   1.251   43.9  0.2513   66.7  0.2933 -167.6
 3.900  0.7484  146.2   1.228   42.8  0.2583   66.2  0.2958 -167.8
 4.000  0.7481  145.3   1.205   41.7  0.2652   65.7  0.2983 -168.1
 4.100  0.7486  144.4   1.185   40.7  0.2716   65.0  0.3017 -168.7
 4.200  0.7493  143.5   1.165   39.7  0.2781   64.3  0.3051 -169.3
 4.300  0.7501  142.6   1.146   38.7  0.2847   63.7  0.3085 -169.8
 4.400  0.7512  141.7   1.127   37.6  0.2912   63.1  0.3120 -170.4
 4.500  0.7524  140.8   1.109   36.5  0.2978   62.5  0.3155 -170.9
 4.600  0.7522  139.7   1.088   35.7  0.3037   61.9  0.3182 -171.9
 4.700  0.7523  138.7   1.067   34.8  0.3096   61.2  0.3211 -172.9
 4.800  0.7526  137.6   1.046   33.9  0.3156   60.6  0.3240 -173.9
 4.900  0.7532  136.6   1.026   33.0  0.3216   60.1  0.3271 -174.9
 5.000  0.7540  135.5   1.006   32.0  0.3276   59.5  0.3302 -175.8
 5.100  0.7535  134.4   0.992   31.3  0.3332   58.9  0.3335 -176.7
 5.200  0.7533  133.4   0.979   30.5  0.3389   58.3  0.3368 -177.5
 5.300  0.7533  132.3   0.966   29.8  0.3447   57.7  0.3402 -178.4
 5.400  0.7536  131.3   0.953   29.0  0.3504   57.1  0.3437 -179.2
 5.500  0.7542  130.2   0.940   28.2  0.3562   56.6  0.3472  180.0
 5.600  0.7571  129.3   0.935   27.5  0.3613   55.9  0.3528  178.9
 5.700  0.7601  128.5   0.929   26.9  0.3665   55.2  0.3586  177.8
 5.800  0.7633  127.7   0.924   26.2  0.3717   54.6  0.3644  176.8
 5.900  0.7667  126.8   0.919   25.5  0.3769   53.9  0.3704  175.8
 6.000  0.7702  126.0   0.914   24.8  0.3822   53.3  0.3765  174.8
!
!  f       NFmin   Gammaopt  rn/50
! GHz       dB    MAG  ANG    -
 0.450      1.41  0.45  180   0.07
 0.900      1.49  0.46 -179   0.07
 1.900      2.06  0.59 -164   0.09
 2.400      2.37  0.61 -156   0.14
!
! (c) 2017  Infineon Technologies AG, Munich