! Infineon Technologies  Discrete & RF Semiconductors
! BFR193F
! VCE =  1.0 V,  IC =  45 mA
! Common Emitter S-Parameters:                            Jan 2017
# GHz  S  MA  R  50
!  f         S11            S21            S12            S22
! GHz     MAG   ANG      MAG   ANG      MAG   ANG      MAG   ANG
 0.010  0.2032  -76.6  65.510  167.0  0.0043   81.6  0.8541  -17.0
 0.020  0.3459 -101.9  60.918  154.6  0.0075   69.8  0.8039  -32.6
 0.030  0.4157 -117.1  54.212  148.2  0.0097   60.9  0.7103  -42.2
 0.040  0.5057 -127.4  48.373  140.1  0.0121   55.3  0.6423  -54.3
 0.050  0.6070 -134.4  43.749  130.0  0.0145   51.6  0.6086  -68.5
 0.060  0.6238 -139.2  40.080  127.6  0.0152   49.9  0.5594  -73.3
 0.070  0.6446 -143.6  36.494  124.8  0.0160   48.3  0.5148  -78.9
 0.080  0.6691 -147.8  33.019  121.3  0.0168   46.9  0.4761  -85.5
 0.090  0.6969 -151.7  29.694  117.0  0.0175   45.6  0.4448  -93.2
 0.100  0.7276 -155.2  26.574  111.7  0.0183   44.4  0.4225 -101.8
 0.110  0.7335 -157.0  24.942  110.5  0.0188   44.9  0.4053 -105.0
 0.120  0.7401 -158.7  23.322  109.2  0.0194   45.4  0.3895 -108.4
 0.130  0.7474 -160.5  21.717  107.6  0.0199   45.8  0.3752 -112.1
 0.140  0.7554 -162.1  20.130  105.8  0.0205   46.2  0.3626 -116.1
 0.150  0.7640 -163.8  18.567  103.7  0.0210   46.6  0.3519 -120.4
 0.200  0.7763 -168.7  14.143   98.8  0.0235   50.1  0.3193 -131.6
 0.250  0.7823 -172.0  11.398   95.7  0.0256   53.1  0.3005 -140.5
 0.300  0.7897 -174.2   9.561   93.2  0.0287   55.8  0.2924 -146.1
 0.350  0.7894 -175.9   8.371   91.6  0.0315   58.6  0.2864 -150.1
 0.400  0.7898 -177.6   7.191   89.4  0.0344   60.9  0.2818 -154.2
 0.450  0.7914 -178.8   6.484   88.2  0.0376   62.5  0.2794 -156.7
 0.500  0.7934  180.0   5.780   86.7  0.0409   63.8  0.2776 -159.3
 0.600  0.7952  178.0   4.840   84.2  0.0476   66.1  0.2776 -163.0
 0.700  0.7967  176.2   4.156   81.9  0.0537   68.0  0.2784 -165.3
 0.800  0.7969  174.9   3.640   80.1  0.0604   68.8  0.2809 -167.6
 0.900  0.8004  173.2   3.251   78.1  0.0670   70.0  0.2830 -169.1
 1.000  0.8001  172.1   2.935   76.3  0.0739   70.5  0.2844 -170.0
 1.100  0.8011  170.8   2.674   74.4  0.0805   71.2  0.2892 -170.9
 1.200  0.8028  169.5   2.460   72.7  0.0872   71.3  0.2921 -172.1
 1.300  0.8036  168.2   2.279   71.0  0.0932   71.5  0.2942 -172.6
 1.400  0.8038  167.2   2.129   69.4  0.1004   71.7  0.2973 -173.0
 1.500  0.8062  166.2   1.992   67.9  0.1069   71.7  0.3018 -173.6
 1.600  0.8067  165.1   1.874   66.3  0.1133   71.5  0.3042 -174.2
 1.700  0.8034  163.9   1.770   64.8  0.1200   71.7  0.3074 -174.4
 1.800  0.8066  163.1   1.679   63.3  0.1263   71.4  0.3107 -174.6
 1.900  0.8051  162.2   1.599   62.0  0.1329   71.2  0.3138 -174.7
 2.000  0.8100  161.1   1.528   60.6  0.1393   71.4  0.3179 -175.0
 2.100  0.8070  160.3   1.465   59.4  0.1459   71.1  0.3201 -175.0
 2.200  0.8042  159.4   1.402   58.1  0.1525   70.9  0.3223 -175.0
 2.300  0.8059  158.5   1.353   56.9  0.1591   70.6  0.3255 -175.1
 2.400  0.8078  157.6   1.305   55.7  0.1658   70.4  0.3288 -175.2
 2.500  0.8063  156.8   1.263   54.5  0.1727   70.1  0.3311 -175.1
 2.600  0.8049  156.0   1.221   53.3  0.1796   69.9  0.3335 -175.0
 2.700  0.8050  155.1   1.186   52.2  0.1866   69.6  0.3368 -175.1
 2.800  0.8053  154.2   1.151   51.0  0.1937   69.3  0.3401 -175.2
 2.900  0.8060  153.3   1.124   49.9  0.2002   69.1  0.3424 -175.0
 3.000  0.8069  152.4   1.098   48.8  0.2068   68.9  0.3447 -174.9
 3.100  0.8060  151.5   1.074   47.8  0.2144   68.4  0.3477 -175.1
 3.200  0.8053  150.6   1.051   46.9  0.2220   67.9  0.3507 -175.2
 3.300  0.8049  149.7   1.028   45.8  0.2297   67.5  0.3536 -175.4
 3.400  0.8046  148.8   1.005   44.7  0.2373   67.1  0.3566 -175.5
 3.500  0.8045  147.9   0.983   43.6  0.2450   66.7  0.3596 -175.7
 3.600  0.8031  146.9   0.967   42.7  0.2522   66.0  0.3622 -176.1
 3.700  0.8018  146.0   0.952   41.8  0.2595   65.4  0.3648 -176.5
 3.800  0.8008  145.0   0.937   40.9  0.2668   64.8  0.3674 -176.9
 3.900  0.8000  144.1   0.922   39.9  0.2741   64.2  0.3700 -177.3
 4.000  0.7995  143.1   0.907   38.9  0.2814   63.7  0.3727 -177.7
 4.100  0.7994  142.1   0.893   38.0  0.2880   62.9  0.3760 -178.4
 4.200  0.7996  141.1   0.880   37.1  0.2946   62.2  0.3794 -179.0
 4.300  0.8000  140.1   0.867   36.1  0.3013   61.4  0.3828 -179.7
 4.400  0.8006  139.1   0.854   35.1  0.3080   60.8  0.3862  179.7
 4.500  0.8015  138.1   0.841   34.1  0.3148   60.1  0.3897  179.1
 4.600  0.8002  137.0   0.827   33.4  0.3207   59.4  0.3922  178.1
 4.700  0.7992  136.0   0.812   32.6  0.3267   58.7  0.3949  177.1
 4.800  0.7985  134.9   0.798   31.8  0.3327   58.0  0.3976  176.1
 4.900  0.7980  133.9   0.784   31.0  0.3388   57.3  0.4005  175.2
 5.000  0.7978  132.8   0.770   30.2  0.3449   56.7  0.4035  174.2
 5.100  0.7964  131.7   0.761   29.6  0.3504   56.0  0.4065  173.3
 5.200  0.7952  130.6   0.753   29.0  0.3560   55.4  0.4096  172.4
 5.300  0.7943  129.5   0.744   28.4  0.3616   54.8  0.4129  171.5
 5.400  0.7938  128.4   0.735   27.7  0.3672   54.2  0.4162  170.7
 5.500  0.7935  127.3   0.727   27.1  0.3729   53.6  0.4196  169.8
 5.600  0.7954  126.5   0.725   26.6  0.3779   52.9  0.4252  168.8
 5.700  0.7975  125.6   0.722   26.1  0.3829   52.2  0.4310  167.8
 5.800  0.7998  124.8   0.720   25.6  0.3879   51.6  0.4369  166.8
 5.900  0.8022  123.9   0.718   25.1  0.3930   50.9  0.4429  165.8
 6.000  0.8048  123.1   0.716   24.6  0.3982   50.3  0.4490  164.9
!
!  f       NFmin   Gammaopt  rn/50
! GHz       dB    MAG  ANG    -
 0.450      1.41  0.45  180   0.07
 0.900      1.49  0.46 -179   0.07
 1.900      2.06  0.59 -164   0.09
 2.400      2.37  0.61 -156   0.14
!
! (c) 2017  Infineon Technologies AG, Munich